!Murata Part Number: LQG15HH1N1C02
!These Parameters are Measured in Series Mode Connection
!       o--[Z]--o
!Port1              Port2
!       o-------o
!
!Freq. Start=50[MHz] Stop=20[GHz], 401[Steps]
# Hz S RI R 50
!Freq.(Hz) S11(Real) S11(Imag) S21(Real) S21(Imag) S12(Real) S12(Imag) S22(Real) S22(Imag)
5.0E7 4.461337201902513E-4 0.0044325241116409285 0.9995538662798097 -0.0044325241116409285 0.9995538662798097 -0.0044325241116409285 4.461337201902513E-4 0.0044325241116409285
5.0754570186123446E7 4.4967518959652356E-4 0.004496731062427556 0.9995503248104035 -0.004496731062427556 0.9995503248104035 -0.004496731062427556 4.4967518959652356E-4 0.004496731062427556
5.152052789556263E7 4.5326224755177575E-4 0.004561883083294704 0.9995467377524483 -0.004561883083294704 0.9995467377524483 -0.004561883083294704 4.5326224755177575E-4 0.004561883083294704
5.229804498202928E7 4.568959517912017E-4 0.00462799401889426 0.9995431040482088 -0.004627994018894259 0.9995431040482088 -0.004627994018894259 4.568959517912017E-4 0.00462799401889426
5.308729589274893E7 4.6057736851224014E-4 0.0046950778981101745 0.9995394226314878 -0.004695077898110175 0.9995394226314878 -0.004695077898110175 4.6057736851224014E-4 0.0046950778981101745
5.388845770760058E7 4.6430757122878027E-4 0.004763148937546011 0.9995356924287713 -0.004763148937546011 0.9995356924287713 -0.004763148937546011 4.6430757122878027E-4 0.004763148937546011
5.470171017884717E7 4.680876396480869E-4 0.004832221545157739 0.999531912360352 -0.0048322215451577395 0.999531912360352 -0.0048322215451577395 4.680876396480869E-4 0.004832221545157739
5.5527235771465644E7 4.7191865857652046E-4 0.004902310324032881 0.9995280813414233 -0.004902310324032881 0.9995280813414233 -0.004902310324032881 4.7191865857652046E-4 0.004902310324032881
5.6365219704085544E7 4.758017168602645E-4 0.004973430076316919 0.9995241982831398 -0.004973430076316918 0.9995241982831398 -0.004973430076316918 4.758017168602645E-4 0.004973430076316919
5.721584999054556E7 4.7973790636735795E-4 0.0050455958072874165 0.9995202620936326 -0.0050455958072874165 0.9995202620936326 -0.0050455958072874165 4.7973790636735795E-4 0.0050455958072874165
5.807931748207712E7 4.8372832101746164E-4 0.0051188227295762305 0.9995162716789825 -0.005118822729576231 0.9995162716789825 -0.005118822729576231 4.8372832101746164E-4 0.0051188227295762305
5.8955815910124585E7 4.877740558658527E-4 0.005193126267539651 0.9995122259441341 -0.005193126267539651 0.9995122259441341 -0.005193126267539651 4.877740558658527E-4 0.005193126267539651
5.984554192981184E7 4.918762062482213E-4 0.005268522061776086 0.9995081237937518 -0.005268522061776086 0.9995081237937518 -0.005268522061776086 4.918762062482213E-4 0.005268522061776086
6.074869516406457E7 4.960358669929051E-4 0.005345025973790544 0.9995039641330069 -0.005345025973790544 0.9995039641330069 -0.005345025973790544 4.960358669929051E-4 0.005345025973790544
6.166547824839868E7 5.002541317072212E-4 0.005422654090804764 0.9994997458682928 -0.005422654090804764 0.9994997458682928 -0.005422654090804764 5.002541317072212E-4 0.005422654090804764
6.2596096876384385E7 5.045320921445857E-4 0.0055014227307115 0.9994954679078555 -0.0055014227307115 0.9994954679078555 -0.0055014227307115 5.045320921445857E-4 0.0055014227307115
6.354075984579668E7 5.088708376591029E-4 0.005581348447171092 0.9994911291623408 -0.005581348447171091 0.9994911291623408 -0.005581348447171091 5.088708376591029E-4 0.005581348447171092
6.449967910546205E7 5.132714547542565E-4 0.005662448034847957 0.9994867285452458 -0.005662448034847957 0.9994867285452458 -0.005662448034847957 5.132714547542565E-4 0.005662448034847957
6.547306980281226E7 5.177350267323077E-4 0.005744738534784373 0.9994822649732678 -0.005744738534784373 0.9994822649732678 -0.005744738534784373 5.177350267323077E-4 0.005744738534784373
6.646115033215589E7 5.222626334508943E-4 0.005828237239908391 0.9994777373665491 -0.005828237239908391 0.9994777373665491 -0.005828237239908391 5.222626334508943E-4 0.005828237239908391
6.746414238367817E7 5.268553511932159E-4 0.005912961700672318 0.9994731446488069 -0.005912961700672319 0.9994731446488069 -0.005912961700672319 5.268553511932159E-4 0.005912961700672318
6.848227099318038E7 5.315142526580432E-4 0.005998929730817832 0.9994684857473419 -0.005998929730817832 0.9994684857473419 -0.005998929730817832 5.315142526580432E-4 0.005998929730817832
6.951576459256999E7 5.362404070756006E-4 0.0060861594132632915 0.9994637595929242 -0.006086159413263291 0.9994637595929242 -0.006086159413263291 5.362404070756006E-4 0.0060861594132632915
7.056485506111258E7 5.410348804551568E-4 0.0061746691061084465 0.9994589651195449 -0.0061746691061084465 0.9994589651195449 -0.0061746691061084465 5.410348804551568E-4 0.0061746691061084465
7.162977777745734E7 5.45898735969899E-4 0.006264477448751261 0.9994541012640299 -0.006264477448751261 0.9994541012640299 -0.006264477448751261 5.45898735969899E-4 0.006264477448751261
7.271077167244768E7 5.508330344843757E-4 0.006355603368111239 0.9994491669655157 -0.006355603368111239 0.9994491669655157 -0.006355603368111239 5.508330344843757E-4 0.006355603368111239
7.380807928272885E7 5.558388352294702E-4 0.006448066084953162 0.9994441611647705 -0.006448066084953161 0.9994441611647705 -0.006448066084953161 5.558388352294702E-4 0.006448066084953162
7.492194680516452E7 5.609171966294843E-4 0.006541885120304783 0.9994390828033705 -0.006541885120304785 0.9994390828033705 -0.006541885120304785 5.609171966294843E-4 0.006541885120304783
7.60526241520746E7 5.660691772855253E-4 0.006637080301961754 0.9994339308227144 -0.006637080301961756 0.9994339308227144 -0.006637080301961756 5.660691772855253E-4 0.006637080301961754
7.720036500730675E7 5.712958371189328E-4 0.0067336717710725046 0.999428704162881 -0.006733671771072506 0.999428704162881 -0.006733671771072506 5.712958371189328E-4 0.0067336717710725046
7.836542688315398E7 5.765982386780177E-4 0.006831679988795757 0.9994234017613218 -0.006831679988795757 0.9994234017613218 -0.006831679988795757 5.765982386780177E-4 0.006831679988795757
7.954807117813127E7 5.819774486108652E-4 0.0069311257430228436 0.9994180225513892 -0.0069311257430228436 0.9994180225513892 -0.0069311257430228436 5.819774486108652E-4 0.0069311257430228436
8.074856323562416E7 5.874345393064106E-4 0.007032030155156838 0.9994125654606936 -0.007032030155156838 0.9994125654606936 -0.007032030155156838 5.874345393064106E-4 0.007032030155156838
8.196717240342227E7 5.92970590705442E-4 0.007134414686940378 0.9994070294092946 -0.00713441468694038 0.9994070294092946 -0.00713441468694038 5.92970590705442E-4 0.007134414686940378
8.320417209415154E7 5.985866922825448E-4 0.00723830114732372 0.9994014133077174 -0.00723830114732372 0.9994014133077174 -0.00723830114732372 5.985866922825448E-4 0.00723830114732372
8.445983984661816E7 6.042839451994291E-4 0.007343711699364593 0.9993957160548005 -0.007343711699364593 0.9993957160548005 -0.007343711699364593 6.042839451994291E-4 0.007343711699364593
8.573445738807854E7 6.100634646293878E-4 0.007450668867151279 0.9993899365353706 -0.007450668867151279 0.9993899365353706 -0.007450668867151279 6.100634646293878E-4 0.007450668867151279
8.702831069744885E7 6.159263822520124E-4 0.007559195542740347 0.999384073617748 -0.007559195542740346 0.999384073617748 -0.007559195542740346 6.159263822520124E-4 0.007559195542740347
8.834169006946853E7 6.218738489165901E-4 0.007669314993100442 0.9993781261510833 -0.007669314993100442 0.9993781261510833 -0.007669314993100442 6.218738489165901E-4 0.007669314993100442
8.96748901798321E7 6.279070374719496E-4 0.007781050867053736 0.9993720929625282 -0.007781050867053736 0.9993720929625282 -0.007781050867053736 6.279070374719496E-4 0.007781050867053736
9.1028210151304E7 6.340271457598238E-4 0.007894427202206686 0.9993659728542401 -0.007894427202206684 0.9993659728542401 -0.007894427202206684 6.340271457598238E-4 0.007894427202206686
9.240195362083109E7 6.402353997681231E-4 0.008009468431861939 0.9993597646002318 -0.008009468431861939 0.9993597646002318 -0.008009468431861939 6.402353997681231E-4 0.008009468431861939
9.379642880766791E7 6.465330569398462E-4 0.008126199391903623 0.9993534669430599 -0.008126199391903621 0.9993534669430599 -0.008126199391903621 6.465330569398462E-4 0.008126199391903623
9.521194858253023E7 6.529214096326867E-4 0.008244645327648355 0.9993470785903673 -0.008244645327648356 0.9993470785903673 -0.008244645327648356 6.529214096326867E-4 0.008244645327648355
9.664883053779216E7 6.594017887237663E-4 0.008364831900654976 0.9993405982112763 -0.008364831900654976 0.9993405982112763 -0.008364831900654976 6.594017887237663E-4 0.008364831900654976
9.810739705874248E7 6.659755673532913E-4 0.008486785195486086 0.9993340244326469 -0.008486785195486086 0.9993340244326469 -0.008486785195486086 6.659755673532913E-4 0.008486785195486086
9.958797539591652E7 6.726441648003688E-4 0.008610531726415304 0.9993273558351995 -0.008610531726415304 0.9993273558351995 -0.008610531726415304 6.726441648003688E-4 0.008610531726415304
1.0109089773851961E8 6.794090504836432E-4 0.00873609844407448 0.9993205909495162 -0.00873609844407448 0.9993205909495162 -0.00873609844407448 6.794090504836432E-4 0.00873609844407448
1.0261650128895843E8 6.862717480789168E-4 0.008863512742035772 0.9993137282519211 -0.008863512742035772 0.9993137282519211 -0.008863512742035772 6.862717480789168E-4 0.008863512742035772
1.0416512833849736E8 6.932338397454438E-4 0.008992802463324104 0.9993067661602546 -0.008992802463324106 0.9993067661602546 -0.008992802463324106 6.932338397454438E-4 0.008992802463324104
1.0573712634405641E8 7.002969704521774E-4 0.009123995906856247 0.9992997030295477 -0.009123995906856247 0.9992997030295477 -0.009123995906856247 7.002969704521774E-4 0.009123995906856247
1.0733284800616828E8 7.074628523948682E-4 0.009257121833803431 0.9992925371476052 -0.009257121833803431 0.9992925371476052 -0.009257121833803431 7.074628523948682E-4 0.009257121833803431
1.0895265134811176E8 7.147332694946285E-4 0.009392209473875217 0.9992852667305053 -0.009392209473875217 0.9992852667305053 -0.009392209473875217 7.147332694946285E-4 0.009392209473875217
1.1059689979623953E8 7.221100819682922E-4 0.009529288531523045 0.9992778899180318 -0.009529288531523045 0.9992778899180318 -0.009529288531523045 7.221100819682922E-4 0.009529288531523045
1.1226596226151802E8 7.295952309607501E-4 0.009668389192062778 0.9992704047690392 -0.009668389192062778 0.9992704047690392 -0.009668389192062778 7.295952309607501E-4 0.009668389192062778
1.1396021322229806E8 7.371907432292808E-4 0.009809542127716337 0.9992628092567709 -0.009809542127716337 0.9992628092567709 -0.009809542127716337 7.371907432292808E-4 0.009809542127716337
1.1568003280833441E8 7.448987358698618E-4 0.009952778503573295 0.99925510126413 -0.009952778503573295 0.99925510126413 -0.009952778503573295 7.448987358698618E-4 0.009952778503573295
1.1742580688607343E8 7.527214210754428E-4 0.010098129983474374 0.9992472785789247 -0.010098129983474374 0.9992472785789247 -0.010098129983474374 7.527214210754428E-4 0.010098129983474374
1.1919792714522783E8 7.606611109162287E-4 0.010245628735819242 0.9992393388890839 -0.010245628735819242 0.9992393388890839 -0.010245628735819242 7.606611109162287E-4 0.010245628735819242
1.2099679118665792E8 7.687202221321678E-4 0.010395307439302245 0.9992312797778677 -0.010395307439302245 0.9992312797778677 -0.010395307439302245 7.687202221321678E-4 0.010395307439302245
1.2282280261157903E8 7.769012809280326E-4 0.010547199288580299 0.999223098719072 -0.010547199288580299 0.999223098719072 -0.010547199288580299 7.769012809280326E-4 0.010547199288580299
1.2467637111211549E8 7.852069277617511E-4 0.010701337999878002 0.9992147930722384 -0.010701337999878002 0.9992147930722384 -0.010701337999878002 7.852069277617511E-4 0.010701337999878002
1.265579125632208E8 7.936399221169549E-4 0.010857757816535876 0.999206360077883 -0.010857757816535878 0.999206360077883 -0.010857757816535878 7.936399221169549E-4 0.010857757816535876
1.284678491159853E8 8.022031472511187E-4 0.011016493514508417 0.9991977968527488 -0.011016493514508416 0.9991977968527488 -0.011016493514508416 8.022031472511187E-4 0.011016493514508417
1.3040660929235186E8 8.10899614911065E-4 0.011177580407819247 0.9991891003850889 -0.011177580407819247 0.9991891003850889 -0.011177580407819247 8.10899614911065E-4 0.011177580407819247
1.3237462808126101E8 8.197324700081236E-4 0.011341054353981514 0.9991802675299918 -0.011341054353981514 0.9991802675299918 -0.011341054353981514 8.197324700081236E-4 0.011341054353981514
1.3437234703624701E8 8.287049952457497E-4 0.011506951759392214 0.9991712950047543 -0.011506951759392214 0.9991712950047543 -0.011506951759392214 8.287049952457497E-4 0.011506951759392214
1.364002143745067E8 8.378206156929761E-4 0.011675309584709777 0.999162179384307 -0.011675309584709777 0.999162179384307 -0.011675309584709777 8.378206156929761E-4 0.011675309584709777
1.3845868507746372E8 8.470829032977115E-4 0.011846165350224898 0.9991529170967022 -0.011846165350224898 0.9991529170967022 -0.011846165350224898 8.470829032977115E-4 0.011846165350224898
1.405482209928499E8 8.564955813344971E-4 0.012019557141234925 0.9991435044186655 -0.012019557141234925 0.9991435044186655 -0.012019557141234925 8.564955813344971E-4 0.012019557141234925
1.426692909383278E8 8.660625287820527E-4 0.012195523613432823 0.9991339374712179 -0.012195523613432823 0.9991339374712179 -0.012195523613432823 8.660625287820527E-4 0.012195523613432823
1.4482237080667645E8 8.757877846266052E-4 0.012374103998321983 0.9991242122153734 -0.012374103998321985 0.9991242122153734 -0.012374103998321985 8.757877846266052E-4 0.012374103998321983
1.4700794367256513E8 8.856755520877278E-4 0.012555338108668676 0.9991143244479121 -0.012555338108668676 0.9991143244479121 -0.012555338108668676 8.856755520877278E-4 0.012555338108668676
1.492264999009378E8 8.957302027641254E-4 0.012739266344004045 0.9991042697972358 -0.012739266344004045 0.9991042697972358 -0.012739266344004045 8.957302027641254E-4 0.012739266344004045
1.5147853725703382E8 9.059562806975712E-4 0.012925929696188157 0.9990940437193023 -0.012925929696188157 0.9990940437193023 -0.012925929696188157 9.059562806975712E-4 0.012925929696188157
1.5376456101806876E8 9.163585063539016E-4 0.01311536975504853 0.9990836414936461 -0.01311536975504853 0.9990836414936461 -0.01311536975504853 9.163585063539016E-4 0.01311536975504853
1.5608508408660066E8 9.26941780520758E-4 0.013307628714105934 0.9990730582194793 -0.013307628714105934 0.9990730582194793 -0.013307628714105934 9.26941780520758E-4 0.013307628714105934
1.5844062710560706E8 9.377111881224787E-4 0.013502749376400357 0.9990622888118775 -0.013502749376400358 0.9990622888118775 -0.013502749376400358 9.377111881224787E-4 0.013502749376400357
1.6083171857529896E8 9.486720019532945E-4 0.013700775160430168 0.9990513279980467 -0.013700775160430168 0.9990513279980467 -0.013700775160430168 9.486720019532945E-4 0.013700775160430168
1.632588949716973E8 9.598296863307101E-4 0.013901750106217492 0.9990401703136693 -0.013901750106217492 0.9990401703136693 -0.013901750106217492 9.598296863307101E-4 0.013901750106217492
1.6572270086699936E8 9.711899006716388E-4 0.014105718881512878 0.9990288100993284 -0.01410571888151288 0.9990288100993284 -0.01410571888151288 9.711899006716388E-4 0.014105718881512878
1.6822368905176118E8 9.827585029946234E-4 0.014312726788152492 0.9990172414970053 -0.014312726788152492 0.9990172414970053 -0.014312726788152492 9.827585029946234E-4 0.014312726788152492
1.7076242065892437E8 9.945415533520814E-4 0.014522819768580669 0.9990054584466478 -0.014522819768580669 0.9990054584466478 -0.014522819768580669 9.945415533520814E-4 0.014522819768580669
1.7333946528971428E8 0.0010065453171972608 0.014736044412551044 0.9989934546828027 -0.014736044412551042 0.9989934546828027 -0.014736044412551042 0.0010065453171972608 0.014736044412551044
1.7595540114143828E8 0.0010187762686911933 0.014952447964019065 0.9989812237313088 -0.014952447964019067 0.9989812237313088 -0.014952447964019067 0.0010187762686911933 0.014952447964019065
1.786108151372127E8 0.0010312410939556 0.01517207832823876 0.9989687589060444 -0.01517207832823876 0.9989687589060444 -0.01517207832823876 0.0010312410939556 0.01517207832823876
1.8130630305764765E8 0.0010439466942783156 0.015394984079076428 0.9989560533057216 -0.015394984079076428 0.9989560533057216 -0.015394984079076428 0.0010439466942783156 0.015394984079076428
1.840424696745189E8 0.0010569001892783978 0.015621214466553934 0.9989430998107216 -0.015621214466553937 0.9989430998107216 -0.015621214466553937 0.0010569001892783978 0.015621214466553934
1.8681992888645732E8 0.0010701089200386951 0.015850819424633893 0.9989298910799614 -0.015850819424633896 0.9989298910799614 -0.015850819424633896 0.0010701089200386951 0.015850819424633893
1.8963930385668582E8 0.0010835804522142036 0.016083849579259204 0.9989164195477859 -0.016083849579259204 0.9989164195477859 -0.016083849579259204 0.0010835804522142036 0.016083849579259204
1.92501227152835E8 0.0010973225791251254 0.016320356256658963 0.9989026774208748 -0.016320356256658963 0.9989026774208748 -0.016320356256658963 0.0010973225791251254 0.016320356256658963
1.9540634088886917E8 0.0011113433248440988 0.016560391491932863 0.9988886566751559 -0.016560391491932863 0.9988886566751559 -0.016560391491932863 0.0011113433248440988 0.016560391491932863
1.983552968691535E8 0.0011256509472875864 0.016804008037925696 0.9988743490527126 -0.016804008037925696 0.9988743490527126 -0.016804008037925696 0.0011256509472875864 0.016804008037925696
2.0134875673469606E8 0.0011402539413220081 0.01705125937440391 0.998859746058678 -0.017051259374403913 0.998859746058678 -0.017051259374403913 0.0011402539413220081 0.01705125937440391
2.0438739211159652E8 0.0011551610418956942 0.01730219971754554 0.9988448389581045 -0.017302199717545545 0.9988448389581045 -0.017302199717545545 0.0011551610418956942 0.01730219971754554
2.074718847617352E8 0.0011703812272082978 0.017556884029754888 0.9988296187727916 -0.017556884029754888 0.9988296187727916 -0.017556884029754888 0.0011703812272082978 0.017556884029754888
2.106029267357361E8 0.0011859237219298574 0.01781536802981322 0.9988140762780701 -0.01781536802981322 0.9988140762780701 -0.01781536802981322 0.0011859237219298574 0.01781536802981322
2.1378122052823865E8 0.001201798000482241 0.018077708203376498 0.9987982019995177 -0.018077708203376498 0.9987982019995177 -0.018077708203376498 0.001201798000482241 0.018077708203376498
2.1700747923551247E8 0.0012180137903962406 0.01834396181383088 0.9987819862096036 -0.01834396181383088 0.9987819862096036 -0.01834396181383088 0.0012180137903962406 0.01834396181383088
2.2028242671545094E8 0.0012345810757582135 0.01861418691351701 0.9987654189242419 -0.01861418691351701 0.9987654189242419 -0.01861418691351701 0.0012345810757582135 0.01861418691351701
2.23606797749979E8 0.0012515101007606782 0.018888442355333254 0.9987484898992393 -0.018888442355333254 0.9987484898992393 -0.018888442355333254 0.0012515101007606782 0.018888442355333254
2.2698133820991236E8 0.0012688113733719264 0.019166787804728667 0.9987311886266281 -0.019166787804728667 0.9987311886266281 -0.019166787804728667 0.0012688113733719264 0.019166787804728667
2.3040680522230446E8 0.001286495669140287 0.01944928375209551 0.9987135043308597 -0.01944928375209551 0.9987135043308597 -0.01944928375209551 0.001286495669140287 0.01944928375209551
2.338839673403185E8 0.001304574035149339 0.019735991525571546 0.9986954259648507 -0.019735991525571542 0.9986954259648507 -0.019735991525571542 0.001304574035149339 0.019735991525571546
2.37413604715664E8 0.0013230577941410152 0.020026973304261925 0.998676942205859 -0.02002697330426192 0.998676942205859 -0.02002697330426192 0.0013230577941410152 0.020026973304261925
