!Murata Part Number: LQG15HH1N3S02
!These Parameters are Measured in Series Mode Connection
!       o--[Z]--o
!Port1              Port2
!       o-------o
!
!Freq. Start=50[MHz] Stop=20[GHz], 401[Steps]
# Hz S RI R 50
!Freq.(Hz) S11(Real) S11(Imag) S21(Real) S21(Imag) S12(Real) S12(Imag) S22(Real) S22(Imag)
5.0E7 5.361612141484643E-4 0.004954490906977016 0.9994638387858517 -0.004954490906977017 0.9994638387858517 -0.004954490906977017 5.361612141484643E-4 0.004954490906977016
5.0754570186123446E7 5.406235852693743E-4 0.005025490644976164 0.9994593764147307 -0.005025490644976164 0.9994593764147307 -0.005025490644976164 5.406235852693743E-4 0.005025490644976164
5.152052789556263E7 5.451112861558078E-4 0.0050975187161213225 0.9994548887138444 -0.005097518716121323 0.9994548887138444 -0.005097518716121323 5.451112861558078E-4 0.0050975187161213225
5.229804498202928E7 5.496241059890687E-4 0.005170591598431427 0.9994503758940111 -0.005170591598431427 0.9994503758940111 -0.005170591598431427 5.496241059890687E-4 0.005170591598431427
5.308729589274893E7 5.541618820778439E-4 0.005244726050323789 0.9994458381179222 -0.005244726050323789 0.9994458381179222 -0.005244726050323789 5.541618820778439E-4 0.005244726050323789
5.388845770760058E7 5.58724502435844E-4 0.00531993911309413 0.9994412754975641 -0.00531993911309413 0.9994412754975641 -0.00531993911309413 5.58724502435844E-4 0.00531993911309413
5.470171017884717E7 5.63311908325187E-4 0.005396248113361962 0.9994366880916749 -0.005396248113361962 0.9994366880916749 -0.005396248113361962 5.63311908325187E-4 0.005396248113361962
5.5527235771465644E7 5.6792409676209E-4 0.0054736706654855555 0.9994320759032378 -0.0054736706654855555 0.9994320759032378 -0.0054736706654855555 5.6792409676209E-4 0.0054736706654855555
5.6365219704085544E7 5.725611229817113E-4 0.005552224673950869 0.9994274388770183 -0.005552224673950869 0.9994274388770183 -0.005552224673950869 5.725611229817113E-4 0.005552224673950869
5.721584999054556E7 5.772231028592491E-4 0.005631928335738976 0.9994227768971407 -0.005631928335738975 0.9994227768971407 -0.005631928335738975 5.772231028592491E-4 0.005631928335738976
5.807931748207712E7 5.819102152847102E-4 0.005712800142676685 0.9994180897847152 -0.005712800142676685 0.9994180897847152 -0.005712800142676685 5.819102152847102E-4 0.005712800142676685
5.8955815910124585E7 5.866227044890646E-4 0.005794858883775306 0.9994133772955108 -0.005794858883775306 0.9994133772955108 -0.005794858883775306 5.866227044890646E-4 0.005794858883775306
5.984554192981184E7 5.913608823197591E-4 0.005878123647562366 0.9994086391176803 -0.005878123647562366 0.9994086391176803 -0.005878123647562366 5.913608823197591E-4 0.005878123647562366
6.074869516406457E7 5.961251304639198E-4 0.005962613824411459 0.9994038748695362 -0.005962613824411459 0.9994038748695362 -0.005962613824411459 5.961251304639198E-4 0.005962613824411459
6.166547824839868E7 6.009159026178299E-4 0.006048349108875308 0.9993990840973822 -0.006048349108875308 0.9993990840973822 -0.006048349108875308 6.009159026178299E-4 0.006048349108875308
6.2596096876384385E7 6.057337266015955E-4 0.006135349502027208 0.9993942662733983 -0.006135349502027208 0.9993942662733983 -0.006135349502027208 6.057337266015955E-4 0.006135349502027208
6.354075984579668E7 6.105792064182098E-4 0.00622363531381614 0.9993894207935817 -0.00622363531381614 0.9993894207935817 -0.00622363531381614 6.105792064182098E-4 0.00622363531381614
6.449967910546205E7 6.154530242565117E-4 0.006313227165440695 0.9993845469757435 -0.006313227165440695 0.9993845469757435 -0.006313227165440695 6.154530242565117E-4 0.006313227165440695
6.547306980281226E7 6.203559424378537E-4 0.0064041459917471575 0.9993796440575621 -0.0064041459917471575 0.9993796440575621 -0.0064041459917471575 6.203559424378537E-4 0.0064041459917471575
6.646115033215589E7 6.252888053065574E-4 0.006496413043656878 0.9993747111946935 -0.006496413043656878 0.9993747111946935 -0.006496413043656878 6.252888053065574E-4 0.006496413043656878
6.746414238367817E7 6.302525410645383E-4 0.00659004989062816 0.9993697474589356 -0.006590049890628161 0.9993697474589356 -0.006590049890628161 6.302525410645383E-4 0.00659004989062816
6.848227099318038E7 6.352481635507536E-4 0.0066850784231578 0.9993647518364491 -0.0066850784231578 0.9993647518364491 -0.0066850784231578 6.352481635507536E-4 0.0066850784231578
6.951576459256999E7 6.402767739663935E-4 0.006781520855327306 0.9993597232260336 -0.006781520855327306 0.9993597232260336 -0.006781520855327306 6.402767739663935E-4 0.006781520855327306
7.056485506111258E7 6.453395625469976E-4 0.006879399727398785 0.9993546604374531 -0.006879399727398785 0.9993546604374531 -0.006879399727398785 6.453395625469976E-4 0.006879399727398785
7.162977777745734E7 6.504378101829368E-4 0.006978737908465413 0.999349562189817 -0.006978737908465413 0.999349562189817 -0.006978737908465413 6.504378101829368E-4 0.006978737908465413
7.271077167244768E7 6.555728899899227E-4 0.007079558599161153 0.9993444271100099 -0.007079558599161153 0.9993444271100099 -0.007079558599161153 6.555728899899227E-4 0.007079558599161153
7.380807928272885E7 6.607462688314614E-4 0.00718188533443448 0.9993392537311684 -0.00718188533443448 0.9993392537311684 -0.00718188533443448 6.607462688314614E-4 0.00718188533443448
7.492194680516452E7 6.659595087953488E-4 0.00728574198639047 0.9993340404912047 -0.00728574198639047 0.9993340404912047 -0.00728574198639047 6.659595087953488E-4 0.00728574198639047
7.60526241520746E7 6.712142686265486E-4 0.007391152767205739 0.9993287857313735 -0.007391152767205739 0.9993287857313735 -0.007391152767205739 6.712142686265486E-4 0.007391152767205739
7.720036500730675E7 6.765123051189389E-4 0.007498142232120293 0.9993234876948809 -0.007498142232120293 0.9993234876948809 -0.007498142232120293 6.765123051189389E-4 0.007498142232120293
7.836542688315398E7 6.818554744686149E-4 0.007606735282510366 0.9993181445255315 -0.007606735282510366 0.9993181445255315 -0.007606735282510366 6.818554744686149E-4 0.007606735282510366
7.954807117813127E7 6.872457335915868E-4 0.0077169571690460775 0.9993127542664086 -0.0077169571690460775 0.9993127542664086 -0.0077169571690460775 6.872457335915868E-4 0.0077169571690460775
8.074856323562416E7 6.926851414088412E-4 0.00782883349493753 0.9993073148585911 -0.007828833494937532 0.9993073148585911 -0.007828833494937532 6.926851414088412E-4 0.00782883349493753
8.196717240342227E7 6.981758601018719E-4 0.007942390219272856 0.9993018241398981 -0.007942390219272856 0.9993018241398981 -0.007942390219272856 6.981758601018719E-4 0.007942390219272856
8.320417209415154E7 7.037201563418888E-4 0.008057653660451412 0.9992962798436581 -0.008057653660451412 0.9992962798436581 -0.008057653660451412 7.037201563418888E-4 0.008057653660451412
8.445983984661816E7 7.09320402496003E-4 0.008174650499715263 0.9992906795975038 -0.008174650499715263 0.9992906795975038 -0.008174650499715263 7.09320402496003E-4 0.008174650499715263
8.573445738807854E7 7.149790778137551E-4 0.008293407784781773 0.9992850209221862 -0.008293407784781773 0.9992850209221862 -0.008293407784781773 7.149790778137551E-4 0.008293407784781773
8.702831069744885E7 7.206987695974242E-4 0.008413952933580039 0.9992793012304027 -0.008413952933580039 0.9992793012304027 -0.008413952933580039 7.206987695974242E-4 0.008413952933580039
8.834169006946853E7 7.264821743595704E-4 0.008536313738093526 0.9992735178256404 -0.008536313738093524 0.9992735178256404 -0.008536313738093524 7.264821743595704E-4 0.008536313738093526
8.96748901798321E7 7.323320989713068E-4 0.008660518368311358 0.9992676679010287 -0.008660518368311358 0.9992676679010287 -0.008660518368311358 7.323320989713068E-4 0.008660518368311358
9.1028210151304E7 7.382514618047815E-4 0.008786595376290212 0.9992617485381952 -0.008786595376290212 0.9992617485381952 -0.008786595376290212 7.382514618047815E-4 0.008786595376290212
9.240195362083109E7 7.442432938733517E-4 0.008914573700328797 0.9992557567061267 -0.008914573700328797 0.9992557567061267 -0.008914573700328797 7.442432938733517E-4 0.008914573700328797
9.379642880766791E7 7.503107399728911E-4 0.009044482669256643 0.999249689260027 -0.009044482669256643 0.999249689260027 -0.009044482669256643 7.503107399728911E-4 0.009044482669256643
9.521194858253023E7 7.564570598276363E-4 0.009176352006838756 0.9992435429401723 -0.009176352006838756 0.9992435429401723 -0.009176352006838756 7.564570598276363E-4 0.009176352006838756
9.664883053779216E7 7.626856292439033E-4 0.009310211836297547 0.9992373143707561 -0.009310211836297547 0.9992373143707561 -0.009310211836297547 7.626856292439033E-4 0.009310211836297547
9.810739705874248E7 7.689999412749588E-4 0.009446092684953373 0.999231000058725 -0.009446092684953373 0.999231000058725 -0.009446092684953373 7.689999412749588E-4 0.009446092684953373
9.958797539591652E7 7.754036074001917E-4 0.009584025488984618 0.9992245963925998 -0.009584025488984618 0.9992245963925998 -0.009584025488984618 7.754036074001917E-4 0.009584025488984618
1.0109089773851961E8 7.819003587217004E-4 0.009724041598308628 0.9992180996412784 -0.009724041598308628 0.9992180996412784 -0.009724041598308628 7.819003587217004E-4 0.009724041598308628
1.0261650128895843E8 7.884940471812154E-4 0.009866172781584054 0.9992115059528186 -0.009866172781584054 0.9992115059528186 -0.009866172781584054 7.884940471812154E-4 0.009866172781584054
1.0416512833849736E8 7.951886468002385E-4 0.01001045123133574 0.9992048113531998 -0.01001045123133574 0.9992048113531998 -0.01001045123133574 7.951886468002385E-4 0.01001045123133574
1.0573712634405641E8 8.019882549460759E-4 0.010156909569202625 0.9991980117450541 -0.010156909569202626 0.9991980117450541 -0.010156909569202626 8.019882549460759E-4 0.010156909569202625
1.0733284800616828E8 8.088970936263465E-4 0.010305580851309538 0.9991911029063737 -0.010305580851309538 0.9991911029063737 -0.010305580851309538 8.088970936263465E-4 0.010305580851309538
1.0895265134811176E8 8.159195108143771E-4 0.010456498573763384 0.9991840804891856 -0.010456498573763384 0.9991840804891856 -0.010456498573763384 8.159195108143771E-4 0.010456498573763384
1.1059689979623953E8 8.230599818077574E-4 0.010609696678274442 0.9991769400181923 -0.010609696678274442 0.9991769400181923 -0.010609696678274442 8.230599818077574E-4 0.010609696678274442
1.1226596226151802E8 8.303231106221522E-4 0.010765209557903345 0.9991696768893777 -0.010765209557903343 0.9991696768893777 -0.010765209557903343 8.303231106221522E-4 0.010765209557903345
1.1396021322229806E8 8.37713631422324E-4 0.010923072062934407 0.9991622863685775 -0.010923072062934407 0.9991622863685775 -0.010923072062934407 8.37713631422324E-4 0.010923072062934407
1.1568003280833441E8 8.452364099921487E-4 0.01108331950687597 0.999154763590008 -0.01108331950687597 0.999154763590008 -0.01108331950687597 8.452364099921487E-4 0.01108331950687597
1.1742580688607343E8 8.528964452452465E-4 0.011245987672588529 0.9991471035547547 -0.011245987672588527 0.9991471035547547 -0.011245987672588527 8.528964452452465E-4 0.011245987672588529
1.1919792714522783E8 8.606988707776892E-4 0.01141111281854149 0.9991393011292222 -0.011411112818541489 0.9991393011292222 -0.011411112818541489 8.606988707776892E-4 0.01141111281854149
1.2099679118665792E8 8.686489564640866E-4 0.011578731685199439 0.999131351043536 -0.011578731685199439 0.999131351043536 -0.011578731685199439 8.686489564640866E-4 0.011578731685199439
1.2282280261157903E8 8.767521100982008E-4 0.011748881501539037 0.9991232478899019 -0.011748881501539037 0.9991232478899019 -0.011748881501539037 8.767521100982008E-4 0.011748881501539037
1.2467637111211549E8 8.85013879079096E-4 0.01192159999169779 0.9991149861209209 -0.01192159999169779 0.9991149861209209 -0.01192159999169779 8.85013879079096E-4 0.01192159999169779
1.265579125632208E8 8.934399521436816E-4 0.012096925381756007 0.9991065600478564 -0.012096925381756007 0.9991065600478564 -0.012096925381756007 8.934399521436816E-4 0.012096925381756007
1.284678491159853E8 9.020361611463736E-4 0.012274896406653558 0.9990979638388535 -0.012274896406653558 0.9990979638388535 -0.012274896406653558 9.020361611463736E-4 0.012274896406653558
1.3040660929235186E8 9.108084828865018E-4 0.012455552317243304 0.9990891915171134 -0.012455552317243304 0.9990891915171134 -0.012455552317243304 9.108084828865018E-4 0.012455552317243304
1.3237462808126101E8 9.19763040983947E-4 0.01263893288748311 0.9990802369590159 -0.01263893288748311 0.9990802369590159 -0.01263893288748311 9.19763040983947E-4 0.01263893288748311
1.3437234703624701E8 9.289061078034286E-4 0.012825078421768903 0.9990710938921966 -0.012825078421768903 0.9990710938921966 -0.012825078421768903 9.289061078034286E-4 0.012825078421768903
1.364002143745067E8 9.38244106427764E-4 0.013014029762411158 0.9990617558935722 -0.013014029762411158 0.9990617558935722 -0.013014029762411158 9.38244106427764E-4 0.013014029762411158
1.3845868507746372E8 9.477836126803728E-4 0.013205828297257952 0.9990522163873194 -0.013205828297257952 0.9990522163873194 -0.013205828297257952 9.477836126803728E-4 0.013205828297257952
1.405482209928499E8 9.575313571972388E-4 0.013400515967467512 0.9990424686428028 -0.013400515967467512 0.9990424686428028 -0.013400515967467512 9.575313571972388E-4 0.013400515967467512
1.426692909383278E8 9.674942275485423E-4 0.013598135275434058 0.9990325057724516 -0.013598135275434058 0.9990325057724516 -0.013598135275434058 9.674942275485423E-4 0.013598135275434058
1.4482237080667645E8 9.776792704101526E-4 0.013798729292870703 0.99902232072959 -0.013798729292870703 0.99902232072959 -0.013798729292870703 9.776792704101526E-4 0.013798729292870703
1.4700794367256513E8 9.880936937851999E-4 0.014002341669053772 0.9990119063062147 -0.014002341669053769 0.9990119063062147 -0.014002341669053769 9.880936937851999E-4 0.014002341669053772
1.492264999009378E8 9.987448692760008E-4 0.014209016639233192 0.9990012551307242 -0.014209016639233192 0.9990012551307242 -0.014209016639233192 9.987448692760008E-4 0.014209016639233192
1.5147853725703382E8 0.0010096403344066762 0.01441879903321414 0.9989903596655932 -0.014418799033214136 0.9989903596655932 -0.014418799033214136 0.0010096403344066762 0.01441879903321414
1.5376456101806876E8 0.001020787794996905 0.014631734284115384 0.9989792122050031 -0.014631734284115384 0.9989792122050031 -0.014631734284115384 0.001020787794996905 0.014631734284115384
1.5608508408660066E8 0.0010321951275873936 0.014847868437310438 0.9989678048724127 -0.01484786843731044 0.9989678048724127 -0.01484786843731044 0.0010321951275873936 0.014847868437310438
1.5844062710560706E8 0.001043870381917815 0.015067248159557883 0.9989561296180823 -0.015067248159557883 0.9989561296180823 -0.015067248159557883 0.001043870381917815 0.015067248159557883
1.6083171857529896E8 0.0010558217834581345 0.015289920748327778 0.998944178216542 -0.015289920748327778 0.998944178216542 -0.015289920748327778 0.0010558217834581345 0.015289920748327778
1.632588949716973E8 0.0010680577359945358 0.015515934141331691 0.9989319422640055 -0.015515934141331691 0.9989319422640055 -0.015515934141331691 0.0010680577359945358 0.015515934141331691
1.6572270086699936E8 0.0010805868242713698 0.015745336926264127 0.9989194131757285 -0.015745336926264127 0.9989194131757285 -0.015745336926264127 0.0010805868242713698 0.015745336926264127
1.6822368905176118E8 0.0010934178166909058 0.015978178350763827 0.9989065821833092 -0.015978178350763827 0.9989065821833092 -0.015978178350763827 0.0010934178166909058 0.015978178350763827
1.7076242065892437E8 0.001106559668072975 0.01621450833260378 0.998893440331927 -0.01621450833260378 0.998893440331927 -0.01621450833260378 0.001106559668072975 0.01621450833260378
1.7333946528971428E8 0.0011200215224770511 0.01645437747011955 0.998879978477523 -0.01645437747011955 0.998879978477523 -0.01645437747011955 0.0011200215224770511 0.01645437747011955
1.7595540114143828E8 0.001133812716089669 0.016697837052885602 0.9988661872839104 -0.0166978370528856 0.9988661872839104 -0.0166978370528856 0.001133812716089669 0.016697837052885602
1.786108151372127E8 0.001147942780180637 0.016944939072650274 0.9988520572198194 -0.016944939072650274 0.9988520572198194 -0.016944939072650274 0.001147942780180637 0.016944939072650274
1.8130630305764765E8 0.001162421444131992 0.017195736234540356 0.998837578555868 -0.017195736234540356 0.998837578555868 -0.017195736234540356 0.001162421444131992 0.017195736234540356
1.840424696745189E8 0.001177258638544215 0.01745028196854648 0.9988227413614559 -0.017450281968546484 0.9988227413614559 -0.017450281968546484 0.001177258638544215 0.01745028196854648
1.8681992888645732E8 0.001192464498424892 0.01770863044130171 0.998807535501575 -0.01770863044130171 0.998807535501575 -0.01770863044130171 0.001192464498424892 0.01770863044130171
1.8963930385668582E8 0.0012080493664656275 0.017970836568165355 0.9987919506335344 -0.017970836568165355 0.9987919506335344 -0.017970836568165355 0.0012080493664656275 0.017970836568165355
1.92501227152835E8 0.0012240237964137749 0.018236956025625018 0.9987759762035864 -0.018236956025625018 0.9987759762035864 -0.018236956025625018 0.0012240237964137749 0.018236956025625018
1.9540634088886917E8 0.0012403985565463363 0.01850704526403046 0.9987596014434537 -0.01850704526403046 0.9987596014434537 -0.01850704526403046 0.0012403985565463363 0.01850704526403046
1.983552968691535E8 0.0012571846332541793 0.01878116152067267 0.9987428153667458 -0.01878116152067267 0.9987428153667458 -0.01878116152067267 0.0012571846332541793 0.01878116152067267
2.0134875673469606E8 0.0012743932347456118 0.019059362833222522 0.9987256067652543 -0.019059362833222522 0.9987256067652543 -0.019059362833222522 0.0012743932347456118 0.019059362833222522
2.0438739211159652E8 0.001292035794879318 0.019341708053543526 0.9987079642051206 -0.01934170805354353 0.9987079642051206 -0.01934170805354353 0.001292035794879318 0.019341708053543526
2.074718847617352E8 0.0013101239771375825 0.019628256861893425 0.9986898760228625 -0.01962825686189343 0.9986898760228625 -0.01962825686189343 0.0013101239771375825 0.019628256861893425
2.106029267357361E8 0.0013286696787518188 0.019919069781529842 0.9986713303212482 -0.019919069781529842 0.9986713303212482 -0.019919069781529842 0.0013286696787518188 0.019919069781529842
2.1378122052823865E8 0.00134768503499346 0.020214208193735293 0.9986523149650065 -0.020214208193735296 0.9986523149650065 -0.020214208193735296 0.00134768503499346 0.020214208193735293
2.1700747923551247E8 0.0013671824236444333 0.020513734353277285 0.9986328175763557 -0.020513734353277285 0.9986328175763557 -0.020513734353277285 0.0013671824236444333 0.020513734353277285
2.2028242671545094E8 0.0013871744696625718 0.02081771140431895 0.9986128255303376 -0.02081771140431895 0.9986128255303376 -0.02081771140431895 0.0013871744696625718 0.02081771140431895
2.23606797749979E8 0.0014076740500585812 0.021126203396796318 0.9985923259499414 -0.021126203396796318 0.9985923259499414 -0.021126203396796318 0.0014076740500585812 0.021126203396796318
2.2698133820991236E8 0.0014286942990023915 0.021439275303277806 0.9985713057009977 -0.021439275303277806 0.9985713057009977 -0.021439275303277806 0.0014286942990023915 0.021439275303277806
2.3040680522230446E8 0.0014502486131780534 0.02175699303632183 0.9985497513868219 -0.02175699303632183 0.9985497513868219 -0.02175699303632183 0.0014502486131780534 0.02175699303632183
2.338839673403185E8 0.0014723506574076328 0.02207942346634812 0.9985276493425923 -0.02207942346634812 0.9985276493425923 -0.02207942346634812 0.0014723506574076328 0.02207942346634812
2.37413604715664E8 0.001495014370565945 0.022406634440038344 0.998504985629434 -0.022406634440038348 0.998504985629434 -0.022406634440038348 0.001495014370565945 0.022406634440038344
