!Murata Part Number: LQG15HH1N2S02
!These Parameters are Measured in Series Mode Connection
!       o--[Z]--o
!Port1              Port2
!       o-------o
!
!Freq. Start=50[MHz] Stop=20[GHz], 401[Steps]
# Hz S RI R 50
!Freq.(Hz) S11(Real) S11(Imag) S21(Real) S21(Imag) S12(Real) S12(Imag) S22(Real) S22(Imag)
5.0E7 4.959665278380163E-4 0.004712271556852231 0.999504033472162 -0.004712271556852231 0.999504033472162 -0.004712271556852231 4.959665278380163E-4 0.004712271556852231
5.0754570186123446E7 4.999532785606226E-4 0.004780282261328072 0.9995000467214394 -0.004780282261328072 0.9995000467214394 -0.004780282261328072 4.999532785606226E-4 0.004780282261328072
5.152052789556263E7 5.039855018458947E-4 0.004849287583086171 0.9994960144981542 -0.004849287583086171 0.9994960144981542 -0.004849287583086171 5.039855018458947E-4 0.004849287583086171
5.229804498202928E7 5.080639108739947E-4 0.004919302226309377 0.9994919360891259 -0.004919302226309377 0.9994919360891259 -0.004919302226309377 5.080639108739947E-4 0.004919302226309377
5.308729589274893E7 5.121892199745963E-4 0.004990341111040932 0.9994878107800256 -0.004990341111040932 0.9994878107800256 -0.004990341111040932 5.121892199745963E-4 0.004990341111040932
5.388845770760058E7 5.163621442760269E-4 0.005062419377779579 0.9994836378557241 -0.005062419377779579 0.9994836378557241 -0.005062419377779579 5.163621442760269E-4 0.005062419377779579
5.470171017884717E7 5.205833994505185E-4 0.005135552392202109 0.9994794166005495 -0.005135552392202108 0.9994794166005495 -0.005135552392202108 5.205833994505185E-4 0.005135552392202109
5.5527235771465644E7 5.24853701562146E-4 0.005209755750009158 0.9994751462984378 -0.005209755750009158 0.9994751462984378 -0.005209755750009158 5.24853701562146E-4 0.005209755750009158
5.6365219704085544E7 5.29173767023772E-4 0.005285045281889652 0.9994708262329762 -0.005285045281889652 0.9994708262329762 -0.005285045281889652 5.29173767023772E-4 0.005285045281889652
5.721584999054556E7 5.335443126690284E-4 0.0053614370585988716 0.9994664556873308 -0.0053614370585988716 0.9994664556873308 -0.0053614370585988716 5.335443126690284E-4 0.0053614370585988716
5.807931748207712E7 5.37966055945011E-4 0.005438947396144673 0.9994620339440549 -0.005438947396144673 0.9994620339440549 -0.005438947396144673 5.37966055945011E-4 0.005438947396144673
5.8955815910124585E7 5.424397152310021E-4 0.005517592861075935 0.9994575602847688 -0.0055175928610759345 0.9994575602847688 -0.0055175928610759345 5.424397152310021E-4 0.005517592861075935
5.984554192981184E7 5.469660102881383E-4 0.005597390275867058 0.9994530339897119 -0.005597390275867057 0.9994530339897119 -0.005597390275867057 5.469660102881383E-4 0.005597390275867058
6.074869516406457E7 5.515456628444738E-4 0.00567835672439179 0.9994484543371556 -0.0056783567243917895 0.9994484543371556 -0.0056783567243917895 5.515456628444738E-4 0.00567835672439179
6.166547824839868E7 5.561793973194559E-4 0.005760509557479508 0.9994438206026806 -0.005760509557479508 0.9994438206026806 -0.005760509557479508 5.561793973194559E-4 0.005760509557479508
6.2596096876384385E7 5.608679416912971E-4 0.005843866398546644 0.9994391320583088 -0.005843866398546644 0.9994391320583088 -0.005843866398546644 5.608679416912971E-4 0.005843866398546644
6.354075984579668E7 5.656120285102202E-4 0.005928445149295788 0.9994343879714898 -0.005928445149295787 0.9994343879714898 -0.005928445149295787 5.656120285102202E-4 0.005928445149295788
6.449967910546205E7 5.704123960599794E-4 0.006014263995474675 0.9994295876039399 -0.006014263995474675 0.9994295876039399 -0.006014263995474675 5.704123960599794E-4 0.006014263995474675
6.547306980281226E7 5.752697896695031E-4 0.006101341412687193 0.9994247302103304 -0.006101341412687194 0.9994247302103304 -0.006101341412687194 5.752697896695031E-4 0.006101341412687193
6.646115033215589E7 5.80184963175883E-4 0.006189696172248266 0.9994198150368244 -0.006189696172248267 0.9994198150368244 -0.006189696172248267 5.80184963175883E-4 0.006189696172248266
6.746414238367817E7 5.8515868053934E-4 0.006279347347074526 0.9994148413194607 -0.006279347347074526 0.9994148413194607 -0.006279347347074526 5.8515868053934E-4 0.006279347347074526
6.848227099318038E7 5.901917176101438E-4 0.0063703143176024836 0.9994098082823899 -0.0063703143176024836 0.9994098082823899 -0.0063703143176024836 5.901917176101438E-4 0.0063703143176024836
6.951576459256999E7 5.952848640468574E-4 0.006462616777726066 0.9994047151359533 -0.006462616777726066 0.9994047151359533 -0.006462616777726066 5.952848640468574E-4 0.006462616777726066
7.056485506111258E7 6.004389253845975E-4 0.0065562747407452845 0.9993995610746156 -0.0065562747407452845 0.9993995610746156 -0.0065562747407452845 6.004389253845975E-4 0.0065562747407452845
7.162977777745734E7 6.056547252513891E-4 0.006651308545318022 0.9993943452747487 -0.006651308545318022 0.9993943452747487 -0.006651308545318022 6.056547252513891E-4 0.006651308545318022
7.271077167244768E7 6.109331077300196E-4 0.0067477388614070235 0.9993890668922699 -0.0067477388614070235 0.9993890668922699 -0.0067477388614070235 6.109331077300196E-4 0.0067477388614070235
7.380807928272885E7 6.162749398622058E-4 0.006845586696214407 0.9993837250601377 -0.006845586696214407 0.9993837250601377 -0.006845586696214407 6.162749398622058E-4 0.006845586696214407
7.492194680516452E7 6.216811142912145E-4 0.006944873400096239 0.9993783188857087 -0.006944873400096239 0.9993783188857087 -0.006944873400096239 6.216811142912145E-4 0.006944873400096239
7.60526241520746E7 6.271525520385248E-4 0.007045620672450108 0.9993728474479616 -0.007045620672450108 0.9993728474479616 -0.007045620672450108 6.271525520385248E-4 0.007045620672450108
7.720036500730675E7 6.326902054094973E-4 0.0071478505675688616 0.9993673097945905 -0.0071478505675688616 0.9993673097945905 -0.0071478505675688616 6.326902054094973E-4 0.0071478505675688616
7.836542688315398E7 6.382950610224969E-4 0.007251585500454282 0.9993617049389774 -0.007251585500454282 0.9993617049389774 -0.007251585500454282 6.382950610224969E-4 0.007251585500454282
7.954807117813127E7 6.439681429553626E-4 0.007356848252584737 0.9993560318570447 -0.007356848252584736 0.9993560318570447 -0.007356848252584736 6.439681429553626E-4 0.007356848252584737
8.074856323562416E7 6.497105160026424E-4 0.007463661977631412 0.9993502894839973 -0.007463661977631411 0.9993502894839973 -0.007463661977631411 6.497105160026424E-4 0.007463661977631412
8.196717240342227E7 6.555232890365785E-4 0.007572050207118411 0.9993444767109636 -0.007572050207118413 0.9993444767109636 -0.007572050207118413 6.555232890365785E-4 0.007572050207118411
8.320417209415154E7 6.614076184643894E-4 0.007682036856022382 0.9993385923815358 -0.007682036856022382 0.9993385923815358 -0.007682036856022382 6.614076184643894E-4 0.007682036856022382
8.445983984661816E7 6.673647117740684E-4 0.007793646228308042 0.9993326352882259 -0.007793646228308042 0.9993326352882259 -0.007793646228308042 6.673647117740684E-4 0.007793646228308042
8.573445738807854E7 6.733958311605934E-4 0.007906903022396704 0.9993266041688393 -0.007906903022396704 0.9993266041688393 -0.007906903022396704 6.733958311605934E-4 0.007906903022396704
8.702831069744885E7 6.795022972241922E-4 0.00802183233656541 0.9993204977027756 -0.00802183233656541 0.9993204977027756 -0.00802183233656541 6.795022972241922E-4 0.00802183233656541
8.834169006946853E7 6.856854927321022E-4 0.008138459674275112 0.999314314507268 -0.008138459674275112 0.999314314507268 -0.008138459674275112 6.856854927321022E-4 0.008138459674275112
8.96748901798321E7 6.919468664351175E-4 0.008256810949426964 0.9993080531335649 -0.008256810949426964 0.9993080531335649 -0.008256810949426964 6.919468664351175E-4 0.008256810949426964
9.1028210151304E7 6.982879369301317E-4 0.008376912491546564 0.9993017120630696 -0.008376912491546562 0.9993017120630696 -0.008376912491546562 6.982879369301317E-4 0.008376912491546564
9.240195362083109E7 7.04710296559847E-4 0.008498791050896657 0.9992952897034402 -0.008498791050896655 0.9992952897034402 -0.008498791050896655 7.04710296559847E-4 0.008498791050896657
9.379642880766791E7 7.112156153408501E-4 0.008622473803519584 0.9992887843846591 -0.008622473803519583 0.9992887843846591 -0.008622473803519583 7.112156153408501E-4 0.008622473803519584
9.521194858253023E7 7.178056449113319E-4 0.008747988356211425 0.9992821943550888 -0.008747988356211425 0.9992821943550888 -0.008747988356211425 7.178056449113319E-4 0.008747988356211425
9.664883053779216E7 7.24482222489872E-4 0.008875362751430553 0.9992755177775102 -0.008875362751430553 0.9992755177775102 -0.008875362751430553 7.24482222489872E-4 0.008875362751430553
9.810739705874248E7 7.312472748368998E-4 0.00900462547214395 0.999268752725163 -0.00900462547214395 0.999268752725163 -0.00900462547214395 7.312472748368998E-4 0.00900462547214395
9.958797539591652E7 7.381028222106806E-4 0.009135805446615358 0.9992618971777891 -0.009135805446615356 0.9992618971777891 -0.009135805446615356 7.381028222106806E-4 0.009135805446615358
1.0109089773851961E8 7.450509823099801E-4 0.009268932053139932 0.9992549490176901 -0.009268932053139932 0.9992549490176901 -0.009268932053139932 7.450509823099801E-4 0.009268932053139932
1.0261650128895843E8 7.520939741958862E-4 0.00940403512473074 0.9992479060258042 -0.009404035124730741 0.9992479060258042 -0.009404035124730741 7.520939741958862E-4 0.00940403512473074
1.0416512833849736E8 7.592341221856669E-4 0.009541144953763039 0.9992407658778143 -0.009541144953763039 0.9992407658778143 -0.009541144953763039 7.592341221856669E-4 0.009541144953763039
1.0573712634405641E8 7.6647385971194E-4 0.009680292296582705 0.9992335261402879 -0.009680292296582703 0.9992335261402879 -0.009680292296582703 7.6647385971194E-4 0.009680292296582705
1.0733284800616828E8 7.738157331409065E-4 0.009821508378085864 0.9992261842668592 -0.009821508378085864 0.9992261842668592 -0.009821508378085864 7.738157331409065E-4 0.009821508378085864
1.0895265134811176E8 7.812624055438844E-4 0.00996482489627717 0.999218737594456 -0.00996482489627717 0.999218737594456 -0.00996482489627717 7.812624055438844E-4 0.00996482489627717
1.1059689979623953E8 7.888166604168756E-4 0.010110274026814548 0.9992111833395833 -0.010110274026814548 0.9992111833395833 -0.010110274026814548 7.888166604168756E-4 0.010110274026814548
1.1226596226151802E8 7.964814053434559E-4 0.010257888427548743 0.9992035185946565 -0.010257888427548743 0.9992035185946565 -0.010257888427548743 7.964814053434559E-4 0.010257888427548743
1.1396021322229806E8 8.042596755968175E-4 0.010407701243066286 0.9991957403244034 -0.010407701243066286 0.9991957403244034 -0.010407701243066286 8.042596755968175E-4 0.010407701243066286
1.1568003280833441E8 8.121546376773544E-4 0.010559746109244683 0.9991878453623226 -0.010559746109244683 0.9991878453623226 -0.010559746109244683 8.121546376773544E-4 0.010559746109244683
1.1742580688607343E8 8.201695927827699E-4 0.010714057157829223 0.9991798304072173 -0.010714057157829223 0.9991798304072173 -0.010714057157829223 8.201695927827699E-4 0.010714057157829223
1.1919792714522783E8 8.283079802082448E-4 0.010870669021040532 0.9991716920197917 -0.010870669021040532 0.9991716920197917 -0.010870669021040532 8.283079802082448E-4 0.010870669021040532
1.2099679118665792E8 8.365733806747886E-4 0.011029616836222634 0.9991634266193252 -0.011029616836222635 0.9991634266193252 -0.011029616836222635 8.365733806747886E-4 0.011029616836222634
1.2282280261157903E8 8.449695195844745E-4 0.01119093625054113 0.9991550304804153 -0.01119093625054113 0.9991550304804153 -0.01119093625054113 8.449695195844745E-4 0.01119093625054113
1.2467637111211549E8 8.535002702018081E-4 0.011354663425741275 0.9991464997297981 -0.011354663425741273 0.9991464997297981 -0.011354663425741273 8.535002702018081E-4 0.011354663425741275
1.265579125632208E8 8.621696567610427E-4 0.011520835042975798 0.9991378303432388 -0.011520835042975798 0.9991378303432388 -0.011520835042975798 8.621696567610427E-4 0.011520835042975798
1.284678491159853E8 8.709818574997948E-4 0.011689488307712418 0.9991290181425002 -0.011689488307712418 0.9991290181425002 -0.011689488307712418 8.709818574997948E-4 0.011689488307712418
1.3040660929235186E8 8.799412076198241E-4 0.011860660954730753 0.9991200587923802 -0.011860660954730753 0.9991200587923802 -0.011860660954730753 8.799412076198241E-4 0.011860660954730753
1.3237462808126101E8 8.89052202176349E-4 0.012034391253218627 0.9991109477978238 -0.012034391253218627 0.9991109477978238 -0.012034391253218627 8.89052202176349E-4 0.012034391253218627
1.3437234703624701E8 8.983194988977549E-4 0.012210718011977432 0.9991016805011023 -0.012210718011977432 0.9991016805011023 -0.012210718011977432 8.983194988977549E-4 0.012210718011977432
1.364002143745067E8 9.0774792093801E-4 0.012389680584746337 0.9990922520790619 -0.012389680584746337 0.9990922520790619 -0.012389680584746337 9.0774792093801E-4 0.012389680584746337
1.3845868507746372E8 9.173424595645233E-4 0.01257131887565484 0.9990826575404355 -0.012571318875654842 0.9990826575404355 -0.012571318875654842 9.173424595645233E-4 0.01257131887565484
1.405482209928499E8 9.271082767846247E-4 0.012755673344813348 0.9990728917232155 -0.01275567334481335 0.9990728917232155 -0.01275567334481335 9.271082767846247E-4 0.012755673344813348
1.426692909383278E8 9.370507079141873E-4 0.012942785014050924 0.999062949292086 -0.012942785014050924 0.999062949292086 -0.012942785014050924 9.370507079141873E-4 0.012942785014050924
1.4482237080667645E8 9.471752640923418E-4 0.013132695472809798 0.9990528247359076 -0.013132695472809798 0.9990528247359076 -0.013132695472809798 9.471752640923418E-4 0.013132695472809798
1.4700794367256513E8 9.574876347465025E-4 0.013325446884205517 0.9990425123652533 -0.013325446884205514 0.9990425123652533 -0.013325446884205514 9.574876347465025E-4 0.013325446884205517
1.492264999009378E8 9.679936900123052E-4 0.013521081991261933 0.9990320063099877 -0.013521081991261933 0.9990320063099877 -0.013521081991261933 9.679936900123052E-4 0.013521081991261933
1.5147853725703382E8 9.78699483113329E-4 0.013719644123329924 0.9990213005168868 -0.013719644123329924 0.9990213005168868 -0.013719644123329924 9.78699483113329E-4 0.013719644123329924
1.5376456101806876E8 9.896112527057648E-4 0.01392117720269869 0.9990103887472942 -0.01392117720269869 0.9990103887472942 -0.01392117720269869 9.896112527057648E-4 0.01392117720269869
1.5608508408660066E8 0.0010007354251934625 0.01412572575140828 0.9989992645748064 -0.01412572575140828 0.9989992645748064 -0.01412572575140828 0.0010007354251934625 0.01412572575140828
1.5844062710560706E8 0.0010120786170190505 0.014333334898272152 0.9989879213829811 -0.014333334898272156 0.9989879213829811 -0.014333334898272156 0.0010120786170190505 0.014333334898272152
1.6083171857529896E8 0.0010236476369370412 0.01454405038611812 0.9989763523630629 -0.01454405038611812 0.9989763523630629 -0.01454405038611812 0.0010236476369370412 0.01454405038611812
1.632588949716973E8 0.001035449488275124 0.01475791857925645 0.9989645505117247 -0.01475791857925645 0.9989645505117247 -0.01475791857925645 0.001035449488275124 0.01475791857925645
1.6572270086699936E8 0.0010474913711900223 0.01497498647118352 0.99895250862881 -0.014974986471183524 0.99895250862881 -0.014974986471183524 0.0010474913711900223 0.01497498647118352
1.6822368905176118E8 0.0010597806849245693 0.015195301692529386 0.9989402193150752 -0.015195301692529382 0.9989402193150752 -0.015195301692529382 0.0010597806849245693 0.015195301692529386
1.7076242065892437E8 0.0010723250300728768 0.015418912519258025 0.9989276749699271 -0.015418912519258025 0.9989276749699271 -0.015418912519258025 0.0010723250300728768 0.015418912519258025
1.7333946528971428E8 0.001085132210860699 0.01564586788112845 0.9989148677891393 -0.01564586788112845 0.9989148677891393 -0.01564586788112845 0.001085132210860699 0.01564586788112845
1.7595540114143828E8 0.001098210237448388 0.015876217370425532 0.9989017897625514 -0.015876217370425532 0.9989017897625514 -0.015876217370425532 0.001098210237448388 0.015876217370425532
1.786108151372127E8 0.001111567328264047 0.01611001125096896 0.9988884326717359 -0.01611001125096896 0.9988884326717359 -0.01611001125096896 0.001111567328264047 0.01611001125096896
1.8130630305764765E8 0.001125211912374814 0.0163473004674091 0.9988747880876251 -0.0163473004674091 0.9988747880876251 -0.0163473004674091 0.001125211912374814 0.0163473004674091
1.840424696745189E8 0.0011391526319044919 0.016588136654818533 0.9988608473680954 -0.016588136654818533 0.9988608473680954 -0.016588136654818533 0.0011391526319044919 0.016588136654818533
1.8681992888645732E8 0.001153398344506064 0.01683257214858825 0.998846601655494 -0.016832572148588253 0.998846601655494 -0.016832572148588253 0.001153398344506064 0.01683257214858825
1.8963930385668582E8 0.0011679581258979893 0.017080659994637336 0.9988320418741021 -0.017080659994637336 0.9988320418741021 -0.017080659994637336 0.0011679581258979893 0.017080659994637336
1.92501227152835E8 0.0011828412724735602 0.017332453959945555 0.9988171587275263 -0.01733245395994555 0.9988171587275263 -0.01733245395994555 0.0011828412724735602 0.017332453959945555
1.9540634088886917E8 0.0011980573039930048 0.01758800854341796 0.998801942696007 -0.01758800854341796 0.998801942696007 -0.01758800854341796 0.0011980573039930048 0.01758800854341796
1.983552968691535E8 0.0012136159663684682 0.017847378987090993 0.9987863840336315 -0.017847378987090993 0.9987863840336315 -0.017847378987090993 0.0012136159663684682 0.017847378987090993
2.0134875673469606E8 0.0012295272345524974 0.018110621287689758 0.9987704727654477 -0.018110621287689758 0.9987704727654477 -0.018110621287689758 0.0012295272345524974 0.018110621287689758
2.0438739211159652E8 0.0012458013155411676 0.01837779220854606 0.9987541986844587 -0.018377792208546056 0.9987541986844587 -0.018377792208546056 0.0012458013155411676 0.01837779220854606
2.074718847617352E8 0.00126244865150356 0.018648949291887283 0.9987375513484965 -0.018648949291887283 0.9987375513484965 -0.018648949291887283 0.00126244865150356 0.018648949291887283
2.106029267357361E8 0.001279479923049889 0.01892415087150584 0.9987205200769501 -0.01892415087150584 0.9987205200769501 -0.01892415087150584 0.001279479923049889 0.01892415087150584
2.1378122052823865E8 0.0012969060526512428 0.019203456085819547 0.9987030939473487 -0.019203456085819547 0.9987030939473487 -0.019203456085819547 0.0012969060526512428 0.019203456085819547
2.1700747923551247E8 0.0013147382082245732 0.019486924891332986 0.9986852617917756 -0.019486924891332986 0.9986852617917756 -0.019486924891332986 0.0013147382082245732 0.019486924891332986
2.2028242671545094E8 0.0013329878068972945 0.019774618076510066 0.9986670121931026 -0.019774618076510066 0.9986670121931026 -0.019774618076510066 0.0013329878068972945 0.019774618076510066
2.23606797749979E8 0.0013516665189666594 0.020066597276068326 0.9986483334810333 -0.020066597276068326 0.9986483334810333 -0.020066597276068326 0.0013516665189666594 0.020066597276068326
2.2698133820991236E8 0.0013707862720698332 0.020362924985704963 0.9986292137279301 -0.020362924985704967 0.9986292137279301 -0.020362924985704967 0.0013707862720698332 0.020362924985704963
2.3040680522230446E8 0.001390359255581493 0.020663664577265102 0.9986096407444186 -0.020663664577265105 0.9986096407444186 -0.020663664577265105 0.001390359255581493 0.020663664577265102
2.338839673403185E8 0.0014103979252566177 0.020968880314362358 0.9985896020747435 -0.020968880314362358 0.9985896020747435 -0.020968880314362358 0.0014103979252566177 0.020968880314362358
2.37413604715664E8 0.0014309150081371074 0.021278637368461778 0.9985690849918628 -0.021278637368461778 0.9985690849918628 -0.021278637368461778 0.0014309150081371074 0.021278637368461778
