!Murata Part Number: LQG15HH18NJ02
!These Parameters are Measured in Series Mode Connection
!       o--[Z]--o
!Port1              Port2
!       o-------o
!
!Freq. Start=50[MHz] Stop=20[GHz], 401[Steps]
# Hz S RI R 50
!Freq.(Hz) S11(Real) S11(Imag) S21(Real) S21(Imag) S12(Real) S12(Imag) S22(Real) S22(Imag)
5.0E7 0.010043169448190099 0.05705517611176738 0.9899568305518099 -0.05705517611176738 0.9899568305518099 -0.05705517611176738 0.010043169448190099 0.05705517611176738
5.0754570186123446E7 0.010196565991149617 0.057858098487445886 0.9898034340088505 -0.057858098487445886 0.9898034340088505 -0.057858098487445886 0.010196565991149617 0.057858098487445886
5.152052789556263E7 0.010353265144061135 0.058671963772310855 0.9896467348559388 -0.05867196377231087 0.9896467348559388 -0.05867196377231087 0.010353265144061135 0.058671963772310855
5.229804498202928E7 0.010513333015433257 0.05949691599956453 0.9894866669845667 -0.05949691599956452 0.9894866669845667 -0.05949691599956452 0.010513333015433257 0.05949691599956453
5.308729589274893E7 0.010676837259697192 0.060333101655703755 0.989323162740303 -0.06033310165570376 0.989323162740303 -0.06033310165570376 0.010676837259697192 0.060333101655703755
5.388845770760058E7 0.010843847163163998 0.061180669732787095 0.989156152836836 -0.061180669732787095 0.989156152836836 -0.061180669732787095 0.010843847163163998 0.061180669732787095
5.470171017884717E7 0.011014433734402583 0.0620397717792563 0.9889855662655973 -0.062039771779256285 0.9889855662655973 -0.062039771779256285 0.011014433734402583 0.0620397717792563
5.5527235771465644E7 0.01118866979906363 0.06291056194908314 0.9888113302009365 -0.06291056194908314 0.9888113302009365 -0.06291056194908314 0.01118866979906363 0.06291056194908314
5.6365219704085544E7 0.011366630099161744 0.06379319704901024 0.988633369900838 -0.06379319704901024 0.988633369900838 -0.06379319704901024 0.011366630099161744 0.06379319704901024
5.721584999054556E7 0.011548391396815056 0.06468783658365204 0.988451608603185 -0.06468783658365204 0.988451608603185 -0.06468783658365204 0.011548391396815056 0.06468783658365204
5.807931748207712E7 0.01173403258242737 0.0655946427982191 0.9882659674175727 -0.0655946427982191 0.9882659674175727 -0.0655946427982191 0.01173403258242737 0.0655946427982191
5.8955815910124585E7 0.011923634787284823 0.06651378071863073 0.988076365212715 -0.06651378071863073 0.988076365212715 -0.06651378071863073 0.011923634787284823 0.06651378071863073
5.984554192981184E7 0.012117281500524883 0.06744541818877978 0.9878827184994752 -0.06744541818877978 0.9878827184994752 -0.06744541818877978 0.012117281500524883 0.06744541818877978
6.074869516406457E7 0.01231505869042216 0.06838972590471616 0.987684941309578 -0.06838972590471616 0.987684941309578 -0.06838972590471616 0.01231505869042216 0.06838972590471616
6.166547824839868E7 0.01251705492992177 0.06934687744551847 0.9874829450700784 -0.06934687744551848 0.9874829450700784 -0.06934687744551848 0.01251705492992177 0.06934687744551847
6.2596096876384385E7 0.012723361526338078 0.0703170493006265 0.9872766384736619 -0.0703170493006265 0.9872766384736619 -0.0703170493006265 0.012723361526338078 0.0703170493006265
6.354075984579668E7 0.012934072655123873 0.07130042089341354 0.987065927344876 -0.07130042089341354 0.987065927344876 -0.07130042089341354 0.012934072655123873 0.07130042089341354
6.449967910546205E7 0.01314928549760252 0.07229717460078201 0.9868507145023974 -0.07229717460078201 0.9868507145023974 -0.07229717460078201 0.01314928549760252 0.07229717460078201
6.547306980281226E7 0.013369100382544618 0.07330749576857458 0.9866308996174554 -0.07330749576857458 0.9866308996174554 -0.07330749576857458 0.013369100382544618 0.07330749576857458
6.646115033215589E7 0.013593620931459067 0.07433157272259928 0.9864063790685408 -0.07433157272259928 0.9864063790685408 -0.07433157272259928 0.013593620931459067 0.07433157272259928
6.746414238367817E7 0.013822954207459092 0.07536959677507729 0.9861770457925411 -0.07536959677507729 0.9861770457925411 -0.07536959677507729 0.013822954207459092 0.07536959677507729
6.848227099318038E7 0.014057210867553847 0.07642176222632986 0.985942789132446 -0.07642176222632985 0.985942789132446 -0.07642176222632985 0.014057210867553847 0.07642176222632986
6.951576459256999E7 0.014296505318208858 0.07748826636153362 0.9857034946817913 -0.07748826636153362 0.9857034946817913 -0.07748826636153362 0.014296505318208858 0.07748826636153362
7.056485506111258E7 0.014540955874010409 0.07856930944238076 0.9854590441259896 -0.07856930944238075 0.9854590441259896 -0.07856930944238075 0.014540955874010409 0.07856930944238076
7.162977777745734E7 0.014790684919263681 0.07966509469349486 0.9852093150807364 -0.07966509469349486 0.9852093150807364 -0.07966509469349486 0.014790684919263681 0.07966509469349486
7.271077167244768E7 0.01504581907234891 0.08077582828346264 0.9849541809276511 -0.08077582828346264 0.9849541809276511 -0.08077582828346264 0.01504581907234891 0.08077582828346264
7.380807928272885E7 0.015306489352656395 0.08190171930035438 0.9846935106473437 -0.08190171930035438 0.9846935106473437 -0.08190171930035438 0.015306489352656395 0.08190171930035438
7.492194680516452E7 0.015572831349917994 0.08304297972161706 0.9844271686500823 -0.08304297972161706 0.9844271686500823 -0.08304297972161706 0.015572831349917994 0.08304297972161706
7.60526241520746E7 0.015844985395752017 0.08419982437823677 0.984155014604248 -0.08419982437823677 0.984155014604248 -0.08419982437823677 0.015844985395752017 0.08419982437823677
7.720036500730675E7 0.016123096737237164 0.08537247091307727 0.9838769032627628 -0.08537247091307726 0.9838769032627628 -0.08537247091307726 0.016123096737237164 0.08537247091307727
7.836542688315398E7 0.016407315712332726 0.08656113973331368 0.9835926842876673 -0.08656113973331368 0.9835926842876673 -0.08656113973331368 0.016407315712332726 0.08656113973331368
7.954807117813127E7 0.01669779792696379 0.08776605395689145 0.9833022020730362 -0.08776605395689145 0.9833022020730362 -0.08776605395689145 0.01669779792696379 0.08776605395689145
8.074856323562416E7 0.016994704433593074 0.08898743935294962 0.9830052955664069 -0.08898743935294963 0.9830052955664069 -0.08898743935294963 0.016994704433593074 0.08898743935294962
8.196717240342227E7 0.017298201911105177 0.09022552427615874 0.9827017980888949 -0.09022552427615874 0.9827017980888949 -0.09022552427615874 0.017298201911105177 0.09022552427615874
8.320417209415154E7 0.017608462845833794 0.09148053959493196 0.9823915371541663 -0.09148053959493196 0.9823915371541663 -0.09148053959493196 0.017608462845833794 0.09148053959493196
8.445983984661816E7 0.017925665713567886 0.09275271861347563 0.9820743342864321 -0.09275271861347564 0.9820743342864321 -0.09275271861347564 0.017925665713567886 0.09275271861347563
8.573445738807854E7 0.018249995162379726 0.09404229698765403 0.9817500048376203 -0.09404229698765403 0.9817500048376203 -0.09404229698765403 0.018249995162379726 0.09404229698765403
8.702831069744885E7 0.018581642196124053 0.09534951263464772 0.9814183578038759 -0.09534951263464772 0.9814183578038759 -0.09534951263464772 0.018581642196124053 0.09534951263464772
8.834169006946853E7 0.018920804358466006 0.09667460563639181 0.9810791956415341 -0.09667460563639181 0.9810791956415341 -0.09667460563639181 0.018920804358466006 0.09667460563639181
8.96748901798321E7 0.019267685917302536 0.09801781813678265 0.9807323140826976 -0.09801781813678265 0.9807323140826976 -0.09801781813678265 0.019267685917302536 0.09801781813678265
9.1028210151304E7 0.019622498049451306 0.09937939423264674 0.9803775019505488 -0.09937939423264674 0.9803775019505488 -0.09937939423264674 0.019622498049451306 0.09937939423264674
9.240195362083109E7 0.01998545902548859 0.1007595798584652 0.9800145409745115 -0.1007595798584652 0.9800145409745115 -0.1007595798584652 0.01998545902548859 0.1007595798584652
9.379642880766791E7 0.020356794394626846 0.10215862266484925 0.9796432056053733 -0.10215862266484925 0.9796432056053733 -0.10215862266484925 0.020356794394626846 0.10215862266484925
9.521194858253023E7 0.020736737169530645 0.10357677189076095 0.9792632628304693 -0.10357677189076095 0.9792632628304693 -0.10357677189076095 0.020736737169530645 0.10357677189076095
9.664883053779216E7 0.021125528010978604 0.10501427822947304 0.9788744719890214 -0.10501427822947304 0.9788744719890214 -0.10501427822947304 0.021125528010978604 0.10501427822947304
9.810739705874248E7 0.021523415412285567 0.10647139368825617 0.9784765845877145 -0.1064713936882562 0.9784765845877145 -0.1064713936882562 0.021523415412285567 0.10647139368825617
9.958797539591652E7 0.021930655883408444 0.10794837144178138 0.9780693441165916 -0.10794837144178139 0.9780693441165916 -0.10794837144178139 0.021930655883408444 0.10794837144178138
1.0109089773851961E8 0.022347514134665035 0.10944546567921837 0.9776524858653349 -0.10944546567921837 0.9776524858653349 -0.10944546567921837 0.022347514134665035 0.10944546567921837
1.0261650128895843E8 0.022774263260001558 0.1109629314450045 0.9772257367399984 -0.1109629314450045 0.9772257367399984 -0.1109629314450045 0.022774263260001558 0.1109629314450045
1.0416512833849736E8 0.0232111849197509 0.11250102447325372 0.9767888150802491 -0.11250102447325372 0.9767888150802491 -0.11250102447325372 0.0232111849197509 0.11250102447325372
1.0573712634405641E8 0.02365856952282792 0.11406000101576554 0.9763414304771719 -0.11406000101576554 0.9763414304771719 -0.11406000101576554 0.02365856952282792 0.11406000101576554
1.0733284800616828E8 0.024116716408311974 0.11564011766358669 0.975883283591688 -0.11564011766358669 0.975883283591688 -0.11564011766358669 0.024116716408311974 0.11564011766358669
1.0895265134811176E8 0.024585934026370382 0.11724163116206814 0.9754140659736296 -0.11724163116206814 0.9754140659736296 -0.11724163116206814 0.024585934026370382 0.11724163116206814
1.1059689979623953E8 0.02506654011847802 0.11886479821935167 0.974933459881522 -0.11886479821935167 0.974933459881522 -0.11886479821935167 0.02506654011847802 0.11886479821935167
1.1226596226151802E8 0.025558861896889076 0.12050987530820774 0.9744411381031108 -0.12050987530820774 0.9744411381031108 -0.12050987530820774 0.025558861896889076 0.12050987530820774
1.1396021322229806E8 0.02606323622331736 0.12217711846113852 0.9739367637766827 -0.12217711846113852 0.9739367637766827 -0.12217711846113852 0.02606323622331736 0.12217711846113852
1.1568003280833441E8 0.02658000978677946 0.12386678305864636 0.9734199902132207 -0.12386678305864633 0.9734199902132207 -0.12386678305864633 0.02658000978677946 0.12386678305864636
1.1742580688607343E8 0.027109539280553027 0.1255791236105589 0.9728904607194471 -0.1255791236105589 0.9728904607194471 -0.1255791236105589 0.027109539280553027 0.1255791236105589
1.1919792714522783E8 0.027652191578198683 0.1273143935302898 0.9723478084218012 -0.1273143935302898 0.9723478084218012 -0.1273143935302898 0.027652191578198683 0.1273143935302898
1.2099679118665792E8 0.028208343908588913 0.12907284490190232 0.9717916560914112 -0.12907284490190232 0.9717916560914112 -0.12907284490190232 0.028208343908588913 0.12907284490190232
1.2282280261157903E8 0.02877838402988183 0.13085472823983368 0.9712216159701182 -0.13085472823983368 0.9712216159701182 -0.13085472823983368 0.02877838402988183 0.13085472823983368
1.2467637111211549E8 0.029362710402369825 0.13266029224112488 0.9706372895976302 -0.13266029224112488 0.9706372895976302 -0.13266029224112488 0.029362710402369825 0.13266029224112488
1.265579125632208E8 0.029961732360125327 0.1344897835299921 0.9700382676398746 -0.1344897835299921 0.9700382676398746 -0.1344897835299921 0.029961732360125327 0.1344897835299921
1.284678491159853E8 0.030575870281356613 0.13634344639456392 0.9694241297186436 -0.13634344639456394 0.9694241297186436 -0.13634344639456394 0.030575870281356613 0.13634344639456392
1.3040660929235186E8 0.031205555757375283 0.13822152251559988 0.968794444242625 -0.13822152251559988 0.968794444242625 -0.13822152251559988 0.031205555757375283 0.13822152251559988
1.3237462808126101E8 0.03185123176006709 0.14012425068699627 0.9681487682399328 -0.1401242506869963 0.9681487682399328 -0.1401242506869963 0.03185123176006709 0.14012425068699627
1.3437234703624701E8 0.03251335280774357 0.1420518665278759 0.9674866471922563 -0.1420518665278759 0.9674866471922563 -0.1420518665278759 0.03251335280774357 0.1420518665278759
1.364002143745067E8 0.033192385129240075 0.14400460218605066 0.9668076148707601 -0.14400460218605066 0.9668076148707601 -0.14400460218605066 0.033192385129240075 0.14400460218605066
1.3845868507746372E8 0.03388880682611096 0.14598268603263967 0.9661111931738892 -0.1459826860326397 0.9661111931738892 -0.1459826860326397 0.03388880682611096 0.14598268603263967
1.405482209928499E8 0.034603108032757825 0.14798634234761715 0.965396891967242 -0.14798634234761718 0.965396891967242 -0.14798634234761718 0.034603108032757825 0.14798634234761715
1.426692909383278E8 0.035335791074310896 0.1500157909960598 0.9646642089256892 -0.1500157909960598 0.9646642089256892 -0.1500157909960598 0.035335791074310896 0.1500157909960598
1.4482237080667645E8 0.036087370622067405 0.15207124709485764 0.9639126293779325 -0.15207124709485767 0.9639126293779325 -0.15207124709485767 0.036087370622067405 0.15207124709485764
1.4700794367256513E8 0.03685837384627401 0.15415292066964995 0.9631416261537259 -0.15415292066964992 0.9631416261537259 -0.15415292066964992 0.03685837384627401 0.15415292066964995
1.492264999009378E8 0.03764934056602223 0.1562610163017413 0.9623506594339777 -0.1562610163017413 0.9623506594339777 -0.1562610163017413 0.03764934056602223 0.1562610163017413
1.5147853725703382E8 0.03846082339600895 0.15839573276475552 0.9615391766039911 -0.15839573276475555 0.9615391766039911 -0.15839573276475555 0.03846082339600895 0.15839573276475552
1.5376456101806876E8 0.03929338788989378 0.16055726265077735 0.9607066121101063 -0.16055726265077735 0.9607066121101063 -0.16055726265077735 0.03929338788989378 0.16055726265077735
1.5608508408660066E8 0.04014761267996919 0.1627457919857387 0.9598523873200308 -0.1627457919857387 0.9598523873200308 -0.1627457919857387 0.04014761267996919 0.1627457919857387
1.5844062710560706E8 0.041024089612836816 0.1649614998337995 0.9589759103871633 -0.1649614998337995 0.9589759103871633 -0.1649614998337995 0.041024089612836816 0.1649614998337995
1.6083171857529896E8 0.04192342388076726 0.16720455789047992 0.9580765761192327 -0.16720455789047992 0.9580765761192327 -0.16720455789047992 0.04192342388076726 0.16720455789047992
1.632588949716973E8 0.04284623414839895 0.1694751300642996 0.957153765851601 -0.1694751300642996 0.957153765851601 -0.1694751300642996 0.04284623414839895 0.1694751300642996
1.6572270086699936E8 0.043793152674413485 0.17177337204668508 0.9562068473255865 -0.17177337204668508 0.9562068473255865 -0.17177337204668508 0.043793152674413485 0.17177337204668508
1.6822368905176118E8 0.04476482542780369 0.17409943086990617 0.9552351745721963 -0.17409943086990617 0.9552351745721963 -0.17409943086990617 0.04476482542780369 0.17409943086990617
1.7076242065892437E8 0.04576191219833261 0.17645344445281283 0.9542380878016675 -0.17645344445281286 0.9542380878016675 -0.17645344445281286 0.04576191219833261 0.17645344445281283
1.7333946528971428E8 0.04678508670076003 0.17883554113414332 0.9532149132992401 -0.17883554113414332 0.9532149132992401 -0.17883554113414332 0.04678508670076003 0.17883554113414332
1.7595540114143828E8 0.047835036672394124 0.18124583919318427 0.9521649633276058 -0.18124583919318427 0.9521649633276058 -0.18124583919318427 0.047835036672394124 0.18124583919318427
1.786108151372127E8 0.04891246396350596 0.18368444635756823 0.9510875360364941 -0.18368444635756823 0.9510875360364941 -0.18368444635756823 0.04891246396350596 0.18368444635756823
1.8130630305764765E8 0.05001808462012401 0.18615145929800223 0.949981915379876 -0.18615145929800225 0.949981915379876 -0.18615145929800225 0.05001808462012401 0.18615145929800223
1.840424696745189E8 0.05115262895870611 0.1886469631097281 0.9488473710412939 -0.1886469631097281 0.9488473710412939 -0.1886469631097281 0.05115262895870611 0.1886469631097281
1.8681992888645732E8 0.05231684163216678 0.19117103078052455 0.9476831583678332 -0.19117103078052455 0.9476831583678332 -0.19117103078052455 0.05231684163216678 0.19117103078052455
1.8963930385668582E8 0.053511481686716475 0.19372372264506924 0.9464885183132837 -0.1937237226450693 0.9464885183132837 -0.1937237226450693 0.053511481686716475 0.19372372264506924
1.92501227152835E8 0.054737322608949916 0.1963050858254873 0.9452626773910501 -0.19630508582548736 0.9452626773910501 -0.19630508582548736 0.054737322608949916 0.1963050858254873
1.9540634088886917E8 0.055995152362600296 0.1989151536579254 0.9440048476373998 -0.1989151536579254 0.9440048476373998 -0.1989151536579254 0.055995152362600296 0.1989151536579254
1.983552968691535E8 0.05728577341435479 0.2015539451049967 0.9427142265856451 -0.2015539451049967 0.9427142265856451 -0.2015539451049967 0.05728577341435479 0.2015539451049967
2.0134875673469606E8 0.05861000274810631 0.20422146415395592 0.9413899972518938 -0.2042214641539559 0.9413899972518938 -0.2042214641539559 0.05861000274810631 0.20422146415395592
2.0438739211159652E8 0.05996867186699476 0.20691769920047126 0.9400313281330053 -0.20691769920047126 0.9400313281330053 -0.20691769920047126 0.05996867186699476 0.20691769920047126
2.074718847617352E8 0.061362626782569665 0.2096426224178737 0.9386373732174305 -0.2096426224178737 0.9386373732174305 -0.2096426224178737 0.061362626782569665 0.2096426224178737
2.106029267357361E8 0.062792727990383 0.21239618911177377 0.9372072720096171 -0.21239618911177377 0.9372072720096171 -0.21239618911177377 0.062792727990383 0.21239618911177377
2.1378122052823865E8 0.06425985043129784 0.21517833705994724 0.9357401495687022 -0.21517833705994724 0.9357401495687022 -0.21517833705994724 0.06425985043129784 0.21517833705994724
2.1700747923551247E8 0.06576488343777595 0.21798898583740672 0.934235116562224 -0.21798898583740672 0.934235116562224 -0.21798898583740672 0.06576488343777595 0.21798898583740672
2.2028242671545094E8 0.06730873066437915 0.22082803612658125 0.9326912693356207 -0.22082803612658125 0.9326912693356207 -0.22082803612658125 0.06730873066437915 0.22082803612658125
2.23606797749979E8 0.06889231000169761 0.22369536901254836 0.9311076899983025 -0.22369536901254836 0.9311076899983025 -0.22369536901254836 0.06889231000169761 0.22369536901254836
2.2698133820991236E8 0.07051655347288695 0.22659084526326814 0.929483446527113 -0.22659084526326814 0.929483446527113 -0.22659084526326814 0.07051655347288695 0.22659084526326814
2.3040680522230446E8 0.07218240711196985 0.229514304594789 0.9278175928880301 -0.229514304594789 0.9278175928880301 -0.229514304594789 0.07218240711196985 0.229514304594789
2.338839673403185E8 0.07389083082302628 0.23246556492140538 0.9261091691769737 -0.23246556492140538 0.9261091691769737 -0.23246556492140538 0.07389083082302628 0.23246556492140538
2.37413604715664E8 0.07564279821936433 0.23544442159076673 0.9243572017806357 -0.23544442159076673 0.9243572017806357 -0.23544442159076673 0.07564279821936433 0.23544442159076673
2.4099650927363476E8 0.07743929644173139 0.238450646603954 0.9225607035582686 -0.23845064660395396 0.9225607035582686 -0.23845064660395396 0.07743929644173139 0.238450646603954
2.446334848907889E8 0.07928132595458678 0.2414839878205554 0.9207186740454133 -0.24148398782055538 0.9207186740454133 -0.24148398782055538 0.07928132595458678 0.2414839878205554
2.4832534757531032E8 0.0811699003194211 0.24454416814879884 0.918830099680579 -0.24454416814879884 0.918830099680579 -0.24454416814879884 0.0811699003194211 0.24454416814879884
