!Murata Part Number: LQG15HH12NJ02
!These Parameters are Measured in Series Mode Connection
!       o--[Z]--o
!Port1              Port2
!       o-------o
!
!Freq. Start=50[MHz] Stop=20[GHz], 401[Steps]
# Hz S RI R 50
!Freq.(Hz) S11(Real) S11(Imag) S21(Real) S21(Imag) S12(Real) S12(Imag) S22(Real) S22(Imag)
5.0E7 0.005991072798271464 0.03831467157307143 0.9940089272017286 -0.03831467157307143 0.9940089272017286 -0.03831467157307143 0.005991072798271464 0.03831467157307143
5.0754570186123446E7 0.006070975807844369 0.03885972745384074 0.9939290241921556 -0.03885972745384074 0.9939290241921556 -0.03885972745384074 0.006070975807844369 0.03885972745384074
5.152052789556263E7 0.006152518774645182 0.03941238337892009 0.9938474812253549 -0.03941238337892009 0.9938474812253549 -0.03941238337892009 0.006152518774645182 0.03941238337892009
5.229804498202928E7 0.006235731939532183 0.03997274376687463 0.9937642680604679 -0.03997274376687463 0.9937642680604679 -0.03997274376687463 0.006235731939532183 0.03997274376687463
5.308729589274893E7 0.006320646185220325 0.04054091487791744 0.9936793538147798 -0.04054091487791744 0.9936793538147798 -0.04054091487791744 0.006320646185220325 0.04054091487791744
5.388845770760058E7 0.006407293079196889 0.041117004856725474 0.9935927069208031 -0.04111700485672547 0.9935927069208031 -0.04111700485672547 0.006407293079196889 0.041117004856725474
5.470171017884717E7 0.006495704919137576 0.041701123774889715 0.9935042950808625 -0.041701123774889715 0.9935042950808625 -0.041701123774889715 0.006495704919137576 0.041701123774889715
5.5527235771465644E7 0.006585914780845757 0.04229338367288065 0.9934140852191543 -0.04229338367288065 0.9934140852191543 -0.04229338367288065 0.006585914780845757 0.04229338367288065
5.6365219704085544E7 0.006677956568730477 0.04289389860140858 0.9933220434312695 -0.04289389860140858 0.9933220434312695 -0.04289389860140858 0.006677956568730477 0.04289389860140858
5.721584999054556E7 0.006771865068831119 0.04350278466205632 0.993228134931169 -0.04350278466205632 0.993228134931169 -0.04350278466205632 0.006771865068831119 0.04350278466205632
5.807931748207712E7 0.00686767600438933 0.04412016004706117 0.9931323239956106 -0.04412016004706117 0.9931323239956106 -0.04412016004706117 0.00686767600438933 0.04412016004706117
5.8955815910124585E7 0.0069654260939608584 0.044746145078123044 0.9930345739060391 -0.044746145078123044 0.9930345739060391 -0.044746145078123044 0.0069654260939608584 0.044746145078123044
5.984554192981184E7 0.007065153112052393 0.045380862244115576 0.9929348468879476 -0.045380862244115576 0.9929348468879476 -0.045380862244115576 0.007065153112052393 0.045380862244115576
6.074869516406457E7 0.007166895952260613 0.04602443623757874 0.9928331040477393 -0.046024436237578736 0.9928331040477393 -0.046024436237578736 0.007166895952260613 0.04602443623757874
6.166547824839868E7 0.007270694692883089 0.04667699398987273 0.9927293053071169 -0.046676993989872725 0.9927293053071169 -0.046676993989872725 0.007270694692883089 0.04667699398987273
6.2596096876384385E7 0.0073765906649632725 0.04733866470487576 0.9926234093350367 -0.04733866470487576 0.9926234093350367 -0.04733866470487576 0.0073765906649632725 0.04733866470487576
6.354075984579668E7 0.007484626522724308 0.048009579891111355 0.9925153734772757 -0.048009579891111355 0.9925153734772757 -0.048009579891111355 0.007484626522724308 0.048009579891111355
6.449967910546205E7 0.007594846316339728 0.048689873392194424 0.9924051536836604 -0.048689873392194424 0.9924051536836604 -0.048689873392194424 0.007594846316339728 0.048689873392194424
6.547306980281226E7 0.00770729556698215 0.04937968141548979 0.9922927044330179 -0.04937968141548979 0.9922927044330179 -0.04937968141548979 0.00770729556698215 0.04937968141548979
6.646115033215589E7 0.007822021344085184 0.050079142558882205 0.992177978655915 -0.050079142558882205 0.992177978655915 -0.050079142558882205 0.007822021344085184 0.050079142558882205
6.746414238367817E7 0.007939072344747718 0.050788397835561536 0.9920609276552522 -0.05078839783556152 0.9920609276552522 -0.05078839783556152 0.007939072344747718 0.050788397835561536
6.848227099318038E7 0.008058498975204774 0.05150759069673373 0.9919415010247951 -0.05150759069673372 0.9919415010247951 -0.05150759069673372 0.008058498975204774 0.05150759069673373
6.951576459256999E7 0.008180353434284367 0.052236867052174306 0.9918196465657155 -0.052236867052174306 0.9918196465657155 -0.052236867052174306 0.008180353434284367 0.052236867052174306
7.056485506111258E7 0.00830468979876577 0.052976375288547504 0.9916953102012341 -0.052976375288547504 0.9916953102012341 -0.052976375288547504 0.00830468979876577 0.052976375288547504
7.162977777745734E7 0.008431564110551397 0.053726266285422215 0.9915684358894485 -0.05372626628542223 0.9915684358894485 -0.05372626628542223 0.008431564110551397 0.053726266285422215
7.271077167244768E7 0.008561034465561649 0.054486693428923066 0.9914389655344383 -0.054486693428923066 0.9914389655344383 -0.054486693428923066 0.008561034465561649 0.054486693428923066
7.380807928272885E7 0.00869316110426026 0.055257812622961665 0.9913068388957397 -0.055257812622961665 0.9913068388957397 -0.055257812622961665 0.00869316110426026 0.055257812622961665
7.492194680516452E7 0.008828006503716708 0.05603978229800324 0.9911719934962833 -0.05603978229800326 0.9911719934962833 -0.05603978229800326 0.008828006503716708 0.05603978229800324
7.60526241520746E7 0.0089656354711113 0.05683276341732858 0.9910343645288889 -0.0568327634173286 0.9910343645288889 -0.0568327634173286 0.0089656354711113 0.05683276341732858
7.720036500730675E7 0.009106115238589478 0.05763691948076166 0.9908938847614105 -0.057636919480761654 0.9908938847614105 -0.057636919480761654 0.009106115238589478 0.05763691948076166
7.836542688315398E7 0.009249515559372689 0.05845241652584013 0.9907504844406272 -0.05845241652584013 0.9907504844406272 -0.05845241652584013 0.009249515559372689 0.05845241652584013
7.954807117813127E7 0.009395908805034901 0.05927942312641273 0.9906040911949651 -0.05927942312641273 0.9906040911949651 -0.05927942312641273 0.009395908805034901 0.05927942312641273
8.074856323562416E7 0.009545370063856673 0.06011811038865614 0.9904546299361433 -0.060118110388656124 0.9904546299361433 -0.060118110388656124 0.009545370063856673 0.06011811038865614
8.196717240342227E7 0.00969797724017186 0.06096865194451036 0.9903020227598281 -0.06096865194451037 0.9903020227598281 -0.06096865194451037 0.00969797724017186 0.06096865194451036
8.320417209415154E7 0.009853811154625858 0.06183122394253849 0.9901461888453741 -0.06183122394253849 0.9901461888453741 -0.06183122394253849 0.009853811154625858 0.06183122394253849
8.445983984661816E7 0.010012955645268887 0.06270600503622197 0.9899870443547311 -0.06270600503622197 0.9899870443547311 -0.06270600503622197 0.010012955645268887 0.06270600503622197
8.573445738807854E7 0.010175497669413194 0.06359317636971068 0.9898245023305869 -0.06359317636971068 0.9898245023305869 -0.06359317636971068 0.010175497669413194 0.06359317636971068
8.702831069744885E7 0.010341527406188157 0.06449292156104885 0.9896584725938119 -0.06449292156104885 0.9896584725938119 -0.06449292156104885 0.010341527406188157 0.06449292156104885
8.834169006946853E7 0.010511138359734152 0.06540542668290607 0.9894888616402658 -0.06540542668290607 0.9894888616402658 -0.06540542668290607 0.010511138359734152 0.06540542668290607
8.96748901798321E7 0.010684427462981767 0.06633088024084338 0.9893155725370183 -0.06633088024084338 0.9893155725370183 -0.06633088024084338 0.010684427462981767 0.06633088024084338
9.1028210151304E7 0.010861495181970623 0.06726947314915056 0.9891385048180295 -0.06726947314915056 0.9891385048180295 -0.06726947314915056 0.010861495181970623 0.06726947314915056
9.240195362083109E7 0.011042445620668476 0.06822139870429089 0.9889575543793317 -0.06822139870429089 0.9889575543793317 -0.06822139870429089 0.011042445620668476 0.06822139870429089
9.379642880766791E7 0.011227386626259338 0.06918685255599363 0.9887726133737407 -0.06918685255599363 0.9887726133737407 -0.06918685255599363 0.011227386626259338 0.06918685255599363
9.521194858253023E7 0.011416429894876384 0.07016603267603444 0.9885835701051235 -0.07016603267603444 0.9885835701051235 -0.07016603267603444 0.011416429894876384 0.07016603267603444
9.664883053779216E7 0.011609691077763266 0.0711591393247449 0.9883903089222366 -0.07115913932474488 0.9883903089222366 -0.07115913932474488 0.011609691077763266 0.0711591393247449
9.810739705874248E7 0.011807289887854977 0.07216637501529188 0.9881927101121452 -0.07216637501529188 0.9881927101121452 -0.07216637501529188 0.011807289887854977 0.07216637501529188
9.958797539591652E7 0.0120093502067771 0.07318794447576739 0.9879906497932229 -0.07318794447576739 0.9879906497932229 -0.07318794447576739 0.0120093502067771 0.07318794447576739
1.0109089773851961E8 0.01221600019226961 0.07422405460912662 0.9877839998077305 -0.07422405460912662 0.9877839998077305 -0.07422405460912662 0.01221600019226961 0.07422405460912662
1.0261650128895843E8 0.012427372386048666 0.07527491445101057 0.9875726276139515 -0.07527491445101057 0.9875726276139515 -0.07527491445101057 0.012427372386048666 0.07527491445101057
1.0416512833849736E8 0.012643603822127165 0.07634073512548717 0.987356396177873 -0.07634073512548717 0.987356396177873 -0.07634073512548717 0.012643603822127165 0.07634073512548717
1.0573712634405641E8 0.012864836135621237 0.0774217297987399 0.9871351638643787 -0.0774217297987399 0.9871351638643787 -0.0774217297987399 0.012864836135621237 0.0774217297987399
1.0733284800616828E8 0.013091215672076597 0.0785181136307302 0.9869087843279234 -0.07851811363073022 0.9869087843279234 -0.07851811363073022 0.013091215672076597 0.0785181136307302
1.0895265134811176E8 0.013322893597354718 0.07963010372485484 0.9866771064026453 -0.07963010372485484 0.9866771064026453 -0.07963010372485484 0.013322893597354718 0.07963010372485484
1.1059689979623953E8 0.013560026008124575 0.08075791907561458 0.9864399739918753 -0.08075791907561458 0.9864399739918753 -0.08075791907561458 0.013560026008124575 0.08075791907561458
1.1226596226151802E8 0.01380277404301071 0.08190178051430462 0.9861972259569891 -0.0819017805143046 0.9861972259569891 -0.0819017805143046 0.01380277404301071 0.08190178051430462
1.1396021322229806E8 0.014051303994453769 0.08306191065273219 0.9859486960055464 -0.08306191065273219 0.9859486960055464 -0.08306191065273219 0.014051303994453769 0.08306191065273219
1.1568003280833441E8 0.014305787421343327 0.08423853382495923 0.9856942125786569 -0.08423853382495923 0.9856942125786569 -0.08423853382495923 0.014305787421343327 0.08423853382495923
1.1742580688607343E8 0.01456640126248752 0.08543187602706358 0.9854335987375125 -0.08543187602706358 0.9854335987375125 -0.08543187602706358 0.01456640126248752 0.08543187602706358
1.1919792714522783E8 0.014833327950986621 0.08664216485490302 0.9851666720490134 -0.086642164854903 0.9851666720490134 -0.086642164854903 0.014833327950986621 0.08664216485490302
1.2099679118665792E8 0.015106755529581408 0.0878696294398618 0.9848932444704186 -0.0878696294398618 0.9848932444704186 -0.0878696294398618 0.015106755529581408 0.0878696294398618
1.2282280261157903E8 0.015386877767048978 0.08911450038255063 0.9846131222329509 -0.08911450038255062 0.9846131222329509 -0.08911450038255062 0.015386877767048978 0.08911450038255063
1.2467637111211549E8 0.015673894275721082 0.09037700968442482 0.9843261057242789 -0.0903770096844248 0.9843261057242789 -0.0903770096844248 0.015673894275721082 0.09037700968442482
1.265579125632208E8 0.01596801063020158 0.09165739067727828 0.9840319893697984 -0.09165739067727828 0.9840319893697984 -0.09165739067727828 0.01596801063020158 0.09165739067727828
1.284678491159853E8 0.0162694384873603 0.0929558779505625 0.9837305615126397 -0.0929558779505625 0.9837305615126397 -0.0929558779505625 0.0162694384873603 0.0929558779505625
1.3040660929235186E8 0.01657839570768206 0.09427270727647459 0.983421604292318 -0.09427270727647458 0.983421604292318 -0.09427270727647458 0.01657839570768206 0.09427270727647459
1.3237462808126101E8 0.016895106478049086 0.095608115532749 0.983104893521951 -0.095608115532749 0.983104893521951 -0.095608115532749 0.016895106478049086 0.095608115532749
1.3437234703624701E8 0.017219801436035624 0.09696234062308215 0.9827801985639645 -0.09696234062308215 0.9827801985639645 -0.09696234062308215 0.017219801436035624 0.09696234062308215
1.364002143745067E8 0.017552717795793045 0.09833562139511151 0.9824472822042069 -0.09833562139511151 0.9824472822042069 -0.09833562139511151 0.017552717795793045 0.09833562139511151
1.3845868507746372E8 0.017894099475602974 0.0997281975558641 0.9821059005243971 -0.0997281975558641 0.9821059005243971 -0.0997281975558641 0.017894099475602974 0.0997281975558641
1.405482209928499E8 0.018244197227175143 0.10114030958458145 0.9817558027728249 -0.10114030958458148 0.9817558027728249 -0.10114030958458148 0.018244197227175143 0.10114030958458145
1.426692909383278E8 0.018603268766765713 0.10257219864282388 0.9813967312332343 -0.10257219864282388 0.9813967312332343 -0.10257219864282388 0.018603268766765713 0.10257219864282388
1.4482237080667645E8 0.018971578908190487 0.10402410648174776 0.9810284210918094 -0.10402410648174773 0.9810284210918094 -0.10402410648174773 0.018971578908190487 0.10402410648174776
1.4700794367256513E8 0.01934939969780569 0.1054962753464444 0.9806506003021942 -0.1054962753464444 0.9806506003021942 -0.1054962753464444 0.01934939969780569 0.1054962753464444
1.492264999009378E8 0.019737010551528166 0.10698894787722375 0.9802629894484718 -0.10698894787722375 0.9802629894484718 -0.10698894787722375 0.019737010551528166 0.10698894787722375
1.5147853725703382E8 0.020134698393964517 0.10850236700771713 0.9798653016060357 -0.10850236700771713 0.9798653016060357 -0.10850236700771713 0.020134698393964517 0.10850236700771713
1.5376456101806876E8 0.020542757799717898 0.11003677585967125 0.9794572422002821 -0.11003677585967125 0.9794572422002821 -0.11003677585967125 0.020542757799717898 0.11003677585967125
1.5608508408660066E8 0.020961491136938855 0.11159241763429582 0.9790385088630612 -0.11159241763429582 0.9790385088630612 -0.11159241763429582 0.020961491136938855 0.11159241763429582
1.5844062710560706E8 0.021391208713185412 0.11316953550002269 0.9786087912868144 -0.11316953550002269 0.9786087912868144 -0.11316953550002269 0.021391208713185412 0.11316953550002269
1.6083171857529896E8 0.021832228923656563 0.11476837247653039 0.9781677710763433 -0.11476837247653039 0.9781677710763433 -0.11476837247653039 0.021832228923656563 0.11476837247653039
1.632588949716973E8 0.022284878401860823 0.1163891713148776 0.9777151215981393 -0.1163891713148776 0.9777151215981393 -0.1163891713148776 0.022284878401860823 0.1163891713148776
1.6572270086699936E8 0.022749492172781587 0.11803217437358723 0.9772505078272182 -0.11803217437358723 0.9772505078272182 -0.11803217437358723 0.022749492172781587 0.11803217437358723
1.6822368905176118E8 0.023226413808598762 0.11969762349051383 0.9767735861914013 -0.11969762349051383 0.9767735861914013 -0.11969762349051383 0.023226413808598762 0.11969762349051383
1.7076242065892437E8 0.023715995587025973 0.12138575985032182 0.976284004412974 -0.12138575985032182 0.976284004412974 -0.12138575985032182 0.023715995587025973 0.12138575985032182
1.7333946528971428E8 0.024218598652321243 0.12309682384739482 0.9757814013476788 -0.12309682384739482 0.9757814013476788 -0.12309682384739482 0.024218598652321243 0.12309682384739482
1.7595540114143828E8 0.024734593179028697 0.1248310549439893 0.9752654068209714 -0.1248310549439893 0.9752654068209714 -0.1248310549439893 0.024734593179028697 0.1248310549439893
1.786108151372127E8 0.025264358538508374 0.1265886915234396 0.9747356414614916 -0.1265886915234396 0.9747356414614916 -0.1265886915234396 0.025264358538508374 0.1265886915234396
1.8130630305764765E8 0.025808283468310305 0.12836997073821116 0.9741917165316896 -0.12836997073821113 0.9741917165316896 -0.12836997073821113 0.025808283468310305 0.12836997073821116
1.840424696745189E8 0.026366766244449513 0.1301751283525927 0.9736332337555506 -0.1301751283525927 0.9736332337555506 -0.1301751283525927 0.026366766244449513 0.1301751283525927
1.8681992888645732E8 0.026940214856637765 0.1320043985798087 0.9730597851433622 -0.13200439857980872 0.9730597851433622 -0.13200439857980872 0.026940214856637765 0.1320043985798087
1.8963930385668582E8 0.02752904718652818 0.13385801391332255 0.9724709528134717 -0.13385801391332255 0.9724709528134717 -0.13385801391332255 0.02752904718652818 0.13385801391332255
1.92501227152835E8 0.028133691189028445 0.13573620495209263 0.9718663088109716 -0.13573620495209263 0.9718663088109716 -0.13573620495209263 0.028133691189028445 0.13573620495209263
1.9540634088886917E8 0.028754585076738292 0.13763920021953047 0.9712454149232617 -0.13763920021953047 0.9712454149232617 -0.13763920021953047 0.028754585076738292 0.13763920021953047
1.983552968691535E8 0.029392177507566803 0.1395672259758996 0.9706078224924332 -0.13956722597589957 0.9706078224924332 -0.13956722597589957 0.029392177507566803 0.1395672259758996
2.0134875673469606E8 0.03004692777558499 0.14152050602388105 0.969953072224415 -0.14152050602388105 0.969953072224415 -0.14152050602388105 0.03004692777558499 0.14152050602388105
2.0438739211159652E8 0.030719306005166865 0.14349926150701428 0.9692806939948332 -0.14349926150701428 0.9692806939948332 -0.14349926150701428 0.030719306005166865 0.14349926150701428
2.074718847617352E8 0.03140979334847392 0.1455037107007128 0.9685902066515262 -0.1455037107007128 0.9685902066515262 -0.1455037107007128 0.03140979334847392 0.1455037107007128
2.106029267357361E8 0.032118882186333964 0.14753406879553244 0.967881117813666 -0.1475340687955324 0.967881117813666 -0.1475340687955324 0.032118882186333964 0.14753406879553244
2.1378122052823865E8 0.032847076332564513 0.14959054767235558 0.9671529236674355 -0.14959054767235558 0.9671529236674355 -0.14959054767235558 0.032847076332564513 0.14959054767235558
2.1700747923551247E8 0.03359489124178839 0.15167335566913562 0.9664051087582116 -0.15167335566913562 0.9664051087582116 -0.15167335566913562 0.03359489124178839 0.15167335566913562
2.2028242671545094E8 0.03436285422078485 0.15378269733882508 0.9656371457792152 -0.15378269733882508 0.9656371457792152 -0.15378269733882508 0.03436285422078485 0.15378269733882508
2.23606797749979E8 0.035151504643415946 0.15591877319809025 0.9648484953565839 -0.15591877319809025 0.9648484953565839 -0.15591877319809025 0.035151504643415946 0.15591877319809025
2.2698133820991236E8 0.03596139416916188 0.15808177946639265 0.9640386058308382 -0.15808177946639265 0.9640386058308382 -0.15808177946639265 0.03596139416916188 0.15808177946639265
2.3040680522230446E8 0.03679308696529219 0.16027190779499226 0.9632069130347077 -0.16027190779499226 0.9632069130347077 -0.16027190779499226 0.03679308696529219 0.16027190779499226
2.338839673403185E8 0.03764715993269155 0.16248934498540374 0.9623528400673084 -0.16248934498540377 0.9623528400673084 -0.16248934498540377 0.03764715993269155 0.16248934498540374
2.37413604715664E8 0.038524202935348785 0.16473427269680826 0.961475797064651 -0.16473427269680824 0.961475797064651 -0.16473427269680824 0.038524202935348785 0.16473427269680826
2.4099650927363476E8 0.03942481903350582 0.16700686714189555 0.9605751809664941 -0.16700686714189555 0.9605751809664941 -0.16700686714189555 0.03942481903350582 0.16700686714189555
2.446334848907889E8 0.04034962472044995 0.1693072987705824 0.95965037527955 -0.16930729877058243 0.95965037527955 -0.16930729877058243 0.04034962472044995 0.1693072987705824
