!Murata Part Number: LQG15HH10NJ02
!These Parameters are Measured in Series Mode Connection
!       o--[Z]--o
!Port1              Port2
!       o-------o
!
!Freq. Start=50[MHz] Stop=20[GHz], 401[Steps]
# Hz S RI R 50
!Freq.(Hz) S11(Real) S11(Imag) S21(Real) S21(Imag) S12(Real) S12(Imag) S22(Real) S22(Imag)
5.0E7 0.005185284126883341 0.03279162711908755 0.9948147158731168 -0.03279162711908755 0.9948147158731168 -0.03279162711908755 0.005185284126883341 0.03279162711908755
5.0754570186123446E7 0.005249262233713887 0.033259163164424725 0.9947507377662861 -0.03325916316442473 0.9947507377662861 -0.03325916316442473 0.005249262233713887 0.033259163164424725
5.152052789556263E7 0.005314525929850096 0.03373319838986539 0.9946854740701498 -0.03373319838986539 0.9946854740701498 -0.03373319838986539 0.005314525929850096 0.03373319838986539
5.229804498202928E7 0.0053810961452529825 0.034213821613758084 0.994618903854747 -0.03421382161375809 0.994618903854747 -0.03421382161375809 0.0053810961452529825 0.034213821613758084
5.308729589274893E7 0.005448994160852884 0.034701123257705566 0.9945510058391471 -0.034701123257705566 0.9945510058391471 -0.034701123257705566 0.005448994160852884 0.034701123257705566
5.388845770760058E7 0.005518241638768328 0.035195195387836005 0.9944817583612316 -0.035195195387836005 0.9944817583612316 -0.035195195387836005 0.005518241638768328 0.035195195387836005
5.470171017884717E7 0.005588860654656815 0.035696131756086366 0.9944111393453432 -0.03569613175608637 0.9944111393453432 -0.03569613175608637 0.005588860654656815 0.035696131756086366
5.5527235771465644E7 0.005660873732233258 0.03620402784139844 0.9943391262677667 -0.036204027841398444 0.9943391262677667 -0.036204027841398444 0.005660873732233258 0.03620402784139844
5.6365219704085544E7 0.005734303879985664 0.036718980890724846 0.9942656961200144 -0.036718980890724846 0.9942656961200144 -0.036718980890724846 0.005734303879985664 0.036718980890724846
5.721584999054556E7 0.005809174630111334 0.03724108995974006 0.9941908253698887 -0.03724108995974006 0.9941908253698887 -0.03724108995974006 0.005809174630111334 0.03724108995974006
5.807931748207712E7 0.005885510079690192 0.037770455953148985 0.9941144899203099 -0.03777045595314899 0.9941144899203099 -0.03777045595314899 0.005885510079690192 0.037770455953148985
5.8955815910124585E7 0.005963334934105205 0.038307181664484526 0.9940366650658947 -0.038307181664484526 0.9940366650658947 -0.038307181664484526 0.005963334934105205 0.038307181664484526
5.984554192981184E7 0.006042674552712618 0.03885137181528454 0.9939573254472873 -0.03885137181528454 0.9939573254472873 -0.03885137181528454 0.006042674552712618 0.03885137181528454
6.074869516406457E7 0.006123554996757779 0.03940313309353778 0.9938764450032421 -0.03940313309353778 0.9938764450032421 -0.03940313309353778 0.006123554996757779 0.03940313309353778
6.166547824839868E7 0.006206003079525209 0.03996257419128964 0.993793996920475 -0.03996257419128964 0.993793996920475 -0.03996257419128964 0.006206003079525209 0.03996257419128964
6.2596096876384385E7 0.006290046418704194 0.040529805841298235 0.9937099535812959 -0.040529805841298235 0.9937099535812959 -0.040529805841298235 0.006290046418704194 0.040529805841298235
6.354075984579668E7 0.0063757134909443475 0.04110494085263411 0.9936242865090557 -0.041104940852634116 0.9936242865090557 -0.041104940852634116 0.0063757134909443475 0.04110494085263411
6.449967910546205E7 0.006463033688568331 0.04168809414511768 0.9935369663114316 -0.04168809414511768 0.9935369663114316 -0.04168809414511768 0.006463033688568331 0.04168809414511768
6.547306980281226E7 0.006552037378402407 0.04227938278249264 0.9934479626215974 -0.04227938278249263 0.9934479626215974 -0.04227938278249263 0.006552037378402407 0.04227938278249264
6.646115033215589E7 0.006642755962678708 0.04287892600423594 0.9933572440373212 -0.04287892600423594 0.9933572440373212 -0.04287892600423594 0.006642755962678708 0.04287892600423594
6.746414238367817E7 0.006735221941957 0.043486845255909304 0.9932647780580429 -0.043486845255909304 0.9932647780580429 -0.043486845255909304 0.006735221941957 0.043486845255909304
6.848227099318038E7 0.006829468980007832 0.044103264217961735 0.9931705310199924 -0.04410326421796174 0.9931705310199924 -0.04410326421796174 0.006829468980007832 0.044103264217961735
6.951576459256999E7 0.006925531970593511 0.044728308832897794 0.9930744680294066 -0.044728308832897794 0.9930744680294066 -0.044728308832897794 0.006925531970593511 0.044728308832897794
7.056485506111258E7 0.007023447106078393 0.04536210733073144 0.9929765528939216 -0.04536210733073144 0.9929765528939216 -0.04536210733073144 0.007023447106078393 0.04536210733073144
7.162977777745734E7 0.007123251947795422 0.04600479025265143 0.9928767480522047 -0.04600479025265143 0.9928767480522047 -0.04600479025265143 0.007123251947795422 0.04600479025265143
7.271077167244768E7 0.007224985498092284 0.046656490472831116 0.9927750145019077 -0.046656490472831116 0.9927750145019077 -0.046656490472831116 0.007224985498092284 0.046656490472831116
7.380807928272885E7 0.0073286882739768714 0.047317343218321276 0.9926713117260231 -0.047317343218321276 0.9926713117260231 -0.047317343218321276 0.0073286882739768714 0.047317343218321276
7.492194680516452E7 0.007434402382279671 0.0479874860869727 0.9925655976177205 -0.047987486086972696 0.9925655976177205 -0.047987486086972696 0.007434402382279671 0.0479874860869727
7.60526241520746E7 0.007542171596248175 0.04866705906334122 0.992457828403752 -0.04866705906334123 0.992457828403752 -0.04866705906334123 0.007542171596248175 0.04866705906334122
7.720036500730675E7 0.00765204143348773 0.04935620453253649 0.9923479585665124 -0.049356204532536495 0.9923479585665124 -0.049356204532536495 0.00765204143348773 0.04935620453253649
7.836542688315398E7 0.007764059235162407 0.05005506729198228 0.9922359407648375 -0.05005506729198228 0.9922359407648375 -0.05005506729198228 0.007764059235162407 0.05005506729198228
7.954807117813127E7 0.007878274246369697 0.05076379456106388 0.9921217257536304 -0.05076379456106387 0.9921217257536304 -0.05076379456106387 0.007878274246369697 0.05076379456106388
8.074856323562416E7 0.007994737697603919 0.05148253598864569 0.9920052623023963 -0.0514825359886457 0.9920052623023963 -0.0514825359886457 0.007994737697603919 0.05148253598864569
8.196717240342227E7 0.008113502887224611 0.052211443658448854 0.9918864971127752 -0.05221144365844884 0.9918864971127752 -0.05221144365844884 0.008113502887224611 0.052211443658448854
8.320417209415154E7 0.00823462526484876 0.05295067209228658 0.9917653747351511 -0.05295067209228658 0.9917653747351511 -0.05295067209228658 0.00823462526484876 0.05295067209228658
8.445983984661816E7 0.008358162515588392 0.05370037825116051 0.9916418374844117 -0.05370037825116051 0.9916418374844117 -0.05370037825116051 0.008358162515588392 0.05370037825116051
8.573445738807854E7 0.008484174645059043 0.05446072153422906 0.991515825354941 -0.05446072153422906 0.991515825354941 -0.05446072153422906 0.008484174645059043 0.05446072153422906
8.702831069744885E7 0.008612724065088487 0.05523186377566405 0.9913872759349115 -0.05523186377566405 0.9913872759349115 -0.05523186377566405 0.008612724065088487 0.05523186377566405
8.834169006946853E7 0.008743875680060118 0.05601396923941703 0.9912561243199398 -0.05601396923941703 0.9912561243199398 -0.05601396923941703 0.008743875680060118 0.05601396923941703
8.96748901798321E7 0.008877696973830696 0.056807204611923554 0.9911223030261693 -0.056807204611923554 0.9911223030261693 -0.056807204611923554 0.008877696973830696 0.056807204611923554
9.1028210151304E7 0.009014258097167849 0.05761173899277608 0.9909857419028321 -0.05761173899277609 0.9909857419028321 -0.05761173899277609 0.009014258097167849 0.05761173899277608
9.240195362083109E7 0.009153631955658806 0.058427743883401516 0.9908463680443412 -0.058427743883401516 0.9908463680443412 -0.058427743883401516 0.009153631955658806 0.058427743883401516
9.379642880766791E7 0.009295894298048803 0.0592553931737826 0.990704105701951 -0.05925539317378261 0.990704105701951 -0.05925539317378261 0.009295894298048803 0.0592553931737826
9.521194858253023E7 0.009441123804973734 0.06009486312726424 0.9905588761950264 -0.06009486312726424 0.9905588761950264 -0.06009486312726424 0.009441123804973734 0.06009486312726424
9.664883053779216E7 0.009589402178059469 0.060946332363489356 0.9904105978219405 -0.060946332363489356 0.9904105978219405 -0.060946332363489356 0.009589402178059469 0.060946332363489356
9.810739705874248E7 0.0097408142293667 0.061809981839508664 0.9902591857706334 -0.061809981839508664 0.9902591857706334 -0.061809981839508664 0.0097408142293667 0.061809981839508664
9.958797539591652E7 0.009895447971168104 0.06268599482911034 0.990104552028832 -0.06268599482911034 0.990104552028832 -0.06268599482911034 0.009895447971168104 0.06268599482911034
1.0109089773851961E8 0.010053394706051542 0.06357455690041573 0.9899466052939484 -0.06357455690041573 0.9899466052939484 -0.06357455690041573 0.010053394706051542 0.06357455690041573
1.0261650128895843E8 0.01021474911735055 0.0644758558917858 0.9897852508826493 -0.0644758558917858 0.9897852508826493 -0.0644758558917858 0.01021474911735055 0.0644758558917858
1.0416512833849736E8 0.010379609359910473 0.06539008188608227 0.9896203906400894 -0.06539008188608228 0.9896203906400894 -0.06539008188608228 0.010379609359910473 0.06539008188608227
1.0573712634405641E8 0.010548077151205787 0.06631742718332538 0.9894519228487942 -0.06631742718332538 0.9894519228487942 -0.06631742718332538 0.010548077151205787 0.06631742718332538
1.0733284800616828E8 0.010720257862830804 0.06725808627178707 0.9892797421371692 -0.06725808627178709 0.9892797421371692 -0.06725808627178709 0.010720257862830804 0.06725808627178707
1.0895265134811176E8 0.010896260612392952 0.0682122557975563 0.9891037393876071 -0.0682122557975563 0.9891037393876071 -0.0682122557975563 0.010896260612392952 0.0682122557975563
1.1059689979623953E8 0.011076198355843588 0.06918013453260756 0.9889238016441564 -0.06918013453260757 0.9889238016441564 -0.06918013453260757 0.011076198355843588 0.06918013453260756
1.1226596226151802E8 0.011260187980287828 0.07016192334140199 0.9887398120197123 -0.07016192334140199 0.9887398120197123 -0.07016192334140199 0.011260187980287828 0.07016192334140199
1.1396021322229806E8 0.011448350397320124 0.0711578251460431 0.98855164960268 -0.0711578251460431 0.98855164960268 -0.0711578251460431 0.011448350397320124 0.0711578251460431
1.1568003280833441E8 0.011640810636937424 0.07216804489000549 0.9883591893630626 -0.07216804489000549 0.9883591893630626 -0.07216804489000549 0.011640810636937424 0.07216804489000549
1.1742580688607343E8 0.011837697942086861 0.07319278950044934 0.9881623020579131 -0.07319278950044934 0.9881623020579131 -0.07319278950044934 0.011837697942086861 0.07319278950044934
1.1919792714522783E8 0.012039145863908696 0.07423226784912647 0.9879608541360914 -0.07423226784912647 0.9879608541360914 -0.07423226784912647 0.012039145863908696 0.07423226784912647
1.2099679118665792E8 0.012245292357739324 0.07528669071187838 0.9877547076422606 -0.07528669071187838 0.9877547076422606 -0.07528669071187838 0.012245292357739324 0.07528669071187838
1.2282280261157903E8 0.01245627987994234 0.07635627072672047 0.9875437201200575 -0.07635627072672047 0.9875437201200575 -0.07635627072672047 0.01245627987994234 0.07635627072672047
1.2467637111211549E8 0.012672255485638417 0.07744122235049887 0.9873277445143618 -0.07744122235049887 0.9873277445143618 -0.07744122235049887 0.012672255485638417 0.07744122235049887
1.265579125632208E8 0.012893370927406916 0.0785417618141 0.9871066290725932 -0.0785417618141 0.9871066290725932 -0.0785417618141 0.012893370927406916 0.0785417618141
1.284678491159853E8 0.013119782755034236 0.07965810707618706 0.986880217244966 -0.07965810707618706 0.986880217244966 -0.07965810707618706 0.013119782755034236 0.07965810707618706
1.3040660929235186E8 0.013351652416384661 0.08079047777542818 0.9866483475836152 -0.0807904777754282 0.9866483475836152 -0.0807904777754282 0.013351652416384661 0.08079047777542818
1.3237462808126101E8 0.013589146359470746 0.08193909518117679 0.9864108536405293 -0.08193909518117679 0.9864108536405293 -0.08193909518117679 0.013589146359470746 0.08193909518117679
1.3437234703624701E8 0.013832436135800348 0.08310418214255531 0.9861675638641997 -0.0831041821425553 0.9861675638641997 -0.0831041821425553 0.013832436135800348 0.08310418214255531
1.364002143745067E8 0.01408169850507713 0.08428596303588792 0.9859183014949229 -0.08428596303588792 0.9859183014949229 -0.08428596303588792 0.01408169850507713 0.08428596303588792
1.3845868507746372E8 0.014337115541331324 0.08548466371042066 0.9856628844586687 -0.08548466371042066 0.9856628844586687 -0.08548466371042066 0.014337115541331324 0.08548466371042066
1.405482209928499E8 0.014598874740555753 0.08670051143225979 0.9854011252594442 -0.08670051143225979 0.9854011252594442 -0.08670051143225979 0.014598874740555753 0.08670051143225979
1.426692909383278E8 0.014867169129921797 0.08793373482645449 0.9851328308700781 -0.08793373482645449 0.9851328308700781 -0.08793373482645449 0.014867169129921797 0.08793373482645449
1.4482237080667645E8 0.01514219737864721 0.08918456381714096 0.9848578026213528 -0.08918456381714097 0.9848578026213528 -0.08918456381714097 0.01514219737864721 0.08918456381714096
1.4700794367256513E8 0.015424163910586606 0.0904532295656612 0.9845758360894132 -0.09045322956566121 0.9845758360894132 -0.09045322956566121 0.015424163910586606 0.0904532295656612
1.492264999009378E8 0.015713279018612632 0.09173996440656222 0.9842867209813874 -0.09173996440656222 0.9842867209813874 -0.09173996440656222 0.015713279018612632 0.09173996440656222
1.5147853725703382E8 0.01600975898085352 0.093045001781376 0.9839902410191464 -0.09304500178137601 0.9839902410191464 -0.09304500178137601 0.01600975898085352 0.093045001781376
1.5376456101806876E8 0.016313826178849834 0.09436857617007506 0.9836861738211501 -0.09436857617007506 0.9836861738211501 -0.09436857617007506 0.016313826178849834 0.09436857617007506
1.5608508408660066E8 0.01662570921769062 0.09571092302009328 0.9833742907823095 -0.09571092302009328 0.9833742907823095 -0.09571092302009328 0.01662570921769062 0.09571092302009328
1.5844062710560706E8 0.01694564304818553 0.09707227867279526 0.9830543569518146 -0.09707227867279528 0.9830543569518146 -0.09707227867279528 0.01694564304818553 0.09707227867279526
1.6083171857529896E8 0.0172738690911271 0.09845288028727502 0.982726130908873 -0.09845288028727503 0.982726130908873 -0.09845288028727503 0.0172738690911271 0.09845288028727502
1.632588949716973E8 0.01761063536369354 0.09985296576135763 0.9823893646363064 -0.09985296576135763 0.9823893646363064 -0.09985296576135763 0.01761063536369354 0.09985296576135763
1.6572270086699936E8 0.01795619660803921 0.10127277364967448 0.9820438033919608 -0.10127277364967448 0.9820438033919608 -0.10127277364967448 0.01795619660803921 0.10127277364967448
1.6822368905176118E8 0.018310814422116947 0.10271254307867782 0.981689185577883 -0.10271254307867779 0.981689185577883 -0.10271254307867779 0.018310814422116947 0.10271254307867782
1.7076242065892437E8 0.018674757392773078 0.1041725136584574 0.9813252426072268 -0.1041725136584574 0.9813252426072268 -0.1041725136584574 0.018674757392773078 0.1041725136584574
1.7333946528971428E8 0.019048301231152316 0.10565292539121579 0.9809516987688476 -0.10565292539121579 0.9809516987688476 -0.10565292539121579 0.019048301231152316 0.10565292539121579
1.7595540114143828E8 0.019431728910447345 0.10715401857625768 0.9805682710895527 -0.10715401857625768 0.9805682710895527 -0.10715401857625768 0.019431728910447345 0.10715401857625768
1.786108151372127E8 0.019825330806024506 0.10867603371134367 0.9801746691939754 -0.10867603371134368 0.9801746691939754 -0.10867603371134368 0.019825330806024506 0.10867603371134367
1.8130630305764765E8 0.020229404837953987 0.1102192113902551 0.979770595162046 -0.1102192113902551 0.979770595162046 -0.1102192113902551 0.020229404837953987 0.1102192113902551
1.840424696745189E8 0.020644256615970587 0.11178379219641349 0.9793557433840293 -0.11178379219641349 0.9793557433840293 -0.11178379219641349 0.020644256615970587 0.11178379219641349
1.8681992888645732E8 0.021070199586888255 0.11337001659239454 0.9789298004131118 -0.11337001659239455 0.9789298004131118 -0.11337001659239455 0.021070199586888255 0.11337001659239454
1.8963930385668582E8 0.021507555184489654 0.11497812480517332 0.9784924448155103 -0.11497812480517332 0.9784924448155103 -0.11497812480517332 0.021507555184489654 0.11497812480517332
1.92501227152835E8 0.021956652981909422 0.11660835670693281 0.9780433470180905 -0.11660835670693281 0.9780433470180905 -0.11660835670693281 0.021956652981909422 0.11660835670693281
1.9540634088886917E8 0.02241783084652806 0.1182609516912652 0.9775821691534721 -0.11826095169126523 0.9775821691534721 -0.11826095169126523 0.02241783084652806 0.1182609516912652
1.983552968691535E8 0.02289143509739189 0.11993614854459031 0.9771085649026081 -0.11993614854459028 0.9771085649026081 -0.11993614854459028 0.02289143509739189 0.11993614854459031
2.0134875673469606E8 0.023377820665172782 0.12163418531261276 0.9766221793348271 -0.12163418531261276 0.9766221793348271 -0.12163418531261276 0.023377820665172782 0.12163418531261276
2.0438739211159652E8 0.023877351254679796 0.12335529916163343 0.9761226487453203 -0.12335529916163343 0.9761226487453203 -0.12335529916163343 0.023877351254679796 0.12335529916163343
2.074718847617352E8 0.024390399509934855 0.12509972623452734 0.975609600490065 -0.12509972623452734 0.975609600490065 -0.12509972623452734 0.024390399509934855 0.12509972623452734
2.106029267357361E8 0.024917347181822216 0.12686770150119397 0.9750826528181777 -0.12686770150119397 0.9750826528181777 -0.12686770150119397 0.024917347181822216 0.12686770150119397
2.1378122052823865E8 0.02545858529832212 0.12865945860328062 0.9745414147016778 -0.12865945860328062 0.9745414147016778 -0.12865945860328062 0.02545858529832212 0.12865945860328062
2.1700747923551247E8 0.026014514337337705 0.13047522969297398 0.9739854856626623 -0.13047522969297398 0.9739854856626623 -0.13047522969297398 0.026014514337337705 0.13047522969297398
2.2028242671545094E8 0.02658554440212417 0.13231524526564695 0.973414455597876 -0.13231524526564695 0.973414455597876 -0.13231524526564695 0.02658554440212417 0.13231524526564695
2.23606797749979E8 0.027172095399328487 0.1341797339861415 0.9728279046006715 -0.1341797339861415 0.9728279046006715 -0.1341797339861415 0.027172095399328487 0.1341797339861415
2.2698133820991236E8 0.02777459721964828 0.13606892250846023 0.9722254027803517 -0.13606892250846023 0.9722254027803517 -0.13606892250846023 0.02777459721964828 0.13606892250846023
2.3040680522230446E8 0.028393489921117357 0.1379830352886288 0.9716065100788825 -0.1379830352886288 0.9716065100788825 -0.1379830352886288 0.028393489921117357 0.1379830352886288
2.338839673403185E8 0.02902922391502561 0.13992229439048412 0.9709707760849743 -0.13992229439048412 0.9709707760849743 -0.13992229439048412 0.02902922391502561 0.13992229439048412
2.37413604715664E8 0.02968226015448028 0.14188691928413075 0.9703177398455197 -0.14188691928413075 0.9703177398455197 -0.14188691928413075 0.02968226015448028 0.14188691928413075
2.4099650927363476E8 0.030353070325614632 0.14387712663679664 0.9696469296743851 -0.14387712663679664 0.9696469296743851 -0.14387712663679664 0.030353070325614632 0.14387712663679664
2.446334848907889E8 0.031042137041449345 0.1458931300958077 0.9689578629585506 -0.1458931300958077 0.9689578629585506 -0.1458931300958077 0.031042137041449345 0.1458931300958077
