!Murata Part Number: LQG15HH1N0S02
!These Parameters are Measured in Series Mode Connection
!       o--[Z]--o
!Port1              Port2
!       o-------o
!
!Freq. Start=50[MHz] Stop=20[GHz], 401[Steps]
# Hz S RI R 50
!Freq.(Hz) S11(Real) S11(Imag) S21(Real) S21(Imag) S12(Real) S12(Imag) S22(Real) S22(Imag)
5.0E7 4.2501604243979957E-4 0.004086415063350761 0.9995749839575604 -0.004086415063350761 0.9995749839575604 -0.004086415063350761 4.2501604243979957E-4 0.004086415063350761
5.0754570186123446E7 4.2891224007637245E-4 0.004145033747549031 0.9995710877599236 -0.004145033747549031 0.9995710877599236 -0.004145033747549031 4.2891224007637245E-4 0.004145033747549031
5.152052789556263E7 4.328364901848673E-4 0.0042044892482610025 0.999567163509815 -0.004204489248261002 0.999567163509815 -0.004204489248261002 4.328364901848673E-4 0.0042044892482610025
5.229804498202928E7 4.3678825033888734E-4 0.004264794687319129 0.9995632117496612 -0.004264794687319129 0.9995632117496612 -0.004264794687319129 4.3678825033888734E-4 0.004264794687319129
5.308729589274893E7 4.4076699636194124E-4 0.004325963429559569 0.9995592330036381 -0.004325963429559569 0.9995592330036381 -0.004325963429559569 4.4076699636194124E-4 0.004325963429559569
5.388845770760058E7 4.4477222518215885E-4 0.004388009085799245 0.9995552277748181 -0.0043880090857992445 0.9995552277748181 -0.0043880090857992445 4.4477222518215885E-4 0.004388009085799245
5.470171017884717E7 4.4880345771358004E-4 0.004450945515721083 0.9995511965422864 -0.004450945515721082 0.9995511965422864 -0.004450945515721082 4.4880345771358004E-4 0.004450945515721083
5.5527235771465644E7 4.5286024175579103E-4 0.004514786830666915 0.9995471397582443 -0.004514786830666916 0.9995471397582443 -0.004514786830666916 4.5286024175579103E-4 0.004514786830666915
5.6365219704085544E7 4.569421549036421E-4 0.004579547396338315 0.9995430578450963 -0.004579547396338315 0.9995430578450963 -0.004579547396338315 4.569421549036421E-4 0.004579547396338315
5.721584999054556E7 4.6104880745877663E-4 0.00464524183540615 0.9995389511925413 -0.00464524183540615 0.9995389511925413 -0.00464524183540615 4.6104880745877663E-4 0.00464524183540615
5.807931748207712E7 4.6517984533476977E-4 0.004711885030030401 0.9995348201546653 -0.004711885030030401 0.9995348201546653 -0.004711885030030401 4.6517984533476977E-4 0.004711885030030401
5.8955815910124585E7 4.6933495294778114E-4 0.004779492124292342 0.9995306650470523 -0.004779492124292342 0.9995306650470523 -0.004779492124292342 4.6933495294778114E-4 0.004779492124292342
5.984554192981184E7 4.735138560848098E-4 0.004848078526541897 0.9995264861439149 -0.004848078526541897 0.9995264861439149 -0.004848078526541897 4.735138560848098E-4 0.004848078526541897
6.074869516406457E7 4.7771632474184284E-4 0.004917659911663475 0.9995222836752581 -0.004917659911663475 0.9995222836752581 -0.004917659911663475 4.7771632474184284E-4 0.004917659911663475
6.166547824839868E7 4.819421759244813E-4 0.004988252223264318 0.9995180578240755 -0.004988252223264318 0.9995180578240755 -0.004988252223264318 4.819421759244813E-4 0.004988252223264318
6.2596096876384385E7 4.8619127640392445E-4 0.005059871675789811 0.9995138087235961 -0.005059871675789811 0.9995138087235961 -0.005059871675789811 4.8619127640392445E-4 0.005059871675789811
6.354075984579668E7 4.904635454215795E-4 0.005132534756570844 0.9995095364545783 -0.005132534756570844 0.9995095364545783 -0.005132534756570844 4.904635454215795E-4 0.005132534756570844
6.449967910546205E7 4.947589573359437E-4 0.005206258227808733 0.9995052410426641 -0.005206258227808732 0.9995052410426641 -0.005206258227808732 4.947589573359437E-4 0.005206258227808733
6.547306980281226E7 4.990775442058641E-4 0.005281059128503648 0.999500922455794 -0.005281059128503647 0.999500922455794 -0.005281059128503647 4.990775442058641E-4 0.005281059128503648
6.646115033215589E7 5.034193983047429E-4 0.0053569547763330245 0.9994965806016952 -0.0053569547763330245 0.9994965806016952 -0.0053569547763330245 5.034193983047429E-4 0.0053569547763330245
6.746414238367817E7 5.077846745607578E-4 0.005433962769486588 0.9994922153254393 -0.005433962769486589 0.9994922153254393 -0.005433962769486589 5.077846745607578E-4 0.005433962769486588
6.848227099318038E7 5.121735929186911E-4 0.005512100988465156 0.9994878264070812 -0.005512100988465157 0.9994878264070812 -0.005512100988465157 5.121735929186911E-4 0.005512100988465156
6.951576459256999E7 5.165864406195004E-4 0.0055913875978505 0.9994834135593804 -0.0055913875978505 0.9994834135593804 -0.0055913875978505 5.165864406195004E-4 0.0055913875978505
7.056485506111258E7 5.210235743943196E-4 0.005671841048053824 0.9994789764256057 -0.0056718410480538235 0.9994789764256057 -0.0056718410480538235 5.210235743943196E-4 0.005671841048053824
7.162977777745734E7 5.254854225701386E-4 0.005753480077050588 0.9994745145774298 -0.005753480077050588 0.9994745145774298 -0.005753480077050588 5.254854225701386E-4 0.005753480077050588
7.271077167244768E7 5.299724870849826E-4 0.005836323712109524 0.9994700275129148 -0.005836323712109524 0.9994700275129148 -0.005836323712109524 5.299724870849826E-4 0.005836323712109524
7.380807928272885E7 5.34485345410964E-4 0.005920391271523712 0.9994655146545891 -0.005920391271523712 0.9994655146545891 -0.005920391271523712 5.34485345410964E-4 0.005920391271523712
7.492194680516452E7 5.390246523841577E-4 0.006005702366351704 0.9994609753476158 -0.006005702366351704 0.9994609753476158 -0.006005702366351704 5.390246523841577E-4 0.006005702366351704
7.60526241520746E7 5.43591141940779E-4 0.006092276902176575 0.9994564088580591 -0.006092276902176575 0.9994564088580591 -0.006092276902176575 5.43591141940779E-4 0.006092276902176575
7.720036500730675E7 5.481856287596906E-4 0.006180135080890734 0.9994518143712403 -0.006180135080890734 0.9994518143712403 -0.006180135080890734 5.481856287596906E-4 0.006180135080890734
7.836542688315398E7 5.528090098117777E-4 0.00626929740251425 0.9994471909901881 -0.00626929740251425 0.9994471909901881 -0.00626929740251425 5.528090098117777E-4 0.00626929740251425
7.954807117813127E7 5.574622658172265E-4 0.006359784667054281 0.9994425377341828 -0.006359784667054281 0.9994425377341828 -0.006359784667054281 5.574622658172265E-4 0.006359784667054281
8.074856323562416E7 5.621464626121939E-4 0.006451617976412945 0.9994378535373878 -0.006451617976412944 0.9994378535373878 -0.006451617976412944 5.621464626121939E-4 0.006451617976412945
8.196717240342227E7 5.668627524268299E-4 0.006544818736350903 0.9994331372475733 -0.006544818736350903 0.9994331372475733 -0.006544818736350903 5.668627524268299E-4 0.006544818736350903
8.320417209415154E7 5.716123750769903E-4 0.006639408658513536 0.9994283876249229 -0.006639408658513536 0.9994283876249229 -0.006639408658513536 5.716123750769903E-4 0.006639408658513536
8.445983984661816E7 5.763966590723734E-4 0.006735409762526348 0.9994236033409276 -0.006735409762526348 0.9994236033409276 -0.006735409762526348 5.763966590723734E-4 0.006735409762526348
8.573445738807854E7 5.812170226441599E-4 0.0068328443781660335 0.9994187829773558 -0.0068328443781660335 0.9994187829773558 -0.0068328443781660335 5.812170226441599E-4 0.0068328443781660335
8.702831069744885E7 5.860749746955338E-4 0.006931735147613198 0.9994139250253045 -0.006931735147613198 0.9994139250253045 -0.006931735147613198 5.860749746955338E-4 0.006931735147613198
8.834169006946853E7 5.909721156787403E-4 0.0070321050277924665 0.9994090278843213 -0.0070321050277924665 0.9994090278843213 -0.0070321050277924665 5.909721156787403E-4 0.0070321050277924665
8.96748901798321E7 5.959101384025724E-4 0.0071339772928053664 0.9994040898615973 -0.0071339772928053664 0.9994040898615973 -0.0071339772928053664 5.959101384025724E-4 0.0071339772928053664
9.1028210151304E7 6.008908287743772E-4 0.007237375536461034 0.9993991091712255 -0.0072373755364610335 0.9993991091712255 -0.0072373755364610335 6.008908287743772E-4 0.007237375536461034
9.240195362083109E7 6.059160664808312E-4 0.007342323674909379 0.9993940839335191 -0.007342323674909377 0.9993940839335191 -0.007342323674909377 6.059160664808312E-4 0.007342323674909379
9.379642880766791E7 6.109878256118633E-4 0.007448845949381081 0.999389012174388 -0.007448845949381081 0.999389012174388 -0.007448845949381081 6.109878256118633E-4 0.007448845949381081
9.521194858253023E7 6.161081752321953E-4 0.007556966929038376 0.9993838918247677 -0.007556966929038376 0.9993838918247677 -0.007556966929038376 6.161081752321953E-4 0.007556966929038376
9.664883053779216E7 6.212792799050278E-4 0.007666711513940296 0.9993787207200949 -0.007666711513940295 0.9993787207200949 -0.007666711513940295 6.212792799050278E-4 0.007666711513940296
9.810739705874248E7 6.265034001724239E-4 0.0077781049381256545 0.9993734965998278 -0.0077781049381256545 0.9993734965998278 -0.0077781049381256545 6.265034001724239E-4 0.0077781049381256545
9.958797539591652E7 6.317828929969258E-4 0.007891172772816757 0.9993682171070032 -0.007891172772816757 0.9993682171070032 -0.007891172772816757 6.317828929969258E-4 0.007891172772816757
1.0109089773851961E8 6.37120212168933E-4 0.008005940929746573 0.9993628797878311 -0.008005940929746573 0.9993628797878311 -0.008005940929746573 6.37120212168933E-4 0.008005940929746573
1.0261650128895843E8 6.425179086842728E-4 0.008122435664611698 0.9993574820913156 -0.008122435664611696 0.9993574820913156 -0.008122435664611696 6.425179086842728E-4 0.008122435664611698
1.0416512833849736E8 6.479786310963375E-4 0.008240683580653326 0.9993520213689037 -0.008240683580653326 0.9993520213689037 -0.008240683580653326 6.479786310963375E-4 0.008240683580653326
1.0573712634405641E8 6.535051258470332E-4 0.008360711632368017 0.9993464948741531 -0.008360711632368017 0.9993464948741531 -0.008360711632368017 6.535051258470332E-4 0.008360711632368017
1.0733284800616828E8 6.591002375806689E-4 0.008482547129350022 0.9993408997624194 -0.008482547129350022 0.9993408997624194 -0.008482547129350022 6.591002375806689E-4 0.008482547129350022
1.0895265134811176E8 6.647669094447606E-4 0.008606217740266554 0.9993352330905553 -0.008606217740266554 0.9993352330905553 -0.008606217740266554 6.647669094447606E-4 0.008606217740266554
1.1059689979623953E8 6.7050818338157E-4 0.008731751496967362 0.9993294918166186 -0.008731751496967362 0.9993294918166186 -0.008731751496967362 6.7050818338157E-4 0.008731751496967362
1.1226596226151802E8 6.763272004140176E-4 0.008859176798729693 0.9993236727995859 -0.008859176798729693 0.9993236727995859 -0.008859176798729693 6.763272004140176E-4 0.008859176798729693
1.1396021322229806E8 6.822272009294278E-4 0.00898852241663973 0.9993177727990706 -0.00898852241663973 0.9993177727990706 -0.00898852241663973 6.822272009294278E-4 0.00898852241663973
1.1568003280833441E8 6.882115249643783E-4 0.009119817498111379 0.9993117884750355 -0.009119817498111379 0.9993117884750355 -0.009119817498111379 6.882115249643783E-4 0.009119817498111379
1.1742580688607343E8 6.942836124937288E-4 0.009253091571543364 0.9993057163875063 -0.009253091571543364 0.9993057163875063 -0.009253091571543364 6.942836124937288E-4 0.009253091571543364
1.1919792714522783E8 7.004470037266939E-4 0.009388374551115367 0.9992995529962734 -0.009388374551115365 0.9992995529962734 -0.009388374551115365 7.004470037266939E-4 0.009388374551115367
1.2099679118665792E8 7.067053394126499E-4 0.009525696741724113 0.9992932946605873 -0.009525696741724113 0.9992932946605873 -0.009525696741724113 7.067053394126499E-4 0.009525696741724113
1.2282280261157903E8 7.130623611591614E-4 0.00966508884406028 0.9992869376388407 -0.009665088844060282 0.9992869376388407 -0.009665088844060282 7.130623611591614E-4 0.00966508884406028
1.2467637111211549E8 7.19521911764509E-4 0.009806581959827025 0.9992804780882355 -0.009806581959827025 0.9992804780882355 -0.009806581959827025 7.19521911764509E-4 0.009806581959827025
1.265579125632208E8 7.260879355668525E-4 0.009950207597101227 0.9992739120644333 -0.009950207597101227 0.9992739120644333 -0.009950207597101227 7.260879355668525E-4 0.009950207597101227
1.284678491159853E8 7.327644788119484E-4 0.010095997675838428 0.999267235521188 -0.010095997675838428 0.999267235521188 -0.010095997675838428 7.327644788119484E-4 0.010095997675838428
1.3040660929235186E8 7.395556900412341E-4 0.010243984533522802 0.999260444309959 -0.010243984533522802 0.999260444309959 -0.010243984533522802 7.395556900412341E-4 0.010243984533522802
1.3237462808126101E8 7.46465820501885E-4 0.010394200930963356 0.9992535341794981 -0.010394200930963356 0.9992535341794981 -0.010394200930963356 7.46465820501885E-4 0.010394200930963356
1.3437234703624701E8 7.534992245803722E-4 0.01054668005823803 0.9992465007754195 -0.01054668005823803 0.9992465007754195 -0.01054668005823803 7.534992245803722E-4 0.01054668005823803
1.364002143745067E8 7.606603602609069E-4 0.010701455540787342 0.999239339639739 -0.010701455540787344 0.999239339639739 -0.010701455540787344 7.606603602609069E-4 0.010701455540787342
1.3845868507746372E8 7.679537896100747E-4 0.010858561445659599 0.99923204621039 -0.010858561445659597 0.99923204621039 -0.010858561445659597 7.679537896100747E-4 0.010858561445659599
1.405482209928499E8 7.753841792888964E-4 0.011018032287909823 0.9992246158207112 -0.011018032287909825 0.9992246158207112 -0.011018032287909825 7.753841792888964E-4 0.011018032287909823
1.426692909383278E8 7.829563010934901E-4 0.011179903037154841 0.9992170436989065 -0.011179903037154841 0.9992170436989065 -0.011179903037154841 7.829563010934901E-4 0.011179903037154841
1.4482237080667645E8 7.906750325255017E-4 0.011344209124287253 0.9992093249674744 -0.011344209124287253 0.9992093249674744 -0.011344209124287253 7.906750325255017E-4 0.011344209124287253
1.4700794367256513E8 7.985453573934702E-4 0.011510986448351334 0.9992014546426066 -0.011510986448351334 0.9992014546426066 -0.011510986448351334 7.985453573934702E-4 0.011510986448351334
1.492264999009378E8 8.065723664463125E-4 0.01168027138358411 0.9991934276335537 -0.01168027138358411 0.9991934276335537 -0.01168027138358411 8.065723664463125E-4 0.01168027138358411
1.5147853725703382E8 8.147612580401958E-4 0.011852100786625281 0.9991852387419597 -0.011852100786625281 0.9991852387419597 -0.011852100786625281 8.147612580401958E-4 0.011852100786625281
1.5376456101806876E8 8.231173388401318E-4 0.012026512003899936 0.9991768826611598 -0.012026512003899936 0.9991768826611598 -0.012026512003899936 8.231173388401318E-4 0.012026512003899936
1.5608508408660066E8 8.316460245577652E-4 0.012203542879178282 0.9991683539754423 -0.012203542879178282 0.9991683539754423 -0.012203542879178282 8.316460245577652E-4 0.012203542879178282
1.5844062710560706E8 8.40352840726979E-4 0.012383231761317054 0.999159647159273 -0.012383231761317054 0.999159647159273 -0.012383231761317054 8.40352840726979E-4 0.012383231761317054
1.6083171857529896E8 8.492434235191175E-4 0.012565617512187554 0.9991507565764809 -0.012565617512187554 0.9991507565764809 -0.012565617512187554 8.492434235191175E-4 0.012565617512187554
1.632588949716973E8 8.583235205998693E-4 0.012750739514795516 0.9991416764794002 -0.012750739514795516 0.9991416764794002 -0.012750739514795516 8.583235205998693E-4 0.012750739514795516
1.6572270086699936E8 8.675989920300909E-4 0.012938637681598607 0.9991324010079697 -0.012938637681598607 0.9991324010079697 -0.012938637681598607 8.675989920300909E-4 0.012938637681598607
1.6822368905176118E8 8.770758112131515E-4 0.0131293524630273 0.9991229241887867 -0.0131293524630273 0.9991229241887867 -0.0131293524630273 8.770758112131515E-4 0.0131293524630273
1.7076242065892437E8 8.867600658917185E-4 0.01332292485621556 0.9991132399341084 -0.01332292485621556 0.9991132399341084 -0.01332292485621556 8.867600658917185E-4 0.01332292485621556
1.7333946528971428E8 8.966579591972503E-4 0.013519396413947931 0.9991033420408028 -0.013519396413947931 0.9991033420408028 -0.013519396413947931 8.966579591972503E-4 0.013519396413947931
1.7595540114143828E8 9.067758107558804E-4 0.013718809253829843 0.9990932241892442 -0.013718809253829843 0.9990932241892442 -0.013718809253829843 9.067758107558804E-4 0.013718809253829843
1.786108151372127E8 9.171200578548194E-4 0.013921206067688489 0.9990828799421454 -0.013921206067688489 0.9990828799421454 -0.013921206067688489 9.171200578548194E-4 0.013921206067688489
1.8130630305764765E8 9.276972566738538E-4 0.014126630131211586 0.999072302743326 -0.01412663013121159 0.999072302743326 -0.01412663013121159 9.276972566738538E-4 0.014126630131211586
1.840424696745189E8 9.38514083587073E-4 0.01433512531383192 0.9990614859164131 -0.01433512531383192 0.9990614859164131 -0.01433512531383192 9.38514083587073E-4 0.01433512531383192
1.8681992888645732E8 9.495773365404581E-4 0.014546736088865414 0.9990504226634594 -0.014546736088865414 0.9990504226634594 -0.014546736088865414 9.495773365404581E-4 0.014546736088865414
1.8963930385668582E8 9.608939365115995E-4 0.014761507543911204 0.9990391060634884 -0.014761507543911204 0.9990391060634884 -0.014761507543911204 9.608939365115995E-4 0.014761507543911204
1.92501227152835E8 9.72470929058381E-4 0.014979485391521689 0.9990275290709416 -0.014979485391521693 0.9990275290709416 -0.014979485391521693 9.72470929058381E-4 0.014979485391521689
1.9540634088886917E8 9.84315485964157E-4 0.015200715980151328 0.9990156845140359 -0.015200715980151328 0.9990156845140359 -0.015200715980151328 9.84315485964157E-4 0.015200715980151328
1.983552968691535E8 9.964349069876022E-4 0.015425246305392548 0.9990035650930124 -0.015425246305392548 0.9990035650930124 -0.015425246305392548 9.964349069876022E-4 0.015425246305392548
2.0134875673469606E8 0.0010088366217261453 0.015653124021507585 0.998991163378274 -0.015653124021507585 0.998991163378274 -0.015653124021507585 0.0010088366217261453 0.015653124021507585
2.0438739211159652E8 0.0010215281916026266 0.015884397453264743 0.9989784718083975 -0.015884397453264743 0.9989784718083975 -0.015884397453264743 0.0010215281916026266 0.015884397453264743
2.074718847617352E8 0.00103451731198558 0.016119115608087854 0.9989654826880143 -0.01611911560808785 0.9989654826880143 -0.01611911560808785 0.00103451731198558 0.016119115608087854
2.106029267357361E8 0.001047811814454328 0.016357328188527333 0.9989521881855457 -0.016357328188527333 0.9989521881855457 -0.016357328188527333 0.001047811814454328 0.016357328188527333
2.1378122052823865E8 0.0010614196692208828 0.016599085605061476 0.9989385803307791 -0.016599085605061476 0.9989385803307791 -0.016599085605061476 0.0010614196692208828 0.016599085605061476
2.1700747923551247E8 0.0010753489877214587 0.01684443898923596 0.9989246510122786 -0.01684443898923596 0.9989246510122786 -0.01684443898923596 0.0010753489877214587 0.01684443898923596
2.2028242671545094E8 0.0010896080253912372 0.017093440207149868 0.9989103919746087 -0.017093440207149868 0.9989103919746087 -0.017093440207149868 0.0010896080253912372 0.017093440207149868
2.23606797749979E8 0.001104205184636855 0.0173461418732957 0.9988957948153633 -0.0173461418732957 0.9988957948153633 -0.0173461418732957 0.001104205184636855 0.0173461418732957
2.2698133820991236E8 0.0011191490180219145 0.017602597364760726 0.998880850981978 -0.01760259736476073 0.998880850981978 -0.01760259736476073 0.0011191490180219145 0.017602597364760726
2.3040680522230446E8 0.0011344482316817026 0.017862860835796968 0.9988655517683184 -0.017862860835796968 0.9988655517683184 -0.017862860835796968 0.0011344482316817026 0.017862860835796968
2.338839673403185E8 0.0011501116889840299 0.018126987232765585 0.998849888311016 -0.018126987232765585 0.998849888311016 -0.018126987232765585 0.0011501116889840299 0.018126987232765585
2.37413604715664E8 0.0011661484144540354 0.018395032309462205 0.9988338515855459 -0.018395032309462205 0.9988338515855459 -0.018395032309462205 0.0011661484144540354 0.018395032309462205
