!Murata Part Number: LQG15HH15NJ02
!These Parameters are Measured in Series Mode Connection
!       o--[Z]--o
!Port1              Port2
!       o-------o
!
!Freq. Start=50[MHz] Stop=20[GHz], 401[Steps]
# Hz S RI R 50
!Freq.(Hz) S11(Real) S11(Imag) S21(Real) S21(Imag) S12(Real) S12(Imag) S22(Real) S22(Imag)
5.0E7 0.0079243839013649 0.048146607790935776 0.9920756160986351 -0.048146607790935776 0.9920756160986351 -0.048146607790935776 0.0079243839013649 0.048146607790935776
5.0754570186123446E7 0.008040216457744677 0.0488284592905558 0.9919597835422553 -0.0488284592905558 0.9919597835422553 -0.0488284592905558 0.008040216457744677 0.0488284592905558
5.152052789556263E7 0.008158515537888421 0.049519708428886165 0.9918414844621116 -0.049519708428886165 0.9918414844621116 -0.049519708428886165 0.008158515537888421 0.049519708428886165
5.229804498202928E7 0.008279329352846894 0.05022048132326563 0.9917206706471533 -0.05022048132326563 0.9917206706471533 -0.05022048132326563 0.008279329352846894 0.05022048132326563
5.308729589274893E7 0.008402707198355053 0.050930906260574935 0.9915972928016449 -0.050930906260574935 0.9915972928016449 -0.050930906260574935 0.008402707198355053 0.050930906260574935
5.388845770760058E7 0.00852869951809994 0.05165111374572404 0.9914713004819 -0.05165111374572404 0.9914713004819 -0.05165111374572404 0.00852869951809994 0.05165111374572404
5.470171017884717E7 0.008657357970435025 0.05238123654933257 0.9913426420295649 -0.05238123654933257 0.9913426420295649 -0.05238123654933257 0.008657357970435025 0.05238123654933257
5.5527235771465644E7 0.008788735498569738 0.05312140975443315 0.9912112645014304 -0.05312140975443315 0.9912112645014304 -0.05312140975443315 0.008788735498569738 0.05312140975443315
5.6365219704085544E7 0.00892288640425298 0.05387177080202396 0.991077113595747 -0.05387177080202396 0.991077113595747 -0.05387177080202396 0.00892288640425298 0.05387177080202396
5.721584999054556E7 0.009059866424959259 0.05463245953529503 0.9909401335750405 -0.05463245953529503 0.9909401335750405 -0.05463245953529503 0.009059866424959259 0.05463245953529503
5.807931748207712E7 0.009199732814575598 0.055403618242350856 0.9908002671854242 -0.055403618242350856 0.9908002671854242 -0.055403618242350856 0.009199732814575598 0.055403618242350856
5.8955815910124585E7 0.009342544427576769 0.05618539169725149 0.9906574555724232 -0.05618539169725149 0.9906574555724232 -0.05618539169725149 0.009342544427576769 0.05618539169725149
5.984554192981184E7 0.009488361806665886 0.05697792719919501 0.9905116381933341 -0.05697792719919501 0.9905116381933341 -0.05697792719919501 0.009488361806665886 0.05697792719919501
6.074869516406457E7 0.009637247273846449 0.05778137460966409 0.9903627527261536 -0.05778137460966409 0.9903627527261536 -0.05778137460966409 0.009637247273846449 0.05778137460966409
6.166547824839868E7 0.009789265024881866 0.05859588638736327 0.990210734975118 -0.05859588638736326 0.990210734975118 -0.05859588638736326 0.009789265024881866 0.05859588638736327
6.2596096876384385E7 0.009944481227087546 0.05942161762077418 0.9900555187729125 -0.05942161762077419 0.9900555187729125 -0.05942161762077419 0.009944481227087546 0.05942161762077418
6.354075984579668E7 0.010102964120391224 0.060258726058162466 0.9898970358796088 -0.060258726058162466 0.9898970358796088 -0.060258726058162466 0.010102964120391224 0.060258726058162466
6.449967910546205E7 0.010264784121587017 0.06110737213487208 0.9897352158784132 -0.06110737213487208 0.9897352158784132 -0.06110737213487208 0.010264784121587017 0.06110737213487208
6.547306980281226E7 0.010430013931699634 0.06196771899774963 0.9895699860683003 -0.06196771899774963 0.9895699860683003 -0.06196771899774963 0.010430013931699634 0.06196771899774963
6.646115033215589E7 0.010598728646366583 0.06283993252654779 0.9894012713536333 -0.06283993252654779 0.9894012713536333 -0.06283993252654779 0.010598728646366583 0.06283993252654779
6.746414238367817E7 0.010771005869137902 0.06372418135216251 0.9892289941308621 -0.06372418135216251 0.9892289941308621 -0.06372418135216251 0.010771005869137902 0.06372418135216251
6.848227099318038E7 0.010946925827585692 0.06462063687156736 0.9890530741724144 -0.06462063687156736 0.9890530741724144 -0.06462063687156736 0.010946925827585692 0.06462063687156736
6.951576459256999E7 0.01112657149210901 0.06552947325931624 0.988873428507891 -0.06552947325931624 0.988873428507891 -0.06552947325931624 0.01112657149210901 0.06552947325931624
7.056485506111258E7 0.01131002869731388 0.06645086747549415 0.9886899713026861 -0.06645086747549415 0.9886899713026861 -0.06645086747549415 0.01131002869731388 0.06645086747549415
7.162977777745734E7 0.011497386265843084 0.06738499927000485 0.9885026137341569 -0.06738499927000485 0.9885026137341569 -0.06738499927000485 0.011497386265843084 0.06738499927000485
7.271077167244768E7 0.011688736134526485 0.06833205118309402 0.9883112638654736 -0.06833205118309402 0.9883112638654736 -0.06833205118309402 0.011688736134526485 0.06833205118309402
7.380807928272885E7 0.011884173482719265 0.06929220854201569 0.9881158265172809 -0.06929220854201569 0.9881158265172809 -0.06929220854201569 0.011884173482719265 0.06929220854201569
7.492194680516452E7 0.012083796862693516 0.07026565945376 0.9879162031373065 -0.07026565945376001 0.9879162031373065 -0.07026565945376001 0.012083796862693516 0.07026565945376
7.60526241520746E7 0.012287708331947209 0.0712525947937702 0.9877122916680529 -0.07125259479377022 0.9877122916680529 -0.07125259479377022 0.012287708331947209 0.0712525947937702
7.720036500730675E7 0.012496013587294274 0.07225320819058581 0.9875039864127058 -0.07225320819058581 0.9875039864127058 -0.07225320819058581 0.012496013587294274 0.07225320819058581
7.836542688315398E7 0.012708822100600545 0.07326769600636034 0.9872911778993995 -0.07326769600636034 0.9872911778993995 -0.07326769600636034 0.012708822100600545 0.07326769600636034
7.954807117813127E7 0.012926247256031644 0.07429625731320956 0.9870737527439682 -0.07429625731320956 0.9870737527439682 -0.07429625731320956 0.012926247256031644 0.07429625731320956
8.074856323562416E7 0.013148406488681591 0.07533909386535668 0.9868515935113185 -0.0753390938653567 0.9868515935113185 -0.0753390938653567 0.013148406488681591 0.07533909386535668
8.196717240342227E7 0.013375421424454343 0.07639641006704864 0.9866245785755456 -0.07639641006704864 0.9866245785755456 -0.07639641006704864 0.013375421424454343 0.07639641006704864
8.320417209415154E7 0.013607418021075015 0.07746841293622743 0.986392581978925 -0.07746841293622743 0.986392581978925 -0.07746841293622743 0.013607418021075015 0.07746841293622743
8.445983984661816E7 0.01384452671011187 0.07855531206394542 0.9861554732898881 -0.07855531206394542 0.9861554732898881 -0.07855531206394542 0.01384452671011187 0.07855531206394542
8.573445738807854E7 0.014086882539897075 0.07965731956952395 0.985913117460103 -0.07965731956952395 0.985913117460103 -0.07965731956952395 0.014086882539897075 0.07965731956952395
8.702831069744885E7 0.01433462531923916 0.08077465005145694 0.9856653746807611 -0.08077465005145694 0.9856653746807611 -0.08077465005145694 0.01433462531923916 0.08077465005145694
8.834169006946853E7 0.014587899761828654 0.08190752053407055 0.9854121002381714 -0.08190752053407054 0.9854121002381714 -0.08190752053407054 0.014587899761828654 0.08190752053407055
8.96748901798321E7 0.014846855631244377 0.08305615040995114 0.9851531443687556 -0.08305615040995114 0.9851531443687556 -0.08305615040995114 0.014846855631244377 0.08305615040995114
9.1028210151304E7 0.015111647886476773 0.08422076137816026 0.9848883521135232 -0.08422076137816026 0.9848883521135232 -0.08422076137816026 0.015111647886476773 0.08422076137816026
9.240195362083109E7 0.015382436827891914 0.08540157737825545 0.984617563172108 -0.08540157737825543 0.984617563172108 -0.08540157737825543 0.015382436827891914 0.08540157737825545
9.379642880766791E7 0.015659388243569036 0.08659882452014102 0.9843406117564308 -0.08659882452014102 0.9843406117564308 -0.08659882452014102 0.015659388243569036 0.08659882452014102
9.521194858253023E7 0.01594267355595199 0.0878127310097704 0.984057326444048 -0.0878127310097704 0.984057326444048 -0.0878127310097704 0.01594267355595199 0.0878127310097704
9.664883053779216E7 0.016232469968764117 0.08904352707072392 0.9837675300312358 -0.08904352707072392 0.9837675300312358 -0.08904352707072392 0.016232469968764117 0.08904352707072392
9.810739705874248E7 0.0165289606141442 0.09029144486168451 0.9834710393858558 -0.09029144486168451 0.9834710393858558 -0.09029144486168451 0.0165289606141442 0.09029144486168451
9.958797539591652E7 0.01683233469996946 0.09155671838983165 0.9831676653000306 -0.09155671838983165 0.9831676653000306 -0.09155671838983165 0.01683233469996946 0.09155671838983165
1.0109089773851961E8 0.01714278765733927 0.09283958342017098 0.9828572123426608 -0.09283958342017098 0.9828572123426608 -0.09283958342017098 0.01714278765733927 0.09283958342017098
1.0261650128895843E8 0.017460521288201837 0.09414027738081537 0.9825394787117981 -0.09414027738081539 0.9825394787117981 -0.09414027738081539 0.017460521288201837 0.09414027738081537
1.0416512833849736E8 0.017785743913112 0.09545903926422537 0.982214256086888 -0.09545903926422537 0.982214256086888 -0.09545903926422537 0.017785743913112 0.09545903926422537
1.0573712634405641E8 0.018118670519116583 0.09679610952441549 0.9818813294808836 -0.0967961095244155 0.9818813294808836 -0.0967961095244155 0.018118670519116583 0.09679610952441549
1.0733284800616828E8 0.01845952290776904 0.09815172997012443 0.9815404770922309 -0.09815172997012442 0.9815404770922309 -0.09815172997012442 0.01845952290776904 0.09815172997012443
1.0895265134811176E8 0.018808529843281564 0.099526143653943 0.9811914701567184 -0.099526143653943 0.9811914701567184 -0.099526143653943 0.018808529843281564 0.099526143653943
1.1059689979623953E8 0.019165927200827194 0.10091959475738312 0.980834072799173 -0.10091959475738312 0.980834072799173 -0.10091959475738312 0.019165927200827194 0.10091959475738312
1.1226596226151802E8 0.019531958115010024 0.10233232847186863 0.98046804188499 -0.10233232847186863 0.98046804188499 -0.10233232847186863 0.019531958115010024 0.10233232847186863
1.1396021322229806E8 0.019906873128524197 0.10376459087561556 0.9800931268714758 -0.10376459087561553 0.9800931268714758 -0.10376459087561553 0.019906873128524197 0.10376459087561556
1.1568003280833441E8 0.020290930341026227 0.10521662880636405 0.9797090696589738 -0.10521662880636405 0.9797090696589738 -0.10521662880636405 0.020290930341026227 0.10521662880636405
1.1742580688607343E8 0.02068439555824745 0.10668868972991591 0.9793156044417526 -0.10668868972991588 0.9793156044417526 -0.10668868972991588 0.02068439555824745 0.10668868972991591
1.1919792714522783E8 0.02108754244137431 0.10818102160441878 0.9789124575586255 -0.10818102160441878 0.9789124575586255 -0.10818102160441878 0.02108754244137431 0.10818102160441878
1.2099679118665792E8 0.021500652656726276 0.10969387274033526 0.9784993473432737 -0.10969387274033526 0.9784993473432737 -0.10969387274033526 0.021500652656726276 0.10969387274033526
1.2282280261157903E8 0.02192401602575981 0.1112274916560187 0.9780759839742403 -0.1112274916560187 0.9780759839742403 -0.1112274916560187 0.02192401602575981 0.1112274916560187
1.2467637111211549E8 0.022357930675427348 0.112782126928814 0.9776420693245726 -0.11278212692881402 0.9776420693245726 -0.11278212692881402 0.022357930675427348 0.112782126928814
1.265579125632208E8 0.022802703188918538 0.11435802704158937 0.9771972968110813 -0.11435802704158934 0.9771972968110813 -0.11435802704158934 0.022802703188918538 0.11435802704158937
1.284678491159853E8 0.023258648756808588 0.11595544022459582 0.9767413512431914 -0.11595544022459582 0.9767413512431914 -0.11595544022459582 0.023258648756808588 0.11595544022459582
1.3040660929235186E8 0.02372609132863666 0.11757461429254377 0.9762739086713633 -0.11757461429254377 0.9762739086713633 -0.11757461429254377 0.02372609132863666 0.11757461429254377
1.3237462808126101E8 0.0242053637649333 0.11921579647677463 0.9757946362350667 -0.11921579647677466 0.9757946362350667 -0.11921579647677466 0.0242053637649333 0.11921579647677463
1.3437234703624701E8 0.024696807989712327 0.12087923325239845 0.9753031920102877 -0.12087923325239845 0.9753031920102877 -0.12087923325239845 0.024696807989712327 0.12087923325239845
1.364002143745067E8 0.025200775143438218 0.12256517016025874 0.9747992248565616 -0.12256517016025872 0.9747992248565616 -0.12256517016025872 0.025200775143438218 0.12256517016025874
1.3845868507746372E8 0.025717625736475135 0.12427385162357844 0.9742823742635248 -0.12427385162357842 0.9742823742635248 -0.12427385162357842 0.025717625736475135 0.12427385162357844
1.405482209928499E8 0.02624772980301806 0.12600552075913113 0.9737522701969821 -0.12600552075913113 0.9737522701969821 -0.12600552075913113 0.02624772980301806 0.12600552075913113
1.426692909383278E8 0.0267914670555013 0.12776041918277567 0.9732085329444987 -0.12776041918277567 0.9732085329444987 -0.12776041918277567 0.0267914670555013 0.12776041918277567
1.4482237080667645E8 0.02734922703947298 0.12953878680918304 0.9726507729605268 -0.12953878680918304 0.9726507729605268 -0.12953878680918304 0.02734922703947298 0.12953878680918304
1.4700794367256513E8 0.027921409288917967 0.13134086164557865 0.972078590711082 -0.13134086164557865 0.972078590711082 -0.13134086164557865 0.027921409288917967 0.13134086164557865
1.492264999009378E8 0.02850842348200488 0.13316687957931397 0.971491576517995 -0.13316687957931395 0.971491576517995 -0.13316687957931395 0.02850842348200488 0.13316687957931397
1.5147853725703382E8 0.029110689597226194 0.13501707415907835 0.9708893104027739 -0.13501707415907835 0.9708893104027739 -0.13501707415907835 0.029110689597226194 0.13501707415907835
1.5376456101806876E8 0.029728638069892448 0.13689167636954983 0.9702713619301074 -0.13689167636954983 0.9702713619301074 -0.13689167636954983 0.029728638069892448 0.13689167636954983
1.5608508408660066E8 0.03036270994893562 0.1387909143992836 0.9696372900510644 -0.1387909143992836 0.9696372900510644 -0.1387909143992836 0.03036270994893562 0.1387909143992836
1.5844062710560706E8 0.031013357053967953 0.14071501340162462 0.9689866429460322 -0.14071501340162465 0.9689866429460322 -0.14071501340162465 0.031013357053967953 0.14071501340162462
1.6083171857529896E8 0.0316810421325361 0.1426641952484303 0.968318957867464 -0.1426641952484303 0.968318957867464 -0.1426641952484303 0.0316810421325361 0.1426641952484303
1.632588949716973E8 0.03236623901750214 0.14463867827637794 0.9676337609824978 -0.14463867827637794 0.9676337609824978 -0.14463867827637794 0.03236623901750214 0.14463867827637794
1.6572270086699936E8 0.03306943278447601 0.14663867702563083 0.966930567215524 -0.14663867702563083 0.966930567215524 -0.14663867702563083 0.03306943278447601 0.14663867702563083
1.6822368905176118E8 0.03379111990921545 0.14866440197062566 0.9662088800907844 -0.14866440197062566 0.9662088800907844 -0.14866440197062566 0.03379111990921545 0.14866440197062566
1.7076242065892437E8 0.034531808424902805 0.15071605924274273 0.9654681915750972 -0.1507160592427427 0.9654681915750972 -0.1507160592427427 0.034531808424902805 0.15071605924274273
1.7333946528971428E8 0.03529201807919918 0.15279385034460977 0.9647079819208008 -0.15279385034460977 0.9647079819208008 -0.15279385034460977 0.03529201807919918 0.15279385034460977
1.7595540114143828E8 0.03607228049096965 0.15489797185578813 0.9639277195090302 -0.1548979718557881 0.9639277195090302 -0.1548979718557881 0.03607228049096965 0.15489797185578813
1.786108151372127E8 0.036873139306564155 0.1570286151295785 0.9631268606934358 -0.1570286151295785 0.9631268606934358 -0.1570286151295785 0.036873139306564155 0.1570286151295785
1.8130630305764765E8 0.037695150355531615 0.15918596598068052 0.9623048496444685 -0.15918596598068055 0.9623048496444685 -0.15918596598068055 0.037695150355531615 0.15918596598068052
1.840424696745189E8 0.038538881805635895 0.16137020436343072 0.9614611181943643 -0.16137020436343075 0.9614611181943643 -0.16137020436343075 0.038538881805635895 0.16137020436343072
1.8681992888645732E8 0.03940491431703376 0.16358150404033497 0.9605950856829663 -0.16358150404033497 0.9605950856829663 -0.16358150404033497 0.03940491431703376 0.16358150404033497
1.8963930385668582E8 0.04029384119546642 0.16582003224060485 0.9597061588045336 -0.16582003224060485 0.9597061588045336 -0.16582003224060485 0.04029384119546642 0.16582003224060485
1.92501227152835E8 0.04120626854430648 0.16808594930839574 0.9587937314556935 -0.1680859493083957 0.9587937314556935 -0.1680859493083957 0.04120626854430648 0.16808594930839574
1.9540634088886917E8 0.04214281541529299 0.17037940834043636 0.9578571845847069 -0.17037940834043636 0.9578571845847069 -0.17037940834043636 0.04214281541529299 0.17037940834043636
1.983552968691535E8 0.04310411395777602 0.172700554812727 0.956895886042224 -0.172700554812727 0.956895886042224 -0.172700554812727 0.04310411395777602 0.172700554812727
2.0134875673469606E8 0.044090809566282106 0.1750495261959741 0.9559091904337177 -0.1750495261959741 0.9559091904337177 -0.1750495261959741 0.044090809566282106 0.1750495261959741
2.0438739211159652E8 0.04510356102619933 0.17742645155941483 0.9548964389738007 -0.17742645155941486 0.9548964389738007 -0.17742645155941486 0.04510356102619933 0.17742645155941483
2.074718847617352E8 0.04614304065736682 0.17983145116267094 0.9538569593426334 -0.17983145116267094 0.9538569593426334 -0.17983145116267094 0.04614304065736682 0.17983145116267094
2.106029267357361E8 0.047209934455341815 0.18226463603526147 0.9527900655446582 -0.18226463603526147 0.9527900655446582 -0.18226463603526147 0.047209934455341815 0.18226463603526147
2.1378122052823865E8 0.04830494223009922 0.18472610754338334 0.9516950577699008 -0.18472610754338334 0.9516950577699008 -0.18472610754338334 0.04830494223009922 0.18472610754338334
2.1700747923551247E8 0.049428777741902075 0.18721595694355472 0.9505712222580979 -0.18721595694355472 0.9505712222580979 -0.18721595694355472 0.049428777741902075 0.18721595694355472
2.2028242671545094E8 0.05058216883406419 0.18973426492270207 0.9494178311659359 -0.18973426492270207 0.9494178311659359 -0.18973426492270207 0.05058216883406419 0.18973426492270207
2.23606797749979E8 0.05176585756230251 0.1922811011242483 0.9482341424376972 -0.1922811011242483 0.9482341424376972 -0.1922811011242483 0.05176585756230251 0.1922811011242483
2.2698133820991236E8 0.05298060032035614 0.1948565236597466 0.9470193996796439 -0.1948565236597466 0.9470193996796439 -0.1948565236597466 0.05298060032035614 0.1948565236597466
2.3040680522230446E8 0.05422716796152123 0.19746057860557956 0.9457728320384786 -0.1974605786055795 0.9457728320384786 -0.1974605786055795 0.05422716796152123 0.19746057860557956
2.338839673403185E8 0.05550634591572549 0.20009329948422985 0.9444936540842744 -0.20009329948422985 0.9444936540842744 -0.20009329948422985 0.05550634591572549 0.20009329948422985
2.37413604715664E8 0.05681893430173156 0.20275470672960208 0.9431810656982685 -0.20275470672960208 0.9431810656982685 -0.20275470672960208 0.05681893430173156 0.20275470672960208
2.4099650927363476E8 0.05816574803402722 0.20544480713585844 0.9418342519659728 -0.20544480713585844 0.9418342519659728 -0.20544480713585844 0.05816574803402722 0.20544480713585844
2.446334848907889E8 0.05954761692392112 0.20816359328921055 0.9404523830760788 -0.20816359328921055 0.9404523830760788 -0.20816359328921055 0.05954761692392112 0.20816359328921055
2.4832534757531032E8 0.060965385774321194 0.2109110429820867 0.9390346142256788 -0.21091104298208666 0.9390346142256788 -0.21091104298208666 0.060965385774321194 0.2109110429820867
