!Murata Part Number: LQP03TN0N6BZ2
!These Parameters are Measured in Series Mode Connection
!       o--[Z]--o
!Port1              Port2
!       o-------o
!
!Freq. Start=50[MHz] Stop=20[GHz], 401[Steps]
# Hz S RI R 50
!Freq.(Hz) S11(Real) S11(Imag) S21(Real) S21(Imag) S12(Real) S12(Imag) S22(Real) S22(Imag)
5.0E7 8.337133319272878E-5 8.467783243763372E-4 0.9999166286668073 -8.467783243763372E-4 0.9999166286668073 -8.467783243763372E-4 8.337133319272878E-5 8.467783243763372E-4
5.0754570186123446E7 8.34676450693332E-5 8.595375691943505E-4 0.9999165323549307 -8.595375691943505E-4 0.9999165323549307 -8.595375691943505E-4 8.34676450693332E-5 8.595375691943505E-4
5.152052789556263E7 8.356650089548062E-5 8.724886116266004E-4 0.9999164334991045 -8.724886116266004E-4 0.9999164334991045 -8.724886116266004E-4 8.356650089548062E-5 8.724886116266004E-4
5.229804498202928E7 8.366795930047126E-5 8.856343212517757E-4 0.9999163320406995 -8.856343212517757E-4 0.9999163320406995 -8.856343212517757E-4 8.366795930047126E-5 8.856343212517757E-4
5.308729589274893E7 8.377207991946536E-5 8.989776103869751E-4 0.9999162279200806 -8.98977610386975E-4 0.9999162279200806 -8.98977610386975E-4 8.377207991946536E-5 8.989776103869751E-4
5.388845770760058E7 8.387892340211973E-5 9.125214347350916E-4 0.9999161210765978 -9.125214347350916E-4 0.9999161210765978 -9.125214347350916E-4 8.387892340211973E-5 9.125214347350916E-4
5.470171017884717E7 8.398855142164765E-5 9.262687940430194E-4 0.9999160114485783 -9.262687940430194E-4 0.9999160114485783 -9.262687940430194E-4 8.398855142164765E-5 9.262687940430194E-4
5.5527235771465644E7 8.410102668438647E-5 9.402227327708796E-4 0.9999158989733157 -9.402227327708796E-4 0.9999158989733157 -9.402227327708796E-4 8.410102668438647E-5 9.402227327708796E-4
5.6365219704085544E7 8.421641293996278E-5 9.543863407724632E-4 0.99991578358706 -9.543863407724632E-4 0.99991578358706 -9.543863407724632E-4 8.421641293996278E-5 9.543863407724632E-4
5.721584999054556E7 8.433477499215362E-5 9.687627539870992E-4 0.9999156652250076 -9.687627539870991E-4 0.9999156652250076 -9.687627539870991E-4 8.433477499215362E-5 9.687627539870992E-4
5.807931748207712E7 8.445617871054715E-5 9.833551551431338E-4 0.9999155438212894 -9.833551551431338E-4 0.9999155438212894 -9.833551551431338E-4 8.445617871054715E-5 9.833551551431338E-4
5.8955815910124585E7 8.458069104311513E-5 9.981667744732316E-4 0.9999154193089569 -9.981667744732314E-4 0.9999154193089569 -9.981667744732314E-4 8.458069104311513E-5 9.981667744732316E-4
5.984554192981184E7 8.470838002981415E-5 0.0010132008904416873 0.9999152916199701 -0.0010132008904416873 0.9999152916199701 -0.0010132008904416873 8.470838002981415E-5 0.0010132008904416873
6.074869516406457E7 8.483931481734247E-5 0.001028460830483941 0.9999151606851826 -0.0010284608304839413 0.9999151606851826 -0.0010284608304839413 8.483931481734247E-5 0.001028460830483941
6.166547824839868E7 8.497356567518275E-5 0.001043949971758492 0.9999150264343246 -0.001043949971758492 0.9999150264343246 -0.001043949971758492 8.497356567518275E-5 0.001043949971758492
6.2596096876384385E7 8.511120401307002E-5 0.0010596717419113857 0.999914888795987 -0.0010596717419113857 0.999914888795987 -0.0010596717419113857 8.511120401307002E-5 0.0010596717419113857
6.354075984579668E7 8.525230240003043E-5 0.0010756296198534728 0.9999147476976 -0.0010756296198534728 0.9999147476976 -0.0010756296198534728 8.525230240003043E-5 0.0010756296198534728
6.449967910546205E7 8.539693458514135E-5 0.0010918271365506027 0.9999146030654148 -0.001091827136550603 0.9999146030654148 -0.001091827136550603 8.539693458514135E-5 0.0010918271365506027
6.547306980281226E7 8.554517552016948E-5 0.0011082678758269225 0.9999144548244797 -0.0011082678758269223 0.9999144548244797 -0.0011082678758269223 8.554517552016948E-5 0.0011082678758269225
6.646115033215589E7 8.56971013842515E-5 0.0011249554751814577 0.9999143028986157 -0.0011249554751814577 0.9999143028986157 -0.0011249554751814577 8.56971013842515E-5 0.0011249554751814577
6.746414238367817E7 8.585278961078336E-5 0.0011418936266181226 0.9999141472103892 -0.0011418936266181226 0.9999141472103892 -0.0011418936266181226 8.585278961078336E-5 0.0011418936266181226
6.848227099318038E7 8.601231891669031E-5 0.0011590860774893066 0.9999139876810832 -0.0011590860774893066 0.9999139876810832 -0.0011590860774893066 8.601231891669031E-5 0.0011590860774893066
6.951576459256999E7 8.61757693342553E-5 0.0011765366313531928 0.9999138242306657 -0.0011765366313531928 0.9999138242306657 -0.0011765366313531928 8.61757693342553E-5 0.0011765366313531928
7.056485506111258E7 8.63432222456841E-5 0.001194249148844926 0.9999136567777543 -0.0011942491488449258 0.9999136567777543 -0.0011942491488449258 8.63432222456841E-5 0.001194249148844926
7.162977777745734E7 8.65147604205891E-5 0.001212227548561766 0.9999134852395793 -0.001212227548561766 0.9999134852395793 -0.001212227548561766 8.65147604205891E-5 0.001212227548561766
7.271077167244768E7 8.669046805657597E-5 0.0012304758079623307 0.9999133095319434 -0.0012304758079623307 0.9999133095319434 -0.0012304758079623307 8.669046805657597E-5 0.0012304758079623307
7.380807928272885E7 8.687043082311793E-5 0.0012489979642800447 0.9999131295691771 -0.0012489979642800447 0.9999131295691771 -0.0012489979642800447 8.687043082311793E-5 0.0012489979642800447
7.492194680516452E7 8.70547359089008E-5 0.0012677981154508655 0.9999129452640912 -0.0012677981154508655 0.9999129452640912 -0.0012677981154508655 8.70547359089008E-5 0.0012677981154508655
7.60526241520746E7 8.724347207282487E-5 0.0012868804210554056 0.9999127565279273 -0.0012868804210554056 0.9999127565279273 -0.0012868804210554056 8.724347207282487E-5 0.0012868804210554056
7.720036500730675E7 8.743672969884168E-5 0.0013062491032754778 0.9999125632703011 -0.0013062491032754776 0.9999125632703011 -0.0013062491032754776 8.743672969884168E-5 0.0013062491032754778
7.836542688315398E7 8.763460085480642E-5 0.00132590844786516 0.9999123653991453 -0.0013259084478651603 0.9999123653991453 -0.0013259084478651603 8.763460085480642E-5 0.00132590844786516
7.954807117813127E7 8.78371793555186E-5 0.001345862805136417 0.9999121628206444 -0.001345862805136417 0.9999121628206444 -0.001345862805136417 8.78371793555186E-5 0.001345862805136417
8.074856323562416E7 8.804456083011856E-5 0.0013661165909593011 0.99991195543917 -0.0013661165909593011 0.99991195543917 -0.0013661165909593011 8.804456083011856E-5 0.0013661165909593011
8.196717240342227E7 8.825684279400218E-5 0.001386674287776789 0.9999117431572061 -0.001386674287776789 0.9999117431572061 -0.001386674287776789 8.825684279400218E-5 0.001386674287776789
8.320417209415154E7 8.847412472540618E-5 0.001407540445634243 0.9999115258752748 -0.001407540445634243 0.9999115258752748 -0.001407540445634243 8.847412472540618E-5 0.001407540445634243
8.445983984661816E7 8.869650814680822E-5 0.001428719683223519 0.9999113034918531 -0.0014287196832235187 0.9999113034918531 -0.0014287196832235187 8.869650814680822E-5 0.001428719683223519
8.573445738807854E7 8.892409671127486E-5 0.0014502166889417106 0.9999110759032888 -0.0014502166889417108 0.9999110759032888 -0.0014502166889417108 8.892409671127486E-5 0.0014502166889417106
8.702831069744885E7 8.915699629387872E-5 0.0014720362219645127 0.9999108430037063 -0.0014720362219645127 0.9999108430037063 -0.0014720362219645127 8.915699629387872E-5 0.0014720362219645127
8.834169006946853E7 8.939531508829363E-5 0.0014941831133341904 0.9999106046849118 -0.0014941831133341904 0.9999106046849118 -0.0014941831133341904 8.939531508829363E-5 0.0014941831133341904
8.96748901798321E7 8.963916370866093E-5 0.0015166622670621166 0.9999103608362915 -0.0015166622670621166 0.9999103608362915 -0.0015166622670621166 8.963916370866093E-5 0.0015166622670621166
9.1028210151304E7 8.988865529680577E-5 0.0015394786612458397 0.9999101113447033 -0.0015394786612458397 0.9999101113447033 -0.0015394786612458397 8.988865529680577E-5 0.0015394786612458397
9.240195362083109E7 9.014390563486564E-5 0.0015626373492006497 0.9999098560943651 -0.0015626373492006495 0.9999098560943651 -0.0015626373492006495 9.014390563486564E-5 0.0015626373492006497
9.379642880766791E7 9.040503326337509E-5 0.0015861434606055803 0.9999095949667367 -0.0015861434606055803 0.9999095949667367 -0.0015861434606055803 9.040503326337509E-5 0.0015861434606055803
9.521194858253023E7 9.067215960483186E-5 0.001610002202663807 0.9999093278403953 -0.001610002202663807 0.9999093278403953 -0.001610002202663807 9.067215960483186E-5 0.001610002202663807
9.664883053779216E7 9.09454090927518E-5 0.0016342188612773884 0.9999090545909074 -0.0016342188612773884 0.9999090545909074 -0.0016342188612773884 9.09454090927518E-5 0.0016342188612773884
9.810739705874248E7 9.122490930619763E-5 0.001658798802236293 0.9999087750906939 -0.0016587988022362934 0.9999087750906939 -0.0016587988022362934 9.122490930619763E-5 0.001658798802236293
9.958797539591652E7 9.151079110974742E-5 0.0016837474724216645 0.9999084892088903 -0.0016837474724216645 0.9999084892088903 -0.0016837474724216645 9.151079110974742E-5 0.0016837474724216645
1.0109089773851961E8 9.180318879884642E-5 0.0017090704010232802 0.999908196811201 -0.0017090704010232802 0.999908196811201 -0.0017090704010232802 9.180318879884642E-5 0.0017090704010232802
1.0261650128895843E8 9.210224025046424E-5 0.001734773200771152 0.9999078977597494 -0.0017347732007711523 0.9999078977597494 -0.0017347732007711523 9.210224025046424E-5 0.001734773200771152
1.0416512833849736E8 9.240808707895792E-5 0.0017608615691812432 0.9999075919129211 -0.0017608615691812434 0.9999075919129211 -0.0017608615691812434 9.240808707895792E-5 0.0017608615691812432
1.0573712634405641E8 9.27208747970189E-5 0.0017873412898152577 0.999907279125203 -0.0017873412898152582 0.999907279125203 -0.0017873412898152582 9.27208747970189E-5 0.0017873412898152577
1.0733284800616828E8 9.304075298155954E-5 0.0018142182335545121 0.9999069592470184 -0.0018142182335545126 0.9999069592470184 -0.0018142182335545126 9.304075298155954E-5 0.0018142182335545121
1.0895265134811176E8 9.33678754443747E-5 0.0018414983598878513 0.9999066321245557 -0.0018414983598878513 0.9999066321245557 -0.0018414983598878513 9.33678754443747E-5 0.0018414983598878513
1.1059689979623953E8 9.370240040738943E-5 0.0018691877182136392 0.9999062975995926 -0.0018691877182136396 0.9999062975995926 -0.0018691877182136396 9.370240040738943E-5 0.0018691877182136392
1.1226596226151802E8 9.404449068228661E-5 0.0018972924491558489 0.9999059555093178 -0.0018972924491558489 0.9999059555093178 -0.0018972924491558489 9.404449068228661E-5 0.0018972924491558489
1.1396021322229806E8 9.43943138542856E-5 0.0019258187858942847 0.9999056056861455 -0.0019258187858942843 0.9999056056861455 -0.0019258187858942843 9.43943138542856E-5 0.0019258187858942847
1.1568003280833441E8 9.475204246982379E-5 0.0019547730555090005 0.9999052479575302 -0.0019547730555090005 0.9999052479575302 -0.0019547730555090005 9.475204246982379E-5 0.0019547730555090005
1.1742580688607343E8 9.511785422787606E-5 0.0019841616803390133 0.9999048821457722 -0.0019841616803390133 0.9999048821457722 -0.0019841616803390133 9.511785422787606E-5 0.0019841616803390133
1.1919792714522783E8 9.549193217462818E-5 0.0020139911793553935 0.9999045080678253 -0.0020139911793553935 0.9999045080678253 -0.0020139911793553935 9.549193217462818E-5 0.0020139911793553935
1.2099679118665792E8 9.587446490120583E-5 0.0020442681695488946 0.9999041255350988 -0.0020442681695488946 0.9999041255350988 -0.0020442681695488946 9.587446490120583E-5 0.0020442681695488946
1.2282280261157903E8 9.626564674414346E-5 0.0020749993673322455 0.9999037343532559 -0.0020749993673322455 0.9999037343532559 -0.0020749993673322455 9.626564674414346E-5 0.0020749993673322455
1.2467637111211549E8 9.666567798826779E-5 0.002106191589957318 0.9999033343220118 -0.002106191589957318 0.9999033343220118 -0.002106191589957318 9.666567798826779E-5 0.002106191589957318
1.265579125632208E8 9.707476507165623E-5 0.002137851756947373 0.9999029252349284 -0.002137851756947373 0.9999029252349284 -0.002137851756947373 9.707476507165623E-5 0.002137851756947373
1.284678491159853E8 9.749312079232044E-5 0.0021699868915446203 0.9999025068792078 -0.0021699868915446203 0.9999025068792078 -0.0021699868915446203 9.749312079232044E-5 0.0021699868915446203
1.3040660929235186E8 9.792096451626022E-5 0.002202604122173392 0.9999020790354839 -0.0022026041221733924 0.9999020790354839 -0.0022026041221733924 9.792096451626022E-5 0.002202604122173392
1.3237462808126101E8 9.83585223865203E-5 0.0022357106839191883 0.9999016414776134 -0.002235710683919188 0.9999016414776134 -0.002235710683919188 9.83585223865203E-5 0.0022357106839191883
1.3437234703624701E8 9.880602753288555E-5 0.0022693139200239956 0.999901193972467 -0.0022693139200239956 0.999901193972467 -0.0022693139200239956 9.880602753288555E-5 0.0022693139200239956
1.364002143745067E8 9.926372028183865E-5 0.002303421283398179 0.9999007362797182 -0.002303421283398179 0.9999007362797182 -0.002303421283398179 9.926372028183865E-5 0.002303421283398179
1.3845868507746372E8 9.97318483664109E-5 0.0023380403381494104 0.9999002681516337 -0.0023380403381494104 0.9999002681516337 -0.0023380403381494104 9.97318483664109E-5 0.0023380403381494104
1.405482209928499E8 1.0021066713555172E-4 0.002373178761129036 0.9998997893328645 -0.002373178761129036 0.9998997893328645 -0.002373178761129036 1.0021066713555172E-4 0.002373178761129036
1.426692909383278E8 1.0070043976264649E-4 0.002408844343496354 0.9998992995602373 -0.002408844343496354 0.9998992995602373 -0.002408844343496354 1.0070043976264649E-4 0.002408844343496354
1.4482237080667645E8 1.0120143745281853E-4 0.002445044992301322 0.999898798562547 -0.002445044992301322 0.999898798562547 -0.002445044992301322 1.0120143745281853E-4 0.002445044992301322
1.4700794367256513E8 1.0171393964865232E-4 0.002481788732086214 0.9998982860603514 -0.002481788732086214 0.9998982860603514 -0.002481788732086214 1.0171393964865232E-4 0.002481788732086214
1.492264999009378E8 1.0223823423398642E-4 0.0025190837065068054 0.9998977617657658 -0.002519083706506806 0.9998977617657658 -0.002519083706506806 1.0223823423398642E-4 0.0025190837065068054
1.5147853725703382E8 1.027746177354312E-4 0.0025569381799736878 0.9998972253822644 -0.0025569381799736873 0.9998972253822644 -0.0025569381799736873 1.027746177354312E-4 0.0025569381799736878
1.5376456101806876E8 1.03323395521277E-4 0.0025953605393143437 0.9998966766044789 -0.002595360539314344 0.9998966766044789 -0.002595360539314344 1.03323395521277E-4 0.0025953605393143437
1.5608508408660066E8 1.038848819974699E-4 0.002634359295456655 0.9998961151180026 -0.0026343592954566545 0.9998961151180026 -0.0026343592954566545 1.038848819974699E-4 0.002634359295456655
1.5844062710560706E8 1.0445940080034633E-4 0.0026739430851345333 0.9998955405991996 -0.0026739430851345333 0.9998955405991996 -0.0026739430851345333 1.0445940080034633E-4 0.0026739430851345333
1.6083171857529896E8 1.0504728498583018E-4 0.0027141206726164296 0.9998949527150142 -0.00271412067261643 0.9998949527150142 -0.00271412067261643 1.0504728498583018E-4 0.0027141206726164296
1.632588949716973E8 1.0564887721481157E-4 0.002754900951457427 0.9998943511227851 -0.002754900951457427 0.9998943511227851 -0.002754900951457427 1.0564887721481157E-4 0.002754900951457427
1.6572270086699936E8 1.0626452993444547E-4 0.0027962929462757896 0.9998937354700654 -0.0027962929462757896 0.9998937354700654 -0.0027962929462757896 1.0626452993444547E-4 0.0027962929462757896
1.6822368905176118E8 1.0689460555512027E-4 0.002838305814554709 0.9998931053944449 -0.002838305814554709 0.9998931053944449 -0.002838305814554709 1.0689460555512027E-4 0.002838305814554709
1.7076242065892437E8 1.0753947662287042E-4 0.00288094884847015 0.9998924605233772 -0.0028809488484701504 0.9998924605233772 -0.0028809488484701504 1.0753947662287042E-4 0.00288094884847015
1.7333946528971428E8 1.0819952598702161E-4 0.0029242314767456523 0.999891800474013 -0.0029242314767456523 0.999891800474013 -0.0029242314767456523 1.0819952598702161E-4 0.0029242314767456523
1.7595540114143828E8 1.0887514696288029E-4 0.0029681632665350065 0.9998911248530372 -0.002968163266535007 0.9998911248530372 -0.002968163266535007 1.0887514696288029E-4 0.0029681632665350065
1.786108151372127E8 1.09566743489297E-4 0.0030127539253337297 0.9998904332565107 -0.0030127539253337297 0.9998904332565107 -0.0030127539253337297 1.09566743489297E-4 0.0030127539253337297
1.8130630305764765E8 1.1027473028095658E-4 0.0030580133029203143 0.9998897252697192 -0.0030580133029203143 0.9998897252697192 -0.0030580133029203143 1.1027473028095658E-4 0.0030580133029203143
1.840424696745189E8 1.1099953297526955E-4 0.0031039513933282395 0.9998890004670248 -0.0031039513933282395 0.9998890004670248 -0.0031039513933282395 1.1099953297526955E-4 0.0031039513933282395
1.8681992888645732E8 1.1174158827376137E-4 0.003150578336849758 0.9998882584117262 -0.0031505783368497584 0.9998882584117262 -0.0031505783368497584 1.1174158827376137E-4 0.003150578336849758
1.8963930385668582E8 1.1250134407788103E-4 0.0031979044220725146 0.9998874986559222 -0.0031979044220725146 0.9998874986559222 -0.0031979044220725146 1.1250134407788103E-4 0.0031979044220725146
1.92501227152835E8 1.1327925961917479E-4 0.0032459400879500753 0.999886720740381 -0.0032459400879500753 0.999886720740381 -0.0032459400879500753 1.1327925961917479E-4 0.0032459400879500753
1.9540634088886917E8 1.140758055837942E-4 0.003294695925907442 0.9998859241944162 -0.003294695925907442 0.9998859241944162 -0.003294695925907442 1.140758055837942E-4 0.003294695925907442
1.983552968691535E8 1.1489146423133806E-4 0.003344182681982721 0.9998851085357686 -0.00334418268198272 0.9998851085357686 -0.00334418268198272 1.1489146423133806E-4 0.003344182681982721
2.0134875673469606E8 1.1572672950805135E-4 0.0033944112590060713 0.9998842732704921 -0.0033944112590060713 0.9998842732704921 -0.0033944112590060713 1.1572672950805135E-4 0.0033944112590060713
2.0438739211159652E8 1.1658210715443561E-4 0.0034453927188171567 0.9998834178928455 -0.0034453927188171567 0.9998834178928455 -0.0034453927188171567 1.1658210715443561E-4 0.0034453927188171567
2.074718847617352E8 1.1745811480735287E-4 0.00349713828452226 0.9998825418851928 -0.00349713828452226 0.9998825418851928 -0.00349713828452226 1.1745811480735287E-4 0.00349713828452226
2.106029267357361E8 1.1835528209674008E-4 0.003549659342792362 0.9998816447179033 -0.003549659342792362 0.9998816447179033 -0.003549659342792362 1.1835528209674008E-4 0.003549659342792362
2.1378122052823865E8 1.1927415073707945E-4 0.003602967446203425 0.9998807258492629 -0.003602967446203425 0.9998807258492629 -0.003602967446203425 1.1927415073707945E-4 0.003602967446203425
2.1700747923551247E8 1.2021527461380854E-4 0.0036570743156201808 0.9998797847253861 -0.003657074315620181 0.9998797847253861 -0.003657074315620181 1.2021527461380854E-4 0.0036570743156201808
2.2028242671545094E8 1.2117921986488994E-4 0.0037119918426247885 0.9998788207801351 -0.003711991842624788 0.9998788207801351 -0.003711991842624788 1.2117921986488994E-4 0.0037119918426247885
2.23606797749979E8 1.221665649577961E-4 0.003767732091991664 0.9998778334350422 -0.003767732091991664 0.9998778334350422 -0.003767732091991664 1.221665649577961E-4 0.003767732091991664
2.2698133820991236E8 1.2317790076221008E-4 0.0038243073042099254 0.9998768220992376 -0.0038243073042099254 0.9998768220992376 -0.0038243073042099254 1.2317790076221008E-4 0.0038243073042099254
2.3040680522230446E8 1.2421383061878393E-4 0.0038817298980548605 0.9998757861693811 -0.0038817298980548596 0.9998757861693811 -0.0038817298980548596 1.2421383061878393E-4 0.0038817298980548605
