!Murata Part Number: LQP15MN2N8W02
!These Parameters are Measured in Series Mode Connection
!       o--[Z]--o
!Port1              Port2
!       o-------o
!
!Freq. Start=50[MHz] Stop=20[GHz], 401[Steps]
# Hz S RI R 50
!Freq.(Hz) S11(Real) S11(Imag) S21(Real) S21(Imag) S12(Real) S12(Imag) S22(Real) S22(Imag)
5.0E7 0.0019254511748599456 0.007979232158616883 0.99807454882514 -0.007979232158616883 0.99807454882514 -0.007979232158616883 0.0019254511748599456 0.007979232158616883
5.0754570186123446E7 0.0019319986422269625 0.008097847422593396 0.998068001357773 -0.008097847422593394 0.998068001357773 -0.008097847422593394 0.0019319986422269625 0.008097847422593396
5.152052789556263E7 0.0019387077617071527 0.0082181850182102 0.9980612922382928 -0.008218185018210198 0.9980612922382928 -0.008218185018210198 0.0019387077617071527 0.0082181850182102
5.229804498202928E7 0.0019455816274707995 0.00834026879794335 0.9980544183725294 -0.00834026879794335 0.9980544183725294 -0.00834026879794335 0.0019455816274707995 0.00834026879794335
5.308729589274893E7 0.0019526233525250657 0.008464122933046513 0.998047376647475 -0.008464122933046513 0.998047376647475 -0.008464122933046513 0.0019526233525250657 0.008464122933046513
5.388845770760058E7 0.0019598360672122956 0.008589771919313444 0.9980401639327877 -0.008589771919313444 0.9980401639327877 -0.008589771919313444 0.0019598360672122956 0.008589771919313444
5.470171017884717E7 0.001967222917686349 0.008717240583066757 0.9980327770823137 -0.008717240583066757 0.9980327770823137 -0.008717240583066757 0.001967222917686349 0.008717240583066757
5.5527235771465644E7 0.0019747870643741163 0.008846554087381841 0.998025212935626 -0.008846554087381843 0.998025212935626 -0.008846554087381843 0.0019747870643741163 0.008846554087381841
5.6365219704085544E7 0.0019825316804300253 0.008977737938554775 0.9980174683195701 -0.008977737938554775 0.9980174683195701 -0.008977737938554775 0.0019825316804300253 0.008977737938554775
5.721584999054556E7 0.001990459950192091 0.009110817992822796 0.9980095400498079 -0.009110817992822795 0.9980095400498079 -0.009110817992822795 0.001990459950192091 0.009110817992822796
5.807931748207712E7 0.0019985750676487423 0.009245820463345806 0.9980014249323511 -0.009245820463345808 0.9980014249323511 -0.009245820463345808 0.0019985750676487423 0.009245820463345806
5.8955815910124585E7 0.002006880234926455 0.009382771927457139 0.9979931197650734 -0.009382771927457139 0.9979931197650734 -0.009382771927457139 0.002006880234926455 0.009382771927457139
5.984554192981184E7 0.002015378660808914 0.009521699334191511 0.9979846213391912 -0.009521699334191511 0.9979846213391912 -0.009521699334191511 0.002015378660808914 0.009521699334191511
6.074869516406457E7 0.002024073559299203 0.009662630012097627 0.9979759264407005 -0.009662630012097625 0.9979759264407005 -0.009662630012097625 0.002024073559299203 0.009662630012097627
6.166547824839868E7 0.0020329681482372775 0.009805591677342762 0.9979670318517628 -0.009805591677342762 0.9979670318517628 -0.009805591677342762 0.0020329681482372775 0.009805591677342762
6.2596096876384385E7 0.0020420656479856773 0.009950612442115732 0.9979579343520143 -0.009950612442115732 0.9979579343520143 -0.009950612442115732 0.0020420656479856773 0.009950612442115732
6.354075984579668E7 0.0020513692801972273 0.01009772082333462 0.9979486307198029 -0.01009772082333462 0.9979486307198029 -0.01009772082333462 0.0020513692801972273 0.01009772082333462
6.449967910546205E7 0.0020608822666791315 0.010246945751664557 0.9979391177333209 -0.010246945751664557 0.9979391177333209 -0.010246945751664557 0.0020608822666791315 0.010246945751664557
6.547306980281226E7 0.002070607828368595 0.01039831658085047 0.9979293921716312 -0.01039831658085047 0.9979293921716312 -0.01039831658085047 0.002070607828368595 0.01039831658085047
6.646115033215589E7 0.00208054918443575 0.010551863097368845 0.9979194508155641 -0.010551863097368845 0.9979194508155641 -0.010551863097368845 0.00208054918443575 0.010551863097368845
6.746414238367817E7 0.0020907095515303037 0.01070761553040175 0.9979092904484699 -0.01070761553040175 0.9979092904484699 -0.01070761553040175 0.0020907095515303037 0.01070761553040175
6.848227099318038E7 0.002101092143188898 0.010865604562135433 0.9978989078568111 -0.010865604562135433 0.9978989078568111 -0.010865604562135433 0.002101092143188898 0.010865604562135433
6.951576459256999E7 0.0021117001694207177 0.01102586133838501 0.9978882998305791 -0.011025861338385009 0.9978882998305791 -0.011025861338385009 0.0021117001694207177 0.01102586133838501
7.056485506111258E7 0.0021225368364893565 0.01118841747954553 0.9978774631635106 -0.01118841747954553 0.9978774631635106 -0.01118841747954553 0.0021225368364893565 0.01118841747954553
7.162977777745734E7 0.0021336053469093626 0.01135330509186878 0.9978663946530907 -0.011353305091868781 0.9978663946530907 -0.011353305091868781 0.0021336053469093626 0.01135330509186878
7.271077167244768E7 0.0021449088996762507 0.01152055677906407 0.9978550911003239 -0.01152055677906407 0.9978550911003239 -0.01152055677906407 0.0021449088996762507 0.01152055677906407
7.380807928272885E7 0.002156450690749017 0.011690205654219899 0.9978435493092509 -0.011690205654219899 0.9978435493092509 -0.011690205654219899 0.002156450690749017 0.011690205654219899
7.492194680516452E7 0.0021682339138043793 0.011862285352042376 0.9978317660861957 -0.011862285352042376 0.9978317660861957 -0.011862285352042376 0.0021682339138043793 0.011862285352042376
7.60526241520746E7 0.0021802617612820888 0.012036830041404803 0.9978197382387178 -0.012036830041404803 0.9978197382387178 -0.012036830041404803 0.0021802617612820888 0.012036830041404803
7.720036500730675E7 0.0021925374257406186 0.012213874438201735 0.9978074625742595 -0.012213874438201735 0.9978074625742595 -0.012213874438201735 0.0021925374257406186 0.012213874438201735
7.836542688315398E7 0.002205064101542471 0.01239345381849922 0.9977949358984577 -0.01239345381849922 0.9977949358984577 -0.01239345381849922 0.002205064101542471 0.01239345381849922
7.954807117813127E7 0.0022178449868881017 0.012575604031971846 0.9977821550131117 -0.012575604031971844 0.9977821550131117 -0.012575604031971844 0.0022178449868881017 0.012575604031971846
8.074856323562416E7 0.0022308832862171775 0.012760361515615675 0.9977691167137828 -0.012760361515615675 0.9977691167137828 -0.012760361515615675 0.0022308832862171775 0.012760361515615675
8.196717240342227E7 0.002244182212995416 0.012947763307724807 0.9977558177870045 -0.01294776330772481 0.9977558177870045 -0.01294776330772481 0.002244182212995416 0.012947763307724807
8.320417209415154E7 0.0022577449929047466 0.013137847062118138 0.9977422550070953 -0.013137847062118142 0.9977422550070953 -0.013137847062118142 0.0022577449929047466 0.013137847062118138
8.445983984661816E7 0.0022715748674537887 0.01333065106260112 0.9977284251325461 -0.01333065106260112 0.9977284251325461 -0.01333065106260112 0.0022715748674537887 0.01333065106260112
8.573445738807854E7 0.0022856750980249727 0.013526214237646628 0.9977143249019751 -0.013526214237646628 0.9977143249019751 -0.013526214237646628 0.0022856750980249727 0.013526214237646628
8.702831069744885E7 0.0023000489703735873 0.013724576175277234 0.9976999510296265 -0.013724576175277234 0.9976999510296265 -0.013724576175277234 0.0023000489703735873 0.013724576175277234
8.834169006946853E7 0.0023146997995931143 0.01392577713813023 0.9976853002004071 -0.01392577713813023 0.9976853002004071 -0.01392577713813023 0.0023146997995931143 0.01392577713813023
8.96748901798321E7 0.0023296309355600184 0.014129858078685685 0.9976703690644401 -0.014129858078685685 0.9976703690644401 -0.014129858078685685 0.0023296309355600184 0.014129858078685685
9.1028210151304E7 0.00234484576886993 0.014336860654636612 0.9976551542311299 -0.014336860654636612 0.9976551542311299 -0.014336860654636612 0.00234484576886993 0.014336860654636612
9.240195362083109E7 0.002360347737275781 0.014546827244379314 0.9976396522627242 -0.014546827244379314 0.9976396522627242 -0.014546827244379314 0.002360347737275781 0.014546827244379314
9.379642880766791E7 0.0023761403326370252 0.01475980096260137 0.9976238596673629 -0.01475980096260137 0.9976238596673629 -0.01475980096260137 0.0023761403326370252 0.01475980096260137
9.521194858253023E7 0.0023922271083874867 0.01497582567594362 0.9976077728916126 -0.014975825675943624 0.9976077728916126 -0.014975825675943624 0.0023922271083874867 0.01497582567594362
9.664883053779216E7 0.0024086116875278174 0.015194946018712336 0.997591388312472 -0.015194946018712336 0.997591388312472 -0.015194946018712336 0.0024086116875278174 0.015194946018712336
9.810739705874248E7 0.002425297771146736 0.015417207408616625 0.9975747022288531 -0.015417207408616625 0.9975747022288531 -0.015417207408616625 0.002425297771146736 0.015417207408616625
9.958797539591652E7 0.0024422891474735775 0.015642656062506498 0.9975577108525265 -0.015642656062506498 0.9975577108525265 -0.015642656062506498 0.0024422891474735775 0.015642656062506498
1.0109089773851961E8 0.002459589701462787 0.015871339012086295 0.9975404102985372 -0.015871339012086295 0.9975404102985372 -0.015871339012086295 0.002459589701462787 0.015871339012086295
1.0261650128895843E8 0.0024772034249091884 0.01610330411957835 0.9975227965750908 -0.01610330411957835 0.9975227965750908 -0.01610330411957835 0.0024772034249091884 0.01610330411957835
1.0416512833849736E8 0.0024951344270909537 0.016338600093311777 0.997504865572909 -0.01633860009331178 0.997504865572909 -0.01633860009331178 0.0024951344270909537 0.016338600093311777
1.0573712634405641E8 0.002513386945935399 0.016577276503211707 0.9974866130540646 -0.016577276503211707 0.9974866130540646 -0.016577276503211707 0.002513386945935399 0.016577276503211707
1.0733284800616828E8 0.0025319653597007863 0.016819383796164565 0.9974680346402992 -0.016819383796164565 0.9974680346402992 -0.016819383796164565 0.0025319653597007863 0.016819383796164565
1.0895265134811176E8 0.002550874199165571 0.017064973311235805 0.9974491258008344 -0.01706497331123581 0.9974491258008344 -0.01706497331123581 0.002550874199165571 0.017064973311235805
1.1059689979623953E8 0.002570118160314654 0.01731409729471702 0.9974298818396851 -0.017314097294717015 0.9974298818396851 -0.017314097294717015 0.002570118160314654 0.01731409729471702
1.1226596226151802E8 0.0025897021175105457 0.01756680891498059 0.9974102978824895 -0.017566808914980594 0.9974102978824895 -0.017566808914980594 0.0025897021175105457 0.01756680891498059
1.1396021322229806E8 0.0026096311371356477 0.017823162277121038 0.9973903688628645 -0.01782316227712104 0.9973903688628645 -0.01782316227712104 0.0026096311371356477 0.017823162277121038
1.1568003280833441E8 0.0026299104916903287 0.018083212437363327 0.9973700895083097 -0.01808321243736333 0.9973700895083097 -0.01808321243736333 0.0026299104916903287 0.018083212437363327
1.1742580688607343E8 0.002650545674329987 0.01834701541722019 0.9973494543256699 -0.01834701541722019 0.9973494543256699 -0.01834701541722019 0.002650545674329987 0.01834701541722019
1.1919792714522783E8 0.0026715424138229675 0.018614628217381596 0.9973284575861769 -0.018614628217381593 0.9973284575861769 -0.018614628217381593 0.0026715424138229675 0.018614628217381596
1.2099679118665792E8 0.002692906689910035 0.018886108831321618 0.99730709331009 -0.018886108831321618 0.99730709331009 -0.018886108831321618 0.002692906689910035 0.018886108831321618
1.2282280261157903E8 0.0027146447490449853 0.019161516258609377 0.997285355250955 -0.019161516258609377 0.997285355250955 -0.019161516258609377 0.0027146447490449853 0.019161516258609377
1.2467637111211549E8 0.00273676312049516 0.019440910517912927 0.9972632368795049 -0.019440910517912927 0.9972632368795049 -0.019440910517912927 0.00273676312049516 0.019440910517912927
1.265579125632208E8 0.0027592686327798347 0.019724352659686598 0.99724073136722 -0.019724352659686598 0.99724073136722 -0.019724352659686598 0.0027592686327798347 0.019724352659686598
1.284678491159853E8 0.0027821684304239693 0.02001190477853473 0.9972178315695759 -0.02001190477853473 0.9972178315695759 -0.02001190477853473 0.0027821684304239693 0.02001190477853473
1.3040660929235186E8 0.0028054699910043733 0.020303630025246534 0.9971945300089957 -0.020303630025246534 0.9971945300089957 -0.020303630025246534 0.0028054699910043733 0.020303630025246534
1.3237462808126101E8 0.0028291811424652163 0.020599592618498953 0.9971708188575347 -0.020599592618498953 0.9971708188575347 -0.020599592618498953 0.0028291811424652163 0.020599592618498953
1.3437234703624701E8 0.0028533100806797888 0.02089985785622679 0.9971466899193201 -0.02089985785622679 0.9971466899193201 -0.02089985785622679 0.0028533100806797888 0.02089985785622679
1.364002143745067E8 0.0028778653872356405 0.02120449212666122 0.9971221346127644 -0.02120449212666122 0.9971221346127644 -0.02120449212666122 0.0028778653872356405 0.02120449212666122
1.3845868507746372E8 0.002902856047420607 0.02151356291904016 0.9970971439525795 -0.02151356291904016 0.9970971439525795 -0.02151356291904016 0.002902856047420607 0.02151356291904016
1.405482209928499E8 0.0029282914683877955 0.021827138833995792 0.9970717085316124 -0.021827138833995792 0.9970717085316124 -0.021827138833995792 0.0029282914683877955 0.021827138833995792
1.426692909383278E8 0.0029541814974784106 0.02214528959362697 0.9970458185025216 -0.022145289593626973 0.9970458185025216 -0.022145289593626973 0.0029541814974784106 0.02214528959362697
1.4482237080667645E8 0.002980536440682163 0.022468086051265695 0.9970194635593177 -0.022468086051265695 0.9970194635593177 -0.022468086051265695 0.002980536440682163 0.022468086051265695
1.4700794367256513E8 0.003007367081216202 0.02279560020094926 0.9969926329187839 -0.022795600200949263 0.9969926329187839 -0.022795600200949263 0.003007367081216202 0.02279560020094926
1.492264999009378E8 0.003034684698204668 0.023127905186610908 0.9969653153017952 -0.023127905186610904 0.9969653153017952 -0.023127905186610904 0.003034684698204668 0.023127905186610908
1.5147853725703382E8 0.003062501085442476 0.023465075311003992 0.9969374989145576 -0.023465075311003992 0.9969374989145576 -0.023465075311003992 0.003062501085442476 0.023465075311003992
1.5376456101806876E8 0.00309082857022839 0.02380718604437579 0.9969091714297715 -0.02380718604437579 0.9969091714297715 -0.02380718604437579 0.00309082857022839 0.02380718604437579
1.5608508408660066E8 0.003119680032254192 0.024154314032908797 0.9968803199677457 -0.024154314032908797 0.9968803199677457 -0.024154314032908797 0.003119680032254192 0.024154314032908797
1.5844062710560706E8 0.003149068922538457 0.024506537106948226 0.9968509310774615 -0.024506537106948226 0.9968509310774615 -0.024506537106948226 0.003149068922538457 0.024506537106948226
1.6083171857529896E8 0.0031790092823953593 0.024863934289036105 0.9968209907176047 -0.02486393428903611 0.9968209907176047 -0.02486393428903611 0.0031790092823953593 0.024863934289036105
1.632588949716973E8 0.003209515762430814 0.025226585801772537 0.9967904842375692 -0.025226585801772537 0.9967904842375692 -0.025226585801772537 0.003209515762430814 0.025226585801772537
1.6572270086699936E8 0.0032406036415603403 0.02559457307552624 0.9967593963584397 -0.02559457307552624 0.9967593963584397 -0.02559457307552624 0.0032406036415603403 0.02559457307552624
1.6822368905176118E8 0.0032722888460449667 0.025967978756016485 0.996727711153955 -0.025967978756016485 0.996727711153955 -0.025967978756016485 0.0032722888460449667 0.025967978756016485
1.7076242065892437E8 0.0033045879685436523 0.026346886711789246 0.9966954120314565 -0.026346886711789252 0.9966954120314565 -0.026346886711789252 0.0033045879685436523 0.026346886711789246
1.7333946528971428E8 0.0033375182871827566 0.02673138204161077 0.9966624817128172 -0.02673138204161077 0.9966624817128172 -0.02673138204161077 0.0033375182871827566 0.02673138204161077
1.7595540114143828E8 0.003371097784645127 0.027121551081801542 0.9966289022153548 -0.027121551081801535 0.9966289022153548 -0.027121551081801535 0.003371097784645127 0.027121551081801542
1.786108151372127E8 0.00340534516728348 0.027517481413533905 0.9965946548327166 -0.027517481413533905 0.9965946548327166 -0.027517481413533905 0.00340534516728348 0.027517481413533905
1.8130630305764765E8 0.0034402798842647544 0.027919261870116188 0.9965597201157352 -0.027919261870116195 0.9965597201157352 -0.027919261870116195 0.0034402798842647544 0.027919261870116188
1.840424696745189E8 0.003475922146754089 0.028326982544285954 0.9965240778532461 -0.028326982544285954 0.9965240778532461 -0.028326982544285954 0.003475922146754089 0.028326982544285954
1.8681992888645732E8 0.0035122929471490035 0.028740734795534323 0.996487707052851 -0.028740734795534316 0.996487707052851 -0.028740734795534316 0.0035122929471490035 0.028740734795534323
1.8963930385668582E8 0.003549414078376241 0.029160611257483128 0.9964505859216238 -0.02916061125748313 0.9964505859216238 -0.02916061125748313 0.003549414078376241 0.029160611257483128
1.92501227152835E8 0.00358730815326542 0.029586705845335258 0.9964126918467346 -0.029586705845335265 0.9964126918467346 -0.029586705845335265 0.00358730815326542 0.029586705845335258
1.9540634088886917E8 0.003625998624015466 0.030019113763418443 0.9963740013759846 -0.030019113763418443 0.9963740013759846 -0.030019113763418443 0.003625998624015466 0.030019113763418443
1.983552968691535E8 0.0036655098017712604 0.030457931512841166 0.9963344901982288 -0.030457931512841173 0.9963344901982288 -0.030457931512841173 0.0036655098017712604 0.030457931512841166
2.0134875673469606E8 0.003705866876329495 0.030903256899278912 0.9962941331236704 -0.030903256899278912 0.9962941331236704 -0.030903256899278912 0.003705866876329495 0.030903256899278912
2.0438739211159652E8 0.0037470959359941487 0.031355189040907415 0.9962529040640059 -0.031355189040907415 0.9962529040640059 -0.031355189040907415 0.0037470959359941487 0.031355189040907415
2.074718847617352E8 0.0037892239876032006 0.03181382837649874 0.9962107760123968 -0.03181382837649873 0.9962107760123968 -0.03181382837649873 0.0037892239876032006 0.03181382837649874
2.106029267357361E8 0.003832278976749453 0.03227927667369469 0.9961677210232505 -0.03227927667369469 0.9961677210232505 -0.03227927667369469 0.003832278976749453 0.03227927667369469
2.1378122052823865E8 0.0038762898082193675 0.03275163703747095 0.9961237101917807 -0.03275163703747094 0.9961237101917807 -0.03275163703747094 0.0038762898082193675 0.03275163703747095
2.1700747923551247E8 0.003921286366674806 0.033231013918803794 0.996078713633325 -0.0332310139188038 0.996078713633325 -0.0332310139188038 0.003921286366674806 0.033231013918803794
2.2028242671545094E8 0.0039672995376033755 0.033717513123550556 0.9960327004623967 -0.033717513123550556 0.9960327004623967 -0.033717513123550556 0.0039672995376033755 0.033717513123550556
2.23606797749979E8 0.0040143612285639604 0.03421124182155311 0.995985638771436 -0.03421124182155311 0.995985638771436 -0.03421124182155311 0.0040143612285639604 0.03421124182155311
2.2698133820991236E8 0.00406250439075449 0.03471230855597287 0.9959374956092455 -0.03471230855597287 0.9959374956092455 -0.03471230855597287 0.00406250439075449 0.03471230855597287
2.3040680522230446E8 0.004111763040929803 0.035220823252864436 0.9958882369590699 -0.035220823252864436 0.9958882369590699 -0.035220823252864436 0.004111763040929803 0.035220823252864436
2.338839673403185E8 0.004162172283697746 0.035736897230993735 0.9958378277163022 -0.035736897230993735 0.9958378277163022 -0.035736897230993735 0.004162172283697746 0.035736897230993735
2.37413604715664E8 0.004213768334222198 0.036260643211905585 0.9957862316657777 -0.036260643211905585 0.9957862316657777 -0.036260643211905585 0.004213768334222198 0.036260643211905585
