!Murata Part Number: LQP15MN1N9W02
!These Parameters are Measured in Series Mode Connection
!       o--[Z]--o
!Port1              Port2
!       o-------o
!
!Freq. Start=50[MHz] Stop=20[GHz], 401[Steps]
# Hz S RI R 50
!Freq.(Hz) S11(Real) S11(Imag) S21(Real) S21(Imag) S12(Real) S12(Imag) S22(Real) S22(Imag)
5.0E7 7.865274591467152E-4 0.00501639184945597 0.9992134725408535 -0.005016391849455971 0.9992134725408535 -0.005016391849455971 7.865274591467152E-4 0.00501639184945597
5.0754570186123446E7 7.891071803872004E-4 0.0050916562133845635 0.9992108928196127 -0.0050916562133845635 0.9992108928196127 -0.0050916562133845635 7.891071803872004E-4 0.0050916562133845635
5.152052789556263E7 7.917590929887782E-4 0.005168037790370619 0.9992082409070113 -0.005168037790370619 0.9992082409070113 -0.005168037790370619 7.917590929887782E-4 0.005168037790370619
5.229804498202928E7 7.9448504166875E-4 0.005245552698930162 0.9992055149583311 -0.005245552698930161 0.9992055149583311 -0.005245552698930161 7.9448504166875E-4 0.005245552698930162
5.308729589274893E7 7.972869086733317E-4 0.005324217274692076 0.9992027130913268 -0.005324217274692076 0.9992027130913268 -0.005324217274692076 7.972869086733317E-4 0.005324217274692076
5.388845770760058E7 8.001666140285568E-4 0.005404048072996867 0.9991998333859715 -0.005404048072996867 0.9991998333859715 -0.005404048072996867 8.001666140285568E-4 0.005404048072996867
5.470171017884717E7 8.031261157641094E-4 0.005485061871535022 0.9991968738842358 -0.0054850618715350215 0.9991968738842358 -0.0054850618715350215 8.031261157641094E-4 0.005485061871535022
5.5527235771465644E7 8.061674101085907E-4 0.0055672756730271835 0.9991938325898916 -0.005567275673027183 0.9991938325898916 -0.005567275673027183 8.061674101085907E-4 0.0055672756730271835
5.6365219704085544E7 8.092925316547581E-4 0.005650706707948524 0.9991907074683452 -0.005650706707948523 0.9991907074683452 -0.005650706707948523 8.092925316547581E-4 0.005650706707948524
5.721584999054556E7 8.125035534932763E-4 0.00573537243729987 0.9991874964465066 -0.00573537243729987 0.9991874964465066 -0.00573537243729987 8.125035534932763E-4 0.00573537243729987
5.807931748207712E7 8.158025873135482E-4 0.005821290555428275 0.9991841974126866 -0.005821290555428275 0.9991841974126866 -0.005821290555428275 8.158025873135482E-4 0.005821290555428275
5.8955815910124585E7 8.191917834702388E-4 0.005908478992899981 0.9991808082165298 -0.005908478992899981 0.9991808082165298 -0.005908478992899981 8.191917834702388E-4 0.005908478992899981
5.984554192981184E7 8.226733310141438E-4 0.005996955919428854 0.999177326668986 -0.005996955919428854 0.999177326668986 -0.005996955919428854 8.226733310141438E-4 0.005996955919428854
6.074869516406457E7 8.262494576861078E-4 0.0060867397468635075 0.9991737505423139 -0.0060867397468635075 0.9991737505423139 -0.0060867397468635075 8.262494576861078E-4 0.0060867397468635075
6.166547824839868E7 8.299224298727852E-4 0.0061778491322367094 0.9991700775701271 -0.0061778491322367094 0.9991700775701271 -0.0061778491322367094 8.299224298727852E-4 0.0061778491322367094
6.2596096876384385E7 8.336945525231049E-4 0.006270302980880656 0.9991663054474768 -0.006270302980880656 0.9991663054474768 -0.006270302980880656 8.336945525231049E-4 0.006270302980880656
6.354075984579668E7 8.375681690243992E-4 0.006364120449612065 0.9991624318309756 -0.0063641204496120655 0.9991624318309756 -0.0063641204496120655 8.375681690243992E-4 0.006364120449612065
6.449967910546205E7 8.415456610372805E-4 0.006459320949991123 0.9991584543389628 -0.006459320949991123 0.9991584543389628 -0.006459320949991123 8.415456610372805E-4 0.006459320949991123
6.547306980281226E7 8.456294482884634E-4 0.006555924151658692 0.9991543705517116 -0.006555924151658692 0.9991543705517116 -0.006555924151658692 8.456294482884634E-4 0.006555924151658692
6.646115033215589E7 8.498219883208955E-4 0.006653949985756239 0.999150178011679 -0.006653949985756239 0.999150178011679 -0.006653949985756239 8.498219883208955E-4 0.006653949985756239
6.746414238367817E7 8.541257762006943E-4 0.0067534186484332435 0.9991458742237993 -0.0067534186484332435 0.9991458742237993 -0.0067534186484332435 8.541257762006943E-4 0.0067534186484332435
6.848227099318038E7 8.585433441806016E-4 0.00685435060444708 0.9991414566558195 -0.00685435060444708 0.9991414566558195 -0.00685435060444708 8.585433441806016E-4 0.00685435060444708
6.951576459256999E7 8.630772613198481E-4 0.006956766590860543 0.99913692273868 -0.006956766590860543 0.99913692273868 -0.006956766590860543 8.630772613198481E-4 0.006956766590860543
7.056485506111258E7 8.67730133060543E-4 0.007060687620842416 0.9991322698669396 -0.007060687620842416 0.9991322698669396 -0.007060687620842416 8.67730133060543E-4 0.007060687620842416
7.162977777745734E7 8.725046007609553E-4 0.007166134987576656 0.999127495399239 -0.007166134987576654 0.999127495399239 -0.007166134987576654 8.725046007609553E-4 0.007166134987576656
7.271077167244768E7 8.774033411863138E-4 0.007273130268286087 0.9991225966588139 -0.007273130268286087 0.9991225966588139 -0.007273130268286087 8.774033411863138E-4 0.007273130268286087
7.380807928272885E7 8.824290659580329E-4 0.00738169532837655 0.9991175709340421 -0.007381695328376548 0.9991175709340421 -0.007381695328376548 8.824290659580329E-4 0.00738169532837655
7.492194680516452E7 8.875845209625898E-4 0.007491852325707711 0.9991124154790375 -0.007491852325707711 0.9991124154790375 -0.007491852325707711 8.875845209625898E-4 0.007491852325707711
7.60526241520746E7 8.928724857215983E-4 0.007603623714996948 0.9991071275142783 -0.007603623714996948 0.9991071275142783 -0.007603623714996948 8.928724857215983E-4 0.007603623714996948
7.720036500730675E7 8.982957727249996E-4 0.007717032252362846 0.9991017042272751 -0.007717032252362846 0.9991017042272751 -0.007717032252362846 8.982957727249996E-4 0.007717032252362846
7.836542688315398E7 9.038572267296424E-4 0.007832101000014973 0.9990961427732704 -0.007832101000014975 0.9990961427732704 -0.007832101000014975 9.038572267296424E-4 0.007832101000014973
7.954807117813127E7 9.095597240259519E-4 0.007948853331096828 0.999090440275974 -0.00794885333109683 0.999090440275974 -0.00794885333109683 9.095597240259519E-4 0.007948853331096828
8.074856323562416E7 9.154061716757899E-4 0.008067312934688847 0.9990845938283244 -0.008067312934688847 0.9990845938283244 -0.008067312934688847 9.154061716757899E-4 0.008067312934688847
8.196717240342227E7 9.213995067250722E-4 0.00818750382097854 0.9990786004932749 -0.008187503820978543 0.9990786004932749 -0.008187503820978543 9.213995067250722E-4 0.00818750382097854
8.320417209415154E7 9.27542695395176E-4 0.008309450326604935 0.9990724573046049 -0.008309450326604935 0.9990724573046049 -0.008309450326604935 9.27542695395176E-4 0.008309450326604935
8.445983984661816E7 9.338387322576429E-4 0.008433177120184316 0.9990661612677425 -0.008433177120184316 0.9990661612677425 -0.008433177120184316 9.338387322576429E-4 0.008433177120184316
8.573445738807854E7 9.402906393972208E-4 0.008558709208024628 0.9990597093606026 -0.008558709208024628 0.9990597093606026 -0.008558709208024628 9.402906393972208E-4 0.008558709208024628
8.702831069744885E7 9.469014655688013E-4 0.00868607194003559 0.9990530985344312 -0.00868607194003559 0.9990530985344312 -0.00868607194003559 9.469014655688013E-4 0.00868607194003559
8.834169006946853E7 9.53674285354343E-4 0.008815291015841565 0.9990463257146456 -0.008815291015841565 0.9990463257146456 -0.008815291015841565 9.53674285354343E-4 0.008815291015841565
8.96748901798321E7 9.606121983264647E-4 0.008946392491104361 0.9990393878016737 -0.008946392491104361 0.9990393878016737 -0.008946392491104361 9.606121983264647E-4 0.008946392491104361
9.1028210151304E7 9.677183282259318E-4 0.009079402784062671 0.9990322816717742 -0.009079402784062671 0.9990322816717742 -0.009079402784062671 9.677183282259318E-4 0.009079402784062671
9.240195362083109E7 9.749958221608674E-4 0.009214348682294995 0.9990250041778393 -0.009214348682294997 0.9990250041778393 -0.009214348682294997 9.749958221608674E-4 0.009214348682294995
9.379642880766791E7 9.82447849836089E-4 0.009351257349712457 0.9990175521501641 -0.009351257349712457 0.9990175521501641 -0.009351257349712457 9.82447849836089E-4 0.009351257349712457
9.521194858253023E7 9.900776028215902E-4 0.009490156333787738 0.9990099223971783 -0.00949015633378774 0.9990099223971783 -0.00949015633378774 9.900776028215902E-4 0.009490156333787738
9.664883053779216E7 9.978882938697646E-4 0.009631073573026215 0.9990021117061303 -0.009631073573026215 0.9990021117061303 -0.009631073573026215 9.978882938697646E-4 0.009631073573026215
9.810739705874248E7 0.0010058831562915643 0.009774037404684565 0.9989941168437083 -0.009774037404684565 0.9989941168437083 -0.009774037404684565 0.0010058831562915643 0.009774037404684565
9.958797539591652E7 0.0010140654434023797 0.009919076572742304 0.9989859345565975 -0.009919076572742304 0.9989859345565975 -0.009919076572742304 0.0010140654434023797 0.009919076572742304
1.0109089773851961E8 0.0010224384280489982 0.010066220236130755 0.998977561571951 -0.010066220236130755 0.998977561571951 -0.010066220236130755 0.0010224384280489982 0.010066220236130755
1.0261650128895843E8 0.0010310054022295413 0.010215497977223638 0.9989689945977703 -0.010215497977223638 0.9989689945977703 -0.010215497977223638 0.0010310054022295413 0.010215497977223638
1.0416512833849736E8 0.0010397696768188454 0.010366939810592966 0.9989602303231812 -0.010366939810592965 0.9989602303231812 -0.010366939810592965 0.0010397696768188454 0.010366939810592966
1.0573712634405641E8 0.001048734581412231 0.010520576192033098 0.9989512654185878 -0.010520576192033098 0.9989512654185878 -0.010520576192033098 0.001048734581412231 0.010520576192033098
1.0733284800616828E8 0.001057903464301111 0.010676438027855338 0.9989420965356988 -0.010676438027855338 0.9989420965356988 -0.010676438027855338 0.001057903464301111 0.010676438027855338
1.0895265134811176E8 0.001067279692594306 0.01083455668445458 0.9989327203074058 -0.01083455668445458 0.9989327203074058 -0.01083455668445458 0.001067279692594306 0.01083455668445458
1.1059689979623953E8 0.0010768666524993507 0.010994963998148762 0.9989231333475004 -0.01099496399814876 0.9989231333475004 -0.01099496399814876 0.0010768666524993507 0.010994963998148762
1.1226596226151802E8 0.0010866677497784207 0.01115769228529116 0.9989133322502214 -0.01115769228529116 0.9989133322502214 -0.01115769228529116 0.0010866677497784207 0.01115769228529116
1.1396021322229806E8 0.0010966864103938042 0.011322774352654436 0.9989033135896062 -0.011322774352654436 0.9989033135896062 -0.011322774352654436 0.0010966864103938042 0.011322774352654436
1.1568003280833441E8 0.0011069260813580768 0.011490243508084723 0.9988930739186418 -0.011490243508084723 0.9988930739186418 -0.011490243508084723 0.0011069260813580768 0.011490243508084723
1.1742580688607343E8 0.0011173902318043216 0.011660133571422796 0.9988826097681954 -0.011660133571422796 0.9988826097681954 -0.011660133571422796 0.0011173902318043216 0.011660133571422796
1.1919792714522783E8 0.0011280823542918301 0.011832478885688629 0.998871917645708 -0.011832478885688627 0.998871917645708 -0.011832478885688627 0.0011280823542918301 0.011832478885688629
1.2099679118665792E8 0.0011390059663627366 0.012007314328524322 0.9988609940336372 -0.012007314328524322 0.9988609940336372 -0.012007314328524322 0.0011390059663627366 0.012007314328524322
1.2282280261157903E8 0.00115016461236502 0.012184675323889683 0.9988498353876349 -0.012184675323889683 0.9988498353876349 -0.012184675323889683 0.00115016461236502 0.012184675323889683
1.2467637111211549E8 0.0011615618655571205 0.012364597854003352 0.9988384381344428 -0.012364597854003354 0.9988384381344428 -0.012364597854003354 0.0011615618655571205 0.012364597854003352
1.265579125632208E8 0.0011732013305092383 0.012547118471521467 0.9988267986694906 -0.012547118471521467 0.9988267986694906 -0.012547118471521467 0.0011732013305092383 0.012547118471521467
1.284678491159853E8 0.0011850866458160375 0.012732274311944725 0.9988149133541839 -0.012732274311944724 0.9988149133541839 -0.012732274311944724 0.0011850866458160375 0.012732274311944725
1.3040660929235186E8 0.0011972214871350765 0.012920103106243629 0.9988027785128649 -0.012920103106243632 0.9988027785128649 -0.012920103106243632 0.0011972214871350765 0.012920103106243629
1.3237462808126101E8 0.0012096095705647987 0.013110643193690718 0.9987903904294352 -0.013110643193690718 0.9987903904294352 -0.013110643193690718 0.0012096095705647987 0.013110643193690718
1.3437234703624701E8 0.001222254656375265 0.013303933534887229 0.9987777453436247 -0.01330393353488723 0.9987777453436247 -0.01330393353488723 0.001222254656375265 0.013303933534887229
1.364002143745067E8 0.0012351605531041843 0.0135000137249712 0.998764839446896 -0.0135000137249712 0.998764839446896 -0.0135000137249712 0.0012351605531041843 0.0135000137249712
1.3845868507746372E8 0.001248331122029936 0.013698924006992436 0.99875166887797 -0.013698924006992436 0.99875166887797 -0.013698924006992436 0.001248331122029936 0.013698924006992436
1.405482209928499E8 0.0012617702820324282 0.01390070528543926 0.9987382297179676 -0.01390070528543926 0.9987382297179676 -0.01390070528543926 0.0012617702820324282 0.01390070528543926
1.426692909383278E8 0.0012754820148516523 0.014105399139900946 0.9987245179851482 -0.014105399139900943 0.9987245179851482 -0.014105399139900943 0.0012754820148516523 0.014105399139900946
1.4482237080667645E8 0.0012894703707527126 0.014313047838849038 0.9987105296292471 -0.014313047838849038 0.9987105296292471 -0.014313047838849038 0.0012894703707527126 0.014313047838849038
1.4700794367256513E8 0.0013037394746049605 0.01452369435351986 0.9986962605253952 -0.01452369435351986 0.9986962605253952 -0.01452369435351986 0.0013037394746049605 0.01452369435351986
1.492264999009378E8 0.0013182935323816651 0.014737382371880202 0.9986817064676186 -0.014737382371880202 0.9986817064676186 -0.014737382371880202 0.0013182935323816651 0.014737382371880202
1.5147853725703382E8 0.0013331368380852995 0.014954156312657403 0.9986668631619147 -0.0149541563126574 0.9986668631619147 -0.0149541563126574 0.0013331368380852995 0.014954156312657403
1.5376456101806876E8 0.0013482737811022208 0.015174061339414749 0.9986517262188978 -0.015174061339414749 0.9986517262188978 -0.015174061339414749 0.0013482737811022208 0.015174061339414749
1.5608508408660066E8 0.0013637088539890582 0.015397143374652773 0.9986362911460109 -0.015397143374652773 0.9986362911460109 -0.015397143374652773 0.0013637088539890582 0.015397143374652773
1.5844062710560706E8 0.0013794466606916992 0.015623449113916896 0.9986205533393083 -0.015623449113916896 0.9986205533393083 -0.015623449113916896 0.0013794466606916992 0.015623449113916896
1.6083171857529896E8 0.0013954919251962618 0.015853026039891825 0.9986045080748036 -0.01585302603989182 0.9986045080748036 -0.01585302603989182 0.0013954919251962618 0.015853026039891825
1.632588949716973E8 0.0014118495006099222 0.01608592243646307 0.99858815049939 -0.01608592243646307 0.99858815049939 -0.01608592243646307 0.0014118495006099222 0.01608592243646307
1.6572270086699936E8 0.0014285243786679547 0.01632218740272638 0.998571475621332 -0.016322187402726382 0.998571475621332 -0.016322187402726382 0.0014285243786679547 0.01632218740272638
1.6822368905176118E8 0.0014455216996618172 0.01656187086692602 0.9985544783003383 -0.01656187086692602 0.9985544783003383 -0.01656187086692602 0.0014455216996618172 0.01656187086692602
1.7076242065892437E8 0.0014628467627816205 0.01680502360030355 0.9985371532372185 -0.016805023600303545 0.9985371532372185 -0.016805023600303545 0.0014628467627816205 0.01680502360030355
1.7333946528971428E8 0.0014805050368648257 0.01705169723083911 0.998519494963135 -0.01705169723083911 0.998519494963135 -0.01705169723083911 0.0014805050368648257 0.01705169723083911
1.7595540114143828E8 0.0014985021715416096 0.017301944256868415 0.9985014978284584 -0.017301944256868415 0.9985014978284584 -0.017301944256868415 0.0014985021715416096 0.017301944256868415
1.786108151372127E8 0.0015168440087659357 0.01755581806055898 0.9984831559912342 -0.01755581806055898 0.9984831559912342 -0.01755581806055898 0.0015168440087659357 0.01755581806055898
1.8130630305764765E8 0.001535536594720092 0.017813372921230832 0.99846446340528 -0.017813372921230832 0.99846446340528 -0.017813372921230832 0.001535536594720092 0.017813372921230832
1.840424696745189E8 0.0015545861920792073 0.018074664028507614 0.9984454138079205 -0.018074664028507614 0.9984454138079205 -0.018074664028507614 0.0015545861920792073 0.018074664028507614
1.8681992888645732E8 0.0015739992926211393 0.018339747495285427 0.9984260007073789 -0.01833974749528543 0.9984260007073789 -0.01833974749528543 0.0015739992926211393 0.018339747495285427
1.8963930385668582E8 0.0015937826301661107 0.01860868037050833 0.9984062173698338 -0.01860868037050833 0.9984062173698338 -0.01860868037050833 0.0015937826301661107 0.01860868037050833
1.92501227152835E8 0.0016139431938295536 0.018881520651740657 0.9983860568061704 -0.018881520651740657 0.9983860568061704 -0.018881520651740657 0.0016139431938295536 0.018881520651740657
1.9540634088886917E8 0.001634488241570861 0.019158327297528185 0.9983655117584291 -0.01915832729752819 0.9983655117584291 -0.01915832729752819 0.001634488241570861 0.019158327297528185
1.983552968691535E8 0.0016554253140200748 0.01943916023954163 0.9983445746859798 -0.019439160239541627 0.9983445746859798 -0.019439160239541627 0.0016554253140200748 0.01943916023954163
2.0134875673469606E8 0.0016767622485640886 0.019724080394497856 0.998323237751436 -0.01972408039449786 0.998323237751436 -0.01972408039449786 0.0016767622485640886 0.019724080394497856
2.0438739211159652E8 0.0016985071936735485 0.02001314967585597 0.9983014928063264 -0.02001314967585597 0.9983014928063264 -0.02001314967585597 0.0016985071936735485 0.02001314967585597
2.074718847617352E8 0.0017206686234514817 0.020306431005287246 0.9982793313765485 -0.02030643100528725 0.9982793313765485 -0.02030643100528725 0.0017206686234514817 0.020306431005287246
2.106029267357361E8 0.0017432553523846388 0.020603988323919853 0.9982567446476155 -0.02060398832391985 0.9982567446476155 -0.02060398832391985 0.0017432553523846388 0.020603988323919853
2.1378122052823865E8 0.0017662765502786798 0.020905886603361068 0.9982337234497215 -0.020905886603361068 0.9982337234497215 -0.020905886603361068 0.0017662765502786798 0.020905886603361068
2.1700747923551247E8 0.0017897417573586145 0.021212191856501795 0.9982102582426413 -0.021212191856501795 0.9982102582426413 -0.021212191856501795 0.0017897417573586145 0.021212191856501795
2.2028242671545094E8 0.001813660899516384 0.021522971148109835 0.9981863391004835 -0.021522971148109835 0.9981863391004835 -0.021522971148109835 0.001813660899516384 0.021522971148109835
2.23606797749979E8 0.0018380443036880893 0.02183829260522035 0.9981619556963118 -0.021838292605220348 0.9981619556963118 -0.021838292605220348 0.0018380443036880893 0.02183829260522035
2.2698133820991236E8 0.0018629027133441351 0.02215822542733384 0.9981370972866559 -0.022158225427333842 0.9981370972866559 -0.022158225427333842 0.0018629027133441351 0.02215822542733384
2.3040680522230446E8 0.0018882473040765227 0.02248283989643352 0.9981117526959236 -0.022482839896433522 0.9981117526959236 -0.022482839896433522 0.0018882473040765227 0.02248283989643352
2.338839673403185E8 0.001914089699268561 0.02281220738683584 0.9980859103007313 -0.02281220738683584 0.9980859103007313 -0.02281220738683584 0.001914089699268561 0.02281220738683584
2.37413604715664E8 0.0019404419858335162 0.02314640037488938 0.9980595580141663 -0.023146400374889377 0.9980595580141663 -0.023146400374889377 0.0019404419858335162 0.02314640037488938
