!Murata Part Number: LQP15MN10NG02
!These Parameters are Measured in Series Mode Connection
!       o--[Z]--o
!Port1              Port2
!       o-------o
!
!Freq. Start=50[MHz] Stop=20[GHz], 401[Steps]
# Hz S RI R 50
!Freq.(Hz) S11(Real) S11(Imag) S21(Real) S21(Imag) S12(Real) S12(Imag) S22(Real) S22(Imag)
5.0E7 0.007973413183204117 0.03062673669576319 0.9920265868167959 -0.03062673669576319 0.9920265868167959 -0.03062673669576319 0.007973413183204117 0.03062673669576319
5.0754570186123446E7 0.008008275814873253 0.031087113202801126 0.9919917241851266 -0.031087113202801126 0.9919917241851266 -0.031087113202801126 0.008008275814873253 0.031087113202801126
5.152052789556263E7 0.00804418980002025 0.031554354538521505 0.9919558101999797 -0.031554354538521505 0.9919558101999797 -0.031554354538521505 0.00804418980002025 0.031554354538521505
5.229804498202928E7 0.008081186574757005 0.03202856055905951 0.9919188134252429 -0.03202856055905951 0.9919188134252429 -0.03202856055905951 0.008081186574757005 0.03202856055905951
5.308729589274893E7 0.008119298498848857 0.03250983246056205 0.9918807015011513 -0.03250983246056205 0.9918807015011513 -0.03250983246056205 0.008119298498848857 0.03250983246056205
5.388845770760058E7 0.008158558881880265 0.0329982727921233 0.9918414411181198 -0.0329982727921233 0.9918414411181198 -0.0329982727921233 0.008158558881880265 0.0329982727921233
5.470171017884717E7 0.008199002010104128 0.03349398546860938 0.9918009979898958 -0.03349398546860938 0.9918009979898958 -0.03349398546860938 0.008199002010104128 0.03349398546860938
5.5527235771465644E7 0.008240663173989186 0.033997075783358595 0.9917593368260108 -0.033997075783358595 0.9917593368260108 -0.033997075783358595 0.008240663173989186 0.033997075783358595
5.6365219704085544E7 0.008283578696480139 0.03450765042074292 0.9917164213035198 -0.03450765042074292 0.9917164213035198 -0.03450765042074292 0.008283578696480139 0.03450765042074292
5.721584999054556E7 0.00832778596198502 0.03502581746857584 0.991672214038015 -0.03502581746857584 0.991672214038015 -0.03502581746857584 0.00832778596198502 0.03502581746857584
5.807931748207712E7 0.008373323446104725 0.035551686430351156 0.9916266765538951 -0.035551686430351156 0.9916266765538951 -0.035551686430351156 0.008373323446104725 0.035551686430351156
5.8955815910124585E7 0.008420230746119391 0.03608536823729659 0.9915797692538806 -0.03608536823729659 0.9915797692538806 -0.03608536823729659 0.008420230746119391 0.03608536823729659
5.984554192981184E7 0.008468548612246463 0.03662697526022528 0.9915314513877534 -0.03662697526022528 0.9915314513877534 -0.03662697526022528 0.008468548612246463 0.03662697526022528
6.074869516406457E7 0.00851831897968542 0.037176621321167745 0.9914816810203145 -0.03717662132116775 0.9914816810203145 -0.03717662132116775 0.00851831897968542 0.037176621321167745
6.166547824839868E7 0.00856958500146391 0.037734421704766194 0.9914304149985363 -0.037734421704766194 0.9914304149985363 -0.037734421704766194 0.00856958500146391 0.037734421704766194
6.2596096876384385E7 0.00862239108210032 0.03830049316941186 0.9913776089178997 -0.03830049316941186 0.9913776089178997 -0.03830049316941186 0.00862239108210032 0.03830049316941186
6.354075984579668E7 0.00867678291209749 0.03887495395810642 0.9913232170879027 -0.038874953958106424 0.9913232170879027 -0.038874953958106424 0.00867678291209749 0.03887495395810642
6.449967910546205E7 0.008732807503282421 0.0394579238090261 0.9912671924967177 -0.0394579238090261 0.9912671924967177 -0.0394579238090261 0.008732807503282421 0.0394579238090261
6.547306980281226E7 0.008790513225006718 0.04004952396576821 0.9912094867749933 -0.04004952396576822 0.9912094867749933 -0.04004952396576822 0.008790513225006718 0.04004952396576821
6.646115033215589E7 0.008849949841222324 0.040649877187257544 0.9911500501587777 -0.04064987718725755 0.9911500501587777 -0.04064987718725755 0.008849949841222324 0.040649877187257544
6.746414238367817E7 0.008911168548447082 0.04125910775729005 0.9910888314515528 -0.041259107757290046 0.9910888314515528 -0.041259107757290046 0.008911168548447082 0.04125910775729005
6.848227099318038E7 0.008974222014634443 0.041877341493690295 0.9910257779853658 -0.0418773414936903 0.9910257779853658 -0.0418773414936903 0.008974222014634443 0.041877341493690295
6.951576459256999E7 0.009039164418961448 0.04250470575705814 0.9909608355810386 -0.04250470575705815 0.9909608355810386 -0.04250470575705815 0.009039164418961448 0.04250470575705814
7.056485506111258E7 0.009106051492549026 0.04314132945907976 0.9908939485074512 -0.04314132945907975 0.9908939485074512 -0.04314132945907975 0.009106051492549026 0.04314132945907976
7.162977777745734E7 0.009174940560128138 0.04378734307037625 0.990825059439872 -0.04378734307037625 0.990825059439872 -0.04378734307037625 0.009174940560128138 0.04378734307037625
7.271077167244768E7 0.009245890582665423 0.044442878627864 0.9907541094173345 -0.044442878627864 0.9907541094173345 -0.044442878627864 0.009245890582665423 0.044442878627864
7.380807928272885E7 0.009318962200961208 0.0451080697415978 0.9906810377990388 -0.045108069741597805 0.9906810377990388 -0.045108069741597805 0.009318962200961208 0.0451080697415978
7.492194680516452E7 0.009394217780232944 0.045783051601069366 0.9906057822197671 -0.04578305160106937 0.9906057822197671 -0.04578305160106937 0.009394217780232944 0.045783051601069366
7.60526241520746E7 0.009471721455696192 0.04646796098093061 0.9905282785443039 -0.04646796098093062 0.9905282785443039 -0.04646796098093062 0.009471721455696192 0.04646796098093061
7.720036500730675E7 0.009551539179155352 0.047162936246112334 0.9904484608208446 -0.04716293624611234 0.9904484608208446 -0.04716293624611234 0.009551539179155352 0.047162936246112334
7.836542688315398E7 0.009633738766615616 0.0478681173563066 0.9903662612333844 -0.0478681173563066 0.9903662612333844 -0.0478681173563066 0.009633738766615616 0.0478681173563066
7.954807117813127E7 0.009718389946927086 0.04858364586978066 0.9902816100530728 -0.04858364586978066 0.9902816100530728 -0.04858364586978066 0.009718389946927086 0.04858364586978066
8.074856323562416E7 0.009805564411471753 0.04930966494649017 0.9901944355885282 -0.04930966494649017 0.9901944355885282 -0.04930966494649017 0.009805564411471753 0.04930966494649017
8.196717240342227E7 0.00989533586490309 0.05004631935045706 0.9901046641350968 -0.05004631935045705 0.9901046641350968 -0.05004631935045705 0.00989533586490309 0.05004631935045706
8.320417209415154E7 0.009987780076947774 0.05079375545137855 0.9900122199230523 -0.05079375545137855 0.9900122199230523 -0.05079375545137855 0.009987780076947774 0.05079375545137855
8.445983984661816E7 0.010082974935278011 0.051552121225430736 0.989917025064722 -0.051552121225430736 0.989917025064722 -0.051552121225430736 0.010082974935278011 0.051552121225430736
8.573445738807854E7 0.01018100049946264 0.052321566255231794 0.9898189995005373 -0.052321566255231794 0.9898189995005373 -0.052321566255231794 0.01018100049946264 0.052321566255231794
8.702831069744885E7 0.010281939056004144 0.05310224172892692 0.9897180609439958 -0.05310224172892692 0.9897180609439958 -0.05310224172892692 0.010281939056004144 0.05310224172892692
8.834169006946853E7 0.010385875174467981 0.05389430043835753 0.9896141248255322 -0.05389430043835753 0.9896141248255322 -0.05389430043835753 0.010385875174467981 0.05389430043835753
8.96748901798321E7 0.010492895764710087 0.05469789677627681 0.9895071042352898 -0.05469789677627681 0.9895071042352898 -0.05469789677627681 0.010492895764710087 0.05469789677627681
9.1028210151304E7 0.010603090135207067 0.05551318673257163 0.9893969098647929 -0.055513186732571614 0.9893969098647929 -0.055513186732571614 0.010603090135207067 0.05551318673257163
9.240195362083109E7 0.010716550052493177 0.05634032788945169 0.9892834499475067 -0.05634032788945169 0.9892834499475067 -0.05634032788945169 0.010716550052493177 0.05634032788945169
9.379642880766791E7 0.010833369801706867 0.05717947941556519 0.9891666301982931 -0.05717947941556519 0.9891666301982931 -0.05717947941556519 0.010833369801706867 0.05717947941556519
9.521194858253023E7 0.010953646248248995 0.058030802058999936 0.9890463537517509 -0.058030802058999936 0.9890463537517509 -0.058030802058999936 0.010953646248248995 0.058030802058999936
9.664883053779216E7 0.011077478900553545 0.058894458139128865 0.9889225210994467 -0.058894458139128865 0.9889225210994467 -0.058894458139128865 0.011077478900553545 0.058894458139128865
9.810739705874248E7 0.011204969973970856 0.05977061153725729 0.9887950300260292 -0.05977061153725729 0.9887950300260292 -0.05977061153725729 0.011204969973970856 0.05977061153725729
9.958797539591652E7 0.011336224455762121 0.06065942768602998 0.9886637755442378 -0.06065942768602998 0.9886637755442378 -0.06065942768602998 0.011336224455762121 0.06065942768602998
1.0109089773851961E8 0.011471350171202958 0.061561073557555156 0.988528649828797 -0.06156107355755514 0.988528649828797 -0.06156107355755514 0.011471350171202958 0.061561073557555156
1.0261650128895843E8 0.011610457850792599 0.06247571765020199 0.9883895421492074 -0.06247571765020199 0.9883895421492074 -0.06247571765020199 0.011610457850792599 0.06247571765020199
1.0416512833849736E8 0.011753661198564332 0.06340352997402932 0.9882463388014356 -0.06340352997402932 0.9882463388014356 -0.06340352997402932 0.011753661198564332 0.06340352997402932
1.0573712634405641E8 0.011901076961491267 0.06434468203480057 0.9880989230385088 -0.06434468203480057 0.9880989230385088 -0.06434468203480057 0.011901076961491267 0.06434468203480057
1.0733284800616828E8 0.012052824999980909 0.06529934681654316 0.9879471750000189 -0.06529934681654316 0.9879471750000189 -0.06529934681654316 0.012052824999980909 0.06529934681654316
1.0895265134811176E8 0.012209028359450279 0.06626769876260749 0.9877909716405496 -0.0662676987626075 0.9877909716405496 -0.0662676987626075 0.012209028359450279 0.06626769876260749
1.1059689979623953E8 0.012369813342972614 0.06724991375518292 0.9876301866570274 -0.06724991375518292 0.9876301866570274 -0.06724991375518292 0.012369813342972614 0.06724991375518292
1.1226596226151802E8 0.012535309584985355 0.06824616909322748 0.9874646904150145 -0.06824616909322748 0.9874646904150145 -0.06824616909322748 0.012535309584985355 0.06824616909322748
1.1396021322229806E8 0.012705650126048022 0.06925664346876842 0.987294349873952 -0.06925664346876842 0.987294349873952 -0.06925664346876842 0.012705650126048022 0.06925664346876842
1.1568003280833441E8 0.01288097148863739 0.07028151694153068 0.9871190285113627 -0.07028151694153068 0.9871190285113627 -0.07028151694153068 0.01288097148863739 0.07028151694153068
1.1742580688607343E8 0.01306141375396677 0.0713209709118525 0.9869385862460333 -0.0713209709118525 0.9869385862460333 -0.0713209709118525 0.01306141375396677 0.0713209709118525
1.1919792714522783E8 0.013247120639814602 0.07237518809184561 0.9867528793601854 -0.07237518809184561 0.9867528793601854 -0.07237518809184561 0.013247120639814602 0.07237518809184561
1.2099679118665792E8 0.013438239579347156 0.07344435247476003 0.9865617604206529 -0.07344435247476003 0.9865617604206529 -0.07344435247476003 0.013438239579347156 0.07344435247476003
1.2282280261157903E8 0.013634921800919042 0.07452864930251363 0.9863650781990809 -0.07452864930251361 0.9863650781990809 -0.07452864930251361 0.013634921800919042 0.07452864930251363
1.2467637111211549E8 0.013837322408834537 0.07562826503134742 0.9861626775911655 -0.07562826503134742 0.9861626775911655 -0.07562826503134742 0.013837322408834537 0.07562826503134742
1.265579125632208E8 0.014045600465052165 0.07674338729556907 0.9859543995349479 -0.07674338729556907 0.9859543995349479 -0.07674338729556907 0.014045600465052165 0.07674338729556907
1.284678491159853E8 0.014259919071814453 0.07787420486934762 0.9857400809281855 -0.07787420486934762 0.9857400809281855 -0.07787420486934762 0.014259919071814453 0.07787420486934762
1.3040660929235186E8 0.014480445455184171 0.07902090762652422 0.9855195545448157 -0.07902090762652422 0.9855195545448157 -0.07902090762652422 0.014480445455184171 0.07902090762652422
1.3237462808126101E8 0.014707351049468598 0.08018368649840482 0.9852926489505313 -0.08018368649840482 0.9852926489505313 -0.08018368649840482 0.014707351049468598 0.08018368649840482
1.3437234703624701E8 0.014940811582512913 0.08136273342950204 0.9850591884174871 -0.08136273342950204 0.9850591884174871 -0.08136273342950204 0.014940811582512913 0.08136273342950204
1.364002143745067E8 0.01518100716184409 0.08255824133119503 0.9848189928381558 -0.08255824133119503 0.9848189928381558 -0.08255824133119503 0.01518100716184409 0.08255824133119503
1.3845868507746372E8 0.015428122361647253 0.08377040403327854 0.9845718776383529 -0.08377040403327854 0.9845718776383529 -0.08377040403327854 0.015428122361647253 0.08377040403327854
1.405482209928499E8 0.01568234631055656 0.08499941623337176 0.9843176536894435 -0.08499941623337176 0.9843176536894435 -0.08499941623337176 0.01568234631055656 0.08499941623337176
1.426692909383278E8 0.015943872780244152 0.08624547344416282 0.9840561272197559 -0.08624547344416282 0.9840561272197559 -0.08624547344416282 0.015943872780244152 0.08624547344416282
1.4482237080667645E8 0.016212900274791272 0.08750877193846261 0.9837870997252087 -0.08750877193846261 0.9837870997252087 -0.08750877193846261 0.016212900274791272 0.08750877193846261
1.4700794367256513E8 0.01648963212082743 0.08878950869204644 0.9835103678791723 -0.08878950869204642 0.9835103678791723 -0.08878950869204642 0.01648963212082743 0.08878950869204644
1.492264999009378E8 0.016774276558425106 0.09008788132426215 0.9832257234415749 -0.09008788132426215 0.9832257234415749 -0.09008788132426215 0.016774276558425106 0.09008788132426215
1.5147853725703382E8 0.017067046832739494 0.09140408803638542 0.9829329531672606 -0.09140408803638542 0.9829329531672606 -0.09140408803638542 0.017067046832739494 0.09140408803638542
1.5376456101806876E8 0.017368161286385415 0.09273832754770468 0.9826318387136146 -0.09273832754770468 0.9826318387136146 -0.09273832754770468 0.017368161286385415 0.09273832754770468
1.5608508408660066E8 0.017677843452546037 0.0940907990293198 0.9823221565474539 -0.0940907990293198 0.9823221565474539 -0.0940907990293198 0.017677843452546037 0.0940907990293198
1.5844062710560706E8 0.0179963221488115 0.09546170203563942 0.9820036778511885 -0.0954617020356394 0.9820036778511885 -0.0954617020356394 0.0179963221488115 0.09546170203563942
1.6083171857529896E8 0.018323831571749005 0.09685123643356401 0.981676168428251 -0.096851236433564 0.981676168428251 -0.096851236433564 0.018323831571749005 0.09685123643356401
1.632588949716973E8 0.018660611392209932 0.098259602329342 0.9813393886077901 -0.098259602329342 0.9813393886077901 -0.098259602329342 0.018660611392209932 0.098259602329342
1.6572270086699936E8 0.019006906851384262 0.099686999993088 0.9809930931486156 -0.099686999993088 0.9809930931486156 -0.099686999993088 0.019006906851384262 0.099686999993088
1.6822368905176118E8 0.01936296885761699 0.10113362978095118 0.9806370311423829 -0.10113362978095118 0.9806370311423829 -0.10113362978095118 0.01936296885761699 0.10113362978095118
1.7076242065892437E8 0.019729054084007266 0.102599692054924 0.9802709459159927 -0.102599692054924 0.9802709459159927 -0.102599692054924 0.019729054084007266 0.102599692054924
1.7333946528971428E8 0.02010542506681607 0.10408538710027919 0.9798945749331838 -0.10408538710027919 0.9798945749331838 -0.10408538710027919 0.02010542506681607 0.10408538710027919
1.7595540114143828E8 0.020492350304715374 0.10559091504062444 0.9795076496952846 -0.10559091504062444 0.9795076496952846 -0.10559091504062444 0.020492350304715374 0.10559091504062444
1.786108151372127E8 0.02089010435891755 0.10711647575056027 0.9791098956410826 -0.10711647575056026 0.9791098956410826 -0.10711647575056026 0.02089010435891755 0.10711647575056027
1.8130630305764765E8 0.021298967954231852 0.10866226876592743 0.9787010320457681 -0.10866226876592743 0.9787010320457681 -0.10866226876592743 0.021298967954231852 0.10866226876592743
1.840424696745189E8 0.021719228081101813 0.11022849319162605 0.9782807719188983 -0.11022849319162605 0.9782807719188983 -0.11022849319162605 0.021719228081101813 0.11022849319162605
1.8681992888645732E8 0.02215117809868575 0.11181534760698561 0.9778488219013141 -0.11181534760698561 0.9778488219013141 -0.11181534760698561 0.02215117809868575 0.11181534760698561
1.8963930385668582E8 0.022595117839050945 0.1134230299686619 0.9774048821609492 -0.11342302996866192 0.9774048821609492 -0.11342302996866192 0.022595117839050945 0.1134230299686619
1.92501227152835E8 0.023051353712560573 0.11505173751103019 0.9769486462874393 -0.11505173751103018 0.9769486462874393 -0.11505173751103018 0.023051353712560573 0.11505173751103019
1.9540634088886917E8 0.02352019881454236 0.11670166664404107 0.9764798011854576 -0.11670166664404107 0.9764798011854576 -0.11670166664404107 0.02352019881454236 0.11670166664404107
1.983552968691535E8 0.024001973033335823 0.118373012848494 0.975998026966664 -0.118373012848494 0.975998026966664 -0.118373012848494 0.024001973033335823 0.118373012848494
2.0134875673469606E8 0.024497003159826208 0.12006597056868051 0.9755029968401738 -0.12006597056868053 0.9755029968401738 -0.12006597056868053 0.024497003159826208 0.12006597056868051
2.0438739211159652E8 0.025005622998581497 0.12178073310233552 0.9749943770014186 -0.12178073310233552 0.9749943770014186 -0.12178073310233552 0.025005622998581497 0.12178073310233552
2.074718847617352E8 0.02552817348071946 0.12351749248782727 0.9744718265192805 -0.12351749248782727 0.9744718265192805 -0.12351749248782727 0.02552817348071946 0.12351749248782727
2.106029267357361E8 0.026065002778640697 0.1252764393885031 0.9739349972213592 -0.1252764393885031 0.9739349972213592 -0.1252764393885031 0.026065002778640697 0.1252764393885031
2.1378122052823865E8 0.02661646642277393 0.1270577629740956 0.973383533577226 -0.1270577629740956 0.973383533577226 -0.1270577629740956 0.02661646642277393 0.1270577629740956
2.1700747923551247E8 0.027182927420488133 0.12886165079907777 0.9728170725795118 -0.12886165079907777 0.9728170725795118 -0.12886165079907777 0.027182927420488133 0.12886165079907777
2.2028242671545094E8 0.027764756377335848 0.13068828867784105 0.9722352436226641 -0.13068828867784105 0.9722352436226641 -0.13068828867784105 0.027764756377335848 0.13068828867784105
2.23606797749979E8 0.028362331620799597 0.13253786055654931 0.9716376683792004 -0.13253786055654931 0.9716376683792004 -0.13253786055654931 0.028362331620799597 0.13253786055654931
2.2698133820991236E8 0.028976039326721548 0.13441054838150465 0.9710239606732783 -0.13441054838150462 0.9710239606732783 -0.13441054838150462 0.028976039326721548 0.13441054838150465
2.3040680522230446E8 0.029606273648603368 0.13630653196383793 0.9703937263513966 -0.13630653196383793 0.9703937263513966 -0.13630653196383793 0.029606273648603368 0.13630653196383793
2.338839673403185E8 0.030253436849968278 0.1382259888403127 0.9697465631500318 -0.13822598884031273 0.9697465631500318 -0.13822598884031273 0.030253436849968278 0.1382259888403127
2.37413604715664E8 0.030917939439983513 0.14016909413000858 0.9690820605600164 -0.14016909413000855 0.9690820605600164 -0.14016909413000855 0.030917939439983513 0.14016909413000858
2.4099650927363476E8 0.03160020031254271 0.14213602038661954 0.9683997996874573 -0.14213602038661952 0.9683997996874573 -0.14213602038661952 0.03160020031254271 0.14213602038661954
2.446334848907889E8 0.03230064688901151 0.14412693744607838 0.9676993531109886 -0.14412693744607838 0.9676993531109886 -0.14412693744607838 0.03230064688901151 0.14412693744607838
