!Murata Part Number: LQP15MN2N4B02
!These Parameters are Measured in Series Mode Connection
!       o--[Z]--o
!Port1              Port2
!       o-------o
!
!Freq. Start=50[MHz] Stop=20[GHz], 401[Steps]
# Hz S RI R 50
!Freq.(Hz) S11(Real) S11(Imag) S21(Real) S21(Imag) S12(Real) S12(Imag) S22(Real) S22(Imag)
5.0E7 0.0012952599409997562 0.006637219399758992 0.9987047400590005 -0.006637219399758994 0.9987047400590005 -0.006637219399758994 0.0012952599409997562 0.006637219399758992
5.0754570186123446E7 0.0012996051031121149 0.006736552701979181 0.9987003948968879 -0.006736552701979181 0.9987003948968879 -0.006736552701979181 0.0012996051031121149 0.006736552701979181
5.152052789556263E7 0.0013040696162883946 0.006837350380316552 0.9986959303837116 -0.006837350380316552 0.9986959303837116 -0.006837350380316552 0.0013040696162883946 0.006837350380316552
5.229804498202928E7 0.001308656405110891 0.006939633189398275 0.998691343594889 -0.006939633189398275 0.998691343594889 -0.006939633189398275 0.001308656405110891 0.006939633189398275
5.308729589274893E7 0.0013133684467497 0.007043422152310269 0.9986866315532503 -0.007043422152310269 0.9986866315532503 -0.007043422152310269 0.0013133684467497 0.007043422152310269
5.388845770760058E7 0.001318208770902297 0.0071487385636821235 0.9986817912290975 -0.0071487385636821235 0.9986817912290975 -0.0071487385636821235 0.001318208770902297 0.0071487385636821235
5.470171017884717E7 0.0013231804596737042 0.007255603992836661 0.9986768195403262 -0.007255603992836661 0.9986768195403262 -0.007255603992836661 0.0013231804596737042 0.007255603992836661
5.5527235771465644E7 0.0013282866473950283 0.007364040287008881 0.9986717133526049 -0.007364040287008881 0.9986717133526049 -0.007364040287008881 0.0013282866473950283 0.007364040287008881
5.6365219704085544E7 0.0013335305203782371 0.007474069574639285 0.9986664694796217 -0.0074740695746392865 0.9986664694796217 -0.0074740695746392865 0.0013335305203782371 0.007474069574639285
5.721584999054556E7 0.0013389153166051375 0.007585714268746847 0.9986610846833948 -0.007585714268746847 0.9986610846833948 -0.007585714268746847 0.0013389153166051375 0.007585714268746847
5.807931748207712E7 0.001344444325348683 0.007698997070387303 0.9986555556746513 -0.007698997070387303 0.9986555556746513 -0.007698997070387303 0.001344444325348683 0.007698997070387303
5.8955815910124585E7 0.0013501208867248498 0.007813940972202652 0.998649879113275 -0.007813940972202652 0.998649879113275 -0.007813940972202652 0.0013501208867248498 0.007813940972202652
5.984554192981184E7 0.0013559483911735313 0.007930569262068234 0.9986440516088264 -0.007930569262068234 0.9986440516088264 -0.007930569262068234 0.0013559483911735313 0.007930569262068234
6.074869516406457E7 0.0013619302788670823 0.008048905526843888 0.9986380697211329 -0.008048905526843888 0.9986380697211329 -0.008048905526843888 0.0013619302788670823 0.008048905526843888
6.166547824839868E7 0.0013680700390453857 0.008168973656236287 0.9986319299609547 -0.008168973656236287 0.9986319299609547 -0.008168973656236287 0.0013680700390453857 0.008168973656236287
6.2596096876384385E7 0.0013743712092765695 0.00829079784677966 0.9986256287907235 -0.00829079784677966 0.9986256287907235 -0.00829079784677966 0.0013743712092765695 0.00829079784677966
6.354075984579668E7 0.0013808373746427632 0.008414402605942587 0.9986191626253572 -0.008414402605942587 0.9986191626253572 -0.008414402605942587 0.0013808373746427632 0.008414402605942587
6.449967910546205E7 0.0013874721668506505 0.00853981275636886 0.9986125278331495 -0.008539812756368862 0.9986125278331495 -0.008539812756368862 0.0013874721668506505 0.00853981275636886
6.547306980281226E7 0.0013942792632668545 0.008667053440260709 0.998605720736733 -0.008667053440260707 0.998605720736733 -0.008667053440260707 0.0013942792632668545 0.008667053440260709
6.646115033215589E7 0.0014012623858786594 0.00879615012391315 0.9985987376141213 -0.00879615012391315 0.9985987376141213 -0.00879615012391315 0.0014012623858786594 0.00879615012391315
6.746414238367817E7 0.0014084253001808915 0.008927128602408322 0.9985915746998191 -0.008927128602408322 0.9985915746998191 -0.008927128602408322 0.0014084253001808915 0.008927128602408322
6.848227099318038E7 0.0014157718139903035 0.009060015004479194 0.9985842281860098 -0.009060015004479192 0.9985842281860098 -0.009060015004479192 0.0014157718139903035 0.009060015004479194
6.951576459256999E7 0.0014233057761892833 0.009194835797552252 0.9985766942238108 -0.009194835797552252 0.9985766942238108 -0.009194835797552252 0.0014233057761892833 0.009194835797552252
7.056485506111258E7 0.0014310310754011865 0.009331617792979016 0.9985689689245988 -0.009331617792979014 0.9985689689245988 -0.009331617792979014 0.0014310310754011865 0.009331617792979016
7.162977777745734E7 0.001438951638600211 0.009470388151466596 0.9985610483613998 -0.009470388151466594 0.9985610483613998 -0.009470388151466594 0.001438951638600211 0.009470388151466596
7.271077167244768E7 0.0014470714296592742 0.009611174388717614 0.9985529285703407 -0.009611174388717614 0.9985529285703407 -0.009611174388717614 0.0014470714296592742 0.009611174388717614
7.380807928272885E7 0.0014553944478400422 0.0097540043812902 0.99854460555216 -0.0097540043812902 0.99854460555216 -0.0097540043812902 0.0014553944478400422 0.0097540043812902
7.492194680516452E7 0.0014639247262298641 0.009898906372688766 0.99853607527377 -0.009898906372688766 0.99853607527377 -0.009898906372688766 0.0014639247262298641 0.009898906372688766
7.60526241520746E7 0.0014726663301311402 0.010045908979696615 0.9985273336698686 -0.010045908979696615 0.9985273336698686 -0.010045908979696615 0.0014726663301311402 0.010045908979696615
7.720036500730675E7 0.001481623355409335 0.010195041198961344 0.9985183766445904 -0.010195041198961344 0.9985183766445904 -0.010195041198961344 0.001481623355409335 0.010195041198961344
7.836542688315398E7 0.00149079992680666 0.010346332413844311 0.9985092000731933 -0.010346332413844311 0.9985092000731933 -0.010346332413844311 0.00149079992680666 0.010346332413844311
7.954807117813127E7 0.0015002001962292253 0.010499812401545199 0.9984997998037708 -0.010499812401545199 0.9984997998037708 -0.010499812401545199 0.0015002001962292253 0.010499812401545199
8.074856323562416E7 0.001509828341016332 0.010655511340512954 0.9984901716589837 -0.010655511340512956 0.9984901716589837 -0.010655511340512956 0.001509828341016332 0.010655511340512954
8.196717240342227E7 0.0015196885622014002 0.010813459818154082 0.9984803114377987 -0.010813459818154082 0.9984803114377987 -0.010813459818154082 0.0015196885622014002 0.010813459818154082
8.320417209415154E7 0.0015297850827749413 0.010973688838849296 0.9984702149172249 -0.010973688838849296 0.9984702149172249 -0.010973688838849296 0.0015297850827749413 0.010973688838849296
8.445983984661816E7 0.001540122145960891 0.011136229832289245 0.9984598778540392 -0.011136229832289245 0.9984598778540392 -0.011136229832289245 0.001540122145960891 0.011136229832289245
8.573445738807854E7 0.0015507040135185233 0.011301114662139799 0.9984492959864815 -0.011301114662139797 0.9984492959864815 -0.011301114662139797 0.0015507040135185233 0.011301114662139799
8.702831069744885E7 0.0015615349640831304 0.011468375635047082 0.9984384650359168 -0.011468375635047082 0.9984384650359168 -0.011468375635047082 0.0015615349640831304 0.011468375635047082
8.834169006946853E7 0.0015726192915595711 0.011638045509991963 0.9984273807084403 -0.011638045509991963 0.9984273807084403 -0.011638045509991963 0.0015726192915595711 0.011638045509991963
8.96748901798321E7 0.0015839613035837706 0.01181015750800332 0.9984160386964163 -0.01181015750800332 0.9984160386964163 -0.01181015750800332 0.0015839613035837706 0.01181015750800332
9.1028210151304E7 0.0015955653200681612 0.011984745322238814 0.9984044346799319 -0.011984745322238814 0.9984044346799319 -0.011984745322238814 0.0015955653200681612 0.011984745322238814
9.240195362083109E7 0.0016074356718480181 0.012161843128441195 0.9983925643281522 -0.012161843128441197 0.9983925643281522 -0.012161843128441197 0.0016074356718480181 0.012161843128441195
9.379642880766791E7 0.0016195766994465456 0.012341485595777583 0.9983804233005534 -0.012341485595777583 0.9983804233005534 -0.012341485595777583 0.0016195766994465456 0.012341485595777583
9.521194858253023E7 0.001631992751977465 0.01252370789806824 0.9983680072480225 -0.01252370789806824 0.9983680072480225 -0.01252370789806824 0.001631992751977465 0.01252370789806824
9.664883053779216E7 0.0016446881862047223 0.012708545725410548 0.9983553118137953 -0.01270854572541055 0.9983553118137953 -0.01270854572541055 0.0016446881862047223 0.012708545725410548
9.810739705874248E7 0.0016576673657797498 0.012896035296202833 0.9983423326342203 -0.012896035296202833 0.9983423326342203 -0.012896035296202833 0.0016576673657797498 0.012896035296202833
9.958797539591652E7 0.0016709346606774947 0.013086213369571784 0.9983290653393225 -0.013086213369571784 0.9983290653393225 -0.013086213369571784 0.0016709346606774947 0.013086213369571784
1.0109089773851961E8 0.0016844944468531588 0.013279117258205906 0.9983155055531466 -0.013279117258205906 0.9983155055531466 -0.013279117258205906 0.0016844944468531588 0.013279117258205906
1.0261650128895843E8 0.0016983511061422131 0.013474784841596275 0.9983016488938579 -0.013474784841596275 0.9983016488938579 -0.013474784841596275 0.0016983511061422131 0.013474784841596275
1.0416512833849736E8 0.0017125090264268738 0.013673254579684668 0.9982874909735732 -0.013673254579684668 0.9982874909735732 -0.013673254579684668 0.0017125090264268738 0.013673254579684668
1.0573712634405641E8 0.0017269726020927023 0.013874565526917593 0.9982730273979072 -0.013874565526917593 0.9982730273979072 -0.013874565526917593 0.0017269726020927023 0.013874565526917593
1.0733284800616828E8 0.001741746234799414 0.01407875734670352 0.9982582537652005 -0.01407875734670352 0.9982582537652005 -0.01407875734670352 0.001741746234799414 0.01407875734670352
1.0895265134811176E8 0.0017568343345902568 0.014285870326268811 0.9982431656654099 -0.014285870326268811 0.9982431656654099 -0.014285870326268811 0.0017568343345902568 0.014285870326268811
1.1059689979623953E8 0.001772241321364582 0.014495945391906628 0.9982277586786354 -0.014495945391906628 0.9982277586786354 -0.014495945391906628 0.001772241321364582 0.014495945391906628
1.1226596226151802E8 0.0017879716267382637 0.014709024124611274 0.9982120283732616 -0.014709024124611274 0.9982120283732616 -0.014709024124611274 0.0017879716267382637 0.014709024124611274
1.1396021322229806E8 0.0018040296963166193 0.014925148776088764 0.9981959703036835 -0.01492514877608876 0.9981959703036835 -0.01492514877608876 0.0018040296963166193 0.014925148776088764
1.1568003280833441E8 0.0018204199924042952 0.015144362285132884 0.9981795800075959 -0.015144362285132888 0.9981795800075959 -0.015144362285132888 0.0018204199924042952 0.015144362285132884
1.1742580688607343E8 0.0018371469971763363 0.01536670829435427 0.9981628530028237 -0.01536670829435427 0.9981628530028237 -0.01536670829435427 0.0018371469971763363 0.01536670829435427
1.1919792714522783E8 0.0018542152163341392 0.015592231167248111 0.9981457847836658 -0.015592231167248111 0.9981457847836658 -0.015592231167248111 0.0018542152163341392 0.015592231167248111
1.2099679118665792E8 0.0018716291832694917 0.01582097600558478 0.9981283708167307 -0.01582097600558478 0.9981283708167307 -0.01582097600558478 0.0018716291832694917 0.01582097600558478
1.2282280261157903E8 0.0018893934637591295 0.016052988667105656 0.998110606536241 -0.016052988667105656 0.998110606536241 -0.016052988667105656 0.0018893934637591295 0.016052988667105656
1.2467637111211549E8 0.001907512661211367 0.016288315783505026 0.9980924873387884 -0.016288315783505026 0.9980924873387884 -0.016288315783505026 0.001907512661211367 0.016288315783505026
1.265579125632208E8 0.0019259914224853533 0.01652700477867701 0.9980740085775146 -0.01652700477867701 0.9980740085775146 -0.01652700477867701 0.0019259914224853533 0.01652700477867701
1.284678491159853E8 0.00194483444430235 0.016769103887205452 0.9980551655556976 -0.016769103887205455 0.9980551655556976 -0.016769103887205455 0.00194483444430235 0.016769103887205452
1.3040660929235186E8 0.001964046480267047 0.017014662173072584 0.9980359535197331 -0.017014662173072584 0.9980359535197331 -0.017014662173072584 0.001964046480267047 0.017014662173072584
1.3237462808126101E8 0.0019836323485155935 0.01726372954856157 0.9980163676514844 -0.01726372954856157 0.9980163676514844 -0.01726372954856157 0.0019836323485155935 0.01726372954856157
1.3437234703624701E8 0.002003596940005296 0.017516356793326155 0.9979964030599946 -0.017516356793326155 0.9979964030599946 -0.017516356793326155 0.002003596940005296 0.017516356793326155
1.364002143745067E8 0.002023945227459364 0.017772595573599982 0.9979760547725405 -0.017772595573599982 0.9979760547725405 -0.017772595573599982 0.002023945227459364 0.017772595573599982
1.3845868507746372E8 0.0020446822749781127 0.0180324984615168 0.9979553177250218 -0.0180324984615168 0.9979553177250218 -0.0180324984615168 0.0020446822749781127 0.0180324984615168
1.405482209928499E8 0.0020658132483262247 0.0182961189545121 0.9979341867516736 -0.0182961189545121 0.9979341867516736 -0.0182961189545121 0.0020658132483262247 0.0182961189545121
1.426692909383278E8 0.0020873434259035145 0.018563511494775902 0.9979126565740966 -0.018563511494775906 0.9979126565740966 -0.018563511494775906 0.0020873434259035145 0.018563511494775902
1.4482237080667645E8 0.00210927821040462 0.018834731488725887 0.9978907217895953 -0.018834731488725887 0.9978907217895953 -0.018834731488725887 0.00210927821040462 0.018834731488725887
1.4700794367256513E8 0.0021316231411708034 0.019109835326469843 0.9978683768588291 -0.019109835326469843 0.9978683768588291 -0.019109835326469843 0.0021316231411708034 0.019109835326469843
1.492264999009378E8 0.0021543839072348143 0.019388880401225925 0.9978456160927652 -0.01938888040122592 0.9978456160927652 -0.01938888040122592 0.0021543839072348143 0.019388880401225925
1.5147853725703382E8 0.0021775663610575356 0.01967192512866962 0.9978224336389422 -0.01967192512866962 0.9978224336389422 -0.01967192512866962 0.0021775663610575356 0.01967192512866962
1.5376456101806876E8 0.0022011765329527995 0.019959028966176327 0.9977988234670473 -0.01995902896617633 0.9977988234670473 -0.01995902896617633 0.0022011765329527995 0.019959028966176327
1.5608508408660066E8 0.002225220646194491 0.020250252431928732 0.9977747793538055 -0.020250252431928732 0.9977747793538055 -0.020250252431928732 0.002225220646194491 0.020250252431928732
1.5844062710560706E8 0.002249705132797859 0.020545657123859373 0.9977502948672022 -0.02054565712385937 0.9977502948672022 -0.02054565712385937 0.002249705132797859 0.020545657123859373
1.6083171857529896E8 0.0022746366499646307 0.020845305738398934 0.9977253633500354 -0.020845305738398934 0.9977253633500354 -0.020845305738398934 0.0022746366499646307 0.020845305738398934
1.632588949716973E8 0.002300022097179488 0.02114926208900242 0.9976999779028204 -0.02114926208900242 0.9976999779028204 -0.02114926208900242 0.002300022097179488 0.02114926208900242
1.6572270086699936E8 0.002325868633943329 0.021457591124426346 0.9976741313660569 -0.021457591124426346 0.9976741313660569 -0.021457591124426346 0.002325868633943329 0.021457591124426346
1.6822368905176118E8 0.0023521836981267993 0.02177035894673154 0.9976478163018733 -0.02177035894673154 0.9976478163018733 -0.02177035894673154 0.0023521836981267993 0.02177035894673154
1.7076242065892437E8 0.0023789750249257583 0.022087632828988103 0.9976210249750742 -0.0220876328289881 0.9976210249750742 -0.0220876328289881 0.0023789750249257583 0.022087632828988103
1.7333946528971428E8 0.002406250666398632 0.022409481232660365 0.9975937493336017 -0.022409481232660365 0.9975937493336017 -0.022409481232660365 0.002406250666398632 0.022409481232660365
1.7595540114143828E8 0.00243401901156406 0.02273597382465216 0.997565980988436 -0.02273597382465216 0.997565980988436 -0.02273597382465216 0.00243401901156406 0.02273597382465216
1.786108151372127E8 0.0024622888070359476 0.023067181493994712 0.997537711192964 -0.023067181493994712 0.997537711192964 -0.023067181493994712 0.0024622888070359476 0.023067181493994712
1.8130630305764765E8 0.0024910691781717792 0.02340317636816146 0.9975089308218282 -0.02340317636816146 0.9975089308218282 -0.02340317636816146 0.0024910691781717792 0.02340317636816146
1.840424696745189E8 0.0025203696507091807 0.023744031828996967 0.9974796303492911 -0.02374403182899697 0.9974796303492911 -0.02374403182899697 0.0025203696507091807 0.023744031828996967
1.8681992888645732E8 0.0025502001728649084 0.024089822528249205 0.997449799827135 -0.024089822528249205 0.997449799827135 -0.024089822528249205 0.0025502001728649084 0.024089822528249205
1.8963930385668582E8 0.0025805711378699557 0.024440624402697203 0.9974194288621301 -0.0244406244026972 0.9974194288621301 -0.0244406244026972 0.0025805711378699557 0.024440624402697203
1.92501227152835E8 0.0026114934069141928 0.02479651468886866 0.9973885065930858 -0.02479651468886866 0.9973885065930858 -0.02479651468886866 0.0026114934069141928 0.02479651468886866
1.9540634088886917E8 0.0026429783324738525 0.02515757193734467 0.9973570216675262 -0.02515757193734467 0.9973570216675262 -0.02515757193734467 0.0026429783324738525 0.02515757193734467
1.983552968691535E8 0.0026750377819954704 0.025523876026651623 0.9973249622180046 -0.025523876026651626 0.9973249622180046 -0.025523876026651626 0.0026750377819954704 0.025523876026651623
2.0134875673469606E8 0.0027076841619101963 0.025895508176742608 0.9972923158380897 -0.0258955081767426 0.9972923158380897 -0.0258955081767426 0.0027076841619101963 0.025895508176742608
2.0438739211159652E8 0.0027409304419531797 0.026272550962073617 0.9972590695580468 -0.026272550962073617 0.9972590695580468 -0.026272550962073617 0.0027409304419531797 0.026272550962073617
2.074718847617352E8 0.002774790179763564 0.026655088324282237 0.9972252098202365 -0.026655088324282237 0.9972252098202365 -0.026655088324282237 0.002774790179763564 0.026655088324282237
2.106029267357361E8 0.0028092775457418 0.02704320558447889 0.9971907224542583 -0.02704320558447889 0.9971907224542583 -0.02704320558447889 0.0028092775457418 0.02704320558447889
2.1378122052823865E8 0.002844407348142338 0.027436989455163423 0.9971555926518578 -0.027436989455163423 0.9971555926518578 -0.027436989455163423 0.002844407348142338 0.027436989455163423
2.1700747923551247E8 0.0028801950583813066 0.02783652805178171 0.9971198049416187 -0.02783652805178171 0.9971198049416187 -0.02783652805178171 0.0028801950583813066 0.02783652805178171
2.2028242671545094E8 0.0029166568365405735 0.028241910903939238 0.9970833431634596 -0.028241910903939245 0.9970833431634596 -0.028241910903939245 0.0029166568365405735 0.028241910903939238
2.23606797749979E8 0.0029538095570515012 0.02865322896629076 0.9970461904429486 -0.028653228966290762 0.9970461904429486 -0.028653228966290762 0.0029538095570515012 0.02865322896629076
2.2698133820991236E8 0.002991670834543854 0.029070574629126645 0.9970083291654561 -0.029070574629126645 0.9970083291654561 -0.029070574629126645 0.002991670834543854 0.029070574629126645
2.3040680522230446E8 0.003030259049847534 0.029494041728678456 0.9969697409501524 -0.02949404172867845 0.9969697409501524 -0.02949404172867845 0.003030259049847534 0.029494041728678456
2.338839673403185E8 0.003069593376137251 0.02992372555716741 0.9969304066238627 -0.02992372555716741 0.9969304066238627 -0.02992372555716741 0.003069593376137251 0.02992372555716741
2.37413604715664E8 0.003109693805212701 0.03035972287262103 0.9968903061947872 -0.03035972287262103 0.9968903061947872 -0.03035972287262103 0.003109693805212701 0.03035972287262103
