!Murata Part Number: LQP15MN3N1W02
!These Parameters are Measured in Series Mode Connection
!       o--[Z]--o
!Port1              Port2
!       o-------o
!
!Freq. Start=50[MHz] Stop=20[GHz], 401[Steps]
# Hz S RI R 50
!Freq.(Hz) S11(Real) S11(Imag) S21(Real) S21(Imag) S12(Real) S12(Imag) S22(Real) S22(Imag)
5.0E7 0.0031431053762017813 0.008898284668242766 0.9968568946237982 -0.008898284668242766 0.9968568946237982 -0.008898284668242766 0.0031431053762017813 0.008898284668242766
5.0754570186123446E7 0.0031508268155004517 0.009030480321308546 0.9968491731844995 -0.009030480321308548 0.9968491731844995 -0.009030480321308548 0.0031508268155004517 0.009030480321308546
5.152052789556263E7 0.0031587395600433457 0.009164592470384795 0.9968412604399565 -0.009164592470384795 0.9968412604399565 -0.009164592470384795 0.0031587395600433457 0.009164592470384795
5.229804498202928E7 0.003166847316210211 0.009300647562855096 0.9968331526837898 -0.009300647562855096 0.9968331526837898 -0.009300647562855096 0.003166847316210211 0.009300647562855096
5.308729589274893E7 0.003175153816223558 0.009438672397858946 0.9968248461837766 -0.009438672397858946 0.9968248461837766 -0.009438672397858946 0.003175153816223558 0.009438672397858946
5.388845770760058E7 0.00318366281656673 0.009578694132710484 0.9968163371834334 -0.009578694132710485 0.9968163371834334 -0.009578694132710485 0.00318366281656673 0.009578694132710484
5.470171017884717E7 0.0031923780963835436 0.009720740289574136 0.9968076219036166 -0.009720740289574136 0.9968076219036166 -0.009720740289574136 0.0031923780963835436 0.009720740289574136
5.5527235771465644E7 0.0032013034558679575 0.009864838762407051 0.9967986965441321 -0.009864838762407053 0.9967986965441321 -0.009864838762407053 0.0032013034558679575 0.009864838762407051
5.6365219704085544E7 0.003210442714653144 0.010011017824178311 0.996789557285347 -0.010011017824178311 0.996789557285347 -0.010011017824178311 0.003210442714653144 0.010011017824178311
5.721584999054556E7 0.0032197997102100407 0.01015930613437444 0.9967802002897899 -0.01015930613437444 0.9967802002897899 -0.01015930613437444 0.0032197997102100407 0.01015930613437444
5.807931748207712E7 0.003229378296266387 0.010309732746800741 0.9967706217037337 -0.010309732746800741 0.9967706217037337 -0.010309732746800741 0.003229378296266387 0.010309732746800741
5.8955815910124585E7 0.0032391823412580303 0.010462327117687544 0.996760817658742 -0.010462327117687546 0.996760817658742 -0.010462327117687546 0.0032391823412580303 0.010462327117687544
5.984554192981184E7 0.003249215726825203 0.010617119114110143 0.9967507842731748 -0.010617119114110143 0.9967507842731748 -0.010617119114110143 0.003249215726825203 0.010617119114110143
6.074869516406457E7 0.0032594823463672853 0.010774139022730708 0.9967405176536327 -0.010774139022730708 0.9967405176536327 -0.010774139022730708 0.0032594823463672853 0.010774139022730708
6.166547824839868E7 0.0032699861036704345 0.010933417558870086 0.9967300138963295 -0.010933417558870086 0.9967300138963295 -0.010933417558870086 0.0032699861036704345 0.010933417558870086
6.2596096876384385E7 0.0032807309116233366 0.01109498587591662 0.9967192690883767 -0.011094985875916622 0.9967192690883767 -0.011094985875916622 0.0032807309116233366 0.01109498587591662
6.354075984579668E7 0.003291720691037094 0.011258875575078636 0.9967082793089628 -0.011258875575078634 0.9967082793089628 -0.011258875575078634 0.003291720691037094 0.011258875575078636
6.449967910546205E7 0.003302959369586199 0.011425118715486458 0.9966970406304139 -0.011425118715486458 0.9966970406304139 -0.011425118715486458 0.003302959369586199 0.011425118715486458
6.547306980281226E7 0.0033144508808881697 0.011593747824648934 0.9966855491191118 -0.011593747824648934 0.9966855491191118 -0.011593747824648934 0.0033144508808881697 0.011593747824648934
6.646115033215589E7 0.003326199163740285 0.011764795909268658 0.9966738008362599 -0.011764795909268658 0.9966738008362599 -0.011764795909268658 0.003326199163740285 0.011764795909268658
6.746414238367817E7 0.0033382081615325465 0.011938296466419107 0.9966617918384675 -0.01193829646641911 0.9966617918384675 -0.01193829646641911 0.0033382081615325465 0.011938296466419107
6.848227099318038E7 0.003350481821856564 0.012114283495085743 0.9966495181781434 -0.012114283495085743 0.9966495181781434 -0.012114283495085743 0.003350481821856564 0.012114283495085743
6.951576459256999E7 0.0033630240963307637 0.012292791508072222 0.9966369759036692 -0.01229279150807222 0.9966369759036692 -0.01229279150807222 0.0033630240963307637 0.012292791508072222
7.056485506111258E7 0.003375838940662757 0.012473855544271406 0.996624161059337 -0.012473855544271406 0.996624161059337 -0.012473855544271406 0.003375838940662757 0.012473855544271406
7.162977777745734E7 0.0033889303149702405 0.012657511181299926 0.9966110696850295 -0.012657511181299926 0.9966110696850295 -0.012657511181299926 0.0033889303149702405 0.012657511181299926
7.271077167244768E7 0.0034023021843820654 0.012843794548493416 0.9965976978156178 -0.012843794548493416 0.9965976978156178 -0.012843794548493416 0.0034023021843820654 0.012843794548493416
7.380807928272885E7 0.0034159585199414924 0.01303274234025833 0.9965840414800585 -0.013032742340258327 0.9965840414800585 -0.013032742340258327 0.0034159585199414924 0.01303274234025833
7.492194680516452E7 0.003429903299833766 0.013224391829774827 0.9965700967001664 -0.013224391829774827 0.9965700967001664 -0.013224391829774827 0.003429903299833766 0.013224391829774827
7.60526241520746E7 0.0034441405109602347 0.013418780883043721 0.9965558594890398 -0.013418780883043721 0.9965558594890398 -0.013418780883043721 0.0034441405109602347 0.013418780883043721
7.720036500730675E7 0.003458674150881231 0.013615947973268825 0.9965413258491189 -0.013615947973268826 0.9965413258491189 -0.013615947973268826 0.003458674150881231 0.013615947973268825
7.836542688315398E7 0.0034735082301496963 0.01381593219556477 0.9965264917698503 -0.013815932195564767 0.9965264917698503 -0.013815932195564767 0.0034735082301496963 0.01381593219556477
7.954807117813127E7 0.003488646775057354 0.014018773281978512 0.9965113532249427 -0.014018773281978512 0.9965113532249427 -0.014018773281978512 0.003488646775057354 0.014018773281978512
8.074856323562416E7 0.003504093830814766 0.014224511616811444 0.9964959061691853 -0.014224511616811444 0.9964959061691853 -0.014224511616811444 0.003504093830814766 0.014224511616811444
8.196717240342227E7 0.003519853465186071 0.014433188252227218 0.9964801465348139 -0.014433188252227218 0.9964801465348139 -0.014433188252227218 0.003519853465186071 0.014433188252227218
8.320417209415154E7 0.003535929772598534 0.014644844924129034 0.9964640702274014 -0.014644844924129034 0.9964640702274014 -0.014644844924129034 0.003535929772598534 0.014644844924129034
8.445983984661816E7 0.0035523268787462665 0.014859524068288506 0.9964476731212537 -0.014859524068288502 0.9964476731212537 -0.014859524068288502 0.0035523268787462665 0.014859524068288506
8.573445738807854E7 0.003569048945706462 0.01507726883670681 0.9964309510542935 -0.01507726883670681 0.9964309510542935 -0.01507726883670681 0.003569048945706462 0.01507726883670681
8.702831069744885E7 0.003586100177585441 0.015298123114187295 0.9964138998224146 -0.015298123114187295 0.9964138998224146 -0.015298123114187295 0.003586100177585441 0.015298123114187295
8.834169006946853E7 0.0036034848267106068 0.015522131535097494 0.9963965151732895 -0.015522131535097494 0.9963965151732895 -0.015522131535097494 0.0036034848267106068 0.015522131535097494
8.96748901798321E7 0.003621207200383028 0.01574933950029715 0.996378792799617 -0.01574933950029715 0.996378792799617 -0.01574933950029715 0.003621207200383028 0.01574933950029715
9.1028210151304E7 0.0036392716682038797 0.01597979319420758 0.9963607283317961 -0.01597979319420758 0.9963607283317961 -0.01597979319420758 0.0036392716682038797 0.01597979319420758
9.240195362083109E7 0.0036576826699864676 0.016213539601996903 0.9963423173300134 -0.016213539601996903 0.9963423173300134 -0.016213539601996903 0.0036576826699864676 0.016213539601996903
9.379642880766791E7 0.0036764447242637215 0.016450626526854268 0.9963235552757361 -0.016450626526854268 0.9963235552757361 -0.016450626526854268 0.0036764447242637215 0.016450626526854268
9.521194858253023E7 0.003695562437399392 0.016691102607325925 0.9963044375626008 -0.01669110260732592 0.9963044375626008 -0.01669110260732592 0.003695562437399392 0.016691102607325925
9.664883053779216E7 0.0037150405133091545 0.01693501733468481 0.9962849594866909 -0.01693501733468481 0.9962849594866909 -0.01693501733468481 0.0037150405133091545 0.01693501733468481
9.810739705874248E7 0.0037348837637959527 0.01718242107030521 0.9962651162362041 -0.017182421070305206 0.9962651162362041 -0.017182421070305206 0.0037348837637959527 0.01718242107030521
9.958797539591652E7 0.003755097119501803 0.017433365063013254 0.9962449028804982 -0.017433365063013257 0.9962449028804982 -0.017433365063013257 0.003755097119501803 0.017433365063013254
1.0109089773851961E8 0.0037756856414762697 0.017687901466384503 0.9962243143585238 -0.017687901466384503 0.9962243143585238 -0.017687901466384503 0.0037756856414762697 0.017687901466384503
1.0261650128895843E8 0.003796654533359616 0.017946083355958972 0.9962033454666404 -0.01794608335595897 0.9962033454666404 -0.01794608335595897 0.003796654533359616 0.017946083355958972
1.0416512833849736E8 0.0038180091541765468 0.018207964746344982 0.9961819908458234 -0.018207964746344982 0.9961819908458234 -0.018207964746344982 0.0038180091541765468 0.018207964746344982
1.0573712634405641E8 0.0038397550317343545 0.018473600608183167 0.9961602449682655 -0.018473600608183167 0.9961602449682655 -0.018473600608183167 0.0038397550317343545 0.018473600608183167
1.0733284800616828E8 0.0038618978766170402 0.01874304688494244 0.9961381021233828 -0.01874304688494244 0.9961381021233828 -0.01874304688494244 0.0038618978766170402 0.01874304688494244
1.0895265134811176E8 0.0038844435967650506 0.019016360509520918 0.9961155564032349 -0.019016360509520918 0.9961155564032349 -0.019016360509520918 0.0038844435967650506 0.019016360509520918
1.1059689979623953E8 0.003907398312628102 0.01929359942062524 0.996092601687372 -0.019293599420625238 0.996092601687372 -0.019293599420625238 0.003907398312628102 0.01929359942062524
1.1226596226151802E8 0.003930768372876724 0.01957482257890332 0.9960692316271231 -0.01957482257890332 0.9960692316271231 -0.01957482257890332 0.003930768372876724 0.01957482257890332
1.1396021322229806E8 0.0039545603706561926 0.01986008998280652 0.9960454396293437 -0.01986008998280652 0.9960454396293437 -0.01986008998280652 0.0039545603706561926 0.01986008998280652
1.1568003280833441E8 0.00397878116036487 0.020149462684159028 0.9960212188396351 -0.020149462684159028 0.9960212188396351 -0.020149462684159028 0.00397878116036487 0.020149462684159028
1.1742580688607343E8 0.004003437874937213 0.020443002803413542 0.9959965621250628 -0.020443002803413542 0.9959965621250628 -0.020443002803413542 0.004003437874937213 0.020443002803413542
1.1919792714522783E8 0.004028537943610395 0.020740773544574664 0.9959714620563896 -0.020740773544574664 0.9959714620563896 -0.020740773544574664 0.004028537943610395 0.020740773544574664
1.2099679118665792E8 0.004054089110151996 0.021042839209772714 0.995945910889848 -0.021042839209772714 0.995945910889848 -0.021042839209772714 0.004054089110151996 0.021042839209772714
1.2282280261157903E8 0.004080099451525183 0.02134926521347348 0.9959199005484748 -0.02134926521347348 0.9959199005484748 -0.02134926521347348 0.004080099451525183 0.02134926521347348
1.2467637111211549E8 0.004106577396966769 0.021660118096310833 0.9958934226030332 -0.02166011809631083 0.9958934226030332 -0.02166011809631083 0.004106577396966769 0.021660118096310833
1.265579125632208E8 0.004133531747452829 0.021975465538532215 0.9958664682525471 -0.02197546553853222 0.9958664682525471 -0.02197546553853222 0.004133531747452829 0.021975465538532215
1.284678491159853E8 0.00416097169552586 0.02229537637304852 0.9958390283044741 -0.02229537637304852 0.9958390283044741 -0.02229537637304852 0.00416097169552586 0.02229537637304852
1.3040660929235186E8 0.004188906845457301 0.02261992059808314 0.9958110931545427 -0.022619920598083144 0.9958110931545427 -0.022619920598083144 0.004188906845457301 0.02261992059808314
1.3237462808126101E8 0.0042173472337188956 0.022949169389416647 0.9957826527662811 -0.022949169389416647 0.9957826527662811 -0.022949169389416647 0.0042173472337188956 0.022949169389416647
1.3437234703624701E8 0.0042463033497365694 0.023283195112226502 0.9957536966502634 -0.023283195112226502 0.9957536966502634 -0.023283195112226502 0.0042463033497365694 0.023283195112226502
1.364002143745067E8 0.004275786156900756 0.023622071332523413 0.9957242138430992 -0.023622071332523413 0.9957242138430992 -0.023622071332523413 0.004275786156900756 0.023622071332523413
1.3845868507746372E8 0.004305807113807605 0.02396587282818855 0.9956941928861924 -0.02396587282818855 0.9956941928861924 -0.02396587282818855 0.004305807113807605 0.02396587282818855
1.405482209928499E8 0.004336378195706196 0.024314675599617804 0.9956636218042939 -0.024314675599617804 0.9956636218042939 -0.024314675599617804 0.004336378195706196 0.024314675599617804
1.426692909383278E8 0.004367511916127924 0.024668556879982352 0.995632488083872 -0.024668556879982352 0.995632488083872 -0.024668556879982352 0.004367511916127924 0.024668556879982352
1.4482237080667645E8 0.00439922134867513 0.025027595145115863 0.9956007786513249 -0.025027595145115863 0.9956007786513249 -0.025027595145115863 0.00439922134867513 0.025027595145115863
1.4700794367256513E8 0.004431520148947634 0.025391870123042067 0.9955684798510522 -0.025391870123042063 0.9955684798510522 -0.025391870123042063 0.004431520148947634 0.025391870123042067
1.492264999009378E8 0.004464422576587072 0.025761462803157352 0.995535577423413 -0.025761462803157352 0.995535577423413 -0.025761462803157352 0.004464422576587072 0.025761462803157352
1.5147853725703382E8 0.00449794351742073 0.026136455445085527 0.9955020564825792 -0.026136455445085527 0.9955020564825792 -0.026136455445085527 0.00449794351742073 0.026136455445085527
1.5376456101806876E8 0.0045320985056883254 0.026516931587223343 0.9954679014943117 -0.026516931587223343 0.9954679014943117 -0.026516931587223343 0.0045320985056883254 0.026516931587223343
1.5608508408660066E8 0.004566903746337137 0.026902976054997023 0.9954330962536628 -0.026902976054997023 0.9954330962536628 -0.026902976054997023 0.004566903746337137 0.026902976054997023
1.5844062710560706E8 0.0046023761373729195 0.02729467496885139 0.9953976238626271 -0.02729467496885139 0.9953976238626271 -0.02729467496885139 0.0046023761373729195 0.02729467496885139
1.6083171857529896E8 0.004638533292256168 0.027692115751994352 0.9953614667077438 -0.027692115751994352 0.9953614667077438 -0.027692115751994352 0.004638533292256168 0.027692115751994352
1.632588949716973E8 0.004675393562335619 0.02809538713792068 0.9953246064376642 -0.028095387137920674 0.9953246064376642 -0.028095387137920674 0.004675393562335619 0.02809538713792068
1.6572270086699936E8 0.004712976059313017 0.02850457917773955 0.995287023940687 -0.02850457917773955 0.995287023940687 -0.02850457917773955 0.004712976059313017 0.02850457917773955
1.6822368905176118E8 0.004751300677735719 0.02891978324733144 0.9952486993222642 -0.02891978324733144 0.9952486993222642 -0.02891978324733144 0.004751300677735719 0.02891978324733144
1.7076242065892437E8 0.004790388117515853 0.029341092054359894 0.9952096118824841 -0.029341092054359894 0.9952096118824841 -0.029341092054359894 0.004790388117515853 0.029341092054359894
1.7333946528971428E8 0.004830259906477305 0.029768599645164307 0.9951697400935225 -0.029768599645164307 0.9951697400935225 -0.029768599645164307 0.004830259906477305 0.029768599645164307
1.7595540114143828E8 0.004870938422934106 0.03020240141156001 0.9951290615770658 -0.03020240141156001 0.9951290615770658 -0.03020240141156001 0.004870938422934106 0.03020240141156001
1.786108151372127E8 0.004912446918306115 0.030642594097571484 0.9950875530816938 -0.030642594097571484 0.9950875530816938 -0.030642594097571484 0.004912446918306115 0.030642594097571484
1.8130630305764765E8 0.004954809539780235 0.03108927580612473 0.9950451904602197 -0.03108927580612473 0.9950451904602197 -0.03108927580612473 0.004954809539780235 0.03108927580612473
1.840424696745189E8 0.004998051353027645 0.03154254600572393 0.9950019486469723 -0.031542546005723926 0.9950019486469723 -0.031542546005723926 0.004998051353027645 0.03154254600572393
1.8681992888645732E8 0.005042198364989723 0.032002505537137585 0.9949578016350102 -0.03200250553713758 0.9949578016350102 -0.03200250553713758 0.005042198364989723 0.032002505537137585
1.8963930385668582E8 0.0050872775467474705 0.03246925662011802 0.9949127224532526 -0.03246925662011802 0.9949127224532526 -0.03246925662011802 0.0050872775467474705 0.03246925662011802
1.92501227152835E8 0.005133316856491142 0.03294290286017748 0.994866683143509 -0.032942902860177474 0.994866683143509 -0.032942902860177474 0.005133316856491142 0.03294290286017748
1.9540634088886917E8 0.005180345262608947 0.0334235492554435 0.9948196547373911 -0.0334235492554435 0.9948196547373911 -0.0334235492554435 0.005180345262608947 0.0334235492554435
1.983552968691535E8 0.005228392766915272 0.03391130220361448 0.9947716072330847 -0.03391130220361448 0.9947716072330847 -0.03391130220361448 0.005228392766915272 0.03391130220361448
2.0134875673469606E8 0.005277490428040737 0.03440626950903591 0.9947225095719593 -0.0344062695090359 0.9947225095719593 -0.0344062695090359 0.005277490428040737 0.03440626950903591
2.0438739211159652E8 0.0053276703850079305 0.03490856038991591 0.9946723296149922 -0.0349085603899159 0.9946723296149922 -0.0349085603899159 0.0053276703850079305 0.03490856038991591
2.074718847617352E8 0.005378965881018259 0.03541828548569827 0.9946210341189816 -0.03541828548569827 0.9946210341189816 -0.03541828548569827 0.005378965881018259 0.03541828548569827
2.106029267357361E8 0.005431411287476532 0.035935556864608684 0.9945685887125236 -0.035935556864608684 0.9945685887125236 -0.035935556864608684 0.005431411287476532 0.035935556864608684
2.1378122052823865E8 0.005485042128281368 0.03646048803138972 0.9945149578717186 -0.03646048803138972 0.9945149578717186 -0.03646048803138972 0.005485042128281368 0.03646048803138972
2.1700747923551247E8 0.005539895104410563 0.03699319393523812 0.9944601048955893 -0.03699319393523812 0.9944601048955893 -0.03699319393523812 0.005539895104410563 0.03699319393523812
2.2028242671545094E8 0.0055960081188315206 0.03753379097795625 0.9944039918811686 -0.03753379097795625 0.9944039918811686 -0.03753379097795625 0.0055960081188315206 0.03753379097795625
2.23606797749979E8 0.0056534203017680465 0.03808239702232941 0.9943465796982319 -0.03808239702232941 0.9943465796982319 -0.03808239702232941 0.0056534203017680465 0.03808239702232941
2.2698133820991236E8 0.0057121720363553005 0.038639131400737846 0.9942878279636448 -0.03863913140073785 0.9942878279636448 -0.03863913140073785 0.0057121720363553005 0.038639131400737846
2.3040680522230446E8 0.005772304984715766 0.039204114924012066 0.9942276950152842 -0.039204114924012066 0.9942276950152842 -0.039204114924012066 0.005772304984715766 0.039204114924012066
2.338839673403185E8 0.005833862114489629 0.039777469890538396 0.9941661378855104 -0.039777469890538396 0.9941661378855104 -0.039777469890538396 0.005833862114489629 0.039777469890538396
2.37413604715664E8 0.00589688772585352 0.04035932009562042 0.9941031122741464 -0.04035932009562042 0.9941031122741464 -0.04035932009562042 0.00589688772585352 0.04035932009562042
