!Murata Part Number: LQP15MN3N3W02
!These Parameters are Measured in Series Mode Connection
!       o--[Z]--o
!Port1              Port2
!       o-------o
!
!Freq. Start=50[MHz] Stop=20[GHz], 401[Steps]
# Hz S RI R 50
!Freq.(Hz) S11(Real) S11(Imag) S21(Real) S21(Imag) S12(Real) S12(Imag) S22(Real) S22(Imag)
5.0E7 0.00251393337427789 0.009796644021380826 0.9974860666257221 -0.009796644021380824 0.9974860666257221 -0.009796644021380824 0.00251393337427789 0.009796644021380826
5.0754570186123446E7 0.002523278805716818 0.009942205827590466 0.9974767211942832 -0.009942205827590466 0.9974767211942832 -0.009942205827590466 0.002523278805716818 0.009942205827590466
5.152052789556263E7 0.0025328649682467607 0.010089875086381818 0.9974671350317532 -0.010089875086381818 0.9974671350317532 -0.010089875086381818 0.0025328649682467607 0.010089875086381818
5.229804498202928E7 0.002542696967443555 0.010239680545039242 0.9974573030325564 -0.010239680545039242 0.9974573030325564 -0.010239680545039242 0.002542696967443555 0.010239680545039242
5.308729589274893E7 0.00255277996440553 0.01039165130916081 0.9974472200355944 -0.01039165130916081 0.9974472200355944 -0.01039165130916081 0.00255277996440553 0.01039165130916081
5.388845770760058E7 0.002563119174007138 0.010545816848164342 0.9974368808259929 -0.010545816848164344 0.9974368808259929 -0.010545816848164344 0.002563119174007138 0.010545816848164342
5.470171017884717E7 0.002573719863065771 0.010702207001033604 0.9974262801369344 -0.010702207001033604 0.9974262801369344 -0.010702207001033604 0.002573719863065771 0.010702207001033604
5.5527235771465644E7 0.0025845873484264697 0.0108608519823181 0.9974154126515735 -0.0108608519823181 0.9974154126515735 -0.0108608519823181 0.0025845873484264697 0.0108608519823181
5.6365219704085544E7 0.002595726994969998 0.011021782388399994 0.9974042730050301 -0.011021782388399994 0.9974042730050301 -0.011021782388399994 0.002595726994969998 0.011021782388399994
5.721584999054556E7 0.0026071442135506715 0.011185029204042022 0.9973928557864492 -0.011185029204042022 0.9973928557864492 -0.011185029204042022 0.0026071442135506715 0.011185029204042022
5.807931748207712E7 0.0026188444588713055 0.011350623809230414 0.9973811555411289 -0.011350623809230414 0.9973811555411289 -0.011350623809230414 0.0026188444588713055 0.011350623809230414
5.8955815910124585E7 0.002630833227303547 0.01151859798632692 0.9973691667726964 -0.011518597986326921 0.9973691667726964 -0.011518597986326921 0.002630833227303547 0.01151859798632692
5.984554192981184E7 0.002643116054662983 0.011688983927544307 0.997356883945337 -0.011688983927544307 0.997356883945337 -0.011688983927544307 0.002643116054662983 0.011688983927544307
6.074869516406457E7 0.002655698513949413 0.011861814242759337 0.9973443014860507 -0.011861814242759339 0.9973443014860507 -0.011861814242759339 0.002655698513949413 0.011861814242759337
6.166547824839868E7 0.002668586213063836 0.012037121967677715 0.9973314137869362 -0.012037121967677715 0.9973314137869362 -0.012037121967677715 0.002668586213063836 0.012037121967677715
6.2596096876384385E7 0.002681784792514793 0.012214940572364753 0.9973182152074853 -0.012214940572364753 0.9973182152074853 -0.012214940572364753 0.002681784792514793 0.012214940572364753
6.354075984579668E7 0.002695299923127956 0.012395303970155917 0.9973047000768721 -0.012395303970155919 0.9973047000768721 -0.012395303970155919 0.002695299923127956 0.012395303970155917
6.449967910546205E7 0.0027091373037740002 0.012578246526960598 0.997290862696226 -0.012578246526960598 0.997290862696226 -0.012578246526960598 0.0027091373037740002 0.012578246526960598
6.547306980281226E7 0.00272330265913103 0.012763803070972444 0.9972766973408691 -0.012763803070972444 0.9972766973408691 -0.012763803070972444 0.00272330265913103 0.012763803070972444
6.646115033215589E7 0.0027378017374991093 0.012952008902798956 0.9972621982625008 -0.012952008902798956 0.9972621982625008 -0.012952008902798956 0.0027378017374991093 0.012952008902798956
6.746414238367817E7 0.0027526403086856736 0.01314289980602255 0.9972473596913145 -0.01314289980602255 0.9972473596913145 -0.01314289980602255 0.0027526403086856736 0.01314289980602255
6.848227099318038E7 0.0027678241619818124 0.013336512058204455 0.9972321758380183 -0.013336512058204455 0.9972321758380183 -0.013336512058204455 0.0027678241619818124 0.013336512058204455
6.951576459256999E7 0.0027833591042507664 0.013532882442342452 0.9972166408957491 -0.013532882442342452 0.9972166408957491 -0.013532882442342452 0.0027833591042507664 0.013532882442342452
7.056485506111258E7 0.0027992509581510855 0.013732048258792018 0.9972007490418489 -0.013732048258792018 0.9972007490418489 -0.013732048258792018 0.0027992509581510855 0.013732048258792018
7.162977777745734E7 0.0028155055605182198 0.01393404733765991 0.9971844944394817 -0.013934047337659914 0.9971844944394817 -0.013934047337659914 0.0028155055605182198 0.01393404733765991
7.271077167244768E7 0.002832128760929392 0.014138918051677904 0.9971678712390706 -0.014138918051677904 0.9971678712390706 -0.014138918051677904 0.002832128760929392 0.014138918051677904
7.380807928272885E7 0.002849126420477825 0.014346699329563213 0.9971508735795221 -0.014346699329563213 0.9971508735795221 -0.014346699329563213 0.002849126420477825 0.014346699329563213
7.492194680516452E7 0.0028665044107833862 0.014557430669870763 0.9971334955892165 -0.014557430669870763 0.9971334955892165 -0.014557430669870763 0.0028665044107833862 0.014557430669870763
7.60526241520746E7 0.0028842686132678104 0.014771152155341163 0.9971157313867323 -0.014771152155341163 0.9971157313867323 -0.014771152155341163 0.0028842686132678104 0.014771152155341163
7.720036500730675E7 0.002902424918723519 0.014987904467746482 0.9970975750812766 -0.014987904467746482 0.9970975750812766 -0.014987904467746482 0.002902424918723519 0.014987904467746482
7.836542688315398E7 0.002920979227205958 0.015207728903234382 0.9970790207727941 -0.015207728903234382 0.9970790207727941 -0.015207728903234382 0.002920979227205958 0.015207728903234382
7.954807117813127E7 0.002939937448280104 0.015430667388169447 0.9970600625517199 -0.015430667388169447 0.9970600625517199 -0.015430667388169447 0.002939937448280104 0.015430667388169447
8.074856323562416E7 0.0029593055016524064 0.015656762495468362 0.9970406944983475 -0.015656762495468365 0.9970406944983475 -0.015656762495468365 0.0029593055016524064 0.015656762495468362
8.196717240342227E7 0.002979089318220009 0.015886057461424286 0.9970209106817799 -0.015886057461424286 0.9970209106817799 -0.015886057461424286 0.002979089318220009 0.015886057461424286
8.320417209415154E7 0.0029992948415693576 0.016118596203012755 0.9970007051584306 -0.01611859620301275 0.9970007051584306 -0.01611859620301275 0.0029992948415693576 0.016118596203012755
8.445983984661816E7 0.00301992802995668 0.01635442333567038 0.9969800719700433 -0.01635442333567038 0.9969800719700433 -0.01635442333567038 0.00301992802995668 0.01635442333567038
8.573445738807854E7 0.003040994858802768 0.016593584191534564 0.9969590051411973 -0.016593584191534564 0.9969590051411973 -0.016593584191534564 0.003040994858802768 0.016593584191534564
8.702831069744885E7 0.003062501323734485 0.01683612483813074 0.9969374986762656 -0.016836124838130743 0.9969374986762656 -0.016836124838130743 0.003062501323734485 0.01683612483813074
8.834169006946853E7 0.003084453444205125 0.01708209209749108 0.9969155465557947 -0.01708209209749108 0.9969155465557947 -0.01708209209749108 0.003084453444205125 0.01708209209749108
8.96748901798321E7 0.003106857267725314 0.01733153356568654 0.9968931427322747 -0.01733153356568654 0.9968931427322747 -0.01733153356568654 0.003106857267725314 0.01733153356568654
9.1028210151304E7 0.003129718874735507 0.017584497632751578 0.9968702811252643 -0.017584497632751578 0.9968702811252643 -0.017584497632751578 0.003129718874735507 0.017584497632751578
9.240195362083109E7 0.003153044384150291 0.017841033502978696 0.9968469556158498 -0.017841033502978696 0.9968469556158498 -0.017841033502978696 0.003153044384150291 0.017841033502978696
9.379642880766791E7 0.003176839959603714 0.01810119121555772 0.9968231600403964 -0.018101191215557724 0.9968231600403964 -0.018101191215557724 0.003176839959603714 0.01810119121555772
9.521194858253023E7 0.0032011118164235876 0.018365021665532295 0.9967988881835766 -0.018365021665532295 0.9967988881835766 -0.018365021665532295 0.0032011118164235876 0.018365021665532295
9.664883053779216E7 0.003225866229361319 0.018632576625044268 0.9967741337706387 -0.018632576625044268 0.9967741337706387 -0.018632576625044268 0.003225866229361319 0.018632576625044268
9.810739705874248E7 0.0032511095411021933 0.01890390876483405 0.9967488904588977 -0.01890390876483405 0.9967488904588977 -0.01890390876483405 0.0032511095411021933 0.01890390876483405
9.958797539591652E7 0.0032768481715791703 0.019179071675963468 0.996723151828421 -0.019179071675963465 0.996723151828421 -0.019179071675963465 0.0032768481715791703 0.019179071675963468
1.0109089773851961E8 0.00330308862811133 0.019458119891725575 0.9966969113718885 -0.01945811989172557 0.9966969113718885 -0.01945811989172557 0.00330308862811133 0.019458119891725575
1.0261650128895843E8 0.0033298375163857996 0.0197411089097042 0.9966701624836143 -0.0197411089097042 0.9966701624836143 -0.0197411089097042 0.0033298375163857996 0.0197411089097042
1.0416512833849736E8 0.003357101552299744 0.02002809521394436 0.9966428984477004 -0.02002809521394436 0.9966428984477004 -0.02002809521394436 0.003357101552299744 0.02002809521394436
1.0573712634405641E8 0.0033848875746763664 0.020319136297193414 0.9966151124253236 -0.020319136297193414 0.9966151124253236 -0.020319136297193414 0.0033848875746763664 0.020319136297193414
1.0733284800616828E8 0.003413202558866292 0.020614290683171582 0.9965867974411337 -0.020614290683171586 0.9965867974411337 -0.020614290683171586 0.003413202558866292 0.020614290683171582
1.0895265134811176E8 0.003442053631242828 0.020913617948829517 0.9965579463687572 -0.02091361794882952 0.9965579463687572 -0.02091361794882952 0.003442053631242828 0.020913617948829517
1.1059689979623953E8 0.00347144808459673 0.021217178746549662 0.9965285519154033 -0.021217178746549666 0.9965285519154033 -0.021217178746549666 0.00347144808459673 0.021217178746549662
1.1226596226151802E8 0.0035013933944330914 0.021525034826248072 0.996498606605567 -0.021525034826248072 0.996498606605567 -0.021525034826248072 0.0035013933944330914 0.021525034826248072
1.1396021322229806E8 0.0035318972361698805 0.02183724905733267 0.99646810276383 -0.021837249057332666 0.99646810276383 -0.021837249057332666 0.0035318972361698805 0.02183724905733267
1.1568003280833441E8 0.0035629675032345363 0.022153885450474163 0.9964370324967655 -0.022153885450474163 0.9964370324967655 -0.022153885450474163 0.0035629675032345363 0.022153885450474163
1.1742580688607343E8 0.003594612326051925 0.02247500917914619 0.9964053876739479 -0.02247500917914619 0.9964053876739479 -0.02247500917914619 0.003594612326051925 0.02247500917914619
1.1919792714522783E8 0.0036268400919137775 0.022800686600891615 0.9963731599080863 -0.022800686600891615 0.9963731599080863 -0.022800686600891615 0.0036268400919137775 0.022800686600891615
1.2099679118665792E8 0.003659659465716621 0.023130985278272974 0.9963403405342832 -0.023130985278272974 0.9963403405342832 -0.023130985278272974 0.003659659465716621 0.023130985278272974
1.2282280261157903E8 0.0036930794115522425 0.02346597399946612 0.9963069205884478 -0.02346597399946612 0.9963069205884478 -0.02346597399946612 0.0036930794115522425 0.02346597399946612
1.2467637111211549E8 0.003727109215131629 0.023805722798457413 0.9962728907848684 -0.023805722798457413 0.9962728907848684 -0.023805722798457413 0.003727109215131629 0.023805722798457413
1.265579125632208E8 0.0037617585070206204 0.024150302974806737 0.9962382414929793 -0.024150302974806737 0.9962382414929793 -0.024150302974806737 0.0037617585070206204 0.024150302974806737
1.284678491159853E8 0.003797037286662677 0.02449978711294029 0.9962029627133372 -0.024499787112940288 0.9962029627133372 -0.024499787112940288 0.003797037286662677 0.02449978711294029
1.3040660929235186E8 0.0038329559471616775 0.024854249100939484 0.9961670440528383 -0.02485424910093948 0.9961670440528383 -0.02485424910093948 0.0038329559471616775 0.024854249100939484
1.3237462808126101E8 0.0038695253007953053 0.02521376414879466 0.9961304746992048 -0.02521376414879466 0.9961304746992048 -0.02521376414879466 0.0038695253007953053 0.02521376414879466
1.3437234703624701E8 0.003906756605227398 0.025578408806094906 0.9960932433947725 -0.025578408806094903 0.9960932433947725 -0.025578408806094903 0.003906756605227398 0.025578408806094906
1.364002143745067E8 0.003944661590385748 0.02594826097912829 0.9960553384096141 -0.02594826097912829 0.9960553384096141 -0.02594826097912829 0.003944661590385748 0.02594826097912829
1.3845868507746372E8 0.0039832524859701735 0.02632339994736961 0.9960167475140297 -0.026323399947369607 0.9960167475140297 -0.026323399947369607 0.0039832524859701735 0.02632339994736961
1.405482209928499E8 0.004022542049554314 0.026703906379336177 0.9959774579504459 -0.026703906379336177 0.9959774579504459 -0.026703906379336177 0.004022542049554314 0.026703906379336177
1.426692909383278E8 0.004062543595243448 0.027089862347795285 0.9959374564047565 -0.027089862347795285 0.9959374564047565 -0.027089862347795285 0.004062543595243448 0.027089862347795285
1.4482237080667645E8 0.0041032710228498985 0.027481351344310567 0.9958967289771501 -0.027481351344310567 0.9958967289771501 -0.027481351344310567 0.0041032710228498985 0.027481351344310567
1.4700794367256513E8 0.004144738847547016 0.027878458293117695 0.995855261152453 -0.027878458293117688 0.995855261152453 -0.027878458293117688 0.004144738847547016 0.027878458293117695
1.492264999009378E8 0.004186962229962671 0.028281269564323818 0.9958130377700373 -0.028281269564323818 0.9958130377700373 -0.028281269564323818 0.004186962229962671 0.028281269564323818
1.5147853725703382E8 0.004229957006673133 0.02868987298642822 0.9957700429933267 -0.02868987298642822 0.9957700429933267 -0.02868987298642822 0.004229957006673133 0.02868987298642822
1.5376456101806876E8 0.004273739721058875 0.02910435785816545 0.9957262602789411 -0.029104357858165442 0.9957262602789411 -0.029104357858165442 0.004273739721058875 0.02910435785816545
1.5608508408660066E8 0.004318327654484429 0.0295248149596756 0.9956816723455157 -0.029524814959675596 0.9956816723455157 -0.029524814959675596 0.004318327654484429 0.0295248149596756
1.5844062710560706E8 0.004363738857765624 0.029951336563009873 0.9956362611422341 -0.029951336563009873 0.9956362611422341 -0.029951336563009873 0.004363738857765624 0.029951336563009873
1.6083171857529896E8 0.004409992182888826 0.030384016441982867 0.9955900078171112 -0.03038401644198286 0.9955900078171112 -0.03038401644198286 0.004409992182888826 0.030384016441982867
1.632588949716973E8 0.00445710731494845 0.030822949881385724 0.9955428926850516 -0.030822949881385724 0.9955428926850516 -0.030822949881385724 0.00445710731494845 0.030822949881385724
1.6572270086699936E8 0.004505104804271048 0.03126823368557854 0.9954948951957291 -0.03126823368557854 0.9954948951957291 -0.03126823368557854 0.004505104804271048 0.03126823368557854
1.6822368905176118E8 0.004554006098696295 0.03171996618648137 0.9954459939013038 -0.031719966186481374 0.9954459939013038 -0.031719966186481374 0.004554006098696295 0.03171996618648137
1.7076242065892437E8 0.004603833575987738 0.032178247250987835 0.9953961664240124 -0.032178247250987835 0.9953961664240124 -0.032178247250987835 0.004603833575987738 0.032178247250987835
1.7333946528971428E8 0.004654610576348742 0.03264317828782604 0.9953453894236514 -0.03264317828782604 0.9953453894236514 -0.03264317828782604 0.004654610576348742 0.03264317828782604
1.7595540114143828E8 0.004706361435021906 0.03311486225389496 0.995293638564978 -0.03311486225389496 0.995293638564978 -0.03311486225389496 0.004706361435021906 0.03311486225389496
1.786108151372127E8 0.004759111514953156 0.03359340366010535 0.9952408884850469 -0.03359340366010536 0.9952408884850469 -0.03359340366010536 0.004759111514953156 0.03359340366010535
1.8130630305764765E8 0.0048128872395049125 0.0340789085767569 0.9951871127604952 -0.0340789085767569 0.9951871127604952 -0.0340789085767569 0.0048128872395049125 0.0340789085767569
1.840424696745189E8 0.004867716125205868 0.03457148463848366 0.9951322838747941 -0.03457148463848366 0.9951322838747941 -0.03457148463848366 0.004867716125205868 0.03457148463848366
1.8681992888645732E8 0.004923626814528374 0.03507124104880217 0.9950763731854717 -0.03507124104880217 0.9950763731854717 -0.03507124104880217 0.004923626814528374 0.03507124104880217
1.8963930385668582E8 0.00498064910868761 0.03557828858429613 0.9950193508913125 -0.03557828858429613 0.9950193508913125 -0.03557828858429613 0.00498064910868761 0.03557828858429613
1.92501227152835E8 0.005038814000460311 0.036092739598473374 0.9949611859995398 -0.036092739598473374 0.9949611859995398 -0.036092739598473374 0.005038814000460311 0.036092739598473374
1.9540634088886917E8 0.005098153707024133 0.03661470802533021 0.9949018462929757 -0.03661470802533021 0.9949018462929757 -0.03661470802533021 0.005098153707024133 0.03661470802533021
1.983552968691535E8 0.005158701702822175 0.037144309382658815 0.9948412982971777 -0.037144309382658815 0.9948412982971777 -0.037144309382658815 0.005158701702822175 0.037144309382658815
2.0134875673469606E8 0.0052204927524605385 0.03768166077513285 0.9947795072475395 -0.03768166077513285 0.9947795072475395 -0.03768166077513285 0.0052204927524605385 0.03768166077513285
2.0438739211159652E8 0.005283562943650123 0.03822688089720631 0.9947164370563499 -0.03822688089720631 0.9947164370563499 -0.03822688089720631 0.005283562943650123 0.03822688089720631
2.074718847617352E8 0.0053479497202069725 0.03878009003585924 0.9946520502797933 -0.03878009003585924 0.9946520502797933 -0.03878009003585924 0.0053479497202069725 0.03878009003585924
2.106029267357361E8 0.005413691915128768 0.03934141007322402 0.9945863080848713 -0.03934141007322402 0.9945863080848713 -0.03934141007322402 0.005413691915128768 0.03934141007322402
2.1378122052823865E8 0.005480829783767953 0.03991096448912407 0.9945191702162319 -0.03991096448912407 0.9945191702162319 -0.03991096448912407 0.005480829783767953 0.03991096448912407
2.1700747923551247E8 0.005549405037124794 0.04048887836355553 0.994450594962875 -0.04048887836355553 0.994450594962875 -0.04048887836355553 0.005549405037124794 0.04048887836355553
2.2028242671545094E8 0.005619460875286555 0.04107527837914155 0.9943805391247135 -0.04107527837914155 0.9943805391247135 -0.04107527837914155 0.005619460875286555 0.04107527837914155
2.23606797749979E8 0.005691042021041397 0.04167029282358644 0.9943089579789587 -0.04167029282358645 0.9943089579789587 -0.04167029282358645 0.005691042021041397 0.04167029282358644
2.2698133820991236E8 0.005764194753698113 0.04227405159215615 0.9942358052463017 -0.042274051592156144 0.9942358052463017 -0.042274051592156144 0.005764194753698113 0.04227405159215615
2.3040680522230446E8 0.005838966943144953 0.04288668619020849 0.9941610330568549 -0.04288668619020848 0.9941610330568549 -0.04288668619020848 0.005838966943144953 0.04288668619020849
2.338839673403185E8 0.005915408084182993 0.04350832973579569 0.994084591915817 -0.04350832973579569 0.994084591915817 -0.04350832973579569 0.005915408084182993 0.04350832973579569
2.37413604715664E8 0.005993569331171311 0.04413911696235927 0.9940064306688288 -0.04413911696235927 0.9940064306688288 -0.04413911696235927 0.005993569331171311 0.04413911696235927
