!Murata Part Number: LQP15MN3N9W02
!These Parameters are Measured in Series Mode Connection
!       o--[Z]--o
!Port1              Port2
!       o-------o
!
!Freq. Start=50[MHz] Stop=20[GHz], 401[Steps]
# Hz S RI R 50
!Freq.(Hz) S11(Real) S11(Imag) S21(Real) S21(Imag) S12(Real) S12(Imag) S22(Real) S22(Imag)
5.0E7 0.0030237700876226256 0.011715160089475945 0.9969762299123773 -0.011715160089475945 0.9969762299123773 -0.011715160089475945 0.0030237700876226256 0.011715160089475945
5.0754570186123446E7 0.003035964726025192 0.011888440201149675 0.9969640352739748 -0.011888440201149675 0.9969640352739748 -0.011888440201149675 0.003035964726025192 0.011888440201149675
5.152052789556263E7 0.003048452072937016 0.012064208677707343 0.996951547927063 -0.012064208677707343 0.996951547927063 -0.012064208677707343 0.003048452072937016 0.012064208677707343
5.229804498202928E7 0.003061237429829879 0.012242499414634242 0.9969387625701701 -0.012242499414634242 0.9969387625701701 -0.012242499414634242 0.003061237429829879 0.012242499414634242
5.308729589274893E7 0.0030743261255523203 0.012423346769799948 0.9969256738744479 -0.012423346769799948 0.9969256738744479 -0.012423346769799948 0.0030743261255523203 0.012423346769799948
5.388845770760058E7 0.003087723514570664 0.01260678557339807 0.9969122764854291 -0.01260678557339807 0.9969122764854291 -0.01260678557339807 0.003087723514570664 0.01260678557339807
5.470171017884717E7 0.003101434975289124 0.012792851138287844 0.9968985650247107 -0.012792851138287844 0.9968985650247107 -0.012792851138287844 0.003101434975289124 0.012792851138287844
5.5527235771465644E7 0.0031154659084678027 0.0129815792707476 0.9968845340915323 -0.0129815792707476 0.9968845340915323 -0.0129815792707476 0.0031154659084678027 0.0129815792707476
5.6365219704085544E7 0.0031298217357584434 0.01317300628164934 0.9968701782642415 -0.013173006281649337 0.9968701782642415 -0.013173006281649337 0.0031298217357584434 0.01317300628164934
5.721584999054556E7 0.003144507898378945 0.013367168998062928 0.996855492101621 -0.013367168998062928 0.996855492101621 -0.013367168998062928 0.003144507898378945 0.013367168998062928
5.807931748207712E7 0.0031595298559486803 0.01356410477529725 0.9968404701440513 -0.013564104775297247 0.9968404701440513 -0.013564104775297247 0.0031595298559486803 0.01356410477529725
5.8955815910124585E7 0.0031748930855077305 0.0137638515093848 0.9968251069144922 -0.0137638515093848 0.9968251069144922 -0.0137638515093848 0.0031748930855077305 0.0137638515093848
5.984554192981184E7 0.003190603080744114 0.013966447650015002 0.9968093969192557 -0.013966447650015002 0.9968093969192557 -0.013966447650015002 0.003190603080744114 0.013966447650015002
6.074869516406457E7 0.0032066653514540274 0.014171932213920161 0.9967933346485459 -0.014171932213920161 0.9967933346485459 -0.014171932213920161 0.0032066653514540274 0.014171932213920161
6.166547824839868E7 0.0032230854232610253 0.014380344798716829 0.9967769145767391 -0.014380344798716829 0.9967769145767391 -0.014380344798716829 0.0032230854232610253 0.014380344798716829
6.2596096876384385E7 0.0032398688376207756 0.014591725597203545 0.9967601311623793 -0.014591725597203549 0.9967601311623793 -0.014591725597203549 0.0032398688376207756 0.014591725597203545
6.354075984579668E7 0.003257021152138896 0.014806115412114962 0.9967429788478611 -0.014806115412114962 0.9967429788478611 -0.014806115412114962 0.003257021152138896 0.014806115412114962
6.449967910546205E7 0.0032745479412297734 0.015023555671329843 0.9967254520587702 -0.015023555671329842 0.9967254520587702 -0.015023555671329842 0.0032745479412297734 0.015023555671329843
6.547306980281226E7 0.0032924547971450125 0.015244088443529705 0.9967075452028549 -0.015244088443529702 0.9967075452028549 -0.015244088443529702 0.0032924547971450125 0.015244088443529705
6.646115033215589E7 0.0033107473314003826 0.015467756454302204 0.9966892526685995 -0.015467756454302204 0.9966892526685995 -0.015467756454302204 0.0033107473314003826 0.015467756454302204
6.746414238367817E7 0.0033294311766304775 0.01569460310268203 0.9966705688233696 -0.01569460310268203 0.9966705688233696 -0.01569460310268203 0.0033294311766304775 0.01569460310268203
6.848227099318038E7 0.0033485119889004053 0.015924672478119822 0.9966514880110996 -0.015924672478119822 0.9966514880110996 -0.015924672478119822 0.0033485119889004053 0.015924672478119822
6.951576459256999E7 0.003367995450503859 0.016158009377867936 0.9966320045494962 -0.016158009377867932 0.9966320045494962 -0.016158009377867932 0.003367995450503859 0.016158009377867936
7.056485506111258E7 0.0033878872732766747 0.016394659324769485 0.9966121127267233 -0.016394659324769485 0.9966121127267233 -0.016394659324769485 0.0033878872732766747 0.016394659324769485
7.162977777745734E7 0.0034081932024547213 0.016634668585435358 0.9965918067975453 -0.016634668585435358 0.9965918067975453 -0.016634668585435358 0.0034081932024547213 0.016634668585435358
7.271077167244768E7 0.0034289190211044466 0.016878084188791602 0.9965710809788957 -0.016878084188791602 0.9965710809788957 -0.016878084188791602 0.0034289190211044466 0.016878084188791602
7.380807928272885E7 0.003450070555153752 0.017124953944977702 0.9965499294448463 -0.017124953944977702 0.9965499294448463 -0.017124953944977702 0.003450070555153752 0.017124953944977702
7.492194680516452E7 0.003471653679049989 0.017375326464573976 0.99652834632095 -0.017375326464573976 0.99652834632095 -0.017375326464573976 0.003471653679049989 0.017375326464573976
7.60526241520746E7 0.003493674322070893 0.017629251178134537 0.9965063256779291 -0.017629251178134537 0.9965063256779291 -0.017629251178134537 0.003493674322070893 0.017629251178134537
7.720036500730675E7 0.0035161384753130648 0.017886778356000107 0.9964838615246868 -0.017886778356000107 0.9964838615246868 -0.017886778356000107 0.0035161384753130648 0.017886778356000107
7.836542688315398E7 0.003539052199381179 0.018147959128363172 0.9964609478006187 -0.018147959128363172 0.9964609478006187 -0.018147959128363172 0.003539052199381179 0.018147959128363172
7.954807117813127E7 0.003562421632799624 0.018412845505556105 0.9964375783672005 -0.018412845505556105 0.9964375783672005 -0.018412845505556105 0.003562421632799624 0.018412845505556105
8.074856323562416E7 0.0035862530011664816 0.01868149039853108 0.9964137469988337 -0.01868149039853108 0.9964137469988337 -0.01868149039853108 0.0035862530011664816 0.01868149039853108
8.196717240342227E7 0.003610552627067872 0.018953947639499154 0.9963894473729322 -0.01895394763949915 0.9963894473729322 -0.01895394763949915 0.003610552627067872 0.018953947639499154
8.320417209415154E7 0.0036353269407687176 0.019230272002694386 0.9963646730592313 -0.019230272002694386 0.9963646730592313 -0.019230272002694386 0.0036353269407687176 0.019230272002694386
8.445983984661816E7 0.003660582491693619 0.019510519225227327 0.9963394175083063 -0.019510519225227327 0.9963394175083063 -0.019510519225227327 0.003660582491693619 0.019510519225227327
8.573445738807854E7 0.0036863259607093596 0.019794746027991462 0.9963136740392907 -0.019794746027991462 0.9963136740392907 -0.019794746027991462 0.0036863259607093596 0.019794746027991462
8.702831069744885E7 0.0037125641732180244 0.020083010136584863 0.996287435826782 -0.020083010136584867 0.996287435826782 -0.020083010136584867 0.0037125641732180244 0.020083010136584863
8.834169006946853E7 0.0037393041130671253 0.02037537030220885 0.996260695886933 -0.020375370302208852 0.996260695886933 -0.020375370302208852 0.0037393041130671253 0.02037537030220885
8.96748901798321E7 0.0037665529372805542 0.020671886322504617 0.9962334470627195 -0.020671886322504617 0.9962334470627195 -0.020671886322504617 0.0037665529372805542 0.020671886322504617
9.1028210151304E7 0.003794317991611376 0.020972619062288846 0.9962056820083887 -0.020972619062288846 0.9962056820083887 -0.020972619062288846 0.003794317991611376 0.020972619062288846
9.240195362083109E7 0.0038226068269147564 0.021277630474148806 0.9961773931730854 -0.021277630474148806 0.9961773931730854 -0.021277630474148806 0.0038226068269147564 0.021277630474148806
9.379642880766791E7 0.0038514272163364706 0.021586983618857934 0.9961485727836635 -0.021586983618857934 0.9961485727836635 -0.021586983618857934 0.0038514272163364706 0.021586983618857934
9.521194858253023E7 0.0038807871733097096 0.021900742685573196 0.9961192128266905 -0.021900742685573196 0.9961192128266905 -0.021900742685573196 0.0038807871733097096 0.021900742685573196
9.664883053779216E7 0.003910694970349988 0.022218973011776107 0.9960893050296501 -0.022218973011776107 0.9960893050296501 -0.022218973011776107 0.003910694970349988 0.022218973011776107
9.810739705874248E7 0.0039411591586353415 0.022541741102920346 0.9960588408413646 -0.022541741102920346 0.9960588408413646 -0.022541741102920346 0.0039411591586353415 0.022541741102920346
9.958797539591652E7 0.003972188588356198 0.022869114651749813 0.996027811411644 -0.022869114651749813 0.996027811411644 -0.022869114651749813 0.003972188588356198 0.022869114651749813
1.0109089773851961E8 0.004003792429816829 0.02320116255725277 0.9959962075701831 -0.02320116255725277 0.9959962075701831 -0.02320116255725277 0.004003792429816829 0.02320116255725277
1.0261650128895843E8 0.004035980195267712 0.023537954943218913 0.9959640198047324 -0.023537954943218913 0.9959640198047324 -0.023537954943218913 0.004035980195267712 0.023537954943218913
1.0416512833849736E8 0.004068761761445861 0.02387956317636839 0.995931238238554 -0.02387956317636839 0.995931238238554 -0.02387956317636839 0.004068761761445861 0.02387956317636839
1.0573712634405641E8 0.004102147392797973 0.024226059884023817 0.995897852607202 -0.024226059884023817 0.995897852607202 -0.024226059884023817 0.004102147392797973 0.024226059884023817
1.0733284800616828E8 0.0041361477653592575 0.024577518971298423 0.9958638522346407 -0.02457751897129842 0.9958638522346407 -0.02457751897129842 0.0041361477653592575 0.024577518971298423
1.0895265134811176E8 0.004170773991258996 0.024934015637776228 0.9958292260087409 -0.024934015637776228 0.9958292260087409 -0.024934015637776228 0.004170773991258996 0.024934015637776228
1.1059689979623953E8 0.004206037643822379 0.025295626393662743 0.9957939623561777 -0.025295626393662743 0.9957939623561777 -0.025295626393662743 0.004206037643822379 0.025295626393662743
1.1226596226151802E8 0.00424195078323672 0.025662429075387166 0.9957580492167634 -0.025662429075387166 0.9957580492167634 -0.025662429075387166 0.00424195078323672 0.025662429075387166
1.1396021322229806E8 0.004278525982749145 0.02603450286064031 0.9957214740172509 -0.026034502860640317 0.9957214740172509 -0.026034502860640317 0.004278525982749145 0.02603450286064031
1.1568003280833441E8 0.0043157763553620465 0.026411928282835468 0.9956842236446379 -0.026411928282835468 0.9956842236446379 -0.026411928282835468 0.0043157763553620465 0.026411928282835468
1.1742580688607343E8 0.004353715580991955 0.026794787244982268 0.9956462844190078 -0.026794787244982268 0.9956462844190078 -0.026794787244982268 0.004353715580991955 0.026794787244982268
1.1919792714522783E8 0.004392357934057295 0.027183163032966938 0.9956076420659428 -0.027183163032966938 0.9956076420659428 -0.027183163032966938 0.004392357934057295 0.027183163032966938
1.2099679118665792E8 0.004431718311460483 0.027577140328235487 0.9955682816885395 -0.027577140328235494 0.9955682816885395 -0.027577140328235494 0.004431718311460483 0.027577140328235487
1.2282280261157903E8 0.00447181226093009 0.027976805219879504 0.9955281877390699 -0.027976805219879504 0.9955281877390699 -0.027976805219879504 0.00447181226093009 0.027976805219879504
1.2467637111211549E8 0.004512656009689421 0.02838224521612715 0.9954873439903104 -0.02838224521612715 0.9954873439903104 -0.02838224521612715 0.004512656009689421 0.02838224521612715
1.265579125632208E8 0.004554266493418695 0.02879354925524556 0.9954457335065812 -0.028793549255245552 0.9954457335065812 -0.028793549255245552 0.004554266493418695 0.02879354925524556
1.284678491159853E8 0.00459666138547909 0.029210807715862912 0.995403338614521 -0.029210807715862916 0.995403338614521 -0.029210807715862916 0.00459666138547909 0.029210807715862912
1.3040660929235186E8 0.004639859126368432 0.02963411242672258 0.9953601408736317 -0.02963411242672258 0.9953601408736317 -0.02963411242672258 0.004639859126368432 0.02963411242672258
1.3237462808126101E8 0.004683878953379801 0.030063556675883066 0.9953161210466202 -0.030063556675883066 0.9953161210466202 -0.030063556675883066 0.004683878953379801 0.030063556675883066
1.3437234703624701E8 0.004728740930436259 0.030499235219381325 0.9952712590695638 -0.030499235219381325 0.9952712590695638 -0.030499235219381325 0.004728740930436259 0.030499235219381325
1.364002143745067E8 0.004774465978077003 0.030941244289378406 0.9952255340219229 -0.030941244289378406 0.9952255340219229 -0.030941244289378406 0.004774465978077003 0.030941244289378406
1.3845868507746372E8 0.004821075903572545 0.03138968160180976 0.9951789240964274 -0.03138968160180975 0.9951789240964274 -0.03138968160180975 0.004821075903572545 0.03138968160180976
1.405482209928499E8 0.004868593431148815 0.03184464636356289 0.9951314065688515 -0.03184464636356289 0.9951314065688515 -0.03184464636356289 0.004868593431148815 0.03184464636356289
1.426692909383278E8 0.004917042232303012 0.03230623927920899 0.9950829577676972 -0.03230623927920899 0.9950829577676972 -0.03230623927920899 0.004917042232303012 0.03230623927920899
1.4482237080667645E8 0.004966446956196424 0.03277456255731454 0.9950335530438036 -0.03277456255731454 0.9950335530438036 -0.03277456255731454 0.004966446956196424 0.03277456255731454
1.4700794367256513E8 0.005016833260112551 0.033249719916362025 0.9949831667398875 -0.033249719916362025 0.9949831667398875 -0.033249719916362025 0.005016833260112551 0.033249719916362025
1.492264999009378E8 0.00506822783997169 0.03373181659030875 0.9949317721600283 -0.033731816590308744 0.9949317721600283 -0.033731816590308744 0.00506822783997169 0.03373181659030875
1.5147853725703382E8 0.005120658460896177 0.03422095933381429 0.9948793415391037 -0.03422095933381429 0.9948793415391037 -0.03422095933381429 0.005120658460896177 0.03422095933381429
1.5376456101806876E8 0.005174153987823493 0.03471725642716736 0.9948258460121766 -0.034717256427167366 0.9948258460121766 -0.034717256427167366 0.005174153987823493 0.03471725642716736
1.5608508408660066E8 0.005228744416167575 0.03522081768094345 0.9947712555838325 -0.03522081768094345 0.9947712555838325 -0.03522081768094345 0.005228744416167575 0.03522081768094345
1.5844062710560706E8 0.005284460902531568 0.03573175444042421 0.9947155390974683 -0.0357317544404242 0.9947155390974683 -0.0357317544404242 0.005284460902531568 0.03573175444042421
1.6083171857529896E8 0.005341335795478521 0.03625017958981041 0.9946586642045215 -0.03625017958981041 0.9946586642045215 -0.03625017958981041 0.005341335795478521 0.03625017958981041
1.632588949716973E8 0.0053994026663692 0.036776207556258746 0.9946005973336306 -0.036776207556258746 0.9946005973336306 -0.036776207556258746 0.0053994026663692 0.036776207556258746
1.6572270086699936E8 0.005458696340279329 0.03730995431377296 0.9945413036597205 -0.03730995431377296 0.9945413036597205 -0.03730995431377296 0.005458696340279329 0.03730995431377296
1.6822368905176118E8 0.005519252927011295 0.037851537386979 0.9944807470729886 -0.03785153738697901 0.9944807470729886 -0.03785153738697901 0.005519252927011295 0.037851537386979
1.7076242065892437E8 0.005581109852218026 0.03840107585481247 0.9944188901477821 -0.03840107585481247 0.9944188901477821 -0.03840107585481247 0.005581109852218026 0.03840107585481247
1.7333946528971428E8 0.00564430588865943 0.03895869035414587 0.9943556941113405 -0.03895869035414587 0.9943556941113405 -0.03895869035414587 0.00564430588865943 0.03895869035414587
1.7595540114143828E8 0.005708881187614228 0.03952450308338214 0.9942911188123859 -0.03952450308338213 0.9942911188123859 -0.03952450308338213 0.005708881187614228 0.03952450308338214
1.786108151372127E8 0.00577487731047227 0.04009863780603852 0.9942251226895277 -0.04009863780603852 0.9942251226895277 -0.04009863780603852 0.00577487731047227 0.04009863780603852
1.8130630305764765E8 0.005842337260534762 0.040681219854344745 0.9941576627394652 -0.040681219854344745 0.9941576627394652 -0.040681219854344745 0.005842337260534762 0.040681219854344745
1.840424696745189E8 0.005911305515051753 0.041272376132876404 0.9940886944849482 -0.041272376132876404 0.9940886944849482 -0.041272376132876404 0.005911305515051753 0.041272376132876404
1.8681992888645732E8 0.005981828057528151 0.04187223512224377 0.9940181719424721 -0.04187223512224378 0.9940181719424721 -0.04187223512224378 0.005981828057528151 0.04187223512224377
1.8963930385668582E8 0.006053952410331321 0.042480926882854 0.9939460475896686 -0.04248092688285401 0.9939460475896686 -0.04248092688285401 0.006053952410331321 0.042480926882854
1.92501227152835E8 0.006127727667634856 0.04309858305876299 0.9938722723323652 -0.04309858305876299 0.9938722723323652 -0.04309858305876299 0.006127727667634856 0.04309858305876299
1.9540634088886917E8 0.00620320452873452 0.043725336881630904 0.9937967954712654 -0.043725336881630904 0.9937967954712654 -0.043725336881630904 0.00620320452873452 0.043725336881630904
1.983552968691535E8 0.006280435331773788 0.04436132317479462 0.9937195646682262 -0.04436132317479462 0.9937195646682262 -0.04436132317479462 0.006280435331773788 0.04436132317479462
2.0134875673469606E8 0.006359474087917355 0.04500667835746686 0.9936405259120827 -0.04500667835746687 0.9936405259120827 -0.04500667835746687 0.006359474087917355 0.04500667835746686
2.0438739211159652E8 0.006440376516012222 0.04566154044907151 0.9935596234839876 -0.04566154044907151 0.9935596234839876 -0.04566154044907151 0.006440376516012222 0.04566154044907151
2.074718847617352E8 0.006523200077776743 0.04632604907372167 0.9934767999222233 -0.04632604907372167 0.9934767999222233 -0.04632604907372167 0.006523200077776743 0.04632604907372167
2.106029267357361E8 0.006608004013558804 0.047000345464845876 0.9933919959864411 -0.047000345464845876 0.9933919959864411 -0.047000345464845876 0.006608004013558804 0.047000345464845876
2.1378122052823865E8 0.006694849378705153 0.04768457246996605 0.9933051506212948 -0.04768457246996605 0.9933051506212948 -0.04768457246996605 0.006694849378705153 0.04768457246996605
2.1700747923551247E8 0.0067837990805843275 0.04837887455562888 0.9932162009194156 -0.04837887455562887 0.9932162009194156 -0.04837887455562887 0.0067837990805843275 0.04837887455562888
2.2028242671545094E8 0.0068749179163063445 0.04908339781249133 0.9931250820836937 -0.049083397812491325 0.9931250820836937 -0.049083397812491325 0.0068749179163063445 0.04908339781249133
2.23606797749979E8 0.006968272611182653 0.049798289960558635 0.9930317273888173 -0.04979828996055863 0.9930317273888173 -0.04979828996055863 0.006968272611182653 0.049798289960558635
2.2698133820991236E8 0.007063931857970525 0.05052370035457284 0.9929360681420293 -0.05052370035457284 0.9929360681420293 -0.05052370035457284 0.007063931857970525 0.05052370035457284
2.3040680522230446E8 0.007161966356946299 0.05125977998954778 0.9928380336430537 -0.05125977998954779 0.9928380336430537 -0.05125977998954779 0.007161966356946299 0.05125977998954778
2.338839673403185E8 0.007262448856852403 0.05200668150644529 0.9927375511431478 -0.05200668150644529 0.9927375511431478 -0.05200668150644529 0.007262448856852403 0.05200668150644529
2.37413604715664E8 0.0073654541967636475 0.05276455919798713 0.9926345458032362 -0.05276455919798713 0.9926345458032362 -0.05276455919798713 0.0073654541967636475 0.05276455919798713
