!Murata Part Number: LQP15MN2N0B02
!These Parameters are Measured in Series Mode Connection
!       o--[Z]--o
!Port1              Port2
!       o-------o
!
!Freq. Start=50[MHz] Stop=20[GHz], 401[Steps]
# Hz S RI R 50
!Freq.(Hz) S11(Real) S11(Imag) S21(Real) S21(Imag) S12(Real) S12(Imag) S22(Real) S22(Imag)
5.0E7 7.979476654921111E-4 0.005326792736989948 0.999202052334508 -0.005326792736989948 0.999202052334508 -0.005326792736989948 7.979476654921111E-4 0.005326792736989948
5.0754570186123446E7 8.008591201613426E-4 0.0054066798169284695 0.9991991408798387 -0.0054066798169284695 0.9991991408798387 -0.0054066798169284695 8.008591201613426E-4 0.0054066798169284695
5.152052789556263E7 8.038519580894159E-4 0.005487751272189657 0.9991961480419104 -0.005487751272189656 0.9991961480419104 -0.005487751272189656 8.038519580894159E-4 0.005487751272189657
5.229804498202928E7 8.069282535443447E-4 0.005570024132039382 0.9991930717464558 -0.005570024132039382 0.9991930717464558 -0.005570024132039382 8.069282535443447E-4 0.005570024132039382
5.308729589274893E7 8.100901226770295E-4 0.005653515653029937 0.9991899098773228 -0.005653515653029937 0.9991899098773228 -0.005653515653029937 8.100901226770295E-4 0.005653515653029937
5.388845770760058E7 8.133397237803236E-4 0.005738243321663546 0.9991866602762196 -0.005738243321663545 0.9991866602762196 -0.005738243321663545 8.133397237803236E-4 0.005738243321663546
5.470171017884717E7 8.16679257516575E-4 0.00582422485709685 0.9991833207424835 -0.00582422485709685 0.9991833207424835 -0.00582422485709685 8.16679257516575E-4 0.00582422485709685
5.5527235771465644E7 8.201109671119488E-4 0.005911478213888848 0.999179889032888 -0.005911478213888848 0.999179889032888 -0.005911478213888848 8.201109671119488E-4 0.005911478213888848
5.6365219704085544E7 8.236371385158466E-4 0.006000021584794911 0.9991763628614843 -0.006000021584794911 0.9991763628614843 -0.006000021584794911 8.236371385158466E-4 0.006000021584794911
5.721584999054556E7 8.272601005237723E-4 0.006089873403609797 0.9991727398994761 -0.006089873403609797 0.9991727398994761 -0.006089873403609797 8.272601005237723E-4 0.006089873403609797
5.807931748207712E7 8.309822248619994E-4 0.006181052348062648 0.999169017775138 -0.006181052348062648 0.999169017775138 -0.006181052348062648 8.309822248619994E-4 0.006181052348062648
5.8955815910124585E7 8.348059262324681E-4 0.006273577342767248 0.9991651940737676 -0.006273577342767248 0.9991651940737676 -0.006273577342767248 8.348059262324681E-4 0.006273577342767248
5.984554192981184E7 8.38733662316369E-4 0.00636746756223102 0.9991612663376838 -0.006367467562231021 0.9991612663376838 -0.006367467562231021 8.38733662316369E-4 0.00636746756223102
6.074869516406457E7 8.427679337349566E-4 0.006462742433926418 0.999157232066265 -0.006462742433926418 0.999157232066265 -0.006462742433926418 8.427679337349566E-4 0.006462742433926418
6.166547824839868E7 8.46911283966205E-4 0.006559421641428646 0.9991530887160336 -0.006559421641428644 0.9991530887160336 -0.006559421641428644 8.46911283966205E-4 0.006559421641428646
6.2596096876384385E7 8.511662992160174E-4 0.0066575251276237936 0.999148833700784 -0.0066575251276237936 0.999148833700784 -0.0066575251276237936 8.511662992160174E-4 0.0066575251276237936
6.354075984579668E7 8.555356082428286E-4 0.006757073097991844 0.9991444643917571 -0.006757073097991844 0.9991444643917571 -0.006757073097991844 8.555356082428286E-4 0.006757073097991844
6.449967910546205E7 8.600218821345403E-4 0.006858086023969058 0.9991399781178656 -0.006858086023969059 0.9991399781178656 -0.006858086023969059 8.600218821345403E-4 0.006858086023969058
6.547306980281226E7 8.646278340369047E-4 0.006960584646394636 0.999135372165963 -0.006960584646394636 0.999135372165963 -0.006960584646394636 8.646278340369047E-4 0.006960584646394636
6.646115033215589E7 8.693562188326343E-4 0.007064589979046789 0.9991306437811676 -0.007064589979046789 0.9991306437811676 -0.007064589979046789 8.693562188326343E-4 0.007064589979046789
6.746414238367817E7 8.742098327706784E-4 0.007170123312273464 0.9991257901672292 -0.007170123312273464 0.9991257901672292 -0.007170123312273464 8.742098327706784E-4 0.007170123312273464
6.848227099318038E7 8.79191513045361E-4 0.007277206216723378 0.9991208084869545 -0.007277206216723378 0.9991208084869545 -0.007277206216723378 8.79191513045361E-4 0.007277206216723378
6.951576459256999E7 8.843041373252568E-4 0.0073858605471831705 0.9991156958626748 -0.0073858605471831705 0.9991156958626748 -0.0073858605471831705 8.843041373252568E-4 0.0073858605471831705
7.056485506111258E7 8.895506232319725E-4 0.007496108446526699 0.999110449376768 -0.007496108446526699 0.999110449376768 -0.007496108446526699 8.895506232319725E-4 0.007496108446526699
7.162977777745734E7 8.949339277692604E-4 0.007607972349782858 0.9991050660722307 -0.007607972349782858 0.9991050660722307 -0.007607972349782858 8.949339277692604E-4 0.007607972349782858
7.271077167244768E7 9.004570467031956E-4 0.007721474988328358 0.9990995429532967 -0.007721474988328358 0.9990995429532967 -0.007721474988328358 9.004570467031956E-4 0.007721474988328358
7.380807928272885E7 9.061230138944779E-4 0.007836639394212305 0.9990938769861053 -0.007836639394212305 0.9990938769861053 -0.007836639394212305 9.061230138944779E-4 0.007836639394212305
7.492194680516452E7 9.119349005842734E-4 0.00795348890461948 0.9990880650994157 -0.00795348890461948 0.9990880650994157 -0.00795348890461948 9.119349005842734E-4 0.00795348890461948
7.60526241520746E7 9.178958146353766E-4 0.00807204716647948 0.9990821041853648 -0.00807204716647948 0.9990821041853648 -0.00807204716647948 9.178958146353766E-4 0.00807204716647948
7.720036500730675E7 9.240088997309032E-4 0.008192338141229143 0.9990759911002691 -0.008192338141229143 0.9990759911002691 -0.008192338141229143 9.240088997309032E-4 0.008192338141229143
7.836542688315398E7 9.30277334533127E-4 0.00831438610973564 0.9990697226654668 -0.00831438610973564 0.9990697226654668 -0.00831438610973564 9.30277334533127E-4 0.00831438610973564
7.954807117813127E7 9.367043318055556E-4 0.008438215677388046 0.9990632956681943 -0.008438215677388046 0.9990632956681943 -0.008438215677388046 9.367043318055556E-4 0.008438215677388046
8.074856323562416E7 9.432931375018015E-4 0.008563851779365009 0.9990567068624983 -0.008563851779365009 0.9990567068624983 -0.008563851779365009 9.432931375018015E-4 0.008563851779365009
8.196717240342227E7 9.500470298253251E-4 0.008691319686086512 0.9990499529701746 -0.008691319686086512 0.9990499529701746 -0.008691319686086512 9.500470298253251E-4 0.008691319686086512
8.320417209415154E7 9.569693182646719E-4 0.008820645008857705 0.9990430306817355 -0.008820645008857705 0.9990430306817355 -0.008820645008857705 9.569693182646719E-4 0.008820645008857705
8.445983984661816E7 9.640633426093397E-4 0.008951853705712633 0.9990359366573908 -0.008951853705712635 0.9990359366573908 -0.008951853705712635 9.640633426093397E-4 0.008951853705712633
8.573445738807854E7 9.713324719520524E-4 0.009084972087466127 0.9990286675280479 -0.009084972087466125 0.9990286675280479 -0.009084972087466125 9.713324719520524E-4 0.009084972087466127
8.702831069744885E7 9.787801036837426E-4 0.009220026823981537 0.9990212198963163 -0.009220026823981537 0.9990212198963163 -0.009220026823981537 9.787801036837426E-4 0.009220026823981537
8.834169006946853E7 9.864096624882409E-4 0.009357044950662472 0.9990135903375118 -0.009357044950662474 0.9990135903375118 -0.009357044950662474 9.864096624882409E-4 0.009357044950662472
8.96748901798321E7 9.94224599344228E-4 0.00949605387517618 0.9990057754006557 -0.009496053875176182 0.9990057754006557 -0.009496053875176182 9.94224599344228E-4 0.00949605387517618
9.1028210151304E7 0.0010022283905427192 0.009637081384416286 0.9989977716094572 -0.009637081384416286 0.9989977716094572 -0.009637081384416286 0.0010022283905427192 0.009637081384416286
9.240195362083109E7 0.001010424536728954 0.009780155651712256 0.9989895754632712 -0.009780155651712256 0.9989895754632712 -0.009780155651712256 0.001010424536728954 0.009780155651712256
9.379642880766791E7 0.0010188165619782676 0.009925305244292873 0.9989811834380218 -0.009925305244292871 0.9989811834380218 -0.009925305244292871 0.0010188165619782676 0.009925305244292873
9.521194858253023E7 0.0010274080129161673 0.01007255913101046 0.9989725919870839 -0.010072559131010458 0.9989725919870839 -0.010072559131010458 0.0010274080129161673 0.01007255913101046
9.664883053779216E7 0.0010362024578935325 0.010221946690332537 0.9989637975421065 -0.010221946690332537 0.9989637975421065 -0.010221946690332537 0.0010362024578935325 0.010221946690332537
9.810739705874248E7 0.0010452034862284717 0.010373497718606814 0.9989547965137714 -0.010373497718606814 0.9989547965137714 -0.010373497718606814 0.0010452034862284717 0.010373497718606814
9.958797539591652E7 0.0010544147075270927 0.010527242438605292 0.9989455852924729 -0.010527242438605292 0.9989455852924729 -0.010527242438605292 0.0010544147075270927 0.010527242438605292
1.0109089773851961E8 0.0010638397510960216 0.010683211508352497 0.9989361602489041 -0.010683211508352499 0.9989361602489041 -0.010683211508352499 0.0010638397510960216 0.010683211508352497
1.0261650128895843E8 0.001073482265460166 0.010841436030242305 0.99892651773454 -0.010841436030242305 0.99892651773454 -0.010841436030242305 0.001073482265460166 0.010841436030242305
1.0416512833849736E8 0.001083345917999798 0.01100194756044722 0.9989166540820003 -0.01100194756044722 0.9989166540820003 -0.01100194756044722 0.001083345917999798 0.01100194756044722
1.0573712634405641E8 0.0010934343947216053 0.011164778118623219 0.9989065656052786 -0.011164778118623219 0.9989065656052786 -0.011164778118623219 0.0010934343947216053 0.011164778118623219
1.0733284800616828E8 0.0011037514001788734 0.011329960197912443 0.9988962485998214 -0.011329960197912443 0.9988962485998214 -0.011329960197912443 0.0011037514001788734 0.011329960197912443
1.0895265134811176E8 0.0011143006575564719 0.011497526775245275 0.9988856993424435 -0.011497526775245273 0.9988856993424435 -0.011497526775245273 0.0011143006575564719 0.011497526775245275
1.1059689979623953E8 0.0011250859089367222 0.011667511321942388 0.9988749140910631 -0.011667511321942388 0.9988749140910631 -0.011667511321942388 0.0011250859089367222 0.011667511321942388
1.1226596226151802E8 0.001136110915762631 0.011839947814616376 0.9988638890842375 -0.011839947814616378 0.9988638890842375 -0.011839947814616378 0.001136110915762631 0.011839947814616376
1.1396021322229806E8 0.0011473794595152718 0.012014870746371656 0.9988526205404846 -0.012014870746371656 0.9988526205404846 -0.012014870746371656 0.0011473794595152718 0.012014870746371656
1.1568003280833441E8 0.0011588953426223646 0.01219231513830022 0.9988411046573777 -0.01219231513830022 0.9988411046573777 -0.01219231513830022 0.0011588953426223646 0.01219231513830022
1.1742580688607343E8 0.001170662389615246 0.012372316551269694 0.9988293376103847 -0.012372316551269694 0.9988293376103847 -0.012372316551269694 0.001170662389615246 0.012372316551269694
1.1919792714522783E8 0.0011826844485515625 0.012554911097999173 0.9988173155514485 -0.012554911097999175 0.9988173155514485 -0.012554911097999175 0.0011826844485515625 0.012554911097999173
1.2099679118665792E8 0.00119496539272098 0.012740135455416914 0.9988050346072791 -0.012740135455416912 0.9988050346072791 -0.012740135455416912 0.00119496539272098 0.012740135455416914
1.2282280261157903E8 0.001207509122651156 0.012928026877293046 0.9987924908773487 -0.012928026877293046 0.9987924908773487 -0.012928026877293046 0.001207509122651156 0.012928026877293046
1.2467637111211549E8 0.0012203195684310183 0.013118623207139019 0.9987796804315692 -0.013118623207139019 0.9987796804315692 -0.013118623207139019 0.0012203195684310183 0.013118623207139019
1.265579125632208E8 0.0012334006923681196 0.013311962891364366 0.9987665993076319 -0.013311962891364366 0.9987665993076319 -0.013311962891364366 0.0012334006923681196 0.013311962891364366
1.284678491159853E8 0.0012467564919964728 0.013508084992680301 0.9987532435080035 -0.013508084992680301 0.9987532435080035 -0.013508084992680301 0.0012467564919964728 0.013508084992680301
1.3040660929235186E8 0.0012603910034507519 0.013707029203738189 0.9987396089965492 -0.013707029203738192 0.9987396089965492 -0.013707029203738192 0.0012603910034507519 0.013707029203738189
1.3237462808126101E8 0.0012743083052221833 0.013908835860989984 0.9987256916947777 -0.013908835860989984 0.9987256916947777 -0.013908835860989984 0.0012743083052221833 0.013908835860989984
1.3437234703624701E8 0.0012885125223106987 0.0141135459587563 0.9987114874776895 -0.014113545958756298 0.9987114874776895 -0.014113545958756298 0.0012885125223106987 0.0141135459587563
1.364002143745067E8 0.0013030078307871803 0.014321201163487085 0.9986969921692128 -0.014321201163487085 0.9986969921692128 -0.014321201163487085 0.0013030078307871803 0.014321201163487085
1.3845868507746372E8 0.001317798462778621 0.014531843828198275 0.9986822015372214 -0.014531843828198276 0.9986822015372214 -0.014531843828198276 0.001317798462778621 0.014531843828198275
1.405482209928499E8 0.0013328887118880615 0.014745517007067116 0.9986671112881121 -0.014745517007067119 0.9986671112881121 -0.014745517007067119 0.0013328887118880615 0.014745517007067116
1.426692909383278E8 0.0013482829390600221 0.014962264470168 0.9986517170609399 -0.014962264470168 0.9986517170609399 -0.014962264470168 0.0013482829390600221 0.014962264470168
1.4482237080667645E8 0.001363985578900893 0.015182130718329322 0.9986360144210992 -0.015182130718329322 0.9986360144210992 -0.015182130718329322 0.001363985578900893 0.015182130718329322
1.4700794367256513E8 0.0013800011464624694 0.01540516099809175 0.9986199988535376 -0.01540516099809175 0.9986199988535376 -0.01540516099809175 0.0013800011464624694 0.01540516099809175
1.492264999009378E8 0.001396334244495393 0.01563140131674705 0.9986036657555046 -0.01563140131674705 0.9986036657555046 -0.01563140131674705 0.001396334244495393 0.01563140131674705
1.5147853725703382E8 0.0014129895711777782 0.015860898457436413 0.9985870104288221 -0.015860898457436413 0.9985870104288221 -0.015860898457436413 0.0014129895711777782 0.015860898457436413
1.5376456101806876E8 0.001429971928322775 0.01609369999428675 0.9985700280716773 -0.016093699994286746 0.9985700280716773 -0.016093699994286746 0.001429971928322775 0.01609369999428675
1.5608508408660066E8 0.0014472862300672024 0.016329854307562997 0.9985527137699328 -0.016329854307562994 0.9985527137699328 -0.016329854307562994 0.0014472862300672024 0.016329854307562997
1.5844062710560706E8 0.0014649375120417301 0.016569410598814432 0.9985350624879583 -0.016569410598814432 0.9985350624879583 -0.016569410598814432 0.0014649375120417301 0.016569410598814432
1.6083171857529896E8 0.0014829309410214278 0.016812418905993012 0.9985170690589785 -0.016812418905993012 0.9985170690589785 -0.016812418905993012 0.0014829309410214278 0.016812418905993012
1.632588949716973E8 0.001501271825053771 0.017058930118521734 0.9984987281749464 -0.017058930118521737 0.9984987281749464 -0.017058930118521737 0.001501271825053771 0.017058930118521734
1.6572270086699936E8 0.0015199656240595025 0.017308995992291572 0.9984800343759405 -0.017308995992291572 0.9984800343759405 -0.017308995992291572 0.0015199656240595025 0.017308995992291572
1.6822368905176118E8 0.0015390179609000233 0.0175626691645656 0.9984609820390999 -0.0175626691645656 0.9984609820390999 -0.0175626691645656 0.0015390179609000233 0.0175626691645656
1.7076242065892437E8 0.0015584346329033446 0.01782000316877007 0.9984415653670967 -0.017820003168770065 0.9984415653670967 -0.017820003168770065 0.0015584346329033446 0.01782000316877007
1.7333946528971428E8 0.001578221623838943 0.018081052449152347 0.998421778376161 -0.018081052449152347 0.998421778376161 -0.018081052449152347 0.001578221623838943 0.018081052449152347
1.7595540114143828E8 0.0015983851163303088 0.01834587237528714 0.9984016148836699 -0.01834587237528714 0.9984016148836699 -0.01834587237528714 0.0015983851163303088 0.01834587237528714
1.786108151372127E8 0.0016189315046924455 0.018614519256413036 0.9983810684953075 -0.018614519256413036 0.9983810684953075 -0.018614519256413036 0.0016189315046924455 0.018614519256413036
1.8130630305764765E8 0.001639867408180129 0.018887050355582927 0.9983601325918199 -0.01888705035558293 0.9983601325918199 -0.01888705035558293 0.001639867408180129 0.018887050355582927
1.840424696745189E8 0.0016611996846314131 0.01916352390361312 0.9983388003153685 -0.019163523903613117 0.9983388003153685 -0.019163523903613117 0.0016611996846314131 0.01916352390361312
1.8681992888645732E8 0.0016829354444896313 0.019443999112817422 0.9983170645555104 -0.019443999112817422 0.9983170645555104 -0.019443999112817422 0.0016829354444896313 0.019443999112817422
1.8963930385668582E8 0.0017050820651860333 0.01972853619051419 0.9982949179348141 -0.01972853619051419 0.9982949179348141 -0.01972853619051419 0.0017050820651860333 0.01972853619051419
1.92501227152835E8 0.0017276472058642591 0.020017196352296054 0.9982723527941356 -0.020017196352296054 0.9982723527941356 -0.020017196352296054 0.0017276472058642591 0.020017196352296054
1.9540634088886917E8 0.0017506388224269812 0.020310041835053843 0.9982493611775729 -0.020310041835053843 0.9982493611775729 -0.020310041835053843 0.0017506388224269812 0.020310041835053843
1.983552968691535E8 0.0017740651828844546 0.020607135909748043 0.9982259348171155 -0.020607135909748046 0.9982259348171155 -0.020607135909748046 0.0017740651828844546 0.020607135909748043
2.0134875673469606E8 0.0017979348829841575 0.02090854289392356 0.9982020651170158 -0.02090854289392356 0.9982020651170158 -0.02090854289392356 0.0017979348829841575 0.02090854289392356
2.0438739211159652E8 0.0018222568621004426 0.02121432816396498 0.9981777431378995 -0.02121432816396498 0.9981777431378995 -0.02121432816396498 0.0018222568621004426 0.02121432816396498
2.074718847617352E8 0.0018470404193629394 0.021524558167092252 0.9981529595806373 -0.021524558167092252 0.9981529595806373 -0.021524558167092252 0.0018470404193629394 0.021524558167092252
2.106029267357361E8 0.0018722952300025124 0.02183930043309831 0.9981277047699976 -0.021839300433098313 0.9981277047699976 -0.021839300433098313 0.0018722952300025124 0.02183930043309831
2.1378122052823865E8 0.0018980313618938253 0.02215862358583285 0.9981019686381063 -0.02215862358583285 0.9981019686381063 -0.02215862358583285 0.0018980313618938253 0.02215862358583285
2.1700747923551247E8 0.0019242592922739464 0.02248259735443801 0.998075740707726 -0.022482597354438014 0.998075740707726 -0.022482597354438014 0.0019242592922739464 0.02248259735443801
2.2028242671545094E8 0.001950989924617068 0.022811292584344382 0.9980490100753828 -0.022811292584344382 0.9980490100753828 -0.022811292584344382 0.001950989924617068 0.022811292584344382
2.23606797749979E8 0.0019782346056461883 0.023144781248037403 0.9980217653943538 -0.0231447812480374 0.9980217653943538 -0.0231447812480374 0.0019782346056461883 0.023144781248037403
2.2698133820991236E8 0.002006005142463578 0.02348313645560664 0.9979939948575365 -0.023483136455606644 0.9979939948575365 -0.023483136455606644 0.002006005142463578 0.02348313645560664
2.3040680522230446E8 0.0020343138197829653 0.023826432465091932 0.997965686180217 -0.023826432465091932 0.997965686180217 -0.023826432465091932 0.0020343138197829653 0.023826432465091932
2.338839673403185E8 0.002063173417247747 0.024174744692642643 0.9979368265827522 -0.024174744692642643 0.9979368265827522 -0.024174744692642643 0.002063173417247747 0.024174744692642643
2.37413604715664E8 0.002092597226820907 0.024528149722507896 0.9979074027731791 -0.024528149722507896 0.9979074027731791 -0.024528149722507896 0.002092597226820907 0.024528149722507896
