!Murata Part Number: LQP15MN1N3W02
!These Parameters are Measured in Series Mode Connection
!       o--[Z]--o
!Port1              Port2
!       o-------o
!
!Freq. Start=50[MHz] Stop=20[GHz], 401[Steps]
# Hz S RI R 50
!Freq.(Hz) S11(Real) S11(Imag) S21(Real) S21(Imag) S12(Real) S12(Imag) S22(Real) S22(Imag)
5.0E7 4.111237239401549E-4 0.0029658005269617236 0.9995888762760599 -0.0029658005269617236 0.9995888762760599 -0.0029658005269617236 4.111237239401549E-4 0.0029658005269617236
5.0754570186123446E7 4.12065598810291E-4 0.0030104401102849657 0.9995879344011895 -0.0030104401102849653 0.9995879344011895 -0.0030104401102849653 4.12065598810291E-4 0.0030104401102849657
5.152052789556263E7 4.1303485259412806E-4 0.0030557481544458936 0.9995869651474059 -0.0030557481544458936 0.9995869651474059 -0.0030557481544458936 4.1303485259412806E-4 0.0030557481544458936
5.229804498202928E7 4.14032243787851E-4 0.0031017345252876685 0.9995859677562121 -0.0031017345252876685 0.9995859677562121 -0.0031017345252876685 4.14032243787851E-4 0.0031017345252876685
5.308729589274893E7 4.150585497308369E-4 0.003148409228608664 0.999584941450269 -0.003148409228608664 0.999584941450269 -0.003148409228608664 4.150585497308369E-4 0.003148409228608664
5.388845770760058E7 4.1611456694903197E-4 0.003195782411955014 0.9995838854330511 -0.0031957824119550142 0.9995838854330511 -0.0031957824119550142 4.1611456694903197E-4 0.003195782411955014
5.470171017884717E7 4.1720111149726733E-4 0.0032438643664317573 0.9995827988885027 -0.0032438643664317573 0.9995827988885027 -0.0032438643664317573 4.1720111149726733E-4 0.0032438643664317573
5.5527235771465644E7 4.1831901929999016E-4 0.0032926655285328804 0.9995816809807001 -0.0032926655285328804 0.9995816809807001 -0.0032926655285328804 4.1831901929999016E-4 0.0032926655285328804
5.6365219704085544E7 4.194691464898592E-4 0.003342196481990545 0.9995805308535101 -0.0033421964819905442 0.9995805308535101 -0.0033421964819905442 4.194691464898592E-4 0.003342196481990545
5.721584999054556E7 4.206523697436315E-4 0.0033924679596439027 0.9995793476302565 -0.0033924679596439027 0.9995793476302565 -0.0033924679596439027 4.206523697436315E-4 0.0033924679596439027
5.807931748207712E7 4.2186958661472393E-4 0.003443490845327813 0.9995781304133853 -0.003443490845327813 0.9995781304133853 -0.003443490845327813 4.2186958661472393E-4 0.003443490845327813
5.8955815910124585E7 4.2312171586182255E-4 0.003495276175781938 0.9995768782841382 -0.003495276175781938 0.9995768782841382 -0.003495276175781938 4.2312171586182255E-4 0.003495276175781938
5.984554192981184E7 4.2440969777286395E-4 0.003547835142580636 0.9995755903022273 -0.0035478351425806366 0.9995755903022273 -0.0035478351425806366 4.2440969777286395E-4 0.003547835142580636
6.074869516406457E7 4.2573449448369893E-4 0.003601179094084172 0.9995742655055164 -0.003601179094084171 0.9995742655055164 -0.003601179094084171 4.2573449448369893E-4 0.003601179094084172
6.166547824839868E7 4.270970902907091E-4 0.003655319537411758 0.9995729029097092 -0.003655319537411759 0.9995729029097092 -0.003655319537411759 4.270970902907091E-4 0.003655319537411758
6.2596096876384385E7 4.284984919566247E-4 0.003710268140437056 0.9995715015080435 -0.003710268140437056 0.9995715015080435 -0.003710268140437056 4.284984919566247E-4 0.003710268140437056
6.354075984579668E7 4.29939729008757E-4 0.003766036733806736 0.9995700602709914 -0.003766036733806736 0.9995700602709914 -0.003766036733806736 4.29939729008757E-4 0.003766036733806736
6.449967910546205E7 4.314218540288412E-4 0.00382263731298283 0.9995685781459712 -0.003822637312982829 0.9995685781459712 -0.003822637312982829 4.314218540288412E-4 0.00382263731298283
6.547306980281226E7 4.3294594293364437E-4 0.003880082040309595 0.9995670540570665 -0.003880082040309595 0.9995670540570665 -0.003880082040309595 4.3294594293364437E-4 0.003880082040309595
6.646115033215589E7 4.3451309524548574E-4 0.003938383247105753 0.9995654869047546 -0.0039383832471057536 0.9995654869047546 -0.0039383832471057536 4.3451309524548574E-4 0.003938383247105753
6.746414238367817E7 4.3612443435177224E-4 0.003997553435782936 0.9995638755656481 -0.003997553435782937 0.9995638755656481 -0.003997553435782937 4.3612443435177224E-4 0.003997553435782936
6.848227099318038E7 4.37781107752652E-4 0.004057605281991347 0.9995622188922473 -0.004057605281991346 0.9995622188922473 -0.004057605281991346 4.37781107752652E-4 0.004057605281991347
6.951576459256999E7 4.3948428729584545E-4 0.004118551636793624 0.9995605157127041 -0.004118551636793625 0.9995605157127041 -0.004118551636793625 4.3948428729584545E-4 0.004118551636793624
7.056485506111258E7 4.412351693977178E-4 0.00418040552886806 0.9995587648306024 -0.00418040552886806 0.9995587648306024 -0.00418040552886806 4.412351693977178E-4 0.00418040552886806
7.162977777745734E7 4.430349752496229E-4 0.0042431801667423335 0.9995569650247504 -0.0042431801667423335 0.9995569650247504 -0.0042431801667423335 4.430349752496229E-4 0.0042431801667423335
7.271077167244768E7 4.4488495100855147E-4 0.004306888941059075 0.9995551150489915 -0.004306888941059075 0.9995551150489915 -0.004306888941059075 4.4488495100855147E-4 0.004306888941059075
7.380807928272885E7 4.467863679710941E-4 0.004371545426874613 0.9995532136320289 -0.004371545426874613 0.9995532136320289 -0.004371545426874613 4.467863679710941E-4 0.004371545426874613
7.492194680516452E7 4.4874052272974126E-4 0.0044371633859924126 0.9995512594772701 -0.0044371633859924126 0.9995512594772701 -0.0044371633859924126 4.4874052272974126E-4 0.0044371633859924126
7.60526241520746E7 4.5074873731052443E-4 0.004503756769332748 0.9995492512626896 -0.004503756769332748 0.9995492512626896 -0.004503756769332748 4.5074873731052443E-4 0.004503756769332748
7.720036500730675E7 4.5281235929101906E-4 0.004571339719340328 0.9995471876407089 -0.004571339719340328 0.9995471876407089 -0.004571339719340328 4.5281235929101906E-4 0.004571339719340328
7.836542688315398E7 4.549327618977408E-4 0.00463992657243167 0.9995450672381021 -0.00463992657243167 0.9995450672381021 -0.00463992657243167 4.549327618977408E-4 0.00463992657243167
7.954807117813127E7 4.5711134408196855E-4 0.004709531861484115 0.9995428886559181 -0.004709531861484114 0.9995428886559181 -0.004709531861484114 4.5711134408196855E-4 0.004709531861484115
8.074856323562416E7 4.5934953057306715E-4 0.004780170318368556 0.9995406504694268 -0.004780170318368556 0.9995406504694268 -0.004780170318368556 4.5934953057306715E-4 0.004780170318368556
8.196717240342227E7 4.616487719083999E-4 0.004851856876528017 0.9995383512280914 -0.004851856876528016 0.9995383512280914 -0.004851856876528016 4.616487719083999E-4 0.004851856876528017
8.320417209415154E7 4.6401054443895773E-4 0.004924606673604391 0.9995359894555609 -0.004924606673604391 0.9995359894555609 -0.004924606673604391 4.6401054443895773E-4 0.004924606673604391
8.445983984661816E7 4.6643635030988654E-4 0.004998435054115757 0.9995335636496901 -0.004998435054115758 0.9995335636496901 -0.004998435054115758 4.6643635030988654E-4 0.004998435054115757
8.573445738807854E7 4.6892771741512807E-4 0.005073357572186828 0.999531072282585 -0.005073357572186828 0.999531072282585 -0.005073357572186828 4.6892771741512807E-4 0.005073357572186828
8.702831069744885E7 4.714861993254747E-4 0.005149389994335263 0.9995285138006746 -0.0051493899943352624 0.9995285138006746 -0.0051493899943352624 4.714861993254747E-4 0.005149389994335263
8.834169006946853E7 4.741133751893901E-4 0.005226548302316652 0.9995258866248107 -0.005226548302316652 0.9995258866248107 -0.005226548302316652 4.741133751893901E-4 0.005226548302316652
8.96748901798321E7 4.768108496060434E-4 0.005304848696031181 0.999523189150394 -0.005304848696031181 0.999523189150394 -0.005304848696031181 4.768108496060434E-4 0.005304848696031181
9.1028210151304E7 4.7958025247009E-4 0.0053843075964951324 0.9995204197475299 -0.0053843075964951324 0.9995204197475299 -0.0053843075964951324 4.7958025247009E-4 0.0053843075964951324
9.240195362083109E7 4.824232387878408E-4 0.005464941648880451 0.9995175767612122 -0.005464941648880451 0.9995175767612122 -0.005464941648880451 4.824232387878408E-4 0.005464941648880451
9.379642880766791E7 4.853414884645814E-4 0.0055467677256258886 0.9995146585115354 -0.0055467677256258886 0.9995146585115354 -0.0055467677256258886 4.853414884645814E-4 0.0055467677256258886
9.521194858253023E7 4.88336706062922E-4 0.005629802929623201 0.999511663293937 -0.005629802929623201 0.999511663293937 -0.005629802929623201 4.88336706062922E-4 0.005629802929623201
9.664883053779216E7 4.91410620532216E-4 0.005714064597482241 0.9995085893794676 -0.005714064597482241 0.9995085893794676 -0.005714064597482241 4.91410620532216E-4 0.005714064597482241
9.810739705874248E7 4.945649849092341E-4 0.005799570302878723 0.9995054350150907 -0.005799570302878724 0.9995054350150907 -0.005799570302878724 4.945649849092341E-4 0.005799570302878723
9.958797539591652E7 4.978015759904488E-4 0.0058863378599887176 0.9995021984240096 -0.0058863378599887176 0.9995021984240096 -0.0058863378599887176 4.978015759904488E-4 0.0058863378599887176
1.0109089773851961E8 5.011221939764808E-4 0.005974385327014017 0.9994988778060236 -0.005974385327014017 0.9994988778060236 -0.005974385327014017 5.011221939764808E-4 0.005974385327014017
1.0261650128895843E8 5.045286620894504E-4 0.006063731009802646 0.9994954713379105 -0.006063731009802646 0.9994954713379105 -0.006063731009802646 5.045286620894504E-4 0.006063731009802646
1.0416512833849736E8 5.080228261641975E-4 0.006154393465568938 0.9994919771738358 -0.006154393465568939 0.9994919771738358 -0.006154393465568939 5.080228261641975E-4 0.006154393465568938
1.0573712634405641E8 5.11606554214562E-4 0.006246391506717676 0.9994883934457854 -0.006246391506717676 0.9994883934457854 -0.006246391506717676 5.11606554214562E-4 0.006246391506717676
1.0733284800616828E8 5.152817359761717E-4 0.006339744204776968 0.999484718264024 -0.006339744204776968 0.999484718264024 -0.006339744204776968 5.152817359761717E-4 0.006339744204776968
1.0895265134811176E8 5.190502824274339E-4 0.006434470894444514 0.9994809497175726 -0.006434470894444514 0.9994809497175726 -0.006434470894444514 5.190502824274339E-4 0.006434470894444514
1.1059689979623953E8 5.229141252907223E-4 0.006530591177752201 0.9994770858747094 -0.006530591177752201 0.9994770858747094 -0.006530591177752201 5.229141252907223E-4 0.006530591177752201
1.1226596226151802E8 5.268752165160275E-4 0.006628124928353754 0.9994731247834839 -0.006628124928353754 0.9994731247834839 -0.006628124928353754 5.268752165160275E-4 0.006628124928353754
1.1396021322229806E8 5.309355277496596E-4 0.006727092295940543 0.9994690644722503 -0.006727092295940543 0.9994690644722503 -0.006727092295940543 5.309355277496596E-4 0.006727092295940543
1.1568003280833441E8 5.350970497909087E-4 0.006827513710790394 0.9994649029502091 -0.006827513710790394 0.9994649029502091 -0.006827513710790394 5.350970497909087E-4 0.006827513710790394
1.1742580688607343E8 5.393617920399084E-4 0.0069294098884545 0.9994606382079602 -0.0069294098884545 0.9994606382079602 -0.0069294098884545 5.393617920399084E-4 0.0069294098884545
1.1919792714522783E8 5.437317819402904E-4 0.007032801834587382 0.9994562682180597 -0.007032801834587382 0.9994562682180597 -0.007032801834587382 5.437317819402904E-4 0.007032801834587382
1.2099679118665792E8 5.48209064420585E-4 0.007137710849924867 0.9994517909355796 -0.007137710849924869 0.9994517909355796 -0.007137710849924869 5.48209064420585E-4 0.007137710849924867
1.2282280261157903E8 5.527957013386924E-4 0.007244158535415065 0.9994472042986613 -0.007244158535415066 0.9994472042986613 -0.007244158535415066 5.527957013386924E-4 0.007244158535415065
1.2467637111211549E8 5.574937709341281E-4 0.007352166797507163 0.9994425062290659 -0.007352166797507163 0.9994425062290659 -0.007352166797507163 5.574937709341281E-4 0.007352166797507163
1.265579125632208E8 5.623053672931332E-4 0.007461757853602782 0.9994376946327069 -0.007461757853602782 0.9994376946327069 -0.007461757853602782 5.623053672931332E-4 0.007461757853602782
1.284678491159853E8 5.672325998321334E-4 0.00757295423767456 0.9994327674001678 -0.00757295423767456 0.9994327674001678 -0.00757295423767456 5.672325998321334E-4 0.00757295423767456
1.3040660929235186E8 5.722775928054346E-4 0.007685778806056432 0.9994277224071944 -0.007685778806056434 0.9994277224071944 -0.007685778806056434 5.722775928054346E-4 0.007685778806056432
1.3237462808126101E8 5.774424848434269E-4 0.007800254743409838 0.9994225575151565 -0.007800254743409838 0.9994225575151565 -0.007800254743409838 5.774424848434269E-4 0.007800254743409838
1.3437234703624701E8 5.827294285279805E-4 0.00791640556886996 0.999417270571472 -0.00791640556886996 0.999417270571472 -0.00791640556886996 5.827294285279805E-4 0.00791640556886996
1.364002143745067E8 5.881405900120978E-4 0.008034255142375735 0.9994118594099878 -0.008034255142375735 0.9994118594099878 -0.008034255142375735 5.881405900120978E-4 0.008034255142375735
1.3845868507746372E8 5.936781486912885E-4 0.008153827671187264 0.9994063218513085 -0.008153827671187263 0.9994063218513085 -0.008153827671187263 5.936781486912885E-4 0.008153827671187264
1.405482209928499E8 5.993442969344879E-4 0.008275147716593597 0.9994006557030657 -0.008275147716593597 0.9994006557030657 -0.008275147716593597 5.993442969344879E-4 0.008275147716593597
1.426692909383278E8 6.051412398827324E-4 0.008398240200813896 0.9993948587601172 -0.008398240200813896 0.9993948587601172 -0.008398240200813896 6.051412398827324E-4 0.008398240200813896
1.4482237080667645E8 6.110711953241204E-4 0.008523130414094252 0.9993889288046759 -0.008523130414094252 0.9993889288046759 -0.008523130414094252 6.110711953241204E-4 0.008523130414094252
1.4700794367256513E8 6.171363936539543E-4 0.008649844022002246 0.999382863606346 -0.008649844022002246 0.999382863606346 -0.008649844022002246 6.171363936539543E-4 0.008649844022002246
1.492264999009378E8 6.233390779292185E-4 0.008778407072920599 0.9993766609220707 -0.008778407072920599 0.9993766609220707 -0.008778407072920599 6.233390779292185E-4 0.008778407072920599
1.5147853725703382E8 6.296815040268693E-4 0.00890884600574109 0.9993703184959731 -0.00890884600574109 0.9993703184959731 -0.00890884600574109 6.296815040268693E-4 0.00890884600574109
1.5376456101806876E8 6.361659409156301E-4 0.009041187657759051 0.9993638340590844 -0.009041187657759051 0.9993638340590844 -0.009041187657759051 6.361659409156301E-4 0.009041187657759051
1.5608508408660066E8 6.427946710512086E-4 0.009175459272768402 0.9993572053289489 -0.009175459272768404 0.9993572053289489 -0.009175459272768404 6.427946710512086E-4 0.009175459272768402
1.5844062710560706E8 6.495699909050286E-4 0.009311688509356479 0.9993504300090948 -0.009311688509356479 0.9993504300090948 -0.009311688509356479 6.495699909050286E-4 0.009311688509356479
1.6083171857529896E8 6.564942116366924E-4 0.009449903449397333 0.9993435057883633 -0.009449903449397333 0.9993435057883633 -0.009449903449397333 6.564942116366924E-4 0.009449903449397333
1.632588949716973E8 6.635696599204853E-4 0.009590132606741457 0.9993364303400795 -0.009590132606741459 0.9993364303400795 -0.009590132606741459 6.635696599204853E-4 0.009590132606741457
1.6572270086699936E8 6.707986789362696E-4 0.009732404936099382 0.9993292013210637 -0.009732404936099382 0.9993292013210637 -0.009732404936099382 6.707986789362696E-4 0.009732404936099382
1.6822368905176118E8 6.781836295350856E-4 0.009876749842115583 0.9993218163704649 -0.009876749842115583 0.9993218163704649 -0.009876749842115583 6.781836295350856E-4 0.009876749842115583
1.7076242065892437E8 6.857268915897364E-4 0.010023197188628874 0.9993142731084103 -0.010023197188628874 0.9993142731084103 -0.010023197188628874 6.857268915897364E-4 0.010023197188628874
1.7333946528971428E8 6.934308655404763E-4 0.010171777308114317 0.9993065691344594 -0.010171777308114317 0.9993065691344594 -0.010171777308114317 6.934308655404763E-4 0.010171777308114317
1.7595540114143828E8 7.01297974145753E-4 0.01032252101130125 0.9992987020258541 -0.010322521011301248 0.9992987020258541 -0.010322521011301248 7.01297974145753E-4 0.01032252101130125
1.786108151372127E8 7.093306644476917E-4 0.010475459596961185 0.9992906693355523 -0.010475459596961183 0.9992906693355523 -0.010475459596961183 7.093306644476917E-4 0.010475459596961185
1.8130630305764765E8 7.175314099617135E-4 0.010630624861858695 0.9992824685900382 -0.010630624861858695 0.9992824685900382 -0.010630624861858695 7.175314099617135E-4 0.010630624861858695
1.840424696745189E8 7.259027130992831E-4 0.010788049110857666 0.9992740972869005 -0.010788049110857666 0.9992740972869005 -0.010788049110857666 7.259027130992831E-4 0.010788049110857666
1.8681992888645732E8 7.344471078323485E-4 0.010947765167174559 0.9992655528921678 -0.01094776516717456 0.9992655528921678 -0.01094776516717456 7.344471078323485E-4 0.010947765167174559
1.8963930385668582E8 7.431671626075402E-4 0.011109806382769885 0.9992568328373922 -0.011109806382769885 0.9992568328373922 -0.011109806382769885 7.431671626075402E-4 0.011109806382769885
1.92501227152835E8 7.520654835176031E-4 0.011274206648868202 0.9992479345164823 -0.011274206648868202 0.9992479345164823 -0.011274206648868202 7.520654835176031E-4 0.011274206648868202
1.9540634088886917E8 7.611447177369286E-4 0.011441000406596579 0.9992388552822629 -0.011441000406596579 0.9992388552822629 -0.011441000406596579 7.611447177369286E-4 0.011441000406596579
1.983552968691535E8 7.70407557227348E-4 0.011610222657730814 0.9992295924427727 -0.011610222657730814 0.9992295924427727 -0.011610222657730814 7.70407557227348E-4 0.011610222657730814
2.0134875673469606E8 7.798567427196065E-4 0.011781908975538283 0.9992201432572804 -0.011781908975538281 0.9992201432572804 -0.011781908975538281 7.798567427196065E-4 0.011781908975538283
2.0438739211159652E8 7.894950679751424E-4 0.01195609551570585 0.9992105049320248 -0.01195609551570585 0.9992105049320248 -0.01195609551570585 7.894950679751424E-4 0.01195609551570585
2.074718847617352E8 7.993253843319297E-4 0.012132819027340822 0.9992006746156682 -0.012132819027340822 0.9992006746156682 -0.012132819027340822 7.993253843319297E-4 0.012132819027340822
2.106029267357361E8 8.093506055372771E-4 0.012312116864032824 0.9991906493944628 -0.012312116864032824 0.9991906493944628 -0.012312116864032824 8.093506055372771E-4 0.012312116864032824
2.1378122052823865E8 8.195737128695195E-4 0.012494026994964057 0.9991804262871306 -0.012494026994964057 0.9991804262871306 -0.012494026994964057 8.195737128695195E-4 0.012494026994964057
2.1700747923551247E8 8.299977605495923E-4 0.012678588016055387 0.9991700022394503 -0.012678588016055387 0.9991700022394503 -0.012678588016055387 8.299977605495923E-4 0.012678588016055387
2.2028242671545094E8 8.406258814424918E-4 0.012865839161135612 0.9991593741185575 -0.012865839161135609 0.9991593741185575 -0.012865839161135609 8.406258814424918E-4 0.012865839161135612
2.23606797749979E8 8.514612930476062E-4 0.01305582031312127 0.9991485387069523 -0.01305582031312127 0.9991485387069523 -0.01305582031312127 8.514612930476062E-4 0.01305582031312127
2.2698133820991236E8 8.625073037759139E-4 0.013248572015194577 0.9991374926962241 -0.013248572015194573 0.9991374926962241 -0.013248572015194573 8.625073037759139E-4 0.013248572015194577
2.3040680522230446E8 8.73767319511E-4 0.013444135481967042 0.9991262326804888 -0.013444135481967044 0.9991262326804888 -0.013444135481967044 8.73767319511E-4 0.013444135481967042
2.338839673403185E8 8.852448504498691E-4 0.013642552610617049 0.9991147551495503 -0.013642552610617049 0.9991147551495503 -0.013642552610617049 8.852448504498691E-4 0.013642552610617049
2.37413604715664E8 8.969435182185043E-4 0.013843865991989538 0.9991030564817814 -0.013843865991989538 0.9991030564817814 -0.013843865991989538 8.969435182185043E-4 0.013843865991989538
