!Murata Part Number: LQP15MN4N7B02
!These Parameters are Measured in Series Mode Connection
!       o--[Z]--o
!Port1              Port2
!       o-------o
!
!Freq. Start=50[MHz] Stop=20[GHz], 401[Steps]
# Hz S RI R 50
!Freq.(Hz) S11(Real) S11(Imag) S21(Real) S21(Imag) S12(Real) S12(Imag) S22(Real) S22(Imag)
5.0E7 0.003893758885510487 0.014078335500586051 0.9961062411144894 -0.014078335500586051 0.9961062411144894 -0.014078335500586051 0.003893758885510487 0.014078335500586051
5.0754570186123446E7 0.003907169661934335 0.014286171054746449 0.9960928303380656 -0.014286171054746452 0.9960928303380656 -0.014286171054746452 0.003907169661934335 0.014286171054746449
5.152052789556263E7 0.003920861364198 0.014497017107689894 0.996079138635802 -0.014497017107689893 0.996079138635802 -0.014497017107689893 0.003920861364198 0.014497017107689894
5.229804498202928E7 0.003934838458179775 0.014710917421475234 0.9960651615418201 -0.014710917421475237 0.9960651615418201 -0.014710917421475237 0.003934838458179775 0.014710917421475234
5.308729589274893E7 0.003949105492893912 0.014927916482472565 0.9960508945071059 -0.014927916482472561 0.9960508945071059 -0.014927916482472561 0.003949105492893912 0.014927916482472565
5.388845770760058E7 0.0039636671070448675 0.015148059516122166 0.9960363328929552 -0.015148059516122168 0.9960363328929552 -0.015148059516122168 0.0039636671070448675 0.015148059516122166
5.470171017884717E7 0.003978528036041091 0.015371392501812152 0.9960214719639587 -0.015371392501812152 0.9960214719639587 -0.015371392501812152 0.003978528036041091 0.015371392501812152
5.5527235771465644E7 0.003993693119477028 0.015597962187856262 0.9960063068805229 -0.01559796218785626 0.9960063068805229 -0.01559796218785626 0.003993693119477028 0.015597962187856262
5.6365219704085544E7 0.0040091673090907306 0.015827816106552397 0.9959908326909093 -0.015827816106552397 0.9959908326909093 -0.015827816106552397 0.0040091673090907306 0.015827816106552397
5.721584999054556E7 0.0040249556772032355 0.016061002589302358 0.9959750443227967 -0.01606100258930236 0.9959750443227967 -0.01606100258930236 0.0040249556772032355 0.016061002589302358
5.807931748207712E7 0.004041063425644448 0.016297570781772335 0.9959589365743556 -0.016297570781772335 0.9959589365743556 -0.016297570781772335 0.004041063425644448 0.016297570781772335
5.8955815910124585E7 0.004057495895168932 0.01653757065907391 0.9959425041048311 -0.01653757065907391 0.9959425041048311 -0.01653757065907391 0.004057495895168932 0.01653757065907391
5.984554192981184E7 0.004074258575363585 0.016781053040944904 0.9959257414246364 -0.016781053040944904 0.9959257414246364 -0.016781053040944904 0.004074258575363585 0.016781053040944904
6.074869516406457E7 0.004091357115047642 0.017028069606909287 0.9959086428849525 -0.017028069606909287 0.9959086428849525 -0.017028069606909287 0.004091357115047642 0.017028069606909287
6.166547824839868E7 0.004108797333164102 0.017278672911395725 0.995891202666836 -0.017278672911395725 0.995891202666836 -0.017278672911395725 0.004108797333164102 0.017278672911395725
6.2596096876384385E7 0.004126585230160131 0.017532916398794368 0.99587341476984 -0.017532916398794368 0.99587341476984 -0.017532916398794368 0.004126585230160131 0.017532916398794368
6.354075984579668E7 0.004144726999852539 0.017790854418431864 0.9958552730001475 -0.017790854418431864 0.9958552730001475 -0.017790854418431864 0.004144726999852539 0.017790854418431864
6.449967910546205E7 0.00416322904177306 0.01805254223944512 0.995836770958227 -0.01805254223944512 0.995836770958227 -0.01805254223944512 0.00416322904177306 0.01805254223944512
6.547306980281226E7 0.004182097973986728 0.018318036065534983 0.9958179020260133 -0.018318036065534983 0.9958179020260133 -0.018318036065534983 0.004182097973986728 0.018318036065534983
6.646115033215589E7 0.00420134064637531 0.018587393049581617 0.9957986593536244 -0.018587393049581614 0.9957986593536244 -0.018587393049581614 0.00420134064637531 0.018587393049581617
6.746414238367817E7 0.004220964154376522 0.01886067130810451 0.9957790358456234 -0.01886067130810451 0.9957790358456234 -0.01886067130810451 0.004220964154376522 0.01886067130810451
6.848227099318038E7 0.004240975853168528 0.019137929935550687 0.9957590241468314 -0.019137929935550684 0.9957590241468314 -0.019137929935550684 0.004240975853168528 0.019137929935550687
6.951576459256999E7 0.004261383372288148 0.019419229018396225 0.9957386166277118 -0.019419229018396225 0.9957386166277118 -0.019419229018396225 0.004261383372288148 0.019419229018396225
7.056485506111258E7 0.0042821946306701815 0.01970462964904701 0.9957178053693297 -0.01970462964904701 0.9957178053693297 -0.01970462964904701 0.0042821946306701815 0.01970462964904701
7.162977777745734E7 0.00430341785209437 0.019994193939526235 0.9956965821479056 -0.019994193939526235 0.9956965821479056 -0.019994193939526235 0.00430341785209437 0.019994193939526235
7.271077167244768E7 0.004325061581025829 0.020287985034937624 0.9956749384189743 -0.020287985034937624 0.9956749384189743 -0.020287985034937624 0.004325061581025829 0.020287985034937624
7.380807928272885E7 0.004347134698833972 0.02058606712669438 0.995652865301166 -0.02058606712669438 0.995652865301166 -0.02058606712669438 0.004347134698833972 0.02058606712669438
7.492194680516452E7 0.004369646440374708 0.02088850546550608 0.9956303535596255 -0.02088850546550608 0.9956303535596255 -0.02088850546550608 0.004369646440374708 0.02088850546550608
7.60526241520746E7 0.004392606410920113 0.021195366374116717 0.9956073935890798 -0.021195366374116717 0.9956073935890798 -0.021195366374116717 0.004392606410920113 0.021195366374116717
7.720036500730675E7 0.004416024603419733 0.02150671725978915 0.9955839753965802 -0.02150671725978915 0.9955839753965802 -0.02150671725978915 0.004416024603419733 0.02150671725978915
7.836542688315398E7 0.0044399114160775625 0.021822626626532615 0.9955600885839224 -0.02182262662653261 0.9955600885839224 -0.02182262662653261 0.0044399114160775625 0.021822626626532615
7.954807117813127E7 0.00446427767022887 0.02214316408707164 0.9955357223297713 -0.02214316408707164 0.9955357223297713 -0.02214316408707164 0.00446427767022887 0.02214316408707164
8.074856323562416E7 0.0044891346285013175 0.022468400374556576 0.9955108653714988 -0.022468400374556576 0.9955108653714988 -0.022468400374556576 0.0044891346285013175 0.022468400374556576
8.196717240342227E7 0.004514494013245245 0.022798407354017176 0.9954855059867548 -0.022798407354017176 0.9954855059867548 -0.022798407354017176 0.004514494013245245 0.022798407354017176
8.320417209415154E7 0.004540368025218528 0.023133258033562653 0.9954596319747815 -0.023133258033562653 0.9954596319747815 -0.023133258033562653 0.004540368025218528 0.023133258033562653
8.445983984661816E7 0.004566769362512193 0.02347302657533289 0.9954332306374878 -0.023473026575332887 0.9954332306374878 -0.023473026575332887 0.004566769362512193 0.02347302657533289
8.573445738807854E7 0.0045937112397038005 0.023817788306207045 0.9954062887602964 -0.023817788306207045 0.9954062887602964 -0.023817788306207045 0.0045937112397038005 0.023817788306207045
8.702831069744885E7 0.004621207407226587 0.024167619728277204 0.9953787925927734 -0.024167619728277204 0.9953787925927734 -0.024167619728277204 0.004621207407226587 0.024167619728277204
8.834169006946853E7 0.004649272170943539 0.024522598529095982 0.9953507278290563 -0.02452259852909598 0.9953507278290563 -0.02452259852909598 0.004649272170943539 0.024522598529095982
8.96748901798321E7 0.004677920411916717 0.0248828035917081 0.9953220795880833 -0.0248828035917081 0.9953220795880833 -0.0248828035917081 0.004677920411916717 0.0248828035917081
9.1028210151304E7 0.004707167606363619 0.025248315004477336 0.9952928323936364 -0.025248315004477336 0.9952928323936364 -0.025248315004477336 0.004707167606363619 0.025248315004477336
9.240195362083109E7 0.0047370298457936446 0.025619214070720722 0.9952629701542065 -0.025619214070720722 0.9952629701542065 -0.025619214070720722 0.0047370298457936446 0.025619214070720722
9.379642880766791E7 0.00476752385731943 0.02599558331816319 0.9952324761426805 -0.02599558331816319 0.9952324761426805 -0.02599558331816319 0.00476752385731943 0.02599558331816319
9.521194858253023E7 0.0047986670241392144 0.026377506508226137 0.9952013329758608 -0.026377506508226137 0.9952013329758608 -0.026377506508226137 0.0047986670241392144 0.026377506508226137
9.664883053779216E7 0.004830477406188252 0.026765068645164473 0.9951695225938119 -0.026765068645164473 0.9951695225938119 -0.026765068645164473 0.004830477406188252 0.026765068645164473
9.810739705874248E7 0.004862973760958746 0.027158355985066225 0.9951370262390413 -0.02715835598506623 0.9951370262390413 -0.02715835598506623 0.004862973760958746 0.027158355985066225
9.958797539591652E7 0.004896175564489737 0.02755745604473034 0.9951038244355103 -0.02755745604473034 0.9951038244355103 -0.02755745604473034 0.004896175564489737 0.02755745604473034
1.0109089773851961E8 0.0049301030325298945 0.027962457610437082 0.99506989696747 -0.027962457610437082 0.99506989696747 -0.027962457610437082 0.0049301030325298945 0.027962457610437082
1.0261650128895843E8 0.004964777141878035 0.028373450746626505 0.9950352228581218 -0.028373450746626505 0.9950352228581218 -0.028373450746626505 0.004964777141878035 0.028373450746626505
1.0416512833849736E8 0.005000219651907871 0.028790526804499644 0.9949997803480921 -0.028790526804499644 0.9949997803480921 -0.028790526804499644 0.005000219651907871 0.028790526804499644
1.0573712634405641E8 0.005036453126285179 0.02921377843055702 0.9949635468737147 -0.02921377843055702 0.9949635468737147 -0.02921377843055702 0.005036453126285179 0.02921377843055702
1.0733284800616828E8 0.00507350095488727 0.029643299575088804 0.9949264990451127 -0.029643299575088804 0.9949264990451127 -0.029643299575088804 0.00507350095488727 0.029643299575088804
1.0895265134811176E8 0.005111387375936232 0.03007918550062991 0.9948886126240638 -0.03007918550062991 0.9948886126240638 -0.03007918550062991 0.005111387375936232 0.03007918550062991
1.1059689979623953E8 0.005150137498359053 0.03052153279039338 0.9948498625016408 -0.03052153279039338 0.9948498625016408 -0.03052153279039338 0.005150137498359053 0.03052153279039338
1.1226596226151802E8 0.005189777324389105 0.030970439356693774 0.9948102226756109 -0.030970439356693774 0.9948102226756109 -0.030970439356693774 0.005189777324389105 0.030970439356693774
1.1396021322229806E8 0.005230333772425022 0.031426004449372075 0.9947696662275749 -0.031426004449372075 0.9947696662275749 -0.031426004449372075 0.005230333772425022 0.031426004449372075
1.1568003280833441E8 0.005271834700164297 0.031888328664232406 0.9947281652998358 -0.03188832866423241 0.9947281652998358 -0.03188832866423241 0.005271834700164297 0.031888328664232406
1.1742580688607343E8 0.005314308928030114 0.03235751395149957 0.9946856910719699 -0.03235751395149958 0.9946856910719699 -0.03235751395149958 0.005314308928030114 0.03235751395149957
1.1919792714522783E8 0.0053577862629112455 0.03283366362430567 0.9946422137370888 -0.03283366362430567 0.9946422137370888 -0.03283366362430567 0.0053577862629112455 0.03283366362430567
1.2099679118665792E8 0.005402297522235732 0.03331688236721246 0.9945977024777644 -0.03331688236721246 0.9945977024777644 -0.03331688236721246 0.005402297522235732 0.03331688236721246
1.2282280261157903E8 0.005447874558400177 0.03380727624477531 0.9945521254415999 -0.03380727624477531 0.9945521254415999 -0.03380727624477531 0.005447874558400177 0.03380727624477531
1.2467637111211549E8 0.005494550283577276 0.03430495271015265 0.9945054497164229 -0.03430495271015265 0.9945054497164229 -0.03430495271015265 0.005494550283577276 0.03430495271015265
1.265579125632208E8 0.005542358694924916 0.03481002061376418 0.9944576413050751 -0.034810020613764175 0.9944576413050751 -0.034810020613764175 0.005542358694924916 0.03481002061376418
1.284678491159853E8 0.0055913349002210105 0.03532259021199928 0.9944086650997789 -0.03532259021199927 0.9944086650997789 -0.03532259021199927 0.0055913349002210105 0.03532259021199928
1.3040660929235186E8 0.005641515143948517 0.03584277317597565 0.9943584848560515 -0.03584277317597565 0.9943584848560515 -0.03584277317597565 0.005641515143948517 0.03584277317597565
1.3237462808126101E8 0.005692936833855831 0.036370682600347266 0.9943070631661443 -0.03637068260034727 0.9943070631661443 -0.03637068260034727 0.005692936833855831 0.036370682600347266
1.3437234703624701E8 0.005745638568017887 0.036906433012158894 0.9942543614319821 -0.0369064330121589 0.9942543614319821 -0.0369064330121589 0.005745638568017887 0.036906433012158894
1.364002143745067E8 0.005799660162423623 0.037450140379743035 0.9942003398375765 -0.037450140379743035 0.9942003398375765 -0.037450140379743035 0.005799660162423623 0.037450140379743035
1.3845868507746372E8 0.005855042679115683 0.038001922121654416 0.9941449573208845 -0.03800192212165442 0.9941449573208845 -0.03800192212165442 0.005855042679115683 0.038001922121654416
1.405482209928499E8 0.005911828454908257 0.03856189711563498 0.9940881715450918 -0.03856189711563498 0.9940881715450918 -0.03856189711563498 0.005911828454908257 0.03856189711563498
1.426692909383278E8 0.005970061130708954 0.03913018570760172 0.994029938869291 -0.03913018570760172 0.994029938869291 -0.03913018570760172 0.005970061130708954 0.03913018570760172
1.4482237080667645E8 0.006029785681470587 0.03970690972064818 0.9939702143185296 -0.03970690972064818 0.9939702143185296 -0.03970690972064818 0.006029785681470587 0.03970690972064818
1.4700794367256513E8 0.0060910484467985165 0.040292192464049026 0.9939089515532016 -0.04029219246404903 0.9939089515532016 -0.04029219246404903 0.0060910484467985165 0.040292192464049026
1.492264999009378E8 0.0061538971622391156 0.040886158742256776 0.9938461028377608 -0.040886158742256776 0.9938461028377608 -0.040886158742256776 0.0061538971622391156 0.040886158742256776
1.5147853725703382E8 0.006218380991274504 0.041488934863877405 0.9937816190087253 -0.041488934863877405 0.9937816190087253 -0.041488934863877405 0.006218380991274504 0.041488934863877405
1.5376456101806876E8 0.006284550558048528 0.04210064865061198 0.9937154494419513 -0.04210064865061197 0.9937154494419513 -0.04210064865061197 0.006284550558048528 0.04210064865061198
1.5608508408660066E8 0.006352457980848512 0.042721429446149164 0.9936475420191515 -0.042721429446149164 0.9936475420191515 -0.042721429446149164 0.006352457980848512 0.042721429446149164
1.5844062710560706E8 0.006422156906366995 0.04335140812499377 0.993577843093633 -0.04335140812499378 0.993577843093633 -0.04335140812499378 0.006422156906366995 0.04335140812499377
1.6083171857529896E8 0.006493702544767155 0.04399071710121474 0.9935062974552328 -0.04399071710121473 0.9935062974552328 -0.04399071710121473 0.006493702544767155 0.04399071710121474
1.632588949716973E8 0.0065671517055753 0.04463949033709571 0.9934328482944247 -0.044639490337095716 0.9934328482944247 -0.044639490337095716 0.0065671517055753 0.04463949033709571
1.6572270086699936E8 0.006642562834423279 0.04529786335167099 0.9933574371655767 -0.04529786335167099 0.9933574371655767 -0.04529786335167099 0.006642562834423279 0.04529786335167099
1.6822368905176118E8 0.006719996050663205 0.04596597322912792 0.9932800039493368 -0.045965973229127925 0.9932800039493368 -0.045965973229127925 0.006719996050663205 0.04596597322912792
1.7076242065892437E8 0.006799513185876548 0.046643958627057946 0.9932004868141233 -0.04664395862705794 0.9932004868141233 -0.04664395862705794 0.006799513185876548 0.046643958627057946
1.7333946528971428E8 0.00688117782329902 0.047331959784536436 0.9931188221767011 -0.047331959784536436 0.9931188221767011 -0.047331959784536436 0.00688117782329902 0.047331959784536436
1.7595540114143828E8 0.006965055338182466 0.04803011853001238 0.9930349446618174 -0.04803011853001238 0.9930349446618174 -0.04803011853001238 0.006965055338182466 0.04803011853001238
1.786108151372127E8 0.007051212939114442 0.04873857828898797 0.9929487870608855 -0.04873857828898797 0.9929487870608855 -0.04873857828898797 0.007051212939114442 0.04873857828898797
1.8130630305764765E8 0.00713971971031582 0.049457484091468204 0.9928602802896842 -0.049457484091468204 0.9928602802896842 -0.049457484091468204 0.00713971971031582 0.049457484091468204
1.840424696745189E8 0.007230646654936484 0.05018698257916034 0.9927693533450636 -0.05018698257916034 0.9927693533450636 -0.05018698257916034 0.007230646654936484 0.05018698257916034
1.8681992888645732E8 0.007324066739368885 0.05092722201240336 0.9926759332606312 -0.05092722201240336 0.9926759332606312 -0.05092722201240336 0.007324066739368885 0.05092722201240336
1.8963930385668582E8 0.007420054938598968 0.051678352276806935 0.992579945061401 -0.05167835227680694 0.992579945061401 -0.05167835227680694 0.007420054938598968 0.051678352276806935
1.92501227152835E8 0.0075186882826139174 0.052440524889580266 0.9924813117173859 -0.05244052488958026 0.9924813117173859 -0.05244052488958026 0.0075186882826139174 0.052440524889580266
1.9540634088886917E8 0.007620045903885999 0.05321389300553076 0.9923799540961141 -0.05321389300553076 0.9923799540961141 -0.05321389300553076 0.007620045903885999 0.05321389300553076
1.983552968691535E8 0.007724209085951766 0.05399861142271234 0.9922757909140483 -0.05399861142271234 0.9922757909140483 -0.05399861142271234 0.007724209085951766 0.05399861142271234
2.0134875673469606E8 0.007831261313106172 0.05479483658770519 0.9921687386868938 -0.05479483658770519 0.9921687386868938 -0.05479483658770519 0.007831261313106172 0.05479483658770519
2.0438739211159652E8 0.00794128832123098 0.05560272660050638 0.9920587116787692 -0.05560272660050638 0.9920587116787692 -0.05560272660050638 0.00794128832123098 0.05560272660050638
2.074718847617352E8 0.00805437814977741 0.056422441219013277 0.9919456218502226 -0.056422441219013277 0.9919456218502226 -0.056422441219013277 0.00805437814977741 0.056422441219013277
2.106029267357361E8 0.008170621194923327 0.05725414186308178 0.9918293788050767 -0.05725414186308178 0.9918293788050767 -0.05725414186308178 0.008170621194923327 0.05725414186308178
2.1378122052823865E8 0.008290110263925553 0.05809799161814021 0.9917098897360744 -0.05809799161814021 0.9917098897360744 -0.05809799161814021 0.008290110263925553 0.05809799161814021
2.1700747923551247E8 0.008412940630688943 0.05895415523834261 0.9915870593693111 -0.058954155238342625 0.9915870593693111 -0.058954155238342625 0.008412940630688943 0.05895415523834261
2.2028242671545094E8 0.008539210092574077 0.059822799149243405 0.9914607899074258 -0.059822799149243405 0.9914607899074258 -0.059822799149243405 0.008539210092574077 0.059822799149243405
2.23606797749979E8 0.008669019028466979 0.06070409144997757 0.9913309809715329 -0.06070409144997757 0.9913309809715329 -0.06070409144997757 0.008669019028466979 0.06070409144997757
2.2698133820991236E8 0.008802470458134747 0.06159820191492981 0.9911975295418652 -0.06159820191492981 0.9911975295418652 -0.06159820191492981 0.008802470458134747 0.06159820191492981
2.3040680522230446E8 0.0089396701028926 0.06250530199487737 0.9910603298971074 -0.06250530199487736 0.9910603298971074 -0.06250530199487736 0.0089396701028926 0.06250530199487737
2.338839673403185E8 0.009080726447609128 0.06342556481759136 0.990919273552391 -0.06342556481759136 0.990919273552391 -0.06342556481759136 0.009080726447609128 0.06342556481759136
2.37413604715664E8 0.009225750804077965 0.06435916518788168 0.990774249195922 -0.06435916518788168 0.990774249195922 -0.06435916518788168 0.009225750804077965 0.06435916518788168
2.4099650927363476E8 0.009374857375786198 0.06530627958707196 0.9906251426242136 -0.06530627958707196 0.9906251426242136 -0.06530627958707196 0.009374857375786198 0.06530627958707196
