!Murata Part Number: LQP15MN33NG02
!These Parameters are Measured in Series Mode Connection
!       o--[Z]--o
!Port1              Port2
!       o-------o
!
!Freq. Start=50[MHz] Stop=20[GHz], 401[Steps]
# Hz S RI R 50
!Freq.(Hz) S11(Real) S11(Imag) S21(Real) S21(Imag) S12(Real) S12(Imag) S22(Real) S22(Imag)
5.0E7 0.039438023071879866 0.09526484837311432 0.9605619769281201 -0.09526484837311432 0.9605619769281201 -0.09526484837311432 0.039438023071879866 0.09526484837311432
5.0754570186123446E7 0.03973391931673378 0.09667129796493387 0.9602660806832661 -0.09667129796493387 0.9602660806832661 -0.09667129796493387 0.03973391931673378 0.09667129796493387
5.152052789556263E7 0.04003860753394208 0.0980975695457566 0.9599613924660579 -0.09809756954575659 0.9599613924660579 -0.09809756954575659 0.04003860753394208 0.0980975695457566
5.229804498202928E7 0.040352342794316966 0.0995438994146716 0.9596476572056829 -0.09954389941467158 0.9596476572056829 -0.09954389941467158 0.040352342794316966 0.0995438994146716
5.308729589274893E7 0.040675387183613305 0.10101052468024348 0.9593246128163868 -0.1010105246802435 0.9593246128163868 -0.1010105246802435 0.040675387183613305 0.10101052468024348
5.388845770760058E7 0.04100800997212978 0.10249768315606982 0.9589919900278703 -0.10249768315606982 0.9589919900278703 -0.10249768315606982 0.04100800997212978 0.10249768315606982
5.470171017884717E7 0.04135048778695319 0.10400561325013881 0.9586495122130467 -0.1040056132501388 0.9586495122130467 -0.1040056132501388 0.04135048778695319 0.10400561325013881
5.5527235771465644E7 0.04170310478678715 0.10553455384773434 0.9582968952132128 -0.10553455384773434 0.9582968952132128 -0.10553455384773434 0.04170310478678715 0.10553455384773434
5.6365219704085544E7 0.04206615283929802 0.10708474418762884 0.9579338471607018 -0.10708474418762884 0.9579338471607018 -0.10708474418762884 0.04206615283929802 0.10708474418762884
5.721584999054556E7 0.04243993170090078 0.10865642373129766 0.9575600682990993 -0.10865642373129765 0.9575600682990993 -0.10865642373129765 0.04243993170090078 0.10865642373129766
5.807931748207712E7 0.042824749198898164 0.11024983202487942 0.9571752508011018 -0.11024983202487942 0.9571752508011018 -0.11024983202487942 0.042824749198898164 0.11024983202487942
5.8955815910124585E7 0.043220921415875024 0.11186520855360256 0.9567790785841249 -0.11186520855360259 0.9567790785841249 -0.11186520855360259 0.043220921415875024 0.11186520855360256
5.984554192981184E7 0.04362877287623898 0.11350279258838777 0.9563712271237611 -0.11350279258838777 0.9563712271237611 -0.11350279258838777 0.04362877287623898 0.11350279258838777
6.074869516406457E7 0.04404863673478589 0.11516282302433077 0.9559513632652141 -0.11516282302433077 0.9559513632652141 -0.11516282302433077 0.04404863673478589 0.11516282302433077
6.166547824839868E7 0.04448085496715631 0.1168455382107632 0.9555191450328437 -0.11684553821076317 0.9555191450328437 -0.11684553821076317 0.04448085496715631 0.1168455382107632
6.2596096876384385E7 0.04492577856203504 0.11855117577258031 0.9550742214379649 -0.11855117577258031 0.9550742214379649 -0.11855117577258031 0.04492577856203504 0.11855117577258031
6.354075984579668E7 0.04538376771493216 0.12027997242251996 0.9546162322850679 -0.12027997242251993 0.9546162322850679 -0.12027997242251993 0.04538376771493216 0.12027997242251996
6.449967910546205E7 0.04585519202336769 0.12203216376406797 0.9541448079766323 -0.12203216376406797 0.9541448079766323 -0.12203216376406797 0.04585519202336769 0.12203216376406797
6.547306980281226E7 0.04634043068326771 0.12380798408466233 0.9536595693167323 -0.12380798408466233 0.9536595693167323 -0.12380798408466233 0.04634043068326771 0.12380798408466233
6.646115033215589E7 0.04683987268636094 0.12560766613885846 0.9531601273136392 -0.12560766613885846 0.9531601273136392 -0.12560766613885846 0.04683987268636094 0.12560766613885846
6.746414238367817E7 0.04735391701834862 0.12743144092111505 0.9526460829816514 -0.12743144092111505 0.9526460829816514 -0.12743144092111505 0.04735391701834862 0.12743144092111505
6.848227099318038E7 0.0478829728576009 0.12927953742785386 0.9521170271423991 -0.12927953742785386 0.9521170271423991 -0.12927953742785386 0.0478829728576009 0.12927953742785386
6.951576459256999E7 0.048427459774113786 0.13115218240844131 0.9515725402258862 -0.13115218240844131 0.9515725402258862 -0.13115218240844131 0.048427459774113786 0.13115218240844131
7.056485506111258E7 0.048987807928439396 0.1330496001047357 0.9510121920715605 -0.1330496001047357 0.9510121920715605 -0.1330496001047357 0.048987807928439396 0.1330496001047357
7.162977777745734E7 0.04956445827028202 0.13497201197884084 0.9504355417297179 -0.13497201197884084 0.9504355417297179 -0.13497201197884084 0.04956445827028202 0.13497201197884084
7.271077167244768E7 0.0501578627364278 0.13691963642870184 0.9498421372635721 -0.13691963642870184 0.9498421372635721 -0.13691963642870184 0.0501578627364278 0.13691963642870184
7.380807928272885E7 0.05076848444765423 0.1388926884911781 0.9492315155523459 -0.1388926884911781 0.9492315155523459 -0.1388926884911781 0.05076848444765423 0.1388926884911781
7.492194680516452E7 0.051396797904239136 0.14089137953222572 0.9486032020957608 -0.14089137953222572 0.9486032020957608 -0.14089137953222572 0.051396797904239136 0.14089137953222572
7.60526241520746E7 0.05204328917966448 0.14291591692382083 0.9479567108203355 -0.1429159169238208 0.9479567108203355 -0.1429159169238208 0.05204328917966448 0.14291591692382083
7.720036500730675E7 0.052708456112081706 0.14496650370725475 0.9472915438879184 -0.14496650370725475 0.9472915438879184 -0.14496650370725475 0.052708456112081706 0.14496650370725475
7.836542688315398E7 0.053392808493079036 0.1470433382424352 0.9466071915069211 -0.1470433382424352 0.9466071915069211 -0.1470433382424352 0.053392808493079036 0.1470433382424352
7.954807117813127E7 0.05409686825326041 0.14914661384282574 0.9459031317467395 -0.14914661384282574 0.9459031317467395 -0.14914661384282574 0.05409686825326041 0.14914661384282574
8.074856323562416E7 0.05482116964411626 0.15127651839566308 0.9451788303558837 -0.15127651839566308 0.9451788303558837 -0.15127651839566308 0.05482116964411626 0.15127651839566308
8.196717240342227E7 0.0555662594156348 0.1534332339670942 0.9444337405843651 -0.1534332339670942 0.9444337405843651 -0.1534332339670942 0.0555662594156348 0.1534332339670942
8.320417209415154E7 0.056332696989069564 0.1556169363918819 0.9436673030109304 -0.1556169363918819 0.9436673030109304 -0.1556169363918819 0.056332696989069564 0.1556169363918819
8.445983984661816E7 0.0571210546242457 0.15782779484733425 0.9428789453757542 -0.15782779484733425 0.9428789453757542 -0.15782779484733425 0.0571210546242457 0.15782779484733425
8.573445738807854E7 0.05793191758075251 0.160065971411125 0.9420680824192474 -0.16006597141112497 0.9420680824192474 -0.16006597141112497 0.05793191758075251 0.160065971411125
8.702831069744885E7 0.058765884272333604 0.16233162060267842 0.9412341157276665 -0.16233162060267842 0.9412341157276665 -0.16233162060267842 0.058765884272333604 0.16233162060267842
8.834169006946853E7 0.059623566413750335 0.16462488890781113 0.94037643358625 -0.16462488890781116 0.94037643358625 -0.16462488890781116 0.059623566413750335 0.16462488890781113
8.96748901798321E7 0.0605055891593542 0.16694591428633188 0.9394944108406458 -0.16694591428633188 0.9394944108406458 -0.16694591428633188 0.0605055891593542 0.16694591428633188
9.1028210151304E7 0.06141259123256822 0.1692948256623239 0.9385874087674319 -0.1692948256623239 0.9385874087674319 -0.1692948256623239 0.06141259123256822 0.1692948256623239
9.240195362083109E7 0.06234522504543363 0.1716717423968468 0.9376547749545664 -0.1716717423968468 0.9376547749545664 -0.1716717423968468 0.06234522504543363 0.1716717423968468
9.379642880766791E7 0.06330415680734187 0.17407677374282438 0.9366958431926581 -0.17407677374282438 0.9366958431926581 -0.17407677374282438 0.06330415680734187 0.17407677374282438
9.521194858253023E7 0.06429006662202752 0.17651001828190296 0.9357099333779726 -0.17651001828190296 0.9357099333779726 -0.17651001828190296 0.06429006662202752 0.17651001828190296
9.664883053779216E7 0.06530364857185712 0.17897156334309597 0.9346963514281429 -0.17897156334309597 0.9346963514281429 -0.17897156334309597 0.06530364857185712 0.17897156334309597
9.810739705874248E7 0.06634561078840748 0.18146148440305995 0.9336543892115926 -0.18146148440305995 0.9336543892115926 -0.18146148440305995 0.06634561078840748 0.18146148440305995
9.958797539591652E7 0.06741667550828118 0.18397984446787857 0.9325833244917188 -0.18397984446787857 0.9325833244917188 -0.18397984446787857 0.06741667550828118 0.18397984446787857
1.0109089773851961E8 0.06851757911306802 0.18652669343627157 0.9314824208869318 -0.18652669343627162 0.9314824208869318 -0.18652669343627162 0.06851757911306802 0.18652669343627157
1.0261650128895843E8 0.06964907215231435 0.18910206744418231 0.9303509278476857 -0.18910206744418231 0.9303509278476857 -0.18910206744418231 0.06964907215231435 0.18910206744418231
1.0416512833849736E8 0.07081191934832069 0.19170598819074205 0.9291880806516795 -0.19170598819074205 0.9291880806516795 -0.19170598819074205 0.07081191934832069 0.19170598819074205
1.0573712634405641E8 0.07200689958154505 0.19433846224565796 0.9279931004184551 -0.19433846224565796 0.9279931004184551 -0.19433846224565796 0.07200689958154505 0.19433846224565796
1.0733284800616828E8 0.07323480585534671 0.19699948033812184 0.9267651941446533 -0.19699948033812184 0.9267651941446533 -0.19699948033812184 0.07323480585534671 0.19699948033812184
1.0895265134811176E8 0.07449644523876243 0.19968901662739091 0.9255035547612377 -0.19968901662739094 0.9255035547612377 -0.19968901662739094 0.07449644523876243 0.19968901662739091
1.1059689979623953E8 0.07579263878596755 0.20240702795525406 0.9242073612140325 -0.20240702795525406 0.9242073612140325 -0.20240702795525406 0.07579263878596755 0.20240702795525406
1.1226596226151802E8 0.07712422143103345 0.20515345308065908 0.9228757785689666 -0.20515345308065908 0.9228757785689666 -0.20515345308065908 0.07712422143103345 0.20515345308065908
1.1396021322229806E8 0.07849204185655435 0.20792821189684468 0.9215079581434455 -0.2079282118968447 0.9215079581434455 -0.2079282118968447 0.07849204185655435 0.20792821189684468
1.1568003280833441E8 0.07989696233468077 0.21073120463139505 0.9201030376653193 -0.21073120463139508 0.9201030376653193 -0.21073120463139508 0.07989696233468077 0.21073120463139505
1.1742580688607343E8 0.08133985853906119 0.2135623110297122 0.9186601414609387 -0.2135623110297122 0.9186601414609387 -0.2135623110297122 0.08133985853906119 0.2135623110297122
1.1919792714522783E8 0.08282161932616197 0.21642138952248316 0.9171783806738378 -0.21642138952248316 0.9171783806738378 -0.21642138952248316 0.08282161932616197 0.21642138952248316
1.2099679118665792E8 0.08434314648440501 0.21930827637780592 0.915656853515595 -0.21930827637780592 0.915656853515595 -0.21930827637780592 0.08434314648440501 0.21930827637780592
1.2282280261157903E8 0.0859053544495387 0.22222278483873403 0.9140946455504613 -0.22222278483873406 0.9140946455504613 -0.22222278483873406 0.0859053544495387 0.22222278483873403
1.2467637111211549E8 0.0875091699846324 0.2251647042470914 0.9124908300153677 -0.2251647042470914 0.9124908300153677 -0.2251647042470914 0.0875091699846324 0.2251647042470914
1.265579125632208E8 0.08915553182306767 0.22813379915451593 0.9108444681769324 -0.22813379915451593 0.9108444681769324 -0.22813379915451593 0.08915553182306767 0.22813379915451593
1.284678491159853E8 0.09084539027288516 0.2311298084217958 0.9091546097271148 -0.23112980842179587 0.9091546097271148 -0.23112980842179587 0.09084539027288516 0.2311298084217958
1.3040660929235186E8 0.09257970678083685 0.23415244430767493 0.907420293219163 -0.23415244430767496 0.907420293219163 -0.23415244430767496 0.09257970678083685 0.23415244430767493
1.3237462808126101E8 0.09435945345449037 0.23720139154842132 0.9056405465455097 -0.23720139154842132 0.9056405465455097 -0.23720139154842132 0.09435945345449037 0.23720139154842132
1.3437234703624701E8 0.0961856125407324 0.24027630642957268 0.9038143874592677 -0.24027630642957273 0.9038143874592677 -0.24027630642957273 0.0961856125407324 0.24027630642957268
1.364002143745067E8 0.09805917585903122 0.24337681585140394 0.9019408241409688 -0.24337681585140394 0.9019408241409688 -0.24337681585140394 0.09805917585903122 0.24337681585140394
1.3845868507746372E8 0.09998114418783118 0.24650251638978687 0.9000188558121689 -0.24650251638978687 0.9000188558121689 -0.24650251638978687 0.09998114418783118 0.24650251638978687
1.405482209928499E8 0.10195252660247668 0.249652973354251 0.8980474733975232 -0.249652973354251 0.8980474733975232 -0.249652973354251 0.10195252660247668 0.249652973354251
1.426692909383278E8 0.10397433976309717 0.25282771984519287 0.8960256602369029 -0.25282771984519287 0.8960256602369029 -0.25282771984519287 0.10397433976309717 0.25282771984519287
1.4482237080667645E8 0.10604760715092265 0.25602625581232163 0.8939523928490773 -0.25602625581232163 0.8939523928490773 -0.25602625581232163 0.10604760715092265 0.25602625581232163
1.4700794367256513E8 0.10817335825155446 0.25924804711657795 0.8918266417484456 -0.25924804711657795 0.8918266417484456 -0.25924804711657795 0.10817335825155446 0.25924804711657795
1.492264999009378E8 0.11035262768377001 0.2624925245979055 0.8896473723162298 -0.2624925245979055 0.8896473723162298 -0.2624925245979055 0.11035262768377001 0.2624925245979055
1.5147853725703382E8 0.11258645427251944 0.265759083151412 0.8874135457274805 -0.265759083151412 0.8874135457274805 -0.265759083151412 0.11258645427251944 0.265759083151412
1.5376456101806876E8 0.11487588006484774 0.26904708081460077 0.8851241199351524 -0.26904708081460077 0.8851241199351524 -0.26904708081460077 0.11487588006484774 0.26904708081460077
1.5608508408660066E8 0.11722194928757491 0.27235583786851353 0.8827780507124251 -0.27235583786851353 0.8827780507124251 -0.27235583786851353 0.11722194928757491 0.27235583786851353
1.5844062710560706E8 0.11962570724567001 0.2756846359557704 0.8803742927543299 -0.2756846359557704 0.8803742927543299 -0.2756846359557704 0.11962570724567001 0.2756846359557704
1.6083171857529896E8 0.12208819916037816 0.2790327172186527 0.8779118008396217 -0.2790327172186527 0.8779118008396217 -0.2790327172186527 0.12208819916037816 0.2790327172186527
1.632588949716973E8 0.12461046894628786 0.2823992834605175 0.8753895310537123 -0.28239928346051757 0.8753895310537123 -0.28239928346051757 0.12461046894628786 0.2823992834605175
1.6572270086699936E8 0.127193557926676 0.28578349533398556 0.8728064420733239 -0.28578349533398556 0.8728064420733239 -0.28578349533398556 0.127193557926676 0.28578349533398556
1.6822368905176118E8 0.12983850348662782 0.2891844715594864 0.870161496513372 -0.28918447155948646 0.870161496513372 -0.28918447155948646 0.12983850348662782 0.2891844715594864
1.7076242065892437E8 0.13254633766360036 0.29260128817788306 0.8674536623363995 -0.29260128817788306 0.8674536623363995 -0.29260128817788306 0.13254633766360036 0.29260128817788306
1.7333946528971428E8 0.1353180856752949 0.29603297784103627 0.8646819143247052 -0.29603297784103627 0.8646819143247052 -0.29603297784103627 0.1353180856752949 0.29603297784103627
1.7595540114143828E8 0.1381547643848985 0.2994785291442888 0.8618452356151014 -0.2994785291442888 0.8618452356151014 -0.2994785291442888 0.1381547643848985 0.2994785291442888
1.786108151372127E8 0.14105738070398338 0.30293688600497654 0.8589426192960167 -0.30293688600497654 0.8589426192960167 -0.30293688600497654 0.14105738070398338 0.30293688600497654
1.8130630305764765E8 0.14402692993357905 0.30640694709117344 0.8559730700664209 -0.3064069470911734 0.8559730700664209 -0.3064069470911734 0.14402692993357905 0.30640694709117344
1.840424696745189E8 0.14706439404418595 0.3098875653049822 0.8529356059558142 -0.3098875653049822 0.8529356059558142 -0.3098875653049822 0.14706439404418595 0.3098875653049822
1.8681992888645732E8 0.1501707398957584 0.31337754732476164 0.8498292601042415 -0.31337754732476164 0.8498292601042415 -0.31337754732476164 0.1501707398957584 0.31337754732476164
1.8963930385668582E8 0.15334691739896547 0.3168756532107587 0.8466530826010346 -0.3168756532107587 0.8466530826010346 -0.3168756532107587 0.15334691739896547 0.3168756532107587
1.92501227152835E8 0.15659385761932448 0.32038059607866115 0.8434061423806756 -0.32038059607866115 0.8434061423806756 -0.32038059607866115 0.15659385761932448 0.32038059607866115
1.9540634088886917E8 0.15991247082610915 0.3238910418456331 0.8400875291738908 -0.32389104184563305 0.8400875291738908 -0.32389104184563305 0.15991247082610915 0.3238910418456331
1.983552968691535E8 0.1633036444882471 0.32740560905340865 0.8366963555117529 -0.32740560905340865 0.8366963555117529 -0.32740560905340865 0.1633036444882471 0.32740560905340865
2.0134875673469606E8 0.1667682412197487 0.33092286877302335 0.8332317587802512 -0.33092286877302335 0.8332317587802512 -0.33092286877302335 0.1667682412197487 0.33092286877302335
2.0438739211159652E8 0.17030709667754548 0.3344413445957371 0.8296929033224543 -0.33444134459573704 0.8296929033224543 -0.33444134459573704 0.17030709667754548 0.3344413445957371
2.074718847617352E8 0.1739210174149615 0.33795951271466007 0.8260789825850384 -0.33795951271466007 0.8260789825850384 -0.33795951271466007 0.1739210174149615 0.33795951271466007
2.106029267357361E8 0.17761077869439265 0.3414758021015223 0.8223892213056074 -0.3414758021015223 0.8223892213056074 -0.3414758021015223 0.17761077869439265 0.3414758021015223
2.1378122052823865E8 0.18137712226312616 0.34498859478293015 0.8186228777368738 -0.34498859478293015 0.8186228777368738 -0.34498859478293015 0.18137712226312616 0.34498859478293015
2.1700747923551247E8 0.18522075409659636 0.3484962262203353 0.8147792459034038 -0.3484962262203353 0.8147792459034038 -0.3484962262203353 0.18522075409659636 0.3484962262203353
2.2028242671545094E8 0.18914234211373052 0.35199698579778366 0.8108576578862695 -0.35199698579778366 0.8108576578862695 -0.35199698579778366 0.18914234211373052 0.35199698579778366
2.23606797749979E8 0.1931425138694088 0.35548911742133926 0.8068574861305912 -0.35548911742133926 0.8068574861305912 -0.35548911742133926 0.1931425138694088 0.35548911742133926
2.2698133820991236E8 0.19722185422941468 0.35897082023386273 0.8027781457705854 -0.35897082023386273 0.8027781457705854 -0.35897082023386273 0.19722185422941468 0.35897082023386273
2.3040680522230446E8 0.201380903033613 0.3624402494485852 0.7986190969663869 -0.3624402494485852 0.7986190969663869 -0.3624402494485852 0.201380903033613 0.3624402494485852
2.338839673403185E8 0.20562015275343573 0.36589551730464664 0.7943798472465643 -0.36589551730464664 0.7943798472465643 -0.36589551730464664 0.20562015275343573 0.36589551730464664
2.37413604715664E8 0.20994004615009654 0.36933469414746495 0.7900599538499035 -0.36933469414746495 0.7900599538499035 -0.36933469414746495 0.20994004615009654 0.36933469414746495
2.4099650927363476E8 0.21434097394027438 0.3727558096364659 0.7856590260597255 -0.3727558096364659 0.7856590260597255 -0.3727558096364659 0.21434097394027438 0.3727558096364659
2.446334848907889E8 0.2188232724763175 0.37615685408233895 0.7811767275236826 -0.37615685408233895 0.7811767275236826 -0.37615685408233895 0.2188232724763175 0.37615685408233895
2.4832534757531032E8 0.22338722144830633 0.379535779915589 0.7766127785516937 -0.379535779915589 0.7766127785516937 -0.379535779915589 0.22338722144830633 0.379535779915589
2.5207292565009177E8 0.22803304161558105 0.3828905032877256 0.771966958384419 -0.3828905032877256 0.771966958384419 -0.3828905032877256 0.22803304161558105 0.3828905032877256
