!Murata Part Number: LQP15MN2N6W02
!These Parameters are Measured in Series Mode Connection
!       o--[Z]--o
!Port1              Port2
!       o-------o
!
!Freq. Start=50[MHz] Stop=20[GHz], 401[Steps]
# Hz S RI R 50
!Freq.(Hz) S11(Real) S11(Imag) S21(Real) S21(Imag) S12(Real) S12(Imag) S22(Real) S22(Imag)
5.0E7 0.0016472131216383262 0.007325759160227805 0.9983527868783617 -0.007325759160227806 0.9983527868783617 -0.007325759160227806 0.0016472131216383262 0.007325759160227805
5.0754570186123446E7 0.0016529476194227732 0.007434812003097265 0.9983470523805772 -0.007434812003097265 0.9983470523805772 -0.007434812003097265 0.0016529476194227732 0.007434812003097265
5.152052789556263E7 0.001658826642273252 0.007545452858098472 0.9983411733577268 -0.007545452858098472 0.9983411733577268 -0.007545452858098472 0.001658826642273252 0.007545452858098472
5.229804498202928E7 0.0016648530941765867 0.007657703781815071 0.9983351469058233 -0.007657703781815071 0.9983351469058233 -0.007657703781815071 0.0016648530941765867 0.007657703781815071
5.308729589274893E7 0.0016710299027369896 0.007771587121148729 0.9983289700972631 -0.007771587121148729 0.9983289700972631 -0.007771587121148729 0.0016710299027369896 0.007771587121148729
5.388845770760058E7 0.0016773600178589007 0.007887125518123938 0.9983226399821411 -0.007887125518123938 0.9983226399821411 -0.007887125518123938 0.0016773600178589007 0.007887125518123938
5.470171017884717E7 0.0016838464103868292 0.008004341914877167 0.9983161535896132 -0.008004341914877167 0.9983161535896132 -0.008004341914877167 0.0016838464103868292 0.008004341914877167
5.5527235771465644E7 0.0016904920707065893 0.008123259558838762 0.9983095079292934 -0.008123259558838762 0.9983095079292934 -0.008123259558838762 0.0016904920707065893 0.008123259558838762
5.6365219704085544E7 0.0016973000073128989 0.008243902008116175 0.9983026999926872 -0.008243902008116175 0.9983026999926872 -0.008243902008116175 0.0016973000073128989 0.008243902008116175
5.721584999054556E7 0.001704273245348908 0.008366293137087142 0.9982957267546511 -0.008366293137087142 0.9982957267546511 -0.008366293137087142 0.001704273245348908 0.008366293137087142
5.807931748207712E7 0.001711414825123861 0.00849045714221131 0.9982885851748761 -0.00849045714221131 0.9982885851748761 -0.00849045714221131 0.001711414825123861 0.00849045714221131
5.8955815910124585E7 0.0017187278006157338 0.008616418548068933 0.9982812721993842 -0.008616418548068933 0.9982812721993842 -0.008616418548068933 0.0017187278006157338 0.008616418548068933
5.984554192981184E7 0.0017262152379663779 0.008744202213635052 0.9982737847620334 -0.008744202213635054 0.9982737847620334 -0.008744202213635054 0.0017262152379663779 0.008744202213635052
6.074869516406457E7 0.0017338802139773572 0.008873833338797496 0.9982661197860226 -0.008873833338797496 0.9982661197860226 -0.008873833338797496 0.0017338802139773572 0.008873833338797496
6.166547824839868E7 0.0017417258146153873 0.009005337471126815 0.9982582741853846 -0.009005337471126817 0.9982582741853846 -0.009005337471126817 0.0017417258146153873 0.009005337471126815
6.2596096876384385E7 0.0017497551335370046 0.009138740512906127 0.998250244866463 -0.009138740512906125 0.998250244866463 -0.009138740512906125 0.0017497551335370046 0.009138740512906127
6.354075984579668E7 0.0017579712706427665 0.009274068728428416 0.9982420287293572 -0.009274068728428416 0.9982420287293572 -0.009274068728428416 0.0017579712706427665 0.009274068728428416
6.449967910546205E7 0.0017663773306720856 0.009411348751568665 0.9982336226693277 -0.009411348751568665 0.9982336226693277 -0.009411348751568665 0.0017663773306720856 0.009411348751568665
6.547306980281226E7 0.001774976421850405 0.009550607593637551 0.9982250235781496 -0.009550607593637551 0.9982250235781496 -0.009550607593637551 0.001774976421850405 0.009550607593637551
6.646115033215589E7 0.00178377165460128 0.00969187265152328 0.9982162283453987 -0.00969187265152328 0.9982162283453987 -0.00969187265152328 0.00178377165460128 0.00969187265152328
6.746414238367817E7 0.001792766140336489 0.009835171716127307 0.9982072338596636 -0.009835171716127307 0.9982072338596636 -0.009835171716127307 0.001792766140336489 0.009835171716127307
6.848227099318038E7 0.0018019629903381063 0.009980532981099277 0.9981980370096618 -0.009980532981099277 0.9981980370096618 -0.009980532981099277 0.0018019629903381063 0.009980532981099277
6.951576459256999E7 0.0018113653147470454 0.010127985051875833 0.998188634685253 -0.01012798505187583 0.998188634685253 -0.01012798505187583 0.0018113653147470454 0.010127985051875833
7.056485506111258E7 0.0018209762216732748 0.010277556955027129 0.9981790237783268 -0.010277556955027129 0.9981790237783268 -0.010277556955027129 0.0018209762216732748 0.010277556955027129
7.162977777745734E7 0.0018307988164434764 0.010429278147914188 0.9981692011835565 -0.010429278147914188 0.9981692011835565 -0.010429278147914188 0.0018307988164434764 0.010429278147914188
7.271077167244768E7 0.0018408362010025072 0.010583178528659386 0.9981591637989976 -0.010583178528659386 0.9981591637989976 -0.010583178528659386 0.0018408362010025072 0.010583178528659386
7.380807928272885E7 0.0018510914734855056 0.010739288446431306 0.9981489085265145 -0.010739288446431306 0.9981489085265145 -0.010739288446431306 0.0018510914734855056 0.010739288446431306
7.492194680516452E7 0.0018615677279779745 0.010897638712044412 0.9981384322720219 -0.010897638712044412 0.9981384322720219 -0.010897638712044412 0.0018615677279779745 0.010897638712044412
7.60526241520746E7 0.001872268054481543 0.011058260608872768 0.9981277319455185 -0.011058260608872768 0.9981277319455185 -0.011058260608872768 0.001872268054481543 0.011058260608872768
7.720036500730675E7 0.0018831955391034685 0.011221185904076067 0.9981168044608965 -0.011221185904076067 0.9981168044608965 -0.011221185904076067 0.0018831955391034685 0.011221185904076067
7.836542688315398E7 0.001894353264488176 0.011386446860135041 0.998105646735512 -0.011386446860135041 0.998105646735512 -0.011386446860135041 0.001894353264488176 0.011386446860135041
7.954807117813127E7 0.0019057443105092915 0.01155407624669207 0.9980942556894907 -0.01155407624669207 0.9980942556894907 -0.01155407624669207 0.0019057443105092915 0.01155407624669207
8.074856323562416E7 0.0019173717552407716 0.011724107352691741 0.9980826282447592 -0.01172410735269174 0.9980826282447592 -0.01172410735269174 0.0019173717552407716 0.011724107352691741
8.196717240342227E7 0.0019292386762256506 0.011896573998814618 0.9980707613237743 -0.011896573998814617 0.9980707613237743 -0.011896573998814617 0.0019292386762256506 0.011896573998814618
8.320417209415154E7 0.0019413481520608818 0.012071510550196436 0.9980586518479391 -0.012071510550196438 0.9980586518479391 -0.012071510550196438 0.0019413481520608818 0.012071510550196436
8.445983984661816E7 0.001953703264316495 0.01224895192942337 0.9980462967356835 -0.012248951929423373 0.9980462967356835 -0.012248951929423373 0.001953703264316495 0.01224895192942337
8.573445738807854E7 0.0019663070998070407 0.012428933629792992 0.9980336929001928 -0.01242893362979299 0.9980336929001928 -0.01242893362979299 0.0019663070998070407 0.012428933629792992
8.702831069744885E7 0.0019791627532327774 0.012611491728828885 0.9980208372467672 -0.012611491728828885 0.9980208372467672 -0.012611491728828885 0.0019791627532327774 0.012611491728828885
8.834169006946853E7 0.0019922733302076014 0.012796662902035908 0.9980077266697923 -0.012796662902035908 0.9980077266697923 -0.012796662902035908 0.0019922733302076014 0.012796662902035908
8.96748901798321E7 0.002005641950690025 0.012984484436881572 0.9979943580493098 -0.012984484436881572 0.9979943580493098 -0.012984484436881572 0.002005641950690025 0.012984484436881572
9.1028210151304E7 0.0020192717528327176 0.013174994246987776 0.9979807282471672 -0.013174994246987776 0.9979807282471672 -0.013174994246987776 0.0020192717528327176 0.013174994246987776
9.240195362083109E7 0.002033165897265295 0.01336823088651608 0.9979668341027346 -0.013368230886516076 0.9979668341027346 -0.013368230886516076 0.002033165897265295 0.01336823088651608
9.379642880766791E7 0.0020473275718239994 0.013564233564728348 0.9979526724281759 -0.013564233564728348 0.9979526724281759 -0.013564233564728348 0.0020473275718239994 0.013564233564728348
9.521194858253023E7 0.002061759996740772 0.013763042160703513 0.9979382400032593 -0.013763042160703513 0.9979382400032593 -0.013763042160703513 0.002061759996740772 0.013763042160703513
9.664883053779216E7 0.002076466430303111 0.013964697238190446 0.9979235335696971 -0.01396469723819045 0.9979235335696971 -0.01396469723819045 0.002076466430303111 0.013964697238190446
9.810739705874248E7 0.0020914501749946203 0.014169240060575503 0.9979085498250053 -0.014169240060575503 0.9979085498250053 -0.014169240060575503 0.0020914501749946203 0.014169240060575503
9.958797539591652E7 0.0021067145841249025 0.01437671260594306 0.9978932854158751 -0.01437671260594306 0.9978932854158751 -0.01437671260594306 0.0021067145841249025 0.01437671260594306
1.0109089773851961E8 0.002122263068955812 0.014587157582206106 0.9978777369310442 -0.014587157582206108 0.9978777369310442 -0.014587157582206108 0.002122263068955812 0.014587157582206106
1.0261650128895843E8 0.002138099106329562 0.014800618442283756 0.9978619008936706 -0.014800618442283753 0.9978619008936706 -0.014800618442283753 0.002138099106329562 0.014800618442283756
1.0416512833849736E8 0.0021542262468025038 0.015017139399301757 0.9978457737531975 -0.015017139399301755 0.9978457737531975 -0.015017139399301755 0.0021542262468025038 0.015017139399301757
1.0573712634405641E8 0.0021706481232866715 0.015236765441791998 0.9978293518767135 -0.015236765441791998 0.9978293518767135 -0.015236765441791998 0.0021706481232866715 0.015236765441791998
1.0733284800616828E8 0.0021873684601994327 0.015459542348866652 0.9978126315398006 -0.015459542348866656 0.9978126315398006 -0.015459542348866656 0.0021873684601994327 0.015459542348866652
1.0895265134811176E8 0.002204391083119785 0.015685516705342663 0.9977956089168802 -0.015685516705342663 0.9977956089168802 -0.015685516705342663 0.002204391083119785 0.015685516705342663
1.1059689979623953E8 0.0022217199289479845 0.015914735916792197 0.9977782800710521 -0.0159147359167922 0.9977782800710521 -0.0159147359167922 0.0022217199289479845 0.015914735916792197
1.1226596226151802E8 0.002239359056563447 0.01614724822449543 0.9977606409434365 -0.01614724822449543 0.9977606409434365 -0.01614724822449543 0.002239359056563447 0.01614724822449543
1.1396021322229806E8 0.002257312657973946 0.01638310272027175 0.9977426873420261 -0.016383102720271745 0.9977426873420261 -0.016383102720271745 0.002257312657973946 0.01638310272027175
1.1568003280833441E8 0.0022755850699474464 0.01662234936116687 0.9977244149300527 -0.01662234936116687 0.9977244149300527 -0.01662234936116687 0.0022755850699474464 0.01662234936116687
1.1742580688607343E8 0.0022941807861160597 0.01686503898397352 0.9977058192138841 -0.01686503898397352 0.9977058192138841 -0.01686503898397352 0.0022941807861160597 0.01686503898397352
1.1919792714522783E8 0.0023131044695400113 0.017111223319564457 0.9976868955304601 -0.01711122331956446 0.9976868955304601 -0.01711122331956446 0.0023131044695400113 0.017111223319564457
1.2099679118665792E8 0.002332360965717819 0.017360955007017887 0.9976676390342822 -0.017360955007017887 0.9976676390342822 -0.017360955007017887 0.002332360965717819 0.017360955007017887
1.2282280261157903E8 0.002351955316027402 0.017614287607516318 0.9976480446839727 -0.017614287607516318 0.9976480446839727 -0.017614287607516318 0.002351955316027402 0.017614287607516318
1.2467637111211549E8 0.002371892771581362 0.01787127561800124 0.9976281072284187 -0.01787127561800124 0.9976281072284187 -0.01787127561800124 0.002371892771581362 0.01787127561800124
1.265579125632208E8 0.0023921788074784058 0.018131974484567877 0.9976078211925216 -0.018131974484567874 0.9976078211925216 -0.018131974484567874 0.0023921788074784058 0.018131974484567877
1.284678491159853E8 0.002412819137431676 0.018396440615585413 0.9975871808625683 -0.018396440615585413 0.9975871808625683 -0.018396440615585413 0.002412819137431676 0.018396440615585413
1.3040660929235186E8 0.0024338197287537247 0.018664731394530332 0.9975661802712464 -0.018664731394530332 0.9975661802712464 -0.018664731394530332 0.0024338197287537247 0.018664731394530332
1.3237462808126101E8 0.002455186817676947 0.01893690519252187 0.9975448131823232 -0.018936905192521874 0.9975448131823232 -0.018936905192521874 0.002455186817676947 0.01893690519252187
1.3437234703624701E8 0.0024769269249876225 0.019213021380550963 0.9975230730750124 -0.019213021380550963 0.9975230730750124 -0.019213021380550963 0.0024769269249876225 0.019213021380550963
1.364002143745067E8 0.0024990468719510864 0.019493140341395716 0.9975009531280489 -0.019493140341395716 0.9975009531280489 -0.019493140341395716 0.0024990468719510864 0.019493140341395716
1.3845868507746372E8 0.0025215537965052213 0.019777323481218724 0.9974784462034948 -0.019777323481218724 0.9974784462034948 -0.019777323481218724 0.0025215537965052213 0.019777323481218724
1.405482209928499E8 0.0025444551696992214 0.02006563324084337 0.9974555448303007 -0.02006563324084337 0.9974555448303007 -0.02006563324084337 0.0025444551696992214 0.02006563324084337
1.426692909383278E8 0.0025677588123546205 0.0203581331067088 0.9974322411876453 -0.0203581331067088 0.9974322411876453 -0.0203581331067088 0.0025677588123546205 0.0203581331067088
1.4482237080667645E8 0.002591472911925649 0.020654887621504758 0.9974085270880745 -0.020654887621504754 0.9974085270880745 -0.020654887621504754 0.002591472911925649 0.020654887621504758
1.4700794367256513E8 0.0026156060395364374 0.020955962394490168 0.9973843939604634 -0.020955962394490168 0.9973843939604634 -0.020955962394490168 0.0026156060395364374 0.020955962394490168
1.492264999009378E8 0.0026401671671730342 0.02126142411150094 0.9973598328328269 -0.02126142411150094 0.9973598328328269 -0.02126142411150094 0.0026401671671730342 0.02126142411150094
1.5147853725703382E8 0.002665165685008964 0.021571340544654802 0.997334834314991 -0.021571340544654802 0.997334834314991 -0.021571340544654802 0.002665165685008964 0.021571340544654802
1.5376456101806876E8 0.002690611418843892 0.021885780561762675 0.9973093885811563 -0.02188578056176267 0.9973093885811563 -0.02188578056176267 0.002690611418843892 0.021885780561762675
1.5608508408660066E8 0.002716514647636024 0.02220481413545813 0.9972834853523639 -0.02220481413545813 0.9972834853523639 -0.02220481413545813 0.002716514647636024 0.02220481413545813
1.5844062710560706E8 0.0027428861211100694 0.022528512352058206 0.9972571138788899 -0.022528512352058203 0.9972571138788899 -0.022528512352058203 0.0027428861211100694 0.022528512352058206
1.6083171857529896E8 0.002769737077423888 0.0228569474201704 0.9972302629225761 -0.0228569474201704 0.9972302629225761 -0.0228569474201704 0.002769737077423888 0.0228569474201704
1.632588949716973E8 0.0027970792608784686 0.0231901926790624 0.9972029207391218 -0.0231901926790624 0.9972029207391218 -0.0231901926790624 0.0027970792608784686 0.0231901926790624
1.6572270086699936E8 0.0028249249396574134 0.02352832260681234 0.9971750750603428 -0.02352832260681234 0.9971750750603428 -0.02352832260681234 0.0028249249396574134 0.02352832260681234
1.6822368905176118E8 0.002853286923583834 0.02387141282825881 0.9971467130764162 -0.02387141282825881 0.9971467130764162 -0.02387141282825881 0.002853286923583834 0.02387141282825881
1.7076242065892437E8 0.002882178581884315 0.024219540122770812 0.9971178214181157 -0.024219540122770812 0.9971178214181157 -0.024219540122770812 0.002882178581884315 0.024219540122770812
1.7333946528971428E8 0.002911613860951461 0.02457278243185895 0.9970883861390485 -0.02457278243185895 0.9970883861390485 -0.02457278243185895 0.002911613860951461 0.02457278243185895
1.7595540114143828E8 0.0029416073020984822 0.024931218866650028 0.9970583926979016 -0.024931218866650028 0.9970583926979016 -0.024931218866650028 0.0029416073020984822 0.024931218866650028
1.786108151372127E8 0.002972174059301165 0.025294929715247633 0.9970278259406989 -0.02529492971524763 0.9970278259406989 -0.02529492971524763 0.002972174059301165 0.025294929715247633
1.8130630305764765E8 0.0030033299169246346 0.02566399645000211 0.9969966700830755 -0.02566399645000211 0.9969966700830755 -0.02566399645000211 0.0030033299169246346 0.02566399645000211
1.840424696745189E8 0.0030350913074342857 0.026038501734713584 0.9969649086925658 -0.02603850173471359 0.9969649086925658 -0.02603850173471359 0.0030350913074342857 0.026038501734713584
1.8681992888645732E8 0.003067475329092223 0.026418529431791727 0.9969325246709078 -0.026418529431791727 0.9969325246709078 -0.026418529431791727 0.003067475329092223 0.026418529431791727
1.8963930385668582E8 0.0031004997636426106 0.026804164609396292 0.9968995002363574 -0.026804164609396285 0.9968995002363574 -0.026804164609396285 0.0031004997636426106 0.026804164609396292
1.92501227152835E8 0.0031341830939912076 0.02719549354858205 0.9968658169060087 -0.02719549354858205 0.9968658169060087 -0.02719549354858205 0.0031341830939912076 0.02719549354858205
1.9540634088886917E8 0.0031685445218863893 0.027592603750472167 0.9968314554781135 -0.027592603750472167 0.9968314554781135 -0.027592603750472167 0.0031685445218863893 0.027592603750472167
1.983552968691535E8 0.003203603985610675 0.02799558394348252 0.9967963960143892 -0.02799558394348252 0.9967963960143892 -0.02799558394348252 0.003203603985610675 0.02799558394348252
2.0134875673469606E8 0.0032393821776937593 0.028404524090620453 0.9967606178223065 -0.028404524090620456 0.9967606178223065 -0.028404524090620456 0.0032393821776937593 0.028404524090620453
2.0438739211159652E8 0.0032759005626596597 0.028819515396879804 0.9967240994373404 -0.028819515396879804 0.9967240994373404 -0.028819515396879804 0.0032759005626596597 0.028819515396879804
2.074718847617352E8 0.0033131813948223147 0.029240650316753852 0.9966868186051775 -0.02924065031675385 0.9966868186051775 -0.02924065031675385 0.0033131813948223147 0.029240650316753852
2.106029267357361E8 0.003351247736145505 0.02966802256188684 0.9966487522638546 -0.02966802256188684 0.9966487522638546 -0.02966802256188684 0.003351247736145505 0.02966802256188684
2.1378122052823865E8 0.0033901234741845233 0.030101727108884164 0.9966098765258155 -0.03010172710888417 0.9966098765258155 -0.03010172710888417 0.0033901234741845233 0.030101727108884164
2.1700747923551247E8 0.0034298333401283736 0.030541860207300292 0.9965701666598715 -0.030541860207300292 0.9965701666598715 -0.030541860207300292 0.0034298333401283736 0.030541860207300292
2.2028242671545094E8 0.0034704029269625966 0.03098851938782232 0.9965295970730373 -0.03098851938782232 0.9965295970730373 -0.03098851938782232 0.0034704029269625966 0.03098851938782232
2.23606797749979E8 0.003511858707774033 0.031441803470666524 0.9964881412922258 -0.031441803470666524 0.9964881412922258 -0.031441803470666524 0.003511858707774033 0.031441803470666524
2.2698133820991236E8 0.003554228054220006 0.03190181257420389 0.9964457719457801 -0.03190181257420389 0.9964457719457801 -0.03190181257420389 0.003554228054220006 0.03190181257420389
2.3040680522230446E8 0.0035975392551853345 0.032368648123829634 0.9964024607448144 -0.032368648123829634 0.9964024607448144 -0.032368648123829634 0.0035975392551853345 0.032368648123829634
2.338839673403185E8 0.003641821535651672 0.032842412861091054 0.9963581784643484 -0.03284241286109105 0.9963581784643484 -0.03284241286109105 0.003641821535651672 0.032842412861091054
2.37413604715664E8 0.0036871050758043775 0.033323210853086205 0.9963128949241956 -0.0333232108530862 0.9963128949241956 -0.0333232108530862 0.0036871050758043775 0.033323210853086205
