!Murata Part Number: LQP15MN22NG02
!These Parameters are Measured in Series Mode Connection
!       o--[Z]--o
!Port1              Port2
!       o-------o
!
!Freq. Start=50[MHz] Stop=20[GHz], 401[Steps]
# Hz S RI R 50
!Freq.(Hz) S11(Real) S11(Imag) S21(Real) S21(Imag) S12(Real) S12(Imag) S22(Real) S22(Imag)
5.0E7 0.023477489401021824 0.06507322536920451 0.9765225105989781 -0.06507322536920453 0.9765225105989781 -0.06507322536920453 0.023477489401021824 0.06507322536920451
5.0754570186123446E7 0.02361747378337665 0.06604475339329628 0.9763825262166231 -0.06604475339329628 0.9763825262166231 -0.06604475339329628 0.02361747378337665 0.06604475339329628
5.152052789556263E7 0.023761661988380565 0.0670304656514007 0.9762383380116194 -0.0670304656514007 0.9762383380116194 -0.0670304656514007 0.023761661988380565 0.0670304656514007
5.229804498202928E7 0.023910178641672507 0.06803055461903475 0.9760898213583274 -0.06803055461903475 0.9760898213583274 -0.06803055461903475 0.023910178641672507 0.06803055461903475
5.308729589274893E7 0.024063151963872105 0.06904521471270592 0.9759368480361279 -0.06904521471270592 0.9759368480361279 -0.06904521471270592 0.024063151963872105 0.06904521471270592
5.388845770760058E7 0.024220713868251965 0.07007464227707078 0.9757792861317482 -0.07007464227707079 0.9757792861317482 -0.07007464227707079 0.024220713868251965 0.07007464227707078
5.470171017884717E7 0.024383000060695634 0.0711190355701248 0.9756169999393045 -0.0711190355701248 0.9756169999393045 -0.0711190355701248 0.024383000060695634 0.0711190355701248
5.5527235771465644E7 0.024550150141971278 0.07217859474632353 0.9754498498580289 -0.07217859474632353 0.9754498498580289 -0.07217859474632353 0.024550150141971278 0.07217859474632353
5.6365219704085544E7 0.024722307712350018 0.0732535218375317 0.9752776922876498 -0.0732535218375317 0.9752776922876498 -0.0732535218375317 0.024722307712350018 0.0732535218375317
5.721584999054556E7 0.0248996204785972 0.0743440207316941 0.9751003795214029 -0.07434402073169409 0.9751003795214029 -0.07434402073169409 0.0248996204785972 0.0743440207316941
5.807931748207712E7 0.025082240363362124 0.07545029714911547 0.974917759636638 -0.07545029714911548 0.974917759636638 -0.07545029714911548 0.025082240363362124 0.07545029714911547
5.8955815910124585E7 0.02527032361699138 0.07657255861623553 0.9747296763830086 -0.07657255861623552 0.9747296763830086 -0.07657255861623552 0.02527032361699138 0.07657255861623553
5.984554192981184E7 0.025464030931788093 0.07771101443677828 0.9745359690682118 -0.07771101443677829 0.9745359690682118 -0.07771101443677829 0.025464030931788093 0.07771101443677828
6.074869516406457E7 0.025663527558737926 0.07886587566015245 0.9743364724412621 -0.07886587566015243 0.9743364724412621 -0.07886587566015243 0.025663527558737926 0.07886587566015245
6.166547824839868E7 0.025868983426720043 0.0800373550469737 0.9741310165732798 -0.0800373550469737 0.9741310165732798 -0.0800373550469737 0.025868983426720043 0.0800373550469737
6.2596096876384385E7 0.026080573264219316 0.08122566703157648 0.9739194267357808 -0.08122566703157648 0.9739194267357808 -0.08122566703157648 0.026080573264219316 0.08122566703157648
6.354075984579668E7 0.026298476723552913 0.08243102768137706 0.9737015232764473 -0.08243102768137706 0.9737015232764473 -0.08243102768137706 0.026298476723552913 0.08243102768137706
6.449967910546205E7 0.02652287850762162 0.08365365465294555 0.9734771214923782 -0.08365365465294555 0.9734771214923782 -0.08365365465294555 0.02652287850762162 0.08365365465294555
6.547306980281226E7 0.026753968499193613 0.08489376714463956 0.9732460315008064 -0.08489376714463955 0.9732460315008064 -0.08489376714463955 0.026753968499193613 0.08489376714463956
6.646115033215589E7 0.026991941892724094 0.08615158584564703 0.973008058107276 -0.08615158584564704 0.973008058107276 -0.08615158584564704 0.026991941892724094 0.08615158584564703
6.746414238367817E7 0.027236999328711643 0.08742733288128123 0.9727630006712883 -0.08742733288128123 0.9727630006712883 -0.08742733288128123 0.027236999328711643 0.08742733288128123
6.848227099318038E7 0.027489347030587315 0.08872123175436514 0.9725106529694125 -0.08872123175436514 0.9725106529694125 -0.08872123175436514 0.027489347030587315 0.08872123175436514
6.951576459256999E7 0.027749196944128883 0.09003350728253814 0.9722508030558712 -0.09003350728253814 0.9722508030558712 -0.09003350728253814 0.027749196944128883 0.09003350728253814
7.056485506111258E7 0.028016766879387683 0.09136438553131143 0.9719832331206123 -0.09136438553131145 0.9719832331206123 -0.09136438553131145 0.028016766879387683 0.09136438553131143
7.162977777745734E7 0.028292280655111267 0.09271409374269517 0.9717077193448888 -0.09271409374269517 0.9717077193448888 -0.09271409374269517 0.028292280655111267 0.09271409374269517
7.271077167244768E7 0.02857596824563908 0.09408286025921281 0.9714240317543609 -0.0940828602592128 0.9714240317543609 -0.0940828602592128 0.02857596824563908 0.09408286025921281
7.380807928272885E7 0.028868065930243558 0.09547091444311472 0.9711319340697567 -0.09547091444311473 0.9711319340697567 -0.09547091444311473 0.028868065930243558 0.09547091444311472
7.492194680516452E7 0.02916881644488274 0.09687848659059613 0.9708311835551171 -0.09687848659059613 0.9708311835551171 -0.09687848659059613 0.02916881644488274 0.09687848659059613
7.60526241520746E7 0.029478469136324525 0.09830580784082062 0.9705215308636754 -0.09830580784082062 0.9705215308636754 -0.09830580784082062 0.029478469136324525 0.09830580784082062
7.720036500730675E7 0.029797280118595705 0.09975311007954366 0.9702027198814042 -0.09975311007954363 0.9702027198814042 -0.09975311007954363 0.029797280118595705 0.09975311007954366
7.836542688315398E7 0.030125512431701803 0.10122062583712557 0.9698744875682983 -0.10122062583712557 0.9698744875682983 -0.10122062583712557 0.030125512431701803 0.10122062583712557
7.954807117813127E7 0.03046343620255673 0.10270858818071914 0.9695365637974432 -0.10270858818071914 0.9695365637974432 -0.10270858818071914 0.03046343620255673 0.10270858818071914
8.074856323562416E7 0.03081132880805284 0.10421723060040977 0.9691886711919471 -0.10421723060040977 0.9691886711919471 -0.10421723060040977 0.03081132880805284 0.10421723060040977
8.196717240342227E7 0.03116947504019312 0.10574678688908183 0.9688305249598068 -0.10574678688908183 0.9688305249598068 -0.10574678688908183 0.03116947504019312 0.10574678688908183
8.320417209415154E7 0.03153816727320002 0.1072974910157815 0.9684618327268 -0.1072974910157815 0.9684618327268 -0.1072974910157815 0.03153816727320002 0.1072974910157815
8.445983984661816E7 0.031917705632503346 0.10886957699233639 0.9680822943674966 -0.10886957699233639 0.9680822943674966 -0.10886957699233639 0.031917705632503346 0.10886957699233639
8.573445738807854E7 0.03230839816550266 0.11046327873299369 0.9676916018344972 -0.11046327873299369 0.9676916018344972 -0.11046327873299369 0.03230839816550266 0.11046327873299369
8.702831069744885E7 0.03271056101398694 0.11207882990682881 0.967289438986013 -0.11207882990682878 0.967289438986013 -0.11207882990682878 0.03271056101398694 0.11207882990682881
8.834169006946853E7 0.03312451858808416 0.11371646378267312 0.9668754814119158 -0.11371646378267312 0.9668754814119158 -0.11371646378267312 0.03312451858808416 0.11371646378267312
8.96748901798321E7 0.033550603741602236 0.11537641306630757 0.9664493962583978 -0.11537641306630754 0.9664493962583978 -0.11537641306630754 0.033550603741602236 0.11537641306630757
9.1028210151304E7 0.03398915794860993 0.11705890972966079 0.96601084205139 -0.11705890972966079 0.96601084205139 -0.11705890972966079 0.03398915794860993 0.11705890972966079
9.240195362083109E7 0.034440531481094334 0.11876418483174941 0.9655594685189055 -0.11876418483174941 0.9655594685189055 -0.11876418483174941 0.034440531481094334 0.11876418483174941
9.379642880766791E7 0.03490508358751748 0.12049246833109353 0.9650949164124826 -0.12049246833109353 0.9650949164124826 -0.12049246833109353 0.03490508358751748 0.12049246833109353
9.521194858253023E7 0.03538318267208161 0.1222439888893364 0.9646168173279184 -0.12224398888933638 0.9646168173279184 -0.12224398888933638 0.03538318267208161 0.1222439888893364
9.664883053779216E7 0.035875206474497705 0.12401897366579717 0.9641247935255024 -0.12401897366579717 0.9641247935255024 -0.12401897366579717 0.035875206474497705 0.12401897366579717
9.810739705874248E7 0.03638154225003643 0.12581764810267887 0.9636184577499635 -0.12581764810267887 0.9636184577499635 -0.12581764810267887 0.03638154225003643 0.12581764810267887
9.958797539591652E7 0.036902586949625796 0.12764023570065605 0.9630974130503742 -0.12764023570065608 0.9630974130503742 -0.12764023570065608 0.036902586949625796 0.12764023570065605
1.0109089773851961E8 0.03743874739974241 0.12948695778456204 0.9625612526002577 -0.12948695778456204 0.9625612526002577 -0.12948695778456204 0.03743874739974241 0.12948695778456204
1.0261650128895843E8 0.03799044048182725 0.13135803325889642 0.9620095595181726 -0.13135803325889642 0.9620095595181726 -0.13135803325889642 0.03799044048182725 0.13135803325889642
1.0416512833849736E8 0.03855809331093815 0.133253678352872 0.9614419066890617 -0.133253678352872 0.9614419066890617 -0.133253678352872 0.03855809331093815 0.133253678352872
1.0573712634405641E8 0.03914214341333395 0.13517410635472174 0.9608578565866661 -0.13517410635472177 0.9608578565866661 -0.13517410635472177 0.03914214341333395 0.13517410635472174
1.0733284800616828E8 0.03974303890266552 0.13711952733498642 0.9602569610973345 -0.13711952733498642 0.9602569610973345 -0.13711952733498642 0.03974303890266552 0.13711952733498642
1.0895265134811176E8 0.04036123865442994 0.1390901478585054 0.95963876134557 -0.13909014785850543 0.95963876134557 -0.13909014785850543 0.04036123865442994 0.1390901478585054
1.1059689979623953E8 0.04099721247832343 0.14108617068483653 0.9590027875216766 -0.14108617068483653 0.9590027875216766 -0.14108617068483653 0.04099721247832343 0.14108617068483653
1.1226596226151802E8 0.04165144128810824 0.14310779445683272 0.9583485587118918 -0.14310779445683272 0.9583485587118918 -0.14310779445683272 0.04165144128810824 0.14310779445683272
1.1396021322229806E8 0.042324417268587614 0.14515521337710932 0.9576755827314123 -0.1451552133771093 0.9576755827314123 -0.1451552133771093 0.042324417268587614 0.14515521337710932
1.1568003280833441E8 0.04301664403925983 0.14722861687213953 0.9569833559607402 -0.14722861687213953 0.9569833559607402 -0.14722861687213953 0.04301664403925983 0.14722861687213953
1.1742580688607343E8 0.04372863681420181 0.1493281892437228 0.9562713631857981 -0.1493281892437228 0.9562713631857981 -0.1493281892437228 0.04372863681420181 0.1493281892437228
1.1919792714522783E8 0.04446092255770783 0.15145410930757822 0.9555390774422922 -0.15145410930757822 0.9555390774422922 -0.15145410930757822 0.04446092255770783 0.15145410930757822
1.2099679118665792E8 0.045214040135186866 0.1536065500188232 0.9547859598648133 -0.1536065500188232 0.9547859598648133 -0.1536065500188232 0.045214040135186866 0.1536065500188232
1.2282280261157903E8 0.045988540458797376 0.15578567808410768 0.9540114595412025 -0.15578567808410768 0.9540114595412025 -0.15578567808410768 0.045988540458797376 0.15578567808410768
1.2467637111211549E8 0.04678498662727493 0.1579916535601865 0.9532150133727253 -0.15799165356018652 0.9532150133727253 -0.15799165356018652 0.04678498662727493 0.1579916535601865
1.265579125632208E8 0.047603954059381705 0.16022462943872126 0.9523960459406184 -0.16022462943872126 0.9523960459406184 -0.16022462943872126 0.047603954059381705 0.16022462943872126
1.284678491159853E8 0.048446030620384356 0.16248475121712214 0.9515539693796156 -0.16248475121712214 0.9515539693796156 -0.16248475121712214 0.048446030620384356 0.16248475121712214
1.3040660929235186E8 0.049311816740939485 0.16477215645525145 0.9506881832590605 -0.16477215645525145 0.9506881832590605 -0.16477215645525145 0.049311816740939485 0.16477215645525145
1.3237462808126101E8 0.05020192552774131 0.1670869743178281 0.949798074472259 -0.1670869743178281 0.949798074472259 -0.1670869743178281 0.05020192552774131 0.1670869743178281
1.3437234703624701E8 0.051116982865261194 0.16942932510239325 0.9488830171347388 -0.16942932510239328 0.9488830171347388 -0.16942932510239328 0.051116982865261194 0.16942932510239325
1.364002143745067E8 0.05205762750788194 0.1717993197527142 0.9479423724921182 -0.17179931975271423 0.9479423724921182 -0.17179931975271423 0.05205762750788194 0.1717993197527142
1.3845868507746372E8 0.05302451116170508 0.17419705935752686 0.9469754888382949 -0.17419705935752686 0.9469754888382949 -0.17419705935752686 0.05302451116170508 0.17419705935752686
1.405482209928499E8 0.05401829855528423 0.17662263463454206 0.9459817014447157 -0.17662263463454203 0.9459817014447157 -0.17662263463454203 0.05401829855528423 0.17662263463454206
1.426692909383278E8 0.05503966749851089 0.17907612539966322 0.9449603325014893 -0.17907612539966325 0.9449603325014893 -0.17907612539966325 0.05503966749851089 0.17907612539966322
1.4482237080667645E8 0.05608930892885615 0.18155760002139318 0.9439106910711439 -0.18155760002139318 0.9439106910711439 -0.18155760002139318 0.05608930892885615 0.18155760002139318
1.4700794367256513E8 0.05716792694414628 0.18406711486043598 0.9428320730558538 -0.184067114860436 0.9428320730558538 -0.184067114860436 0.05716792694414628 0.18406711486043598
1.492264999009378E8 0.05827623882102509 0.18660471369452905 0.9417237611789748 -0.18660471369452905 0.9417237611789748 -0.18660471369452905 0.05827623882102509 0.18660471369452905
1.5147853725703382E8 0.05941497501823544 0.18917042712857715 0.9405850249817646 -0.18917042712857715 0.9405850249817646 -0.18917042712857715 0.05941497501823544 0.18917042712857715
1.5376456101806876E8 0.060584879163826294 0.19176427199019175 0.9394151208361736 -0.19176427199019175 0.9394151208361736 -0.19176427199019175 0.060584879163826294 0.19176427199019175
1.5608508408660066E8 0.061786708025373116 0.19438625071077914 0.938213291974627 -0.19438625071077914 0.938213291974627 -0.19438625071077914 0.061786708025373116 0.19438625071077914
1.5844062710560706E8 0.06302123146227556 0.1970363506923555 0.9369787685377244 -0.1970363506923555 0.9369787685377244 -0.1970363506923555 0.06302123146227556 0.1970363506923555
1.6083171857529896E8 0.06428923235917965 0.1997145436603142 0.9357107676408204 -0.19971454366031421 0.9357107676408204 -0.19971454366031421 0.06428923235917965 0.1997145436603142
1.632588949716973E8 0.06559150653955063 0.20242078500240726 0.9344084934604495 -0.20242078500240732 0.9344084934604495 -0.20242078500240732 0.06559150653955063 0.20242078500240726
1.6572270086699936E8 0.06692886265840794 0.20515501309425355 0.9330711373415922 -0.2051550130942535 0.9330711373415922 -0.2051550130942535 0.06692886265840794 0.20515501309425355
1.6822368905176118E8 0.06830212207321583 0.207917148611728 0.9316978779267842 -0.207917148611728 0.9316978779267842 -0.207917148611728 0.06830212207321583 0.207917148611728
1.7076242065892437E8 0.06971211869191137 0.21070709383064143 0.9302878813080886 -0.21070709383064143 0.9302878813080886 -0.21070709383064143 0.06971211869191137 0.21070709383064143
1.7333946528971428E8 0.07115969879703783 0.21352473191416363 0.9288403012029622 -0.21352473191416363 0.9288403012029622 -0.21352473191416363 0.07115969879703783 0.21352473191416363
1.7595540114143828E8 0.0726457208449423 0.21636992618850348 0.9273542791550579 -0.2163699261885035 0.9273542791550579 -0.2163699261885035 0.0726457208449423 0.21636992618850348
1.786108151372127E8 0.07417105523898716 0.2192425194074069 0.9258289447610127 -0.2192425194074069 0.9258289447610127 -0.2192425194074069 0.07417105523898716 0.2192425194074069
1.8130630305764765E8 0.07573658407572054 0.22214233300609665 0.9242634159242794 -0.22214233300609665 0.9242634159242794 -0.22214233300609665 0.07573658407572054 0.22214233300609665
1.840424696745189E8 0.07734320086294437 0.22506916634532817 0.9226567991370556 -0.22506916634532817 0.9226567991370556 -0.22506916634532817 0.07734320086294437 0.22506916634532817
1.8681992888645732E8 0.0789918102086209 0.22802279594630329 0.9210081897913792 -0.22802279594630334 0.9210081897913792 -0.22802279594630334 0.0789918102086209 0.22802279594630329
1.8963930385668582E8 0.08068332747955737 0.23100297471723996 0.9193166725204427 -0.23100297471723996 0.9193166725204427 -0.23100297471723996 0.08068332747955737 0.23100297471723996
1.92501227152835E8 0.0824186784288118 0.23400943117245696 0.9175813215711883 -0.2340094311724569 0.9175813215711883 -0.2340094311724569 0.0824186784288118 0.23400943117245696
1.9540634088886917E8 0.08419879879077259 0.23704186864490295 0.9158012012092275 -0.23704186864490298 0.9158012012092275 -0.23704186864490298 0.08419879879077259 0.23704186864490295
1.983552968691535E8 0.08602463384287035 0.24009996449311702 0.9139753661571295 -0.240099964493117 0.9139753661571295 -0.240099964493117 0.08602463384287035 0.24009996449311702
2.0134875673469606E8 0.08789713793289557 0.24318336930367782 0.9121028620671044 -0.24318336930367782 0.9121028620671044 -0.24318336930367782 0.08789713793289557 0.24318336930367782
2.0438739211159652E8 0.08981727397090986 0.24629170609026516 0.91018272602909 -0.24629170609026513 0.91018272602909 -0.24629170609026513 0.08981727397090986 0.24629170609026516
2.074718847617352E8 0.09178601288475713 0.2494245694905242 0.9082139871152429 -0.2494245694905242 0.9082139871152429 -0.2494245694905242 0.09178601288475713 0.2494245694905242
2.106029267357361E8 0.09380433303820283 0.25258152496199193 0.9061956669617972 -0.25258152496199193 0.9061956669617972 -0.25258152496199193 0.09380433303820283 0.25258152496199193
2.1378122052823865E8 0.09587321961075516 0.2557621079784153 0.9041267803892448 -0.2557621079784153 0.9041267803892448 -0.2557621079784153 0.09587321961075516 0.2557621079784153
2.1700747923551247E8 0.09799366393824843 0.25896582322785855 0.9020063360617516 -0.25896582322785855 0.9020063360617516 -0.25896582322785855 0.09799366393824843 0.25896582322785855
2.2028242671545094E8 0.10016666281330212 0.26219214381406875 0.899833337186698 -0.26219214381406875 0.899833337186698 -0.26219214381406875 0.10016666281330212 0.26219214381406875
2.23606797749979E8 0.10239321774480323 0.26544051046263784 0.8976067822551969 -0.2654405104626379 0.8976067822551969 -0.2654405104626379 0.10239321774480323 0.26544051046263784
2.2698133820991236E8 0.1046743341755979 0.26871033073357165 0.8953256658244021 -0.26871033073357165 0.8953256658244021 -0.26871033073357165 0.1046743341755979 0.26871033073357165
2.3040680522230446E8 0.10701102065761955 0.2720009782419435 0.8929889793423805 -0.2720009782419435 0.8929889793423805 -0.2720009782419435 0.10701102065761955 0.2720009782419435
2.338839673403185E8 0.10940428798372628 0.2753117918883854 0.8905957120162736 -0.2753117918883854 0.8905957120162736 -0.2753117918883854 0.10940428798372628 0.2753117918883854
2.37413604715664E8 0.11185514827556983 0.27864207510123673 0.88814485172443 -0.27864207510123673 0.88814485172443 -0.27864207510123673 0.11185514827556983 0.27864207510123673
2.4099650927363476E8 0.11436461402686768 0.28199109509224163 0.8856353859731322 -0.28199109509224163 0.8856353859731322 -0.28199109509224163 0.11436461402686768 0.28199109509224163
2.446334848907889E8 0.11693369710150903 0.28535808212775776 0.883066302898491 -0.28535808212775776 0.883066302898491 -0.28535808212775776 0.11693369710150903 0.28535808212775776
2.4832534757531032E8 0.11956340768598232 0.28874222881750883 0.8804365923140178 -0.28874222881750883 0.8804365923140178 -0.28874222881750883 0.11956340768598232 0.28874222881750883
2.5207292565009177E8 0.12225475319567498 0.2921426894229806 0.877745246804325 -0.29214268942298055 0.877745246804325 -0.29214268942298055 0.12225475319567498 0.2921426894229806
