!Murata Part Number: LQP15MN1N8B02
!These Parameters are Measured in Series Mode Connection
!       o--[Z]--o
!Port1              Port2
!       o-------o
!
!Freq. Start=50[MHz] Stop=20[GHz], 401[Steps]
# Hz S RI R 50
!Freq.(Hz) S11(Real) S11(Imag) S21(Real) S21(Imag) S12(Real) S12(Imag) S22(Real) S22(Imag)
5.0E7 7.767061814455078E-4 0.004707598168181176 0.9992232938185545 -0.004707598168181176 0.9992232938185545 -0.004707598168181176 7.767061814455078E-4 0.004707598168181176
5.0754570186123446E7 7.790246567490959E-4 0.004778301637188242 0.9992209753432508 -0.004778301637188242 0.9992209753432508 -0.004778301637188242 7.790246567490959E-4 0.004778301637188242
5.152052789556263E7 7.814094918893201E-4 0.00485005734214682 0.9992185905081106 -0.00485005734214682 0.9992185905081106 -0.00485005734214682 7.814094918893201E-4 0.00485005734214682
5.229804498202928E7 7.838624659018553E-4 0.004922880548628088 0.999216137534098 -0.0049228805486280875 0.999216137534098 -0.0049228805486280875 7.838624659018553E-4 0.004922880548628088
5.308729589274893E7 7.863853986682216E-4 0.004996786729029938 0.9992136146013316 -0.0049967867290299384 0.9992136146013316 -0.0049967867290299384 7.863853986682216E-4 0.004996786729029938
5.388845770760058E7 7.889801514689534E-4 0.005071791564939419 0.9992110198485312 -0.005071791564939419 0.9992110198485312 -0.005071791564939419 7.889801514689534E-4 0.005071791564939419
5.470171017884717E7 7.91648627521852E-4 0.0051479109495171345 0.9992083513724781 -0.0051479109495171345 0.9992083513724781 -0.0051479109495171345 7.91648627521852E-4 0.0051479109495171345
5.5527235771465644E7 7.943927725037548E-4 0.005225160989904517 0.9992056072274964 -0.005225160989904516 0.9992056072274964 -0.005225160989904516 7.943927725037548E-4 0.005225160989904517
5.6365219704085544E7 7.972145750542164E-4 0.0053035580096550345 0.9992027854249457 -0.0053035580096550345 0.9992027854249457 -0.0053035580096550345 7.972145750542164E-4 0.0053035580096550345
5.721584999054556E7 8.001160672594435E-4 0.005383118551190545 0.9991998839327406 -0.005383118551190546 0.9991998839327406 -0.005383118551190546 8.001160672594435E-4 0.005383118551190545
5.807931748207712E7 8.030993251147634E-4 0.005463859378284015 0.9991969006748852 -0.005463859378284015 0.9991969006748852 -0.005463859378284015 8.030993251147634E-4 0.005463859378284015
5.8955815910124585E7 8.061664689638903E-4 0.0055457974785701 0.9991938335310362 -0.0055457974785701 0.9991938335310362 -0.0055457974785701 8.061664689638903E-4 0.0055457974785701
5.984554192981184E7 8.093196639131725E-4 0.005628950066085082 0.9991906803360868 -0.005628950066085082 0.9991906803360868 -0.005628950066085082 8.093196639131725E-4 0.005628950066085082
6.074869516406457E7 8.125611202190091E-4 0.005713334583837875 0.999187438879781 -0.005713334583837875 0.999187438879781 -0.005713334583837875 8.125611202190091E-4 0.005713334583837875
6.166547824839868E7 8.158930936465506E-4 0.005798968706413962 0.9991841069063535 -0.005798968706413962 0.9991841069063535 -0.005798968706413962 8.158930936465506E-4 0.005798968706413962
6.2596096876384385E7 8.193178857978103E-4 0.005885870342614234 0.9991806821142022 -0.005885870342614234 0.9991806821142022 -0.005885870342614234 8.193178857978103E-4 0.005885870342614234
6.354075984579668E7 8.228378444072608E-4 0.005974057638130971 0.9991771621555926 -0.005974057638130971 0.9991771621555926 -0.005974057638130971 8.228378444072608E-4 0.005974057638130971
6.449967910546205E7 8.264553636029926E-4 0.006063548978263228 0.999173544636397 -0.006063548978263228 0.999173544636397 -0.006063548978263228 8.264553636029926E-4 0.006063548978263228
6.547306980281226E7 8.301728841315068E-4 0.0061543629906742545 0.9991698271158683 -0.006154362990674254 0.9991698271158683 -0.006154362990674254 8.301728841315068E-4 0.0061543629906742545
6.646115033215589E7 8.339928935442087E-4 0.006246518548193634 0.9991660071064558 -0.006246518548193634 0.9991660071064558 -0.006246518548193634 8.339928935442087E-4 0.006246518548193634
6.746414238367817E7 8.379179263436862E-4 0.006340034771667091 0.9991620820736562 -0.006340034771667091 0.9991620820736562 -0.006340034771667091 8.379179263436862E-4 0.006340034771667091
6.848227099318038E7 8.41950564087881E-4 0.006434931032857121 0.999158049435912 -0.006434931032857121 0.999158049435912 -0.006434931032857121 8.41950564087881E-4 0.006434931032857121
6.951576459256999E7 8.460934354502928E-4 0.006531226957397834 0.9991539065645497 -0.006531226957397834 0.9991539065645497 -0.006531226957397834 8.460934354502928E-4 0.006531226957397834
7.056485506111258E7 8.503492162344058E-4 0.006628942427807572 0.9991496507837656 -0.00662894242780757 0.9991496507837656 -0.00662894242780757 8.503492162344058E-4 0.006628942427807572
7.162977777745734E7 8.547206293405854E-4 0.006728097586563175 0.9991452793706594 -0.006728097586563177 0.9991452793706594 -0.006728097586563177 8.547206293405854E-4 0.006728097586563175
7.271077167244768E7 8.592104446837714E-4 0.006828712839240001 0.9991407895553164 -0.006828712839240001 0.9991407895553164 -0.006828712839240001 8.592104446837714E-4 0.006828712839240001
7.380807928272885E7 8.638214790603837E-4 0.00693080885772193 0.9991361785209396 -0.006930808857721931 0.9991361785209396 -0.006930808857721931 8.638214790603837E-4 0.00693080885772193
7.492194680516452E7 8.685565959629604E-4 0.007034406583486092 0.999131443404037 -0.007034406583486092 0.999131443404037 -0.007034406583486092 8.685565959629604E-4 0.007034406583486092
7.60526241520746E7 8.734187053411915E-4 0.007139527230967041 0.9991265812946589 -0.007139527230967041 0.9991265812946589 -0.007139527230967041 8.734187053411915E-4 0.007139527230967041
7.720036500730675E7 8.784107633081265E-4 0.007246192291005581 0.9991215892366919 -0.007246192291005583 0.9991215892366919 -0.007246192291005583 8.784107633081265E-4 0.007246192291005581
7.836542688315398E7 8.835357717905351E-4 0.007354423534387596 0.9991164642282094 -0.007354423534387596 0.9991164642282094 -0.007354423534387596 8.835357717905351E-4 0.007354423534387596
7.954807117813127E7 8.887967781225658E-4 0.007464243015478572 0.9991112032218774 -0.007464243015478574 0.9991112032218774 -0.007464243015478574 8.887967781225658E-4 0.007464243015478572
8.074856323562416E7 8.941968745820541E-4 0.007575673075959695 0.9991058031254179 -0.007575673075959695 0.9991058031254179 -0.007575673075959695 8.941968745820541E-4 0.007575673075959695
8.196717240342227E7 8.997391978690884E-4 0.007688736348671831 0.999100260802131 -0.007688736348671831 0.999100260802131 -0.007688736348671831 8.997391978690884E-4 0.007688736348671831
8.320417209415154E7 9.054269285266822E-4 0.007803455761573797 0.9990945730714733 -0.007803455761573797 0.9990945730714733 -0.007803455761573797 9.054269285266822E-4 0.007803455761573797
8.445983984661816E7 9.1126329030368E-4 0.007919854541821689 0.9990887367096963 -0.007919854541821689 0.9990887367096963 -0.007919854541821689 9.1126329030368E-4 0.007919854541821689
8.573445738807854E7 9.172515494603687E-4 0.008037956219976349 0.9990827484505396 -0.008037956219976349 0.9990827484505396 -0.008037956219976349 9.172515494603687E-4 0.008037956219976349
8.702831069744885E7 9.23395014017553E-4 0.008157784634346146 0.9990766049859824 -0.008157784634346146 0.9990766049859824 -0.008157784634346146 9.23395014017553E-4 0.008157784634346146
8.834169006946853E7 9.296970329502739E-4 0.008279363935472663 0.9990703029670498 -0.008279363935472663 0.9990703029670498 -0.008279363935472663 9.296970329502739E-4 0.008279363935472663
8.96748901798321E7 9.36160995327705E-4 0.008402718590767045 0.9990638390046722 -0.008402718590767046 0.9990638390046722 -0.008402718590767046 9.36160995327705E-4 0.008402718590767045
9.1028210151304E7 9.427903294012063E-4 0.008527873389304972 0.999057209670599 -0.008527873389304974 0.999057209670599 -0.008527873389304974 9.427903294012063E-4 0.008527873389304972
9.240195362083109E7 9.495885016429634E-4 0.00865485344678844 0.999050411498357 -0.008654853446788442 0.999050411498357 -0.008654853446788442 9.495885016429634E-4 0.00865485344678844
9.379642880766791E7 9.565590157381201E-4 0.00878368421068274 0.9990434409842617 -0.00878368421068274 0.9990434409842617 -0.00878368421068274 9.565590157381201E-4 0.00878368421068274
9.521194858253023E7 9.637054115338304E-4 0.008914391465537151 0.9990362945884661 -0.008914391465537151 0.9990362945884661 -0.008914391465537151 9.637054115338304E-4 0.008914391465537151
9.664883053779216E7 9.710312639491962E-4 0.009047001338498072 0.999028968736051 -0.009047001338498072 0.999028968736051 -0.009047001338498072 9.710312639491962E-4 0.009047001338498072
9.810739705874248E7 9.78540181850625E-4 0.009181540305023281 0.9990214598181493 -0.009181540305023281 0.9990214598181493 -0.009181540305023281 9.78540181850625E-4 0.009181540305023281
9.958797539591652E7 9.862358068977338E-4 0.009318035194806307 0.9990137641931021 -0.009318035194806307 0.9990137641931021 -0.009318035194806307 9.862358068977338E-4 0.009318035194806307
1.0109089773851961E8 9.941218123655671E-4 0.009456513197919741 0.9990058781876342 -0.009456513197919741 0.9990058781876342 -0.009456513197919741 9.941218123655671E-4 0.009456513197919741
1.0261650128895843E8 0.0010022019019495245 0.009597001871186447 0.9989977980980504 -0.009597001871186447 0.9989977980980504 -0.009597001871186447 0.0010022019019495245 0.009597001871186447
1.0416512833849736E8 0.0010104798085600667 0.009739529144787505 0.9989895201914397 -0.009739529144787503 0.9989895201914397 -0.009739529144787503 0.0010104798085600667 0.009739529144787505
1.0573712634405641E8 0.0010189592931149848 0.00988412332911579 0.998981040706885 -0.009884123329115788 0.998981040706885 -0.009884123329115788 0.0010189592931149848 0.00988412332911579
1.0733284800616828E8 0.0010276441433376856 0.010030813121883754 0.9989723558566622 -0.010030813121883754 0.9989723558566622 -0.010030813121883754 0.0010276441433376856 0.010030813121883754
1.0895265134811176E8 0.0010365381725707145 0.010179627615494008 0.9989634618274295 -0.010179627615494007 0.9989634618274295 -0.010179627615494007 0.0010365381725707145 0.010179627615494008
1.1059689979623953E8 0.001045645218614437 0.010330596304680894 0.9989543547813855 -0.010330596304680894 0.9989543547813855 -0.010330596304680894 0.001045645218614437 0.010330596304680894
1.1226596226151802E8 0.0010549691426015736 0.010483749094431156 0.9989450308573984 -0.010483749094431156 0.9989450308573984 -0.010483749094431156 0.0010549691426015736 0.010483749094431156
1.1396021322229806E8 0.00106451382791901 0.010639116308191199 0.998935486172081 -0.010639116308191199 0.998935486172081 -0.010639116308191199 0.00106451382791901 0.010639116308191199
1.1568003280833441E8 0.0010742831791890695 0.010796728696368297 0.9989257168208108 -0.010796728696368297 0.9989257168208108 -0.010796728696368297 0.0010742831791890695 0.010796728696368297
1.1742580688607343E8 0.0010842811213231675 0.010956617445132473 0.9989157188786769 -0.010956617445132473 0.9989157188786769 -0.010956617445132473 0.0010842811213231675 0.010956617445132473
1.1919792714522783E8 0.0010945115986614982 0.01111881418552525 0.9989054884013385 -0.01111881418552525 0.9989054884013385 -0.01111881418552525 0.0010945115986614982 0.01111881418552525
1.2099679118665792E8 0.0011049785742131362 0.011283351002880936 0.9988950214257868 -0.011283351002880936 0.9988950214257868 -0.011283351002880936 0.0011049785742131362 0.011283351002880936
1.2282280261157903E8 0.0011156860290116094 0.011450260446565393 0.9988843139709884 -0.011450260446565393 0.9988843139709884 -0.011450260446565393 0.0011156860290116094 0.011450260446565393
1.2467637111211549E8 0.0011266379616016744 0.011619575540036479 0.9988733620383983 -0.011619575540036479 0.9988733620383983 -0.011619575540036479 0.0011266379616016744 0.011619575540036479
1.265579125632208E8 0.0011378383876736655 0.011791329791229628 0.9988621616123262 -0.011791329791229628 0.9988621616123262 -0.011791329791229628 0.0011378383876736655 0.011791329791229628
1.284678491159853E8 0.001149291339862349 0.011965557203271016 0.9988507086601376 -0.011965557203271016 0.9988507086601376 -0.011965557203271016 0.001149291339862349 0.011965557203271016
1.3040660929235186E8 0.00116100086772779 0.01214229228551998 0.998838999132272 -0.012142292285519982 0.998838999132272 -0.012142292285519982 0.00116100086772779 0.01214229228551998
1.3237462808126101E8 0.0011729710379361968 0.012321570064941289 0.9988270289620637 -0.012321570064941287 0.9988270289620637 -0.012321570064941287 0.0011729710379361968 0.012321570064941289
1.3437234703624701E8 0.0011852059346591389 0.012503426097806695 0.9988147940653409 -0.012503426097806695 0.9988147940653409 -0.012503426097806695 0.0011852059346591389 0.012503426097806695
1.364002143745067E8 0.0011977096602098797 0.012687896481724288 0.9988022903397902 -0.012687896481724288 0.9988022903397902 -0.012687896481724288 0.0011977096602098797 0.012687896481724288
1.3845868507746372E8 0.0012104863359358544 0.01287501786799281 0.9987895136640642 -0.012875017867992809 0.9987895136640642 -0.012875017867992809 0.0012104863359358544 0.01287501786799281
1.405482209928499E8 0.0012235401033864905 0.013064827474276949 0.9987764598966136 -0.013064827474276947 0.9987764598966136 -0.013064827474276947 0.0012235401033864905 0.013064827474276949
1.426692909383278E8 0.0012368751257756886 0.01325736309759838 0.9987631248742243 -0.01325736309759838 0.9987631248742243 -0.01325736309759838 0.0012368751257756886 0.01325736309759838
1.4482237080667645E8 0.0012504955897582747 0.013452663127635954 0.9987495044102417 -0.013452663127635957 0.9987495044102417 -0.013452663127635957 0.0012504955897582747 0.013452663127635954
1.4700794367256513E8 0.0012644057075396333 0.013650766560327172 0.9987355942924603 -0.013650766560327173 0.9987355942924603 -0.013650766560327173 0.0012644057075396333 0.013650766560327172
1.492264999009378E8 0.0012786097193375348 0.013851713011761723 0.9987213902806624 -0.013851713011761723 0.9987213902806624 -0.013851713011761723 0.0012786097193375348 0.013851713011761723
1.5147853725703382E8 0.0012931118962148417 0.01405554273235645 0.9987068881037853 -0.01405554273235645 0.9987068881037853 -0.01405554273235645 0.0012931118962148417 0.01405554273235645
1.5376456101806876E8 0.0013079165433013526 0.01426229662129987 0.9986920834566986 -0.014262296621299866 0.9986920834566986 -0.014262296621299866 0.0013079165433013526 0.01426229662129987
1.5608508408660066E8 0.0013230280034224808 0.014472016241252897 0.9986769719965773 -0.014472016241252897 0.9986769719965773 -0.014472016241252897 0.0013230280034224808 0.014472016241252897
1.5844062710560706E8 0.0013384506611518049 0.014684743833291172 0.9986615493388483 -0.014684743833291172 0.9986615493388483 -0.014684743833291172 0.0013384506611518049 0.014684743833291172
1.6083171857529896E8 0.001354188947303712 0.014900522332073054 0.9986458110526962 -0.014900522332073054 0.9986458110526962 -0.014900522332073054 0.001354188947303712 0.014900522332073054
1.632588949716973E8 0.0013702473438814743 0.015119395381216212 0.9986297526561183 -0.015119395381216212 0.9986297526561183 -0.015119395381216212 0.0013702473438814743 0.015119395381216212
1.6572270086699936E8 0.0013866303894950192 0.015341407348864354 0.9986133696105048 -0.015341407348864354 0.9986133696105048 -0.015341407348864354 0.0013866303894950192 0.015341407348864354
1.6822368905176118E8 0.0014033426852615364 0.015566603343424645 0.9985966573147386 -0.015566603343424645 0.9985966573147386 -0.015566603343424645 0.0014033426852615364 0.015566603343424645
1.7076242065892437E8 0.0014203889012007881 0.015795029229455384 0.998579611098799 -0.015795029229455384 0.998579611098799 -0.015795029229455384 0.0014203889012007881 0.015795029229455384
1.7333946528971428E8 0.001437773783135604 0.016026731643682398 0.9985622262168644 -0.016026731643682398 0.9985622262168644 -0.016026731643682398 0.001437773783135604 0.016026731643682398
1.7595540114143828E8 0.0014555021601065756 0.01626175801112183 0.9985444978398934 -0.01626175801112183 0.9985444978398934 -0.01626175801112183 0.0014555021601065756 0.01626175801112183
1.786108151372127E8 0.001473578952308403 0.01650015656128634 0.9985264210476916 -0.01650015656128634 0.9985264210476916 -0.01650015656128634 0.001473578952308403 0.01650015656128634
1.8130630305764765E8 0.0014920091795536747 0.016741976344451154 0.9985079908204464 -0.016741976344451154 0.9985079908204464 -0.016741976344451154 0.0014920091795536747 0.016741976344451154
1.840424696745189E8 0.00151079797026815 0.01698726724795573 0.9984892020297318 -0.01698726724795573 0.9984892020297318 -0.01698726724795573 0.00151079797026815 0.01698726724795573
1.8681992888645732E8 0.0015299505710198078 0.01723608001251677 0.9984700494289803 -0.01723608001251677 0.9984700494289803 -0.01723608001251677 0.0015299505710198078 0.01723608001251677
1.8963930385668582E8 0.001549472356582097 0.017488466248527918 0.9984505276434178 -0.017488466248527918 0.9984505276434178 -0.017488466248527918 0.001549472356582097 0.017488466248527918
1.92501227152835E8 0.001569368840529954 0.017744478452321768 0.9984306311594701 -0.017744478452321768 0.9984306311594701 -0.017744478452321768 0.001569368840529954 0.017744478452321768
1.9540634088886917E8 0.0015896456863652327 0.018004170022369634 0.9984103543136348 -0.018004170022369634 0.9984103543136348 -0.018004170022369634 0.0015896456863652327 0.018004170022369634
1.983552968691535E8 0.0016103087191663122 0.018267595275395142 0.9983896912808338 -0.018267595275395142 0.9983896912808338 -0.018267595275395142 0.0016103087191663122 0.018267595275395142
2.0134875673469606E8 0.0016313639377547654 0.018534809462378243 0.9983686360622451 -0.018534809462378246 0.9983686360622451 -0.018534809462378246 0.0016313639377547654 0.018534809462378243
2.0438739211159652E8 0.0016528175273700662 0.018805868784426652 0.9983471824726301 -0.018805868784426655 0.9983471824726301 -0.018805868784426655 0.0016528175273700662 0.018805868784426652
2.074718847617352E8 0.0016746758728415653 0.01908083040849306 0.9983253241271586 -0.01908083040849306 0.9983253241271586 -0.01908083040849306 0.0016746758728415653 0.01908083040849306
2.106029267357361E8 0.001696945572245132 0.019359752482917034 0.9983030544277548 -0.019359752482917037 0.9983030544277548 -0.019359752482917037 0.001696945572245132 0.019359752482917034
2.1378122052823865E8 0.0017196334510302487 0.019642694152772186 0.9982803665489697 -0.019642694152772186 0.9982803665489697 -0.019642694152772186 0.0017196334510302487 0.019642694152772186
2.1700747923551247E8 0.001742746576601733 0.019929715575000166 0.9982572534233982 -0.019929715575000166 0.9982572534233982 -0.019929715575000166 0.001742746576601733 0.019929715575000166
2.2028242671545094E8 0.001766292273338802 0.020220877933315055 0.9982337077266612 -0.020220877933315055 0.9982337077266612 -0.020220877933315055 0.001766292273338802 0.020220877933315055
2.23606797749979E8 0.0017902781380328566 0.02051624345286291 0.9982097218619673 -0.02051624345286291 0.9982097218619673 -0.02051624345286291 0.0017902781380328566 0.02051624345286291
2.2698133820991236E8 0.001814712055724168 0.02081587541462351 0.9981852879442759 -0.02081587541462351 0.9981852879442759 -0.02081587541462351 0.001814712055724168 0.02081587541462351
2.3040680522230446E8 0.001839602215916622 0.02111983816954306 0.9981603977840834 -0.02111983816954306 0.9981603977840834 -0.02111983816954306 0.001839602215916622 0.02111983816954306
2.338839673403185E8 0.0018649571291487668 0.021428197152388532 0.9981350428708511 -0.021428197152388532 0.9981350428708511 -0.021428197152388532 0.0018649571291487668 0.021428197152388532
2.37413604715664E8 0.0018907856438988015 0.021741018895317186 0.9981092143561011 -0.021741018895317186 0.9981092143561011 -0.021741018895317186 0.0018907856438988015 0.021741018895317186
