!Murata Part Number: LQP15MN5N1B02
!These Parameters are Measured in Series Mode Connection
!       o--[Z]--o
!Port1              Port2
!       o-------o
!
!Freq. Start=50[MHz] Stop=20[GHz], 401[Steps]
# Hz S RI R 50
!Freq.(Hz) S11(Real) S11(Imag) S21(Real) S21(Imag) S12(Real) S12(Imag) S22(Real) S22(Imag)
5.0E7 0.004427401221204521 0.015306653368846509 0.9955725987787953 -0.015306653368846509 0.9955725987787953 -0.015306653368846509 0.004427401221204521 0.015306653368846509
5.0754570186123446E7 0.004441670666313937 0.015532728662602375 0.9955583293336862 -0.015532728662602375 0.9955583293336862 -0.015532728662602375 0.004441670666313937 0.015532728662602375
5.152052789556263E7 0.004456234661376412 0.015762097580645385 0.9955437653386234 -0.015762097580645385 0.9955437653386234 -0.015762097580645385 0.004456234661376412 0.015762097580645385
5.229804498202928E7 0.004471098428633528 0.015994808952634356 0.9955289015713665 -0.015994808952634353 0.9955289015713665 -0.015994808952634353 0.004471098428633528 0.015994808952634356
5.308729589274893E7 0.0044862673406954445 0.01623091242262284 0.9955137326593045 -0.01623091242262284 0.9955137326593045 -0.01623091242262284 0.0044862673406954445 0.01623091242262284
5.388845770760058E7 0.004501746930219516 0.016470458463221163 0.9954982530697806 -0.016470458463221163 0.9954982530697806 -0.016470458463221163 0.004501746930219516 0.016470458463221163
5.470171017884717E7 0.004517542900023628 0.016713498389728965 0.9954824570999763 -0.016713498389728965 0.9954824570999763 -0.016713498389728965 0.004517542900023628 0.016713498389728965
5.5527235771465644E7 0.0045336611336318665 0.016960084374221366 0.9954663388663682 -0.01696008437422137 0.9954663388663682 -0.01696008437422137 0.0045336611336318665 0.016960084374221366
5.6365219704085544E7 0.0045501077062490005 0.01721026945957188 0.9954498922937509 -0.01721026945957188 0.9954498922937509 -0.01721026945957188 0.0045501077062490005 0.01721026945957188
5.721584999054556E7 0.004566888896159059 0.017464107573396198 0.995433111103841 -0.017464107573396198 0.995433111103841 -0.017464107573396198 0.004566888896159059 0.017464107573396198
5.807931748207712E7 0.004584011196542134 0.017721653541900913 0.9954159888034579 -0.01772165354190091 0.9954159888034579 -0.01772165354190091 0.004584011196542134 0.017721653541900913
5.8955815910124585E7 0.004601481327702429 0.017982963103622653 0.9953985186722976 -0.017982963103622653 0.9953985186722976 -0.017982963103622653 0.004601481327702429 0.017982963103622653
5.984554192981184E7 0.004619306249699666 0.018248092923043427 0.9953806937503002 -0.018248092923043423 0.9953806937503002 -0.018248092923043423 0.004619306249699666 0.018248092923043427
6.074869516406457E7 0.004637493175374814 0.018517100604068873 0.9953625068246252 -0.018517100604068873 0.9953625068246252 -0.018517100604068873 0.004637493175374814 0.018517100604068873
6.166547824839868E7 0.004656049583760427 0.018790044703357652 0.9953439504162395 -0.018790044703357656 0.9953439504162395 -0.018790044703357656 0.004656049583760427 0.018790044703357652
6.2596096876384385E7 0.004674983233864981 0.019066984743490556 0.9953250167661349 -0.019066984743490556 0.9953250167661349 -0.019066984743490556 0.004674983233864981 0.019066984743490556
6.354075984579668E7 0.004694302178820023 0.01934798122596972 0.99530569782118 -0.019347981225969722 0.99530569782118 -0.019347981225969722 0.004694302178820023 0.01934798122596972
6.449967910546205E7 0.004714014780378258 0.019633095644039134 0.9952859852196217 -0.01963309564403913 0.9952859852196217 -0.01963309564403913 0.004714014780378258 0.019633095644039134
6.547306980281226E7 0.00473412972375041 0.019922390495319138 0.9952658702762496 -0.019922390495319135 0.9952658702762496 -0.019922390495319135 0.00473412972375041 0.019922390495319138
6.646115033215589E7 0.004754656032768239 0.02021592929424897 0.9952453439672317 -0.02021592929424897 0.9952453439672317 -0.02021592929424897 0.004754656032768239 0.02021592929424897
6.746414238367817E7 0.004775603085360955 0.02051377658433248 0.9952243969146392 -0.02051377658433248 0.9952243969146392 -0.02051377658433248 0.004775603085360955 0.02051377658433248
6.848227099318038E7 0.004796980629332243 0.020815997950184007 0.9952030193706677 -0.020815997950184007 0.9952030193706677 -0.020815997950184007 0.004796980629332243 0.020815997950184007
6.951576459256999E7 0.004818798798425083 0.02112266002937243 0.995181201201575 -0.02112266002937243 0.995181201201575 -0.02112266002937243 0.004818798798425083 0.02112266002937243
7.056485506111258E7 0.0048410681286618455 0.021433830524062822 0.9951589318713381 -0.021433830524062822 0.9951589318713381 -0.021433830524062822 0.0048410681286618455 0.021433830524062822
7.162977777745734E7 0.0048637995749474215 0.021749578212456832 0.9951362004250525 -0.02174957821245683 0.9951362004250525 -0.02174957821245683 0.0048637995749474215 0.021749578212456832
7.271077167244768E7 0.0048870045279236244 0.022069972960033876 0.9951129954720763 -0.02206997296003388 0.9951129954720763 -0.02206997296003388 0.0048870045279236244 0.022069972960033876
7.380807928272885E7 0.0049106948310636885 0.022395085730596814 0.9950893051689362 -0.022395085730596818 0.9950893051689362 -0.022395085730596818 0.0049106948310636885 0.022395085730596814
7.492194680516452E7 0.0049348827979964075 0.022724988597126777 0.9950651172020036 -0.022724988597126777 0.9950651172020036 -0.022724988597126777 0.0049348827979964075 0.022724988597126777
7.60526241520746E7 0.004959581230050289 0.023059754752453407 0.9950404187699496 -0.023059754752453403 0.9950404187699496 -0.023059754752453403 0.004959581230050289 0.023059754752453407
7.720036500730675E7 0.004984803434009033 0.02339945851974735 0.9950151965659908 -0.023399458519747354 0.9950151965659908 -0.023399458519747354 0.004984803434009033 0.02339945851974735
7.836542688315398E7 0.0050105632400706855 0.02374417536284349 0.9949894367599292 -0.023744175362843487 0.9949894367599292 -0.023744175362843487 0.0050105632400706855 0.02374417536284349
7.954807117813127E7 0.005036875020003991 0.024093981896403636 0.994963124979996 -0.024093981896403636 0.994963124979996 -0.024093981896403636 0.005036875020003991 0.024093981896403636
8.074856323562416E7 0.0050637537054966245 0.024448955895928933 0.9949362462945034 -0.024448955895928933 0.9949362462945034 -0.024448955895928933 0.0050637537054966245 0.024448955895928933
8.196717240342227E7 0.005091214806691333 0.024809176307632463 0.9949087851933088 -0.024809176307632463 0.9949087851933088 -0.024809176307632463 0.005091214806691333 0.024809176307632463
8.320417209415154E7 0.005119274430907406 0.025174723258183478 0.9948807255690928 -0.02517472325818348 0.9948807255690928 -0.02517472325818348 0.005119274430907406 0.025174723258183478
8.445983984661816E7 0.005147949301546176 0.025545678064334765 0.9948520506984538 -0.02554567806433476 0.9948520506984538 -0.02554567806433476 0.005147949301546176 0.025545678064334765
8.573445738807854E7 0.005177256777180878 0.025922123242445604 0.9948227432228188 -0.025922123242445597 0.9948227432228188 -0.025922123242445597 0.005177256777180878 0.025922123242445604
8.702831069744885E7 0.005207214870832573 0.026304142517912545 0.9947927851291675 -0.026304142517912545 0.9947927851291675 -0.026304142517912545 0.005207214870832573 0.026304142517912545
8.834169006946853E7 0.00523784226943529 0.026691820834520444 0.9947621577305648 -0.026691820834520437 0.9947621577305648 -0.026691820834520437 0.00523784226943529 0.026691820834520444
8.96748901798321E7 0.005269158353495285 0.02708524436372653 0.9947308416465048 -0.02708524436372653 0.9947308416465048 -0.02708524436372653 0.005269158353495285 0.02708524436372653
9.1028210151304E7 0.005301183216950464 0.027484500513889704 0.9946988167830495 -0.027484500513889704 0.9946988167830495 -0.027484500513889704 0.005301183216950464 0.027484500513889704
9.240195362083109E7 0.005333937687237847 0.02788967793945721 0.9946660623127622 -0.02788967793945721 0.9946660623127622 -0.02788967793945721 0.005333937687237847 0.02788967793945721
9.379642880766791E7 0.005367443345578181 0.028300866550120707 0.9946325566544219 -0.028300866550120707 0.9946325566544219 -0.028300866550120707 0.005367443345578181 0.028300866550120707
9.521194858253023E7 0.005401722547488339 0.028718157519952707 0.9945982774525116 -0.028718157519952707 0.9945982774525116 -0.028718157519952707 0.005401722547488339 0.028718157519952707
9.664883053779216E7 0.005436798443533499 0.029141643296534594 0.9945632015564665 -0.029141643296534594 0.9945632015564665 -0.029141643296534594 0.005436798443533499 0.029141643296534594
9.810739705874248E7 0.005472695000332395 0.029571417610085794 0.9945273049996675 -0.029571417610085794 0.9945273049996675 -0.029571417610085794 0.005472695000332395 0.029571417610085794
9.958797539591652E7 0.005509437021830276 0.03000757548260386 0.9944905629781697 -0.03000757548260386 0.9944905629781697 -0.03000757548260386 0.005509437021830276 0.03000757548260386
1.0109089773851961E8 0.005547050170855278 0.030450213237023495 0.9944529498291449 -0.030450213237023502 0.9944529498291449 -0.030450213237023502 0.005547050170855278 0.030450213237023495
1.0261650128895843E8 0.005585560990975206 0.030899428506402482 0.9944144390090248 -0.030899428506402482 0.9944144390090248 -0.030899428506402482 0.005585560990975206 0.030899428506402482
1.0416512833849736E8 0.005624996928672578 0.031355320243140514 0.9943750030713273 -0.031355320243140514 0.9943750030713273 -0.031355320243140514 0.005624996928672578 0.031355320243140514
1.0573712634405641E8 0.0056653863558569426 0.03181798872823682 0.994334613644143 -0.03181798872823683 0.994334613644143 -0.03181798872823683 0.0056653863558569426 0.03181798872823682
1.0733284800616828E8 0.005706758592734136 0.03228753558059058 0.9942932414072658 -0.032287535580590575 0.9942932414072658 -0.032287535580590575 0.005706758592734136 0.03228753558059058
1.0895265134811176E8 0.00574914393105324 0.03276406376634743 0.9942508560689467 -0.03276406376634743 0.9942508560689467 -0.03276406376634743 0.00574914393105324 0.03276406376634743
1.1059689979623953E8 0.0057925736577522854 0.033247677608294 0.9942074263422479 -0.033247677608294 0.9942074263422479 -0.033247677608294 0.0057925736577522854 0.033247677608294
1.1226596226151802E8 0.005837080079024808 0.033738482795301145 0.9941629199209753 -0.033738482795301145 0.9941629199209753 -0.033738482795301145 0.005837080079024808 0.033738482795301145
1.1396021322229806E8 0.005882696544829484 0.034236586391815385 0.9941173034551704 -0.034236586391815385 0.9941173034551704 -0.034236586391815385 0.005882696544829484 0.034236586391815385
1.1568003280833441E8 0.005929457473865846 0.03474209684739692 0.9940705425261341 -0.03474209684739692 0.9940705425261341 -0.03474209684739692 0.005929457473865846 0.03474209684739692
1.1742580688607343E8 0.005977398379039064 0.03525512400630069 0.9940226016209608 -0.03525512400630069 0.9940226016209608 -0.03525512400630069 0.005977398379039064 0.03525512400630069
1.1919792714522783E8 0.006026555893437442 0.035775779117097097 0.9939734441065627 -0.0357757791170971 0.9939734441065627 -0.0357757791170971 0.006026555893437442 0.035775779117097097
1.2099679118665792E8 0.006076967796846042 0.03630417484232578 0.9939230322031538 -0.03630417484232578 0.9939230322031538 -0.03630417484232578 0.006076967796846042 0.03630417484232578
1.2282280261157903E8 0.0061286730428203075 0.036840425268176706 0.99387132695718 -0.036840425268176706 0.99387132695718 -0.036840425268176706 0.0061286730428203075 0.036840425268176706
1.2467637111211549E8 0.006181711786343306 0.03738464591418988 0.9938182882136567 -0.03738464591418988 0.9938182882136567 -0.03738464591418988 0.006181711786343306 0.03738464591418988
1.265579125632208E8 0.00623612541209035 0.037936953742965164 0.9937638745879098 -0.037936953742965164 0.9937638745879098 -0.037936953742965164 0.00623612541209035 0.037936953742965164
1.284678491159853E8 0.006291956563324538 0.03849746716987155 0.9937080434366754 -0.038497467169871555 0.9937080434366754 -0.038497467169871555 0.006291956563324538 0.03849746716987155
1.3040660929235186E8 0.0063492491714466056 0.03906630607274488 0.9936507508285533 -0.03906630607274488 0.9936507508285533 -0.03906630607274488 0.0063492491714466056 0.03906630607274488
1.3237462808126101E8 0.00640804848622235 0.03964359180156174 0.9935919515137777 -0.03964359180156173 0.9935919515137777 -0.03964359180156173 0.00640804848622235 0.03964359180156174
1.3437234703624701E8 0.006468401106710367 0.040229447188075675 0.9935315988932895 -0.04022944718807567 0.9935315988932895 -0.04022944718807567 0.006468401106710367 0.040229447188075675
1.364002143745067E8 0.006530355012912834 0.04082399655540231 0.9934696449870871 -0.0408239965554023 0.9934696449870871 -0.0408239965554023 0.006530355012912834 0.04082399655540231
1.3845868507746372E8 0.0065939595981715235 0.04142736572753777 0.9934060404018283 -0.04142736572753777 0.9934060404018283 -0.04142736572753777 0.0065939595981715235 0.04142736572753777
1.405482209928499E8 0.0066592657023307605 0.042039682038794275 0.9933407342976692 -0.04203968203879427 0.9933407342976692 -0.04203968203879427 0.0066592657023307605 0.042039682038794275
1.426692909383278E8 0.006726325645688931 0.04266107434313688 0.993273674354311 -0.04266107434313689 0.993273674354311 -0.04266107434313689 0.006726325645688931 0.04266107434313688
1.4482237080667645E8 0.0067951932637593275 0.043291673023403365 0.9932048067362407 -0.043291673023403365 0.9932048067362407 -0.043291673023403365 0.0067951932637593275 0.043291673023403365
1.4700794367256513E8 0.006865923942861003 0.04393161000038972 0.9931340760571391 -0.04393161000038972 0.9931340760571391 -0.04393161000038972 0.006865923942861003 0.04393161000038972
1.492264999009378E8 0.006938574656559575 0.04458101874178231 0.9930614253434406 -0.04458101874178231 0.9930614253434406 -0.04458101874178231 0.006938574656559575 0.04458101874178231
1.5147853725703382E8 0.007013204002977685 0.04524003427091804 0.9929867959970226 -0.04524003427091804 0.9929867959970226 -0.04524003427091804 0.007013204002977685 0.04524003427091804
1.5376456101806876E8 0.0070898722429941635 0.045908793175352805 0.9929101277570059 -0.045908793175352805 0.9929101277570059 -0.045908793175352805 0.0070898722429941635 0.045908793175352805
1.5608508408660066E8 0.007168641339350652 0.04658743361521839 0.9928313586606494 -0.04658743361521839 0.9928313586606494 -0.04658743361521839 0.007168641339350652 0.04658743361521839
1.5844062710560706E8 0.007249574996683933 0.04727609533134787 0.992750425003316 -0.04727609533134786 0.992750425003316 -0.04727609533134786 0.007249574996683933 0.04727609533134787
1.6083171857529896E8 0.007332738702501777 0.047974919653148984 0.9926672612974983 -0.047974919653148984 0.9926672612974983 -0.047974919653148984 0.007332738702501777 0.047974919653148984
1.632588949716973E8 0.0074181997691197925 0.04868404950620495 0.9925818002308803 -0.04868404950620495 0.9925818002308803 -0.04868404950620495 0.0074181997691197925 0.04868404950620495
1.6572270086699936E8 0.007506027376576444 0.04940362941958241 0.9924939726234235 -0.04940362941958241 0.9924939726234235 -0.04940362941958241 0.007506027376576444 0.04940362941958241
1.6822368905176118E8 0.007596292616542946 0.05013380553282538 0.9924037073834571 -0.05013380553282537 0.9924037073834571 -0.05013380553282537 0.007596292616542946 0.05013380553282538
1.7076242065892437E8 0.007689068537244636 0.05087472560261496 0.9923109314627553 -0.05087472560261496 0.9923109314627553 -0.05087472560261496 0.007689068537244636 0.05087472560261496
1.7333946528971428E8 0.007784430189410168 0.05162653900907418 0.99221556981059 -0.051626539009074164 0.99221556981059 -0.051626539009074164 0.007784430189410168 0.05162653900907418
1.7595540114143828E8 0.007882454673264651 0.05238939676169725 0.9921175453267352 -0.052389396761697266 0.9921175453267352 -0.052389396761697266 0.007882454673264651 0.05238939676169725
1.786108151372127E8 0.00798322118658292 0.053163451504883975 0.9920167788134172 -0.05316345150488397 0.9920167788134172 -0.05316345150488397 0.00798322118658292 0.053163451504883975
1.8130630305764765E8 0.008086811073818912 0.0539488575230579 0.9919131889261811 -0.0539488575230579 0.9919131889261811 -0.0539488575230579 0.008086811073818912 0.0539488575230579
1.840424696745189E8 0.00819330787632742 0.05474577074535012 0.9918066921236727 -0.05474577074535012 0.9918066921236727 -0.05474577074535012 0.00819330787632742 0.05474577074535012
1.8681992888645732E8 0.00830279738369443 0.05555434874982844 0.9916972026163053 -0.05555434874982844 0.9916972026163053 -0.05555434874982844 0.00830279738369443 0.05555434874982844
1.8963930385668582E8 0.008415367686192722 0.05637475076725359 0.9915846323138073 -0.05637475076725359 0.9915846323138073 -0.05637475076725359 0.008415367686192722 0.05637475076725359
1.92501227152835E8 0.008531109228379498 0.05720713768434341 0.9914688907716205 -0.0572071376843434 0.9914688907716205 -0.0572071376843434 0.008531109228379498 0.05720713768434341
1.9540634088886917E8 0.008650114863853585 0.05805167204652812 0.9913498851361465 -0.058051672046528134 0.9913498851361465 -0.058051672046528134 0.008650114863853585 0.05805167204652812
1.983552968691535E8 0.008772479911190009 0.05890851806017801 0.9912275200888101 -0.05890851806017801 0.9912275200888101 -0.05890851806017801 0.008772479911190009 0.05890851806017801
2.0134875673469606E8 0.008898302211070753 0.059777841594287486 0.9911016977889293 -0.059777841594287486 0.9911016977889293 -0.059777841594287486 0.008898302211070753 0.059777841594287486
2.0438739211159652E8 0.009027682184631108 0.06065981018159892 0.9909723178153689 -0.06065981018159892 0.9909723178153689 -0.06065981018159892 0.009027682184631108 0.06065981018159892
2.074718847617352E8 0.009160722893042181 0.061554593019150255 0.9908392771069578 -0.061554593019150255 0.9908392771069578 -0.061554593019150255 0.009160722893042181 0.061554593019150255
2.106029267357361E8 0.00929753009835111 0.06246236096823134 0.9907024699016489 -0.06246236096823134 0.9907024699016489 -0.06246236096823134 0.00929753009835111 0.06246236096823134
2.1378122052823865E8 0.00943821232560205 0.06338328655373424 0.9905617876743981 -0.06338328655373422 0.9905617876743981 -0.06338328655373422 0.00943821232560205 0.06338328655373424
2.1700747923551247E8 0.009582880926262258 0.06431754396288353 0.9904171190737378 -0.06431754396288353 0.9904171190737378 -0.06431754396288353 0.009582880926262258 0.06431754396288353
2.2028242671545094E8 0.009731650142979324 0.06526530904333282 0.9902683498570208 -0.06526530904333283 0.9902683498570208 -0.06526530904333283 0.009731650142979324 0.06526530904333282
2.23606797749979E8 0.009884637175697542 0.06622675930061417 0.9901153628243025 -0.06622675930061417 0.9901153628243025 -0.06622675930061417 0.009884637175697542 0.06622675930061417
2.2698133820991236E8 0.010041962249163294 0.06720207389492829 0.9899580377508366 -0.06720207389492829 0.9899580377508366 -0.06720207389492829 0.010041962249163294 0.06720207389492829
2.3040680522230446E8 0.01020374868185169 0.06819143363726253 0.9897962513181484 -0.06819143363726254 0.9897962513181484 -0.06819143363726254 0.01020374868185169 0.06819143363726253
2.338839673403185E8 0.010370122956349051 0.06919502098482497 0.989629877043651 -0.06919502098482498 0.989629877043651 -0.06919502098482498 0.010370122956349051 0.06919502098482497
2.37413604715664E8 0.010541214791228668 0.07021302003578257 0.9894587852087713 -0.07021302003578257 0.9894587852087713 -0.07021302003578257 0.010541214791228668 0.07021302003578257
2.4099650927363476E8 0.010717157214460055 0.07124561652329171 0.9892828427855401 -0.07124561652329171 0.9892828427855401 -0.07124561652329171 0.010717157214460055 0.07124561652329171
