!Murata Part Number: LQP15MN15NG02
!These Parameters are Measured in Series Mode Connection
!       o--[Z]--o
!Port1              Port2
!       o-------o
!
!Freq. Start=50[MHz] Stop=20[GHz], 401[Steps]
# Hz S RI R 50
!Freq.(Hz) S11(Real) S11(Imag) S21(Real) S21(Imag) S12(Real) S12(Imag) S22(Real) S22(Imag)
5.0E7 0.014896565982366817 0.04544687617749942 0.985103434017633 -0.045446876177499415 0.985103434017633 -0.045446876177499415 0.014896565982366817 0.04544687617749942
5.0754570186123446E7 0.014969121003378806 0.04612797055864549 0.9850308789966212 -0.04612797055864548 0.9850308789966212 -0.04612797055864548 0.014969121003378806 0.04612797055864549
5.152052789556263E7 0.0150438561780095 0.046819132071642476 0.9849561438219906 -0.046819132071642476 0.9849561438219906 -0.046819132071642476 0.0150438561780095 0.046819132071642476
5.229804498202928E7 0.015120836332746822 0.04752050309620098 0.984879163667253 -0.04752050309620098 0.984879163667253 -0.04752050309620098 0.015120836332746822 0.04752050309620098
5.308729589274893E7 0.015200128175019702 0.04823222773693893 0.9847998718249803 -0.04823222773693893 0.9847998718249803 -0.04823222773693893 0.015200128175019702 0.04823222773693893
5.388845770760058E7 0.015281800345081685 0.04895445183115664 0.9847181996549185 -0.04895445183115664 0.9847181996549185 -0.04895445183115664 0.015281800345081685 0.04895445183115664
5.470171017884717E7 0.01536592346916904 0.04968732295597637 0.984634076530831 -0.04968732295597637 0.984634076530831 -0.04968732295597637 0.01536592346916904 0.04968732295597637
5.5527235771465644E7 0.015452570213955118 0.05043099043480758 0.9845474297860449 -0.05043099043480758 0.9845474297860449 -0.05043099043480758 0.015452570213955118 0.05043099043480758
5.6365219704085544E7 0.015541815342323123 0.05118560534309956 0.984458184657677 -0.05118560534309956 0.984458184657677 -0.05118560534309956 0.015541815342323123 0.05118560534309956
5.721584999054556E7 0.015633735770478437 0.0519513205133392 0.9843662642295216 -0.0519513205133392 0.9843662642295216 -0.0519513205133392 0.015633735770478437 0.0519513205133392
5.807931748207712E7 0.015728410626422117 0.05272829053925276 0.9842715893735778 -0.05272829053925276 0.9842715893735778 -0.05272829053925276 0.015728410626422117 0.05272829053925276
5.8955815910124585E7 0.01582592130980628 0.053516671779166566 0.9841740786901937 -0.05351667177916656 0.9841740786901937 -0.05351667177916656 0.01582592130980628 0.053516671779166566
5.984554192981184E7 0.015926351553192112 0.05431662235848183 0.9840736484468077 -0.054316622358481836 0.9840736484468077 -0.054316622358481836 0.015926351553192112 0.05431662235848183
6.074869516406457E7 0.016029787484730527 0.05512830217121598 0.9839702125152694 -0.05512830217121598 0.9839702125152694 -0.05512830217121598 0.016029787484730527 0.05512830217121598
6.166547824839868E7 0.016136317692285265 0.0559518728805619 0.9838636823077148 -0.05595187288056191 0.9838636823077148 -0.05595187288056191 0.016136317692285265 0.0559518728805619
6.2596096876384385E7 0.016246033289017373 0.0567874979184145 0.9837539667109825 -0.0567874979184145 0.9837539667109825 -0.0567874979184145 0.016246033289017373 0.0567874979184145
6.354075984579668E7 0.01635902798044984 0.057635342483812683 0.9836409720195504 -0.057635342483812683 0.9836409720195504 -0.057635342483812683 0.01635902798044984 0.057635342483812683
6.449967910546205E7 0.01647539813302996 0.058495573540242395 0.9835246018669701 -0.05849557354024241 0.9835246018669701 -0.05849557354024241 0.01647539813302996 0.058495573540242395
6.547306980281226E7 0.016595242844206683 0.05936835981174555 0.9834047571557932 -0.059368359811745555 0.9834047571557932 -0.059368359811745555 0.016595242844206683 0.05936835981174555
6.646115033215589E7 0.016718664014039368 0.06025387177777743 0.9832813359859607 -0.06025387177777743 0.9832813359859607 -0.06025387177777743 0.016718664014039368 0.06025387177777743
6.746414238367817E7 0.01684576641835303 0.061152281666752954 0.9831542335816471 -0.061152281666752954 0.9831542335816471 -0.061152281666752954 0.01684576641835303 0.061152281666752954
6.848227099318038E7 0.016976657783454883 0.06206376344822124 0.9830233422165451 -0.06206376344822124 0.9830233422165451 -0.06206376344822124 0.016976657783454883 0.06206376344822124
6.951576459256999E7 0.017111448862425604 0.062988492823606 0.9828885511375743 -0.062988492823606 0.9828885511375743 -0.062988492823606 0.017111448862425604 0.062988492823606
7.056485506111258E7 0.017250253512997384 0.06392664721544611 0.9827497464870028 -0.06392664721544612 0.9827497464870028 -0.06392664721544612 0.017250253512997384 0.06392664721544611
7.162977777745734E7 0.017393188777030243 0.06487840575507117 0.9826068112229697 -0.06487840575507117 0.9826068112229697 -0.06487840575507117 0.017393188777030243 0.06487840575507117
7.271077167244768E7 0.017540374961596328 0.06584394926864297 0.9824596250384037 -0.06584394926864297 0.9824596250384037 -0.06584394926864297 0.017540374961596328 0.06584394926864297
7.380807928272885E7 0.017691935721680725 0.06682346026149298 0.9823080642783194 -0.06682346026149298 0.9823080642783194 -0.06682346026149298 0.017691935721680725 0.06682346026149298
7.492194680516452E7 0.0178479981445059 0.06781712290068415 0.9821520018554941 -0.06781712290068413 0.9821520018554941 -0.06781712290068413 0.0178479981445059 0.06781712290068415
7.60526241520746E7 0.018008692835485285 0.06882512299572294 0.9819913071645147 -0.06882512299572292 0.9819913071645147 -0.06882512299572292 0.018008692835485285 0.06882512299572294
7.720036500730675E7 0.01817415400580984 0.06984764797734616 0.9818258459941902 -0.06984764797734616 0.9818258459941902 -0.06984764797734616 0.01817415400580984 0.06984764797734616
7.836542688315398E7 0.018344519561670002 0.0708848868743055 0.98165548043833 -0.0708848868743055 0.98165548043833 -0.0708848868743055 0.018344519561670002 0.0708848868743055
7.954807117813127E7 0.018519931195113165 0.07193703028807027 0.9814800688048868 -0.07193703028807027 0.9814800688048868 -0.07193703028807027 0.018519931195113165 0.07193703028807027
8.074856323562416E7 0.018700534476535188 0.07300427036536745 0.9812994655234648 -0.07300427036536744 0.9812994655234648 -0.07300427036536744 0.018700534476535188 0.07300427036536745
8.196717240342227E7 0.018886478948802576 0.07408680076847667 0.9811135210511974 -0.07408680076847665 0.9811135210511974 -0.07408680076847665 0.018886478948802576 0.07408680076847667
8.320417209415154E7 0.019077918222999552 0.07518481664319619 0.9809220817770005 -0.07518481664319619 0.9809220817770005 -0.07518481664319619 0.019077918222999552 0.07518481664319619
8.445983984661816E7 0.019275010075792152 0.07629851458439284 0.980724989924208 -0.07629851458439284 0.980724989924208 -0.07629851458439284 0.019275010075792152 0.07629851458439284
8.573445738807854E7 0.019477916548399525 0.07742809259904994 0.9805220834516006 -0.07742809259904994 0.9805220834516006 -0.07742809259904994 0.019477916548399525 0.07742809259904994
8.702831069744885E7 0.019686804047159636 0.0785737500667228 0.9803131959528404 -0.0785737500667228 0.9803131959528404 -0.0785737500667228 0.019686804047159636 0.0785737500667228
8.834169006946853E7 0.01990184344567471 0.07973568769731232 0.9800981565543252 -0.07973568769731232 0.9800981565543252 -0.07973568769731232 0.01990184344567471 0.07973568769731232
8.96748901798321E7 0.020123210188518776 0.08091410748606391 0.9798767898114813 -0.08091410748606391 0.9798767898114813 -0.08091410748606391 0.020123210188518776 0.08091410748606391
9.1028210151304E7 0.02035108439648744 0.08210921266569983 0.9796489156035125 -0.08210921266569984 0.9796489156035125 -0.08210921266569984 0.02035108439648744 0.08210921266569983
9.240195362083109E7 0.02058565097336682 0.0833212076555887 0.9794143490266333 -0.0833212076555887 0.9794143490266333 -0.0833212076555887 0.02058565097336682 0.0833212076555887
9.379642880766791E7 0.020827099714196304 0.08455029800785803 0.9791729002858036 -0.08455029800785803 0.9791729002858036 -0.08455029800785803 0.020827099714196304 0.08455029800785803
9.521194858253023E7 0.021075625414996673 0.08579669035035242 0.9789243745850035 -0.08579669035035242 0.9789243745850035 -0.08579669035035242 0.021075625414996673 0.08579669035035242
9.664883053779216E7 0.021331427983932144 0.08706059232633971 0.9786685720160678 -0.08706059232633971 0.9786685720160678 -0.08706059232633971 0.021331427983932144 0.08706059232633971
9.810739705874248E7 0.02159471255387228 0.08834221253086677 0.9784052874461278 -0.08834221253086677 0.9784052874461278 -0.08834221253086677 0.02159471255387228 0.08834221253086677
9.958797539591652E7 0.021865689596316257 0.08964176044366522 0.9781343104036837 -0.08964176044366522 0.9781343104036837 -0.08964176044366522 0.021865689596316257 0.08964176044366522
1.0109089773851961E8 0.022144575036639334 0.09095944635850754 0.9778554249633609 -0.09095944635850754 0.9778554249633609 -0.09095944635850754 0.022144575036639334 0.09095944635850754
1.0261650128895843E8 0.02243159037061803 0.09229548130891241 0.977568409629382 -0.09229548130891241 0.977568409629382 -0.09229548130891241 0.02243159037061803 0.09229548130891241
1.0416512833849736E8 0.022726962782187592 0.09365007699009903 0.9772730372178124 -0.09365007699009904 0.9772730372178124 -0.09365007699009904 0.022726962782187592 0.09365007699009903
1.0573712634405641E8 0.023030925262382054 0.09502344567708834 0.9769690747376181 -0.09502344567708836 0.9769690747376181 -0.09502344567708836 0.023030925262382054 0.09502344567708834
1.0733284800616828E8 0.023343716729404367 0.09641580013885023 0.9766562832705957 -0.09641580013885022 0.9766562832705957 -0.09641580013885022 0.023343716729404367 0.09641580013885023
1.0895265134811176E8 0.023665582149770634 0.09782735354839471 0.9763344178502293 -0.09782735354839468 0.9763344178502293 -0.09782735354839468 0.023665582149770634 0.09782735354839471
1.1059689979623953E8 0.02399677266046989 0.09925831938870586 0.97600322733953 -0.09925831938870586 0.97600322733953 -0.09925831938870586 0.02399677266046989 0.09925831938870586
1.1226596226151802E8 0.024337545692077415 0.1007089113544172 0.9756624543079228 -0.1007089113544172 0.9756624543079228 -0.1007089113544172 0.024337545692077415 0.1007089113544172
1.1396021322229806E8 0.02468816509275698 0.10217934324912656 0.9753118349072432 -0.10217934324912654 0.9753118349072432 -0.10217934324912654 0.02468816509275698 0.10217934324912656
1.1568003280833441E8 0.025048901253084302 0.10366982887825074 0.9749510987469158 -0.10366982887825071 0.9749510987469158 -0.10366982887825071 0.025048901253084302 0.10366982887825074
1.1742580688607343E8 0.025420031231621606 0.10518058193731936 0.9745799687683784 -0.10518058193731936 0.9745799687683784 -0.10518058193731936 0.025420031231621606 0.10518058193731936
1.1919792714522783E8 0.02580183888116993 0.10671181589560766 0.9741981611188302 -0.10671181589560769 0.9741981611188302 -0.10671181589560769 0.02580183888116993 0.10671181589560766
1.2099679118665792E8 0.026194614975623854 0.10826374387500959 0.9738053850243762 -0.10826374387500959 0.9738053850243762 -0.10826374387500959 0.026194614975623854 0.10826374387500959
1.2282280261157903E8 0.026598657337350614 0.10983657852405265 0.9734013426626495 -0.10983657852405265 0.9734013426626495 -0.10983657852405265 0.026598657337350614 0.10983657852405265
1.2467637111211549E8 0.027014270965013465 0.11143053188695684 0.9729857290349864 -0.11143053188695685 0.9729857290349864 -0.11143053188695685 0.027014270965013465 0.11143053188695684
1.265579125632208E8 0.0274417681617571 0.11304581526764082 0.972558231838243 -0.11304581526764082 0.972558231838243 -0.11304581526764082 0.0274417681617571 0.11304581526764082
1.284678491159853E8 0.027881468663670715 0.11468263908857827 0.9721185313363292 -0.11468263908857827 0.9721185313363292 -0.11468263908857827 0.027881468663670715 0.11468263908857827
1.3040660929235186E8 0.02833369976844353 0.11634121274441066 0.9716663002315564 -0.11634121274441067 0.9716663002315564 -0.11634121274441067 0.02833369976844353 0.11634121274441066
1.3237462808126101E8 0.02879879646412481 0.11802174445021954 0.9712012035358751 -0.11802174445021954 0.9712012035358751 -0.11802174445021954 0.02879879646412481 0.11802174445021954
1.3437234703624701E8 0.02927710155790059 0.1197244410843657 0.9707228984420995 -0.1197244410843657 0.9707228984420995 -0.1197244410843657 0.02927710155790059 0.1197244410843657
1.364002143745067E8 0.02976896580479718 0.12144950802580047 0.9702310341952028 -0.12144950802580047 0.9702310341952028 -0.12144950802580047 0.02976896580479718 0.12144950802580047
1.3845868507746372E8 0.030274748036221513 0.12319714898575604 0.9697252519637785 -0.12319714898575604 0.9697252519637785 -0.12319714898575604 0.030274748036221513 0.12319714898575604
1.405482209928499E8 0.030794815288247582 0.12496756583372118 0.9692051847117523 -0.12496756583372118 0.9692051847117523 -0.12496756583372118 0.030794815288247582 0.12496756583372118
1.426692909383278E8 0.03132954292955806 0.1267609584176088 0.968670457070442 -0.1267609584176088 0.968670457070442 -0.1267609584176088 0.03132954292955806 0.1267609584176088
1.4482237080667645E8 0.03187931478894994 0.128577524378021 0.9681206852110502 -0.12857752437802103 0.9681206852110502 -0.12857752437802103 0.03187931478894994 0.128577524378021
1.4700794367256513E8 0.03244452328231375 0.13041745895651724 0.9675554767176864 -0.13041745895651724 0.9675554767176864 -0.13041745895651724 0.03244452328231375 0.13041745895651724
1.492264999009378E8 0.0330255695389959 0.1322809547977887 0.9669744304610042 -0.1322809547977887 0.9669744304610042 -0.1322809547977887 0.0330255695389959 0.1322809547977887
1.5147853725703382E8 0.03362286352745446 0.13416820174564154 0.9663771364725456 -0.13416820174564154 0.9663771364725456 -0.13416820174564154 0.03362286352745446 0.13416820174564154
1.5376456101806876E8 0.034236824180119654 0.1360793866326887 0.9657631758198802 -0.1360793866326887 0.9657631758198802 -0.1360793866326887 0.034236824180119654 0.1360793866326887
1.5608508408660066E8 0.034867879517371074 0.13801469306364703 0.965132120482629 -0.13801469306364705 0.965132120482629 -0.13801469306364705 0.034867879517371074 0.13801469306364703
1.5844062710560706E8 0.03551646677054494 0.13997430119213383 0.964483533229455 -0.13997430119213383 0.964483533229455 -0.13997430119213383 0.03551646677054494 0.13997430119213383
1.6083171857529896E8 0.03618303250388542 0.1419583874908513 0.9638169674961147 -0.14195838749085132 0.9638169674961147 -0.14195838749085132 0.03618303250388542 0.1419583874908513
1.632588949716973E8 0.03686803273535611 0.14396712451504456 0.9631319672646438 -0.14396712451504456 0.9631319672646438 -0.14396712451504456 0.03686803273535611 0.14396712451504456
1.6572270086699936E8 0.037571933056226976 0.14600068065910998 0.9624280669437729 -0.14600068065910995 0.9624280669437729 -0.14600068065910995 0.037571933056226976 0.14600068065910998
1.6822368905176118E8 0.03829520874935543 0.14805921990622678 0.9617047912506446 -0.1480592199062268 0.9617047912506446 -0.1480592199062268 0.03829520874935543 0.14805921990622678
1.7076242065892437E8 0.039038344906078395 0.15014290157087565 0.9609616550939216 -0.15014290157087565 0.9609616550939216 -0.15014290157087565 0.039038344906078395 0.15014290157087565
1.7333946528971428E8 0.039801836541634356 0.15225188003409806 0.9601981634583657 -0.15225188003409806 0.9601981634583657 -0.15225188003409806 0.039801836541634356 0.15225188003409806
1.7595540114143828E8 0.04058618870903335 0.15438630447134402 0.9594138112909666 -0.15438630447134402 0.9594138112909666 -0.15438630447134402 0.04058618870903335 0.15438630447134402
1.786108151372127E8 0.04139191661129243 0.15654631857273976 0.9586080833887075 -0.15654631857273976 0.9586080833887075 -0.15654631857273976 0.04139191661129243 0.15654631857273976
1.8130630305764765E8 0.04221954571195245 0.15873206025559888 0.9577804542880476 -0.1587320602555989 0.9577804542880476 -0.1587320602555989 0.04221954571195245 0.15873206025559888
1.840424696745189E8 0.04306961184379027 0.16094366136898425 0.9569303881562098 -0.16094366136898425 0.9569303881562098 -0.16094366136898425 0.04306961184379027 0.16094366136898425
1.8681992888645732E8 0.04394266131563666 0.16318124739011503 0.9560573386843634 -0.16318124739011505 0.9560573386843634 -0.16318124739011505 0.04394266131563666 0.16318124739011503
1.8963930385668582E8 0.044839251017206025 0.16544493711239616 0.9551607489827939 -0.16544493711239616 0.9551607489827939 -0.16544493711239616 0.044839251017206025 0.16544493711239616
1.92501227152835E8 0.04575994852183817 0.16773484232482988 0.954240051478162 -0.16773484232482988 0.954240051478162 -0.16773484232482988 0.04575994852183817 0.16773484232482988
1.9540634088886917E8 0.0467053321870448 0.1700510674825524 0.953294667812955 -0.1700510674825524 0.953294667812955 -0.1700510674825524 0.0467053321870448 0.1700510674825524
1.983552968691535E8 0.04767599125274439 0.1723937093682167 0.9523240087472555 -0.1723937093682167 0.9523240087472555 -0.1723937093682167 0.04767599125274439 0.1723937093682167
2.0134875673469606E8 0.04867252593705801 0.17476285674392344 0.951327474062942 -0.17476285674392344 0.951327474062942 -0.17476285674392344 0.04867252593705801 0.17476285674392344
2.0438739211159652E8 0.049695547529524715 0.1771585899933777 0.9503044524704755 -0.1771585899933777 0.9503044524704755 -0.1771585899933777 0.049695547529524715 0.1771585899933777
2.074718847617352E8 0.050745678481580084 0.17958098075393011 0.9492543215184198 -0.1795809807539301 0.9492543215184198 -0.1795809807539301 0.050745678481580084 0.17958098075393011
2.106029267357361E8 0.05182355249412255 0.18203009153813288 0.9481764475058774 -0.18203009153813288 0.9481764475058774 -0.18203009153813288 0.05182355249412255 0.18203009153813288
2.1378122052823865E8 0.05292981460197039 0.18450597534441904 0.9470701853980296 -0.18450597534441904 0.9470701853980296 -0.18450597534441904 0.05292981460197039 0.18450597534441904
2.1700747923551247E8 0.05406512125498833 0.18700867525648837 0.9459348787450117 -0.18700867525648837 0.9459348787450117 -0.18700867525648837 0.05406512125498833 0.18700867525648837
2.2028242671545094E8 0.055230140395634356 0.18953822403095702 0.9447698596043658 -0.18953822403095702 0.9447698596043658 -0.18953822403095702 0.055230140395634356 0.18953822403095702
2.23606797749979E8 0.05642555153264521 0.19209464367280235 0.9435744484673547 -0.19209464367280235 0.9435744484673547 -0.19209464367280235 0.05642555153264521 0.19209464367280235
2.2698133820991236E8 0.057652045810544957 0.1946779449981115 0.942347954189455 -0.1946779449981115 0.942347954189455 -0.1946779449981115 0.057652045810544957 0.1946779449981115
2.3040680522230446E8 0.05891032607461925 0.19728812718361335 0.9410896739253808 -0.1972881271836134 0.9410896739253808 -0.1972881271836134 0.05891032607461925 0.19728812718361335
2.338839673403185E8 0.060201106930956 0.19992517730245365 0.939798893069044 -0.19992517730245368 0.939798893069044 -0.19992517730245368 0.060201106930956 0.19992517730245365
2.37413604715664E8 0.06152511480110435 0.20258906984564906 0.9384748851988957 -0.2025890698456491 0.9384748851988957 -0.2025890698456491 0.06152511480110435 0.20258906984564906
2.4099650927363476E8 0.06288308797084961 0.2052797662286332 0.9371169120291504 -0.2052797662286332 0.9371169120291504 -0.2052797662286332 0.06288308797084961 0.2052797662286332
2.446334848907889E8 0.06427577663254583 0.20799721428229154 0.935724223367454 -0.20799721428229148 0.935724223367454 -0.20799721428229148 0.06427577663254583 0.20799721428229154
2.4832534757531032E8 0.0657039429203844 0.21074134772786413 0.9342960570796156 -0.21074134772786413 0.9342960570796156 -0.21074134772786413 0.0657039429203844 0.21074134772786413
