!Murata Part Number: LQP15MN2N1W02
!These Parameters are Measured in Series Mode Connection
!       o--[Z]--o
!Port1              Port2
!       o-------o
!
!Freq. Start=50[MHz] Stop=20[GHz], 401[Steps]
# Hz S RI R 50
!Freq.(Hz) S11(Real) S11(Imag) S21(Real) S21(Imag) S12(Real) S12(Imag) S22(Real) S22(Imag)
5.0E7 9.101947635909122E-4 0.005694846598587082 0.999089805236409 -0.005694846598587082 0.999089805236409 -0.005694846598587082 9.101947635909122E-4 0.005694846598587082
5.0754570186123446E7 9.134696692722365E-4 0.005780204907654875 0.9990865303307277 -0.005780204907654875 0.9990865303307277 -0.005780204907654875 9.134696692722365E-4 0.005780204907654875
5.152052789556263E7 9.168355576060364E-4 0.005866826784076742 0.9990831644423941 -0.005866826784076742 0.9990831644423941 -0.005866826784076742 9.168355576060364E-4 0.005866826784076742
5.229804498202928E7 9.202947167217532E-4 0.005954730328398195 0.9990797052832784 -0.005954730328398195 0.9990797052832784 -0.005954730328398195 9.202947167217532E-4 0.005954730328398195
5.308729589274893E7 9.238494792909059E-4 0.006043933881011548 0.9990761505207089 -0.006043933881011547 0.9990761505207089 -0.006043933881011547 9.238494792909059E-4 0.006043933881011548
5.388845770760058E7 9.275022227073925E-4 0.006134456024971203 0.9990724977772928 -0.006134456024971203 0.9990724977772928 -0.006134456024971203 9.275022227073925E-4 0.006134456024971203
5.470171017884717E7 9.312553692297693E-4 0.0062263155888571935 0.9990687446307703 -0.006226315588857193 0.9990687446307703 -0.006226315588857193 9.312553692297693E-4 0.0062263155888571935
5.5527235771465644E7 9.351113860837587E-4 0.006319531649690139 0.9990648886139162 -0.006319531649690139 0.9990648886139162 -0.006319531649690139 9.351113860837587E-4 0.006319531649690139
5.6365219704085544E7 9.390727855232427E-4 0.006414123535900844 0.9990609272144766 -0.006414123535900844 0.9990609272144766 -0.006414123535900844 9.390727855232427E-4 0.006414123535900844
5.721584999054556E7 9.431421248480757E-4 0.00651011083035811 0.999056857875152 -0.00651011083035811 0.999056857875152 -0.00651011083035811 9.431421248480757E-4 0.00651011083035811
5.807931748207712E7 9.473220063770886E-4 0.0066075133734584 0.999052677993623 -0.0066075133734584 0.999052677993623 -0.0066075133734584 9.473220063770886E-4 0.0066075133734584
5.8955815910124585E7 9.516150773747452E-4 0.006706351266281436 0.9990483849226252 -0.006706351266281436 0.9990483849226252 -0.006706351266281436 9.516150773747452E-4 0.006706351266281436
5.984554192981184E7 9.560240299300101E-4 0.006806644873815889 0.99904397597007 -0.006806644873815889 0.99904397597007 -0.006806644873815889 9.560240299300101E-4 0.006806644873815889
6.074869516406457E7 9.605516007860631E-4 0.006908414828259535 0.999039448399214 -0.006908414828259535 0.999039448399214 -0.006908414828259535 9.605516007860631E-4 0.006908414828259535
6.166547824839868E7 9.65200571119673E-4 0.007011682032398778 0.9990347994288803 -0.007011682032398778 0.9990347994288803 -0.007011682032398778 9.65200571119673E-4 0.007011682032398778
6.2596096876384385E7 9.699737662691283E-4 0.007116467663072265 0.9990300262337309 -0.007116467663072265 0.9990300262337309 -0.007116467663072265 9.699737662691283E-4 0.007116467663072265
6.354075984579668E7 9.748740554098306E-4 0.007222793174723995 0.9990251259445904 -0.0072227931747239965 0.9990251259445904 -0.0072227931747239965 9.748740554098306E-4 0.007222793174723995
6.449967910546205E7 9.799043511768278E-4 0.0073306803030513176 0.9990200956488233 -0.0073306803030513176 0.9990200956488233 -0.0073306803030513176 9.799043511768278E-4 0.0073306803030513176
6.547306980281226E7 9.850676092337455E-4 0.00744015106875352 0.9990149323907663 -0.00744015106875352 0.9990149323907663 -0.00744015106875352 9.850676092337455E-4 0.00744015106875352
6.646115033215589E7 9.903668277878525E-4 0.007551227781387124 0.9990096331722121 -0.007551227781387124 0.9990096331722121 -0.007551227781387124 9.903668277878525E-4 0.007551227781387124
6.746414238367817E7 9.95805047051196E-4 0.007663933043334005 0.9990041949529487 -0.007663933043334003 0.9990041949529487 -0.007663933043334003 9.95805047051196E-4 0.007663933043334005
6.848227099318038E7 0.0010013853486480608 0.0077782897538889294 0.998998614651352 -0.007778289753888931 0.998998614651352 -0.007778289753888931 0.0010013853486480608 0.0077782897538889294
6.951576459256999E7 0.0010071108549692812 0.007894321113473275 0.9989928891450308 -0.007894321113473275 0.9989928891450308 -0.007894321113473275 0.0010071108549692812 0.007894321113473275
7.056485506111258E7 0.0010129847284742796 0.008012050627981868 0.9989870152715258 -0.008012050627981866 0.9989870152715258 -0.008012050627981866 0.0010129847284742796 0.008012050627981868
7.162977777745734E7 0.0010190101709420547 0.008131502113270234 0.998980989829058 -0.008131502113270236 0.998980989829058 -0.008131502113270236 0.0010190101709420547 0.008131502113270234
7.271077167244768E7 0.0010251904226727165 0.008252699699789688 0.9989748095773273 -0.008252699699789688 0.9989748095773273 -0.008252699699789688 0.0010251904226727165 0.008252699699789688
7.380807928272885E7 0.0010315287616416062 0.008375667837377957 0.9989684712383585 -0.008375667837377957 0.9989684712383585 -0.008375667837377957 0.0010315287616416062 0.008375667837377957
7.492194680516452E7 0.0010380285026084259 0.008500431300213086 0.9989619714973917 -0.008500431300213086 0.9989619714973917 -0.008500431300213086 0.0010380285026084259 0.008500431300213086
7.60526241520746E7 0.0010446929961843254 0.008627015191938831 0.9989553070038155 -0.008627015191938831 0.9989553070038155 -0.008627015191938831 0.0010446929961843254 0.008627015191938831
7.720036500730675E7 0.0010515256278603499 0.00875544495096955 0.9989484743721395 -0.00875544495096955 0.9989484743721395 -0.00875544495096955 0.0010515256278603499 0.00875544495096955
7.836542688315398E7 0.0010585298170011847 0.008885746355982962 0.9989414701829986 -0.008885746355982962 0.9989414701829986 -0.008885746355982962 0.0010585298170011847 0.008885746355982962
7.954807117813127E7 0.00106570901580868 0.009017945531609176 0.9989342909841914 -0.009017945531609176 0.9989342909841914 -0.009017945531609176 0.00106570901580868 0.009017945531609176
8.074856323562416E7 0.0010730667082602201 0.009152068954324443 0.9989269332917398 -0.009152068954324443 0.9989269332917398 -0.009152068954324443 0.0010730667082602201 0.009152068954324443
8.196717240342227E7 0.0010806064090275952 0.00928814345855817 0.9989193935909725 -0.00928814345855817 0.9989193935909725 -0.00928814345855817 0.0010806064090275952 0.00928814345855817
8.320417209415154E7 0.0010883316623826356 0.009426196243021608 0.9989116683376174 -0.00942619624302161 0.9989116683376174 -0.00942619624302161 0.0010883316623826356 0.009426196243021608
8.445983984661816E7 0.001096246041096553 0.009566254877266795 0.9989037539589035 -0.009566254877266795 0.9989037539589035 -0.009566254877266795 0.001096246041096553 0.009566254877266795
8.573445738807854E7 0.001104353145340556 0.00970834730848404 0.9988956468546595 -0.009708347308484041 0.9988956468546595 -0.009708347308484041 0.001104353145340556 0.00970834730848404
8.702831069744885E7 0.0011126566015959999 0.009852501868546207 0.9988873433984041 -0.009852501868546207 0.9988873433984041 -0.009852501868546207 0.0011126566015959999 0.009852501868546207
8.834169006946853E7 0.0011211600615830327 0.009998747281307906 0.998878839938417 -0.009998747281307906 0.998878839938417 -0.009998747281307906 0.0011211600615830327 0.009998747281307906
8.96748901798321E7 0.001129867201217384 0.010147112670167404 0.9988701327987828 -0.010147112670167404 0.9988701327987828 -0.010147112670167404 0.001129867201217384 0.010147112670167404
9.1028210151304E7 0.00113878171960566 0.010297627565898797 0.9988612182803943 -0.010297627565898797 0.9988612182803943 -0.010297627565898797 0.00113878171960566 0.010297627565898797
9.240195362083109E7 0.0011479073380902321 0.01045032191476166 0.9988520926619098 -0.01045032191476166 0.9988520926619098 -0.01045032191476166 0.0011479073380902321 0.01045032191476166
9.379642880766791E7 0.001157247799355492 0.010605226086895039 0.9988427522006446 -0.010605226086895039 0.9988427522006446 -0.010605226086895039 0.001157247799355492 0.010605226086895039
9.521194858253023E7 0.0011668068666079727 0.010762370885002004 0.998833193133392 -0.010762370885002004 0.998833193133392 -0.010762370885002004 0.0011668068666079727 0.010762370885002004
9.664883053779216E7 0.0011765883228435287 0.010921787553330797 0.9988234116771565 -0.010921787553330797 0.9988234116771565 -0.010921787553330797 0.0011765883228435287 0.010921787553330797
9.810739705874248E7 0.0011865959702154188 0.011083507786957604 0.9988134040297846 -0.011083507786957604 0.9988134040297846 -0.011083507786957604 0.0011865959702154188 0.011083507786957604
9.958797539591652E7 0.0011968336295178298 0.011247563741375697 0.9988031663704822 -0.011247563741375697 0.9988031663704822 -0.011247563741375697 0.0011968336295178298 0.011247563741375697
1.0109089773851961E8 0.0012073051397999666 0.011413988042394742 0.9987926948602 -0.011413988042394742 0.9987926948602 -0.011413988042394742 0.0012073051397999666 0.011413988042394742
1.0261650128895843E8 0.0012180143581264598 0.01158281379635341 0.9987819856418734 -0.01158281379635341 0.9987819856418734 -0.01158281379635341 0.0012180143581264598 0.01158281379635341
1.0416512833849736E8 0.001228965159500359 0.011754074600647528 0.9987710348404996 -0.011754074600647526 0.9987710348404996 -0.011754074600647526 0.001228965159500359 0.011754074600647528
1.0573712634405641E8 0.001240161436965516 0.011927804554575117 0.9987598385630344 -0.011927804554575117 0.9987598385630344 -0.011927804554575117 0.001240161436965516 0.011927804554575117
1.0733284800616828E8 0.0012516071019055834 0.012104038270498703 0.9987483928980943 -0.012104038270498703 0.9987483928980943 -0.012104038270498703 0.0012516071019055834 0.012104038270498703
1.0895265134811176E8 0.0012633060845572625 0.012282810885324283 0.9987366939154426 -0.012282810885324284 0.9987366939154426 -0.012282810885324284 0.0012633060845572625 0.012282810885324283
1.1059689979623953E8 0.0012752623347557321 0.012464158072295194 0.9987247376652443 -0.012464158072295194 0.9987247376652443 -0.012464158072295194 0.0012752623347557321 0.012464158072295194
1.1226596226151802E8 0.0012874798229304647 0.0126481160530981 0.9987125201770695 -0.012648116053098101 0.9987125201770695 -0.012648116053098101 0.0012874798229304647 0.0126481160530981
1.1396021322229806E8 0.001299962541369768 0.012834721610277034 0.9987000374586302 -0.012834721610277038 0.9987000374586302 -0.012834721610277038 0.001299962541369768 0.012834721610277034
1.1568003280833441E8 0.0013127145057724942 0.013024012099950308 0.9986872854942276 -0.013024012099950308 0.9986872854942276 -0.013024012099950308 0.0013127145057724942 0.013024012099950308
1.1742580688607343E8 0.0013257397571053357 0.013216025464823875 0.9986742602428947 -0.013216025464823875 0.9986742602428947 -0.013216025464823875 0.0013257397571053357 0.013216025464823875
1.1919792714522783E8 0.001339042363783995 0.01341080024749332 0.998660957636216 -0.013410800247493316 0.998660957636216 -0.013410800247493316 0.001339042363783995 0.01341080024749332
1.2099679118665792E8 0.0013526264241963566 0.013608375604025655 0.9986473735758037 -0.013608375604025657 0.9986473735758037 -0.013608375604025657 0.0013526264241963566 0.013608375604025655
1.2282280261157903E8 0.0013664960695853724 0.013808791317810432 0.9986335039304146 -0.013808791317810432 0.9986335039304146 -0.013808791317810432 0.0013664960695853724 0.013808791317810432
1.2467637111211549E8 0.0013806554673090612 0.014012087813668804 0.998619344532691 -0.014012087813668804 0.998619344532691 -0.014012087813668804 0.0013806554673090612 0.014012087813668804
1.265579125632208E8 0.001395108824494356 0.014218306172207516 0.9986048911755054 -0.014218306172207516 0.9986048911755054 -0.014218306172207516 0.001395108824494356 0.014218306172207516
1.284678491159853E8 0.0014098603921009769 0.014427488144403899 0.9985901396078991 -0.014427488144403899 0.9985901396078991 -0.014427488144403899 0.0014098603921009769 0.014427488144403899
1.3040660929235186E8 0.0014249144694106562 0.0146396761664064 0.9985750855305894 -0.014639676166406402 0.9985750855305894 -0.014639676166406402 0.0014249144694106562 0.0146396761664064
1.3237462808126101E8 0.0014402754089562152 0.014854913374534344 0.9985597245910436 -0.014854913374534344 0.9985597245910436 -0.014854913374534344 0.0014402754089562152 0.014854913374534344
1.3437234703624701E8 0.001455947621903937 0.015073243620459104 0.9985440523780961 -0.015073243620459104 0.9985440523780961 -0.015073243620459104 0.001455947621903937 0.015073243620459104
1.364002143745067E8 0.0014719355839016238 0.015294711486548273 0.9985280644160984 -0.015294711486548273 0.9985280644160984 -0.015294711486548273 0.0014719355839016238 0.015294711486548273
1.3845868507746372E8 0.0014882438414034593 0.01551936230135304 0.9985117561585966 -0.01551936230135304 0.9985117561585966 -0.01551936230135304 0.0014882438414034593 0.01551936230135304
1.405482209928499E8 0.0015048770184815086 0.015747242155218312 0.9984951229815183 -0.01574724215521831 0.9984951229815183 -0.01574724215521831 0.0015048770184815086 0.015747242155218312
1.426692909383278E8 0.0015218398241322924 0.015978397915994452 0.9984781601758675 -0.015978397915994452 0.9984781601758675 -0.015978397915994452 0.0015218398241322924 0.015978397915994452
1.4482237080667645E8 0.0015391370600853123 0.016212877244828432 0.9984608629399148 -0.016212877244828436 0.9984608629399148 -0.016212877244828436 0.0015391370600853123 0.016212877244828432
1.4700794367256513E8 0.0015567736291188976 0.016450728612012154 0.9984432263708811 -0.016450728612012157 0.9984432263708811 -0.016450728612012157 0.0015567736291188976 0.016450728612012154
1.492264999009378E8 0.0015747545438870676 0.016692001312864947 0.998425245456113 -0.016692001312864947 0.998425245456113 -0.016692001312864947 0.0015747545438870676 0.016692001312864947
1.5147853725703382E8 0.0015930849362593934 0.016936745483627096 0.9984069150637404 -0.016936745483627096 0.9984069150637404 -0.016936745483627096 0.0015930849362593934 0.016936745483627096
1.5376456101806876E8 0.0016117700671741328 0.017185012117341206 0.9983882299328257 -0.017185012117341202 0.9983882299328257 -0.017185012117341202 0.0016117700671741328 0.017185012117341206
1.5608508408660066E8 0.001630815337003092 0.017436853079697927 0.9983691846629968 -0.017436853079697927 0.9983691846629968 -0.017436853079697927 0.001630815337003092 0.017436853079697927
1.5844062710560706E8 0.0016502262964249537 0.0176923211248234 0.998349773703575 -0.0176923211248234 0.998349773703575 -0.0176923211248234 0.0016502262964249537 0.0176923211248234
1.6083171857529896E8 0.0016700086578019132 0.017951469910985313 0.998329991342198 -0.017951469910985313 0.998329991342198 -0.017951469910985313 0.0016700086578019132 0.017951469910985313
1.632588949716973E8 0.0016901683070528013 0.018214354016195713 0.9983098316929472 -0.018214354016195713 0.9983098316929472 -0.018214354016195713 0.0016901683070528013 0.018214354016195713
1.6572270086699936E8 0.0017107113160140458 0.01848102895368906 0.998289288683986 -0.01848102895368906 0.998289288683986 -0.01848102895368906 0.0017107113160140458 0.01848102895368906
1.6822368905176118E8 0.001731643955278143 0.018751551187254707 0.998268356044722 -0.018751551187254707 0.998268356044722 -0.018751551187254707 0.001731643955278143 0.018751551187254707
1.7076242065892437E8 0.0017529727074977115 0.0190259781464046 0.9982470272925023 -0.0190259781464046 0.9982470272925023 -0.0190259781464046 0.0017529727074977115 0.0190259781464046
1.7333946528971428E8 0.0017747042811415848 0.019304368241357485 0.9982252957188584 -0.019304368241357485 0.9982252957188584 -0.019304368241357485 0.0017747042811415848 0.019304368241357485
1.7595540114143828E8 0.0017968456246879674 0.01958678087782274 0.9982031543753119 -0.01958678087782274 0.9982031543753119 -0.01958678087782274 0.0017968456246879674 0.01958678087782274
1.786108151372127E8 0.0018194039412383271 0.01987327647156818 0.9981805960587615 -0.01987327647156818 0.9981805960587615 -0.01987327647156818 0.0018194039412383271 0.01987327647156818
1.8130630305764765E8 0.001842386703534446 0.020163916462757968 0.9981576132964655 -0.020163916462757968 0.9981576132964655 -0.020163916462757968 0.001842386703534446 0.020163916462757968
1.840424696745189E8 0.0018658016693599763 0.020458763330048285 0.99813419833064 -0.020458763330048285 0.99813419833064 -0.020458763330048285 0.0018658016693599763 0.020458763330048285
1.8681992888645732E8 0.001889656897306906 0.02075788060443064 0.9981103431026931 -0.02075788060443064 0.9981103431026931 -0.02075788060443064 0.001889656897306906 0.02075788060443064
1.8963930385668582E8 0.0019139607628865303 0.02106133288281417 0.9980860392371134 -0.02106133288281417 0.9980860392371134 -0.02106133288281417 0.0019139607628865303 0.02106133288281417
1.92501227152835E8 0.0019387219749639787 0.02136918584134083 0.9980612780250361 -0.02136918584134083 0.9980612780250361 -0.02136918584134083 0.0019387219749639787 0.02136918584134083
1.9540634088886917E8 0.001963949592494837 0.021681506248429076 0.9980360504075051 -0.021681506248429076 0.9980360504075051 -0.021681506248429076 0.001963949592494837 0.021681506248429076
1.983552968691535E8 0.0019896530415422532 0.02199836197754419 0.9980103469584577 -0.02199836197754419 0.9980103469584577 -0.02199836197754419 0.0019896530415422532 0.02199836197754419
2.0134875673469606E8 0.0020158421325527963 0.022319822019695235 0.9979841578674472 -0.022319822019695238 0.9979841578674472 -0.022319822019695238 0.0020158421325527963 0.022319822019695235
2.0438739211159652E8 0.0020425270778695282 0.022645956495661132 0.9979574729221303 -0.022645956495661132 0.9979574729221303 -0.022645956495661132 0.0020425270778695282 0.022645956495661132
2.074718847617352E8 0.0020697185094610887 0.022976836667950504 0.9979302814905389 -0.022976836667950508 0.9979302814905389 -0.022976836667950508 0.0020697185094610887 0.022976836667950504
2.106029267357361E8 0.0020974274968461474 0.023312534952502066 0.9979025725031537 -0.02331253495250207 0.9979025725031537 -0.02331253495250207 0.0020974274968461474 0.023312534952502066
2.1378122052823865E8 0.002125665565193296 0.023653124930134686 0.9978743344348067 -0.023653124930134686 0.9978743344348067 -0.023653124930134686 0.002125665565193296 0.023653124930134686
2.1700747923551247E8 0.00215444471357743 0.023998681357758178 0.9978455552864225 -0.02399868135775818 0.9978455552864225 -0.02399868135775818 0.00215444471357743 0.023998681357758178
2.2028242671545094E8 0.0021837774333747463 0.024349280179358074 0.9978162225666252 -0.02434928017935807 0.9978162225666252 -0.02434928017935807 0.0021837774333747463 0.024349280179358074
2.23606797749979E8 0.0022136767267798463 0.024704998536769628 0.9977863232732203 -0.024704998536769628 0.9977863232732203 -0.024704998536769628 0.0022136767267798463 0.024704998536769628
2.2698133820991236E8 0.002244156125429851 0.025065914780258065 0.9977558438745702 -0.025065914780258068 0.9977558438745702 -0.025065914780258068 0.002244156125429851 0.025065914780258065
2.3040680522230446E8 0.002275229709122115 0.025432108478923906 0.9977247702908779 -0.02543210847892391 0.9977247702908779 -0.02543210847892391 0.002275229709122115 0.025432108478923906
2.338839673403185E8 0.002306912124613893 0.025803660430953848 0.997693087875386 -0.025803660430953848 0.997693087875386 -0.025803660430953848 0.002306912124613893 0.025803660430953848
2.37413604715664E8 0.002339218604494278 0.02618065267373924 0.9976607813955058 -0.02618065267373924 0.9976607813955058 -0.02618065267373924 0.002339218604494278 0.02618065267373924
