!Murata Part Number: LQP15MN27NG02
!These Parameters are Measured in Series Mode Connection
!       o--[Z]--o
!Port1              Port2
!       o-------o
!
!Freq. Start=50[MHz] Stop=20[GHz], 401[Steps]
# Hz S RI R 50
!Freq.(Hz) S11(Real) S11(Imag) S21(Real) S21(Imag) S12(Real) S12(Imag) S22(Real) S22(Imag)
5.0E7 0.029879811048831154 0.07865039693609915 0.9701201889511689 -0.07865039693609917 0.9701201889511689 -0.07865039693609917 0.029879811048831154 0.07865039693609915
5.0754570186123446E7 0.030080233773586016 0.07982015644542653 0.969919766226414 -0.07982015644542653 0.969919766226414 -0.07982015644542653 0.030080233773586016 0.07982015644542653
5.152052789556263E7 0.03028665842828544 0.08100679040357098 0.9697133415717146 -0.08100679040357098 0.9697133415717146 -0.08100679040357098 0.03028665842828544 0.08100679040357098
5.229804498202928E7 0.03049926191997189 0.08221051829981979 0.9695007380800281 -0.08221051829981979 0.9695007380800281 -0.08221051829981979 0.03049926191997189 0.08221051829981979
5.308729589274893E7 0.030718226194415433 0.08343156136908908 0.9692817738055844 -0.08343156136908908 0.9692817738055844 -0.08343156136908908 0.030718226194415433 0.08343156136908908
5.388845770760058E7 0.030943738368929923 0.08467014255006813 0.96905626163107 -0.08467014255006813 0.96905626163107 -0.08467014255006813 0.030943738368929923 0.08467014255006813
5.470171017884717E7 0.031175990868026367 0.08592648643988325 0.9688240091319738 -0.08592648643988325 0.9688240091319738 -0.08592648643988325 0.031175990868026367 0.08592648643988325
5.5527235771465644E7 0.0314151815619203 0.08720081924511781 0.9685848184380796 -0.0872008192451178 0.9685848184380796 -0.0872008192451178 0.0314151815619203 0.08720081924511781
5.6365219704085544E7 0.03166151390790785 0.08849336872902148 0.968338486092092 -0.08849336872902148 0.968338486092092 -0.08849336872902148 0.03166151390790785 0.08849336872902148
5.721584999054556E7 0.03191519709462012 0.08980436415473288 0.9680848029053798 -0.08980436415473289 0.9680848029053798 -0.08980436415473289 0.03191519709462012 0.08980436415473288
5.807931748207712E7 0.03217644618916343 0.09113403622433651 0.9678235538108365 -0.09113403622433651 0.9678235538108365 -0.09113403622433651 0.03217644618916343 0.09113403622433651
5.8955815910124585E7 0.032445482287147255 0.09248261701356625 0.9675545177128527 -0.09248261701356625 0.9675545177128527 -0.09248261701356625 0.032445482287147255 0.09248261701356625
5.984554192981184E7 0.03272253266559805 0.09385033990196273 0.9672774673344019 -0.09385033990196275 0.9672774673344019 -0.09385033990196275 0.03272253266559805 0.09385033990196273
6.074869516406457E7 0.03300783093875191 0.09523743949828344 0.966992169061248 -0.09523743949828345 0.966992169061248 -0.09523743949828345 0.03300783093875191 0.09523743949828344
6.166547824839868E7 0.03330161721671417 0.09664415156096078 0.9666983827832859 -0.09664415156096078 0.9666983827832859 -0.09664415156096078 0.03330161721671417 0.09664415156096078
6.2596096876384385E7 0.0336041382669673 0.09807071291339173 0.9663958617330328 -0.09807071291339173 0.9663958617330328 -0.09807071291339173 0.0336041382669673 0.09807071291339173
6.354075984579668E7 0.03391564767870434 0.09951736135384232 0.9660843523212959 -0.09951736135384232 0.9660843523212959 -0.09951736135384232 0.03391564767870434 0.09951736135384232
6.449967910546205E7 0.034236406029955965 0.10098433555973527 0.965763593970044 -0.10098433555973527 0.965763593970044 -0.10098433555973527 0.034236406029955965 0.10098433555973527
6.547306980281226E7 0.03456668105747479 0.10247187498608944 0.9654333189425252 -0.10247187498608946 0.9654333189425252 -0.10247187498608946 0.03456668105747479 0.10247187498608944
6.646115033215589E7 0.0349067478293313 0.1039802197578675 0.9650932521706687 -0.1039802197578675 0.9650932521706687 -0.1039802197578675 0.0349067478293313 0.1039802197578675
6.746414238367817E7 0.035256888920168344 0.10550961055598253 0.9647431110798318 -0.10550961055598253 0.9647431110798318 -0.10550961055598253 0.035256888920168344 0.10550961055598253
6.848227099318038E7 0.035617394589052886 0.1070602884967083 0.9643826054109472 -0.1070602884967083 0.9643826054109472 -0.1070602884967083 0.035617394589052886 0.1070602884967083
6.951576459256999E7 0.035988562959854184 0.10863249500422875 0.9640114370401457 -0.10863249500422878 0.9640114370401457 -0.10863249500422878 0.035988562959854184 0.10863249500422875
7.056485506111258E7 0.03637070020406732 0.11022647167605476 0.9636292997959327 -0.11022647167605479 0.9636292997959327 -0.11022647167605479 0.03637070020406732 0.11022647167605476
7.162977777745734E7 0.036764120725992395 0.11184246014103119 0.9632358792740076 -0.1118424601410312 0.9632358792740076 -0.1118424601410312 0.036764120725992395 0.11184246014103119
7.271077167244768E7 0.03716914735016652 0.11348070190964762 0.9628308526498335 -0.11348070190964762 0.9628308526498335 -0.11348070190964762 0.03716914735016652 0.11348070190964762
7.380807928272885E7 0.037586111510935584 0.11514143821635985 0.9624138884890644 -0.11514143821635985 0.9624138884890644 -0.11514143821635985 0.037586111510935584 0.11514143821635985
7.492194680516452E7 0.03801535344403996 0.11682490985362204 0.9619846465559602 -0.11682490985362201 0.9619846465559602 -0.11682490985362201 0.03801535344403996 0.11682490985362204
7.60526241520746E7 0.038457222380074804 0.1185313569973223 0.9615427776199252 -0.1185313569973223 0.9615427776199252 -0.1185313569973223 0.038457222380074804 0.1185313569973223
7.720036500730675E7 0.0389120767396727 0.12026101902330803 0.9610879232603274 -0.12026101902330803 0.9610879232603274 -0.12026101902330803 0.0389120767396727 0.12026101902330803
7.836542688315398E7 0.03938028433024058 0.12201413431467961 0.9606197156697593 -0.12201413431467964 0.9606197156697593 -0.12201413431467964 0.03938028433024058 0.12201413431467961
7.954807117813127E7 0.039862222544068085 0.12379094005952584 0.9601377774559318 -0.12379094005952584 0.9601377774559318 -0.12379094005952584 0.039862222544068085 0.12379094005952584
8.074856323562416E7 0.04035827855760819 0.12559167203876673 0.9596417214423917 -0.12559167203876673 0.9596417214423917 -0.12559167203876673 0.04035827855760819 0.12559167203876673
8.196717240342227E7 0.0408688495317135 0.12741656440376534 0.9591311504682865 -0.12741656440376534 0.9591311504682865 -0.12741656440376534 0.0408688495317135 0.12741656440376534
8.320417209415154E7 0.04139434281259356 0.12926584944336325 0.9586056571874065 -0.12926584944336322 0.9586056571874065 -0.12926584944336322 0.04139434281259356 0.12926584944336325
8.445983984661816E7 0.04193517613323932 0.13113975733998856 0.9580648238667606 -0.13113975733998856 0.9580648238667606 -0.13113975733998856 0.04193517613323932 0.13113975733998856
8.573445738807854E7 0.04249177781504171 0.13303851591448393 0.9575082221849581 -0.13303851591448393 0.9575082221849581 -0.13303851591448393 0.04249177781504171 0.13303851591448393
8.702831069744885E7 0.04306458696930897 0.13496235035929288 0.9569354130306909 -0.13496235035929288 0.9569354130306909 -0.13496235035929288 0.04306458696930897 0.13496235035929288
8.834169006946853E7 0.043654053698366606 0.13691148295964342 0.9563459463016334 -0.13691148295964342 0.9563459463016334 -0.13691148295964342 0.043654053698366606 0.13691148295964342
8.96748901798321E7 0.04426063929590023 0.13888613280236317 0.9557393607040998 -0.13888613280236317 0.9557393607040998 -0.13888613280236317 0.04426063929590023 0.13888613280236317
9.1028210151304E7 0.04488481644617763 0.1408865154719579 0.9551151835538223 -0.1408865154719579 0.9551151835538223 -0.1408865154719579 0.04488481644617763 0.1408865154719579
9.240195362083109E7 0.04552706942176123 0.14291284273358376 0.9544729305782389 -0.1429128427335838 0.9544729305782389 -0.1429128427335838 0.04552706942176123 0.14291284273358376
9.379642880766791E7 0.04618789427929625 0.14496532220254443 0.9538121057207037 -0.1449653222025444 0.9538121057207037 -0.1449653222025444 0.04618789427929625 0.14496532220254443
9.521194858253023E7 0.04686779905293186 0.14704415699994203 0.9531322009470683 -0.14704415699994203 0.9531322009470683 -0.14704415699994203 0.04686779905293186 0.14704415699994203
9.664883053779216E7 0.04756730394490503 0.1491495453941156 0.9524326960550948 -0.1491495453941156 0.9524326960550948 -0.1491495453941156 0.04756730394490503 0.1491495453941156
9.810739705874248E7 0.04828694151278681 0.15128168042749987 0.9517130584872132 -0.15128168042749987 0.9517130584872132 -0.15128168042749987 0.04828694151278681 0.15128168042749987
9.958797539591652E7 0.04902725685286028 0.1534407495285433 0.9509727431471396 -0.1534407495285433 0.9509727431471396 -0.1534407495285433 0.04902725685286028 0.1534407495285433
1.0109089773851961E8 0.04978880777906784 0.1556269341083295 0.9502111922209322 -0.1556269341083295 0.9502111922209322 -0.1556269341083295 0.04978880777906784 0.1556269341083295
1.0261650128895843E8 0.050572164996932074 0.15784040914155 0.9494278350030678 -0.15784040914155004 0.9494278350030678 -0.15784040914155004 0.050572164996932074 0.15784040914155
1.0416512833849736E8 0.051377912271821785 0.1600813427314888 0.9486220877281782 -0.16008134273148877 0.9486220877281782 -0.16008134273148877 0.051377912271821785 0.1600813427314888
1.0573712634405641E8 0.052206646590898506 0.16234989565868516 0.9477933534091014 -0.16234989565868513 0.9477933534091014 -0.16234989565868513 0.052206646590898506 0.16234989565868516
1.0733284800616828E8 0.053058978318043536 0.16464622091295467 0.9469410216819566 -0.16464622091295467 0.9469410216819566 -0.16464622091295467 0.053058978318043536 0.16464622091295467
1.0895265134811176E8 0.05393553134102853 0.1669704632084622 0.9460644686589714 -0.1669704632084622 0.9460644686589714 -0.1669704632084622 0.05393553134102853 0.1669704632084622
1.1059689979623953E8 0.054836943210154636 0.16932275848155534 0.9451630567898452 -0.16932275848155537 0.9451630567898452 -0.16932275848155537 0.054836943210154636 0.16932275848155534
1.1226596226151802E8 0.05576386526754642 0.17170323337108476 0.9442361347324536 -0.17170323337108478 0.9442361347324536 -0.17170323337108478 0.05576386526754642 0.17170323337108476
1.1396021322229806E8 0.05671696276624679 0.17411200468095966 0.9432830372337532 -0.17411200468095966 0.9432830372337532 -0.17411200468095966 0.05671696276624679 0.17411200468095966
1.1568003280833441E8 0.0576969149782196 0.17654917882470672 0.9423030850217803 -0.17654917882470672 0.9423030850217803 -0.17654917882470672 0.0576969149782196 0.17654917882470672
1.1742580688607343E8 0.05870441529032459 0.1790148512518292 0.9412955847096756 -0.17901485125182923 0.9412955847096756 -0.17901485125182923 0.05870441529032459 0.1790148512518292
1.1919792714522783E8 0.05974017128728822 0.18150910585578828 0.9402598287127119 -0.1815091058557883 0.9402598287127119 -0.1815091058557883 0.05974017128728822 0.18150910585578828
1.2099679118665792E8 0.060804904820651345 0.18403201436346162 0.9391950951793486 -0.18403201436346164 0.9391950951793486 -0.18403201436346164 0.060804904820651345 0.18403201436346162
1.2282280261157903E8 0.06189935206263326 0.18658363570596903 0.9381006479373666 -0.186583635705969 0.9381006479373666 -0.186583635705969 0.06189935206263326 0.18658363570596903
1.2467637111211549E8 0.06302426354380754 0.1891640153707894 0.9369757364561926 -0.18916401537078942 0.9369757364561926 -0.18916401537078942 0.06302426354380754 0.1891640153707894
1.265579125632208E8 0.06418040417344283 0.19177318473513766 0.9358195958265572 -0.19177318473513771 0.9358195958265572 -0.19177318473513771 0.06418040417344283 0.19177318473513766
1.284678491159853E8 0.0653685532413211 0.19441116038061412 0.9346314467586789 -0.19441116038061407 0.9346314467586789 -0.19441116038061407 0.0653685532413211 0.19441116038061412
1.3040660929235186E8 0.06658950439979963 0.1970779433891839 0.9334104956002004 -0.19707794338918388 0.9334104956002004 -0.19707794338918388 0.06658950439979963 0.1970779433891839
1.3237462808126101E8 0.06784406562484525 0.19977351862060133 0.9321559343751546 -0.19977351862060133 0.9321559343751546 -0.19977351862060133 0.06784406562484525 0.19977351862060133
1.3437234703624701E8 0.06913305915472609 0.20249785397144587 0.9308669408452739 -0.20249785397144587 0.9308669408452739 -0.20249785397144587 0.06913305915472609 0.20249785397144587
1.364002143745067E8 0.07045732140500612 0.20525089961599827 0.9295426785949937 -0.20525089961599827 0.9295426785949937 -0.20525089961599827 0.07045732140500612 0.20525089961599827
1.3845868507746372E8 0.0718177028584508 0.20803258722925186 0.9281822971415492 -0.20803258722925186 0.9281822971415492 -0.20803258722925186 0.0718177028584508 0.20803258722925186
1.405482209928499E8 0.0732150679284123 0.21084282919241898 0.9267849320715875 -0.21084282919241903 0.9267849320715875 -0.21084282919241903 0.0732150679284123 0.21084282919241898
1.426692909383278E8 0.07465029479422962 0.21368151778137048 0.9253497052057704 -0.21368151778137048 0.9253497052057704 -0.21368151778137048 0.07465029479422962 0.21368151778137048
1.4482237080667645E8 0.07612427520714445 0.2165485243385205 0.9238757247928557 -0.2165485243385205 0.9238757247928557 -0.2165485243385205 0.07612427520714445 0.2165485243385205
1.4700794367256513E8 0.07763791426520386 0.2194436984287553 0.922362085734796 -0.2194436984287553 0.922362085734796 -0.2194436984287553 0.07763791426520386 0.2194436984287553
1.492264999009378E8 0.07919213015559225 0.22236686698008967 0.9208078698444078 -0.22236686698008967 0.9208078698444078 -0.22236686698008967 0.07919213015559225 0.22236686698008967
1.5147853725703382E8 0.08078785386281077 0.2253178334098275 0.9192121461371894 -0.22531783340982753 0.9192121461371894 -0.22531783340982753 0.08078785386281077 0.2253178334098275
1.5376456101806876E8 0.08242602884110277 0.22829637673710257 0.9175739711588973 -0.22829637673710257 0.9175739711588973 -0.22829637673710257 0.08242602884110277 0.22829637673710257
1.5608508408660066E8 0.08410761064950514 0.2313022506827751 0.9158923893504949 -0.2313022506827751 0.9158923893504949 -0.2313022506827751 0.08410761064950514 0.2313022506827751
1.5844062710560706E8 0.08583356654789516 0.23433518275776655 0.9141664334521047 -0.23433518275776655 0.9141664334521047 -0.23433518275776655 0.08583356654789516 0.23433518275776655
1.6083171857529896E8 0.08760487505239481 0.23739487334103054 0.9123951249476052 -0.23739487334103057 0.9123951249476052 -0.23739487334103057 0.08760487505239481 0.23739487334103054
1.632588949716973E8 0.08942252544849275 0.24048099474846815 0.9105774745515071 -0.24048099474846815 0.9105774745515071 -0.24048099474846815 0.08942252544849275 0.24048099474846815
1.6572270086699936E8 0.0912875172602502 0.24359319029422288 0.9087124827397499 -0.2435931902942229 0.9087124827397499 -0.2435931902942229 0.0912875172602502 0.24359319029422288
1.6822368905176118E8 0.0932008596739659 0.24673107334591007 0.9067991403260343 -0.24673107334591013 0.9067991403260343 -0.24673107334591013 0.0932008596739659 0.24673107334591007
1.7076242065892437E8 0.09516357091469695 0.2498942263754705 0.9048364290853028 -0.2498942263754705 0.9048364290853028 -0.2498942263754705 0.09516357091469695 0.2498942263754705
1.7333946528971428E8 0.09717667757405471 0.25308220000746456 0.9028233224259452 -0.2530822000074645 0.9028233224259452 -0.2530822000074645 0.09717667757405471 0.25308220000746456
1.7595540114143828E8 0.09924121388773269 0.25629451206676596 0.9007587861122673 -0.256294512066766 0.9007587861122673 -0.256294512066766 0.09924121388773269 0.25629451206676596
1.786108151372127E8 0.10135822096126432 0.2595306466277515 0.8986417790387358 -0.2595306466277515 0.8986417790387358 -0.2595306466277515 0.10135822096126432 0.2595306466277515
1.8130630305764765E8 0.10352874594256199 0.26279005306722364 0.896471254057438 -0.26279005306722364 0.896471254057438 -0.26279005306722364 0.10352874594256199 0.26279005306722364
1.840424696745189E8 0.10575384113984976 0.2660721451234514 0.8942461588601504 -0.2660721451234514 0.8942461588601504 -0.2660721451234514 0.10575384113984976 0.2660721451234514
1.8681992888645732E8 0.10803456308367773 0.2693762999638597 0.8919654369163224 -0.26937629996385976 0.8919654369163224 -0.26937629996385976 0.10803456308367773 0.2693762999638597
1.8963930385668582E8 0.11037197153178616 0.2727018572640454 0.8896280284682138 -0.2727018572640454 0.8896280284682138 -0.2727018572640454 0.11037197153178616 0.2727018572640454
1.92501227152835E8 0.11276712841568569 0.276048118300945 0.8872328715843143 -0.27604811830094506 0.8872328715843143 -0.27604811830094506 0.11276712841568569 0.276048118300945
1.9540634088886917E8 0.11522109672792512 0.2794143450631306 0.8847789032720749 -0.2794143450631306 0.8847789032720749 -0.2794143450631306 0.11522109672792512 0.2794143450631306
1.983552968691535E8 0.11773493934913996 0.2827997593813534 0.8822650606508599 -0.2827997593813534 0.8822650606508599 -0.2827997593813534 0.11773493934913996 0.2827997593813534
2.0134875673469606E8 0.12030971781410435 0.28620354208260224 0.8796902821858957 -0.2862035420826023 0.8796902821858957 -0.2862035420826023 0.12030971781410435 0.28620354208260224
2.0438739211159652E8 0.12294649101615726 0.2896248321710854 0.8770535089838428 -0.2896248321710854 0.8770535089838428 -0.2896248321710854 0.12294649101615726 0.2896248321710854
2.074718847617352E8 0.12564631384953187 0.2930627260396822 0.8743536861504682 -0.2930627260396822 0.8743536861504682 -0.2930627260396822 0.12564631384953187 0.2930627260396822
2.106029267357361E8 0.12841023578928884 0.29651627671554553 0.8715897642107113 -0.29651627671554553 0.8715897642107113 -0.29651627671554553 0.12841023578928884 0.29651627671554553
2.1378122052823865E8 0.13123929940874196 0.29998449314366304 0.868760700591258 -0.29998449314366304 0.868760700591258 -0.29998449314366304 0.13123929940874196 0.29998449314366304
2.1700747923551247E8 0.13413453883446563 0.30346633951230606 0.8658654611655344 -0.30346633951230606 0.8658654611655344 -0.30346633951230606 0.13413453883446563 0.30346633951230606
2.2028242671545094E8 0.1370969781391854 0.30696073462440454 0.8629030218608147 -0.30696073462440454 0.8629030218608147 -0.30696073462440454 0.1370969781391854 0.30696073462440454
2.23606797749979E8 0.14012762967308623 0.3104665513189949 0.8598723703269138 -0.3104665513189949 0.8598723703269138 -0.3104665513189949 0.14012762967308623 0.3104665513189949
2.2698133820991236E8 0.1432274923343101 0.3139826159469718 0.8567725076656899 -0.3139826159469718 0.8567725076656899 -0.3139826159469718 0.1432274923343101 0.3139826159469718
2.3040680522230446E8 0.1463975497796727 0.317507707905458 0.8536024502203273 -0.317507707905458 0.8536024502203273 -0.317507707905458 0.1463975497796727 0.317507707905458
2.338839673403185E8 0.1496387685768986 0.32104055923517205 0.8503612314231016 -0.32104055923517205 0.8503612314231016 -0.32104055923517205 0.1496387685768986 0.32104055923517205
2.37413604715664E8 0.15295209629995343 0.3245798542852234 0.8470479037000466 -0.32457985428522346 0.8470479037000466 -0.32457985428522346 0.15295209629995343 0.3245798542852234
2.4099650927363476E8 0.15633845956934417 0.3281242294497962 0.8436615404306559 -0.3281242294497962 0.8436615404306559 -0.3281242294497962 0.15633845956934417 0.3281242294497962
2.446334848907889E8 0.15979876203956503 0.3316722729812027 0.840201237960435 -0.3316722729812027 0.840201237960435 -0.3316722729812027 0.15979876203956503 0.3316722729812027
2.4832534757531032E8 0.1633338823361772 0.3352225248837822 0.8366661176638227 -0.3352225248837821 0.8366661176638227 -0.3352225248837821 0.1633338823361772 0.3352225248837822
2.5207292565009177E8 0.1669446719453353 0.3387734768930959 0.8330553280546645 -0.3387734768930959 0.8330553280546645 -0.3387734768930959 0.1669446719453353 0.3387734768930959
