!Murata Part Number: LQP15MN2N7W02
!These Parameters are Measured in Series Mode Connection
!       o--[Z]--o
!Port1              Port2
!       o-------o
!
!Freq. Start=50[MHz] Stop=20[GHz], 401[Steps]
# Hz S RI R 50
!Freq.(Hz) S11(Real) S11(Imag) S21(Real) S21(Imag) S12(Real) S12(Imag) S22(Real) S22(Imag)
5.0E7 0.0019042149747584831 0.00761397477489014 0.9980957850252415 -0.00761397477489014 0.9980957850252415 -0.00761397477489014 0.0019042149747584831 0.00761397477489014
5.0754570186123446E7 0.0019101906313419871 0.007727252175381967 0.9980898093686579 -0.007727252175381967 0.9980898093686579 -0.007727252175381967 0.0019101906313419871 0.007727252175381967
5.152052789556263E7 0.0019163143296197977 0.007842177787805854 0.9980836856703804 -0.007842177787805854 0.9980836856703804 -0.007842177787805854 0.0019163143296197977 0.007842177787805854
5.229804498202928E7 0.0019225889307473661 0.00795877454121047 0.9980774110692526 -0.007958774541210469 0.9980774110692526 -0.007958774541210469 0.0019225889307473661 0.00795877454121047
5.308729589274893E7 0.0019290173148717152 0.008077065672641609 0.9980709826851282 -0.008077065672641607 0.9980709826851282 -0.008077065672641607 0.0019290173148717152 0.008077065672641609
5.388845770760058E7 0.0019356023798148471 0.008197074732606585 0.9980643976201852 -0.008197074732606587 0.9980643976201852 -0.008197074732606587 0.0019356023798148471 0.008197074732606585
5.470171017884717E7 0.0019423470397367246 0.008318825590745666 0.9980576529602635 -0.008318825590745668 0.9980576529602635 -0.008318825590745668 0.0019423470397367246 0.008318825590745666
5.5527235771465644E7 0.0019492542237841545 0.00844234244171855 0.9980507457762158 -0.008442342441718551 0.9980507457762158 -0.008442342441718551 0.0019492542237841545 0.00844234244171855
5.6365219704085544E7 0.0019563268747325364 0.00856764981131396 0.9980436731252674 -0.008567649811313962 0.9980436731252674 -0.008567649811313962 0.0019563268747325364 0.00856764981131396
5.721584999054556E7 0.001963567947628061 0.00869477256279019 0.998036432052372 -0.00869477256279019 0.998036432052372 -0.00869477256279019 0.001963567947628061 0.00869477256279019
5.807931748207712E7 0.0019709804084386408 0.008823735903454338 0.9980290195915613 -0.008823735903454338 0.9980290195915613 -0.008823735903454338 0.0019709804084386408 0.008823735903454338
5.8955815910124585E7 0.0019785672327224894 0.008954565391487816 0.9980214327672775 -0.008954565391487816 0.9980214327672775 -0.008954565391487816 0.0019785672327224894 0.008954565391487816
5.984554192981184E7 0.0019863314043239186 0.009087286943025304 0.998013668595676 -0.009087286943025304 0.998013668595676 -0.009087286943025304 0.0019863314043239186 0.009087286943025304
6.074869516406457E7 0.001994275914106677 0.009221926839494153 0.9980057240858932 -0.009221926839494153 0.9980057240858932 -0.009221926839494153 0.001994275914106677 0.009221926839494153
6.166547824839868E7 0.0020024037587357286 0.009358511735220822 0.9979975962412644 -0.009358511735220822 0.9979975962412644 -0.009358511735220822 0.0020024037587357286 0.009358511735220822
6.2596096876384385E7 0.00201071793951914 0.009497068665310469 0.9979892820604807 -0.009497068665310469 0.9979892820604807 -0.009497068665310469 0.00201071793951914 0.009497068665310469
6.354075984579668E7 0.0020192214613223543 0.00963762505380549 0.9979807785386777 -0.009637625053805492 0.9979807785386777 -0.009637625053805492 0.0020192214613223543 0.00963762505380549
6.449967910546205E7 0.0020279173315677595 0.009780208722127889 0.9979720826684322 -0.009780208722127889 0.9979720826684322 -0.009780208722127889 0.0020279173315677595 0.009780208722127889
6.547306980281226E7 0.0020368085593331733 0.00992484789781032 0.9979631914406668 -0.00992484789781032 0.9979631914406668 -0.00992484789781032 0.0020368085593331733 0.00992484789781032
6.646115033215589E7 0.0020458981545633647 0.010071571223519362 0.9979541018454364 -0.010071571223519362 0.9979541018454364 -0.010071571223519362 0.0020458981545633647 0.010071571223519362
6.746414238367817E7 0.0020551891274094083 0.010220407766374397 0.9979448108725905 -0.010220407766374397 0.9979448108725905 -0.010220407766374397 0.0020551891274094083 0.010220407766374397
6.848227099318038E7 0.0020646844877111074 0.010371387027564188 0.997935315512289 -0.010371387027564188 0.997935315512289 -0.010371387027564188 0.0020646844877111074 0.010371387027564188
6.951576459256999E7 0.002074387244638295 0.010524538952262883 0.9979256127553618 -0.010524538952262881 0.9979256127553618 -0.010524538952262881 0.002074387244638295 0.010524538952262883
7.056485506111258E7 0.0020843004065072236 0.010679893939845812 0.9979156995934927 -0.010679893939845813 0.9979156995934927 -0.010679893939845813 0.0020843004065072236 0.010679893939845812
7.162977777745734E7 0.002094426980788641 0.010837482854404825 0.9979055730192113 -0.010837482854404825 0.9979055730192113 -0.010837482854404825 0.002094426980788641 0.010837482854404825
7.271077167244768E7 0.002104769974324484 0.010997337035561687 0.9978952300256756 -0.010997337035561687 0.9978952300256756 -0.010997337035561687 0.002104769974324484 0.010997337035561687
7.380807928272885E7 0.0021153323937704006 0.0111594883095771 0.9978846676062295 -0.011159488309577099 0.9978846676062295 -0.011159488309577099 0.0021153323937704006 0.0111594883095771
7.492194680516452E7 0.0021261172462814287 0.011323969000751787 0.9978738827537186 -0.011323969000751787 0.9978738827537186 -0.011323969000751787 0.0021261172462814287 0.011323969000751787
7.60526241520746E7 0.002137127540458321 0.011490811943114788 0.9978628724595416 -0.01149081194311479 0.9978628724595416 -0.01149081194311479 0.002137127540458321 0.011490811943114788
7.720036500730675E7 0.0021483662875720145 0.01166005049239328 0.997851633712428 -0.01166005049239328 0.997851633712428 -0.01166005049239328 0.0021483662875720145 0.01166005049239328
7.836542688315398E7 0.0021598365030836074 0.011831718538256564 0.9978401634969164 -0.011831718538256564 0.9978401634969164 -0.011831718538256564 0.0021598365030836074 0.011831718538256564
7.954807117813127E7 0.002171541208477105 0.01200585051682605 0.9978284587915229 -0.012005850516826047 0.9978284587915229 -0.012005850516826047 0.002171541208477105 0.01200585051682605
8.074856323562416E7 0.0021834834334218856 0.012182481423441563 0.997816516566578 -0.012182481423441563 0.997816516566578 -0.012182481423441563 0.0021834834334218856 0.012182481423441563
8.196717240342227E7 0.0021956662182814513 0.012361646825673185 0.9978043337817184 -0.012361646825673185 0.9978043337817184 -0.012361646825673185 0.0021956662182814513 0.012361646825673185
8.320417209415154E7 0.0022080926169845846 0.012543382876566646 0.9977919073830155 -0.012543382876566646 0.9977919073830155 -0.012543382876566646 0.0022080926169845846 0.012543382876566646
8.445983984661816E7 0.0022207657002743784 0.012727726328108795 0.9977792342997256 -0.012727726328108795 0.9977792342997256 -0.012727726328108795 0.0022207657002743784 0.012727726328108795
8.573445738807854E7 0.0022336885593499853 0.01291471454489899 0.9977663114406501 -0.01291471454489899 0.9977663114406501 -0.01291471454489899 0.0022336885593499853 0.01291471454489899
8.702831069744885E7 0.002246864309915042 0.013104385518010563 0.9977531356900848 -0.013104385518010563 0.9977531356900848 -0.013104385518010563 0.002246864309915042 0.013104385518010563
8.834169006946853E7 0.0022602960966458625 0.013296777879025747 0.9977397039033543 -0.013296777879025747 0.9977397039033543 -0.013296777879025747 0.0022602960966458625 0.013296777879025747
8.96748901798321E7 0.002273987098091461 0.013491930914226328 0.9977260129019087 -0.013491930914226331 0.9977260129019087 -0.013491930914226331 0.002273987098091461 0.013491930914226328
9.1028210151304E7 0.0022879405320163117 0.01368988457892132 0.9977120594679837 -0.013689884578921318 0.9977120594679837 -0.013689884578921318 0.0022879405320163117 0.01368988457892132
9.240195362083109E7 0.002302159661195562 0.01389067951189191 0.9976978403388046 -0.01389067951189191 0.9976978403388046 -0.01389067951189191 0.002302159661195562 0.01389067951189191
9.379642880766791E7 0.0023166477996711113 0.014094357049933504 0.997683352200329 -0.0140943570499335 0.997683352200329 -0.0140943570499335 0.0023166477996711113 0.014094357049933504
9.521194858253023E7 0.0023314083194754917 0.014300959242473443 0.9976685916805246 -0.014300959242473443 0.9976685916805246 -0.014300959242473443 0.0023314083194754917 0.014300959242473443
9.664883053779216E7 0.0023464446578291376 0.014510528866243053 0.9976535553421708 -0.01451052886624305 0.9976535553421708 -0.01451052886624305 0.0023464446578291376 0.014510528866243053
9.810739705874248E7 0.0023617603248149454 0.014723109439981496 0.997638239675185 -0.014723109439981496 0.997638239675185 -0.014723109439981496 0.0023617603248149454 0.014723109439981496
9.958797539591652E7 0.0023773589115325365 0.01493874523914915 0.9976226410884674 -0.01493874523914915 0.9976226410884674 -0.01493874523914915 0.0023773589115325365 0.01493874523914915
1.0109089773851961E8 0.0023932440987329212 0.015157481310627718 0.9976067559012671 -0.015157481310627718 0.9976067559012671 -0.015157481310627718 0.0023932440987329212 0.015157481310627718
1.0261650128895843E8 0.002409419665932611 0.015379363487384279 0.9975905803340673 -0.015379363487384279 0.9975905803340673 -0.015379363487384279 0.002409419665932611 0.015379363487384279
1.0416512833849736E8 0.0024258895010044784 0.015604438403076567 0.9975741104989957 -0.015604438403076567 0.9975741104989957 -0.015604438403076567 0.0024258895010044784 0.015604438403076567
1.0573712634405641E8 0.002442657610241026 0.0158327535065771 0.9975573423897589 -0.0158327535065771 0.9975573423897589 -0.0158327535065771 0.002442657610241026 0.0158327535065771
1.0733284800616828E8 0.002459728128883926 0.016064357076393917 0.997540271871116 -0.016064357076393917 0.997540271871116 -0.016064357076393917 0.002459728128883926 0.016064357076393917
1.0895265134811176E8 0.002477105332112091 0.016299298234966578 0.997522894667888 -0.016299298234966578 0.997522894667888 -0.016299298234966578 0.002477105332112091 0.016299298234966578
1.1059689979623953E8 0.0024947936464788083 0.01653762696281637 0.997505206353521 -0.01653762696281637 0.997505206353521 -0.01653762696281637 0.0024947936464788083 0.01653762696281637
1.1226596226151802E8 0.002512797661786956 0.016779394112531015 0.997487202338213 -0.016779394112531012 0.997487202338213 -0.016779394112531012 0.002512797661786956 0.016779394112531015
1.1396021322229806E8 0.0025311221433896645 0.017024651422564433 0.9974688778566103 -0.01702465142256443 0.9974688778566103 -0.01702465142256443 0.0025311221433896645 0.017024651422564433
1.1568003280833441E8 0.0025497720449024802 0.01727345153083418 0.9974502279550976 -0.01727345153083418 0.9974502279550976 -0.01727345153083418 0.0025497720449024802 0.01727345153083418
1.1742580688607343E8 0.002568752521311588 0.017525847988099634 0.9974312474786884 -0.017525847988099634 0.9974312474786884 -0.017525847988099634 0.002568752521311588 0.017525847988099634
1.1919792714522783E8 0.0025880689424614533 0.017781895271105793 0.9974119310575387 -0.017781895271105793 0.9974119310575387 -0.017781895271105793 0.0025880689424614533 0.017781895271105793
1.2099679118665792E8 0.0026077269069041463 0.018041648795479138 0.997392273093096 -0.01804164879547914 0.997392273093096 -0.01804164879547914 0.0026077269069041463 0.018041648795479138
1.2282280261157903E8 0.0026277322560915033 0.01830516492836333 0.9973722677439085 -0.01830516492836333 0.9973722677439085 -0.01830516492836333 0.0026277322560915033 0.01830516492836333
1.2467637111211549E8 0.0026480910888905017 0.018572501000784485 0.9973519089111094 -0.018572501000784485 0.9973519089111094 -0.018572501000784485 0.0026480910888905017 0.018572501000784485
1.265579125632208E8 0.0026688097764015167 0.01884371531973764 0.9973311902235984 -0.01884371531973764 0.9973311902235984 -0.01884371531973764 0.0026688097764015167 0.01884371531973764
1.284678491159853E8 0.0026898949770584367 0.01911886717998741 0.9973101050229416 -0.01911886717998741 0.9973101050229416 -0.01911886717998741 0.0026898949770584367 0.01911886717998741
1.3040660929235186E8 0.0027113536519894448 0.01939801687557853 0.9972886463480105 -0.019398016875578534 0.9972886463480105 -0.019398016875578534 0.0027113536519894448 0.01939801687557853
1.3237462808126101E8 0.0027331930806168306 0.019681225711053164 0.9972668069193832 -0.019681225711053168 0.9972668069193832 -0.019681225711053168 0.0027331930806168306 0.019681225711053164
1.3437234703624701E8 0.0027554208764742887 0.01996855601237441 0.9972445791235256 -0.01996855601237441 0.9972445791235256 -0.01996855601237441 0.0027554208764742887 0.01996855601237441
1.364002143745067E8 0.002778045003220218 0.020260071137557047 0.9972219549967799 -0.02026007113755705 0.9972219549967799 -0.02026007113755705 0.002778045003220218 0.020260071137557047
1.3845868507746372E8 0.002801073790825879 0.020555835487008987 0.9971989262091742 -0.020555835487008987 0.9971989262091742 -0.020555835487008987 0.002801073790825879 0.020555835487008987
1.405482209928499E8 0.002824515951917644 0.020855914513588147 0.9971754840480823 -0.020855914513588147 0.9971754840480823 -0.020855914513588147 0.002824515951917644 0.020855914513588147
1.426692909383278E8 0.002848380598253337 0.021160374732382237 0.9971516194017468 -0.021160374732382237 0.9971516194017468 -0.021160374732382237 0.002848380598253337 0.021160374732382237
1.4482237080667645E8 0.002872677257313328 0.021469283730220036 0.9971273227426865 -0.021469283730220032 0.9971273227426865 -0.021469283730220032 0.002872677257313328 0.021469283730220036
1.4700794367256513E8 0.002897415888988094 0.021782710174925033 0.9971025841110119 -0.021782710174925033 0.9971025841110119 -0.021782710174925033 0.002897415888988094 0.021782710174925033
1.492264999009378E8 0.0029226069023450024 0.022100723824323733 0.997077393097655 -0.022100723824323733 0.997077393097655 -0.022100723824323733 0.0029226069023450024 0.022100723824323733
1.5147853725703382E8 0.0029482611724583026 0.022423395535022646 0.9970517388275417 -0.02242339553502265 0.9970517388275417 -0.02242339553502265 0.0029482611724583026 0.022423395535022646
1.5376456101806876E8 0.0029743900572877253 0.022750797270969386 0.9970256099427123 -0.022750797270969386 0.9970256099427123 -0.022750797270969386 0.0029743900572877253 0.022750797270969386
1.5608508408660066E8 0.003001005414592501 0.023083002111814792 0.9969989945854075 -0.023083002111814795 0.9969989945854075 -0.023083002111814795 0.003001005414592501 0.023083002111814792
1.5844062710560706E8 0.003028119618869236 0.023420084261094137 0.9969718803811309 -0.023420084261094137 0.9969718803811309 -0.023420084261094137 0.003028119618869236 0.023420084261094137
1.6083171857529896E8 0.003055745578303697 0.023762119054246553 0.9969442544216963 -0.023762119054246553 0.9969442544216963 -0.023762119054246553 0.003055745578303697 0.023762119054246553
1.632588949716973E8 0.003083896751728349 0.024109182966492945 0.9969161032482717 -0.024109182966492945 0.9969161032482717 -0.024109182966492945 0.003083896751728349 0.024109182966492945
1.6572270086699936E8 0.003112587165579283 0.024461353620593432 0.9968874128344206 -0.02446135362059343 0.9968874128344206 -0.02446135362059343 0.003112587165579283 0.024461353620593432
1.6822368905176118E8 0.0031418314308479557 0.02481870979450581 0.996858168569152 -0.024818709794505806 0.996858168569152 -0.024818709794505806 0.0031418314308479557 0.02481870979450581
1.7076242065892437E8 0.003171644760025133 0.025181331428967443 0.9968283552399749 -0.025181331428967443 0.9968283552399749 -0.025181331428967443 0.003171644760025133 0.025181331428967443
1.7333946528971428E8 0.0032020429840362657 0.025549299635023132 0.9967979570159639 -0.025549299635023132 0.9967979570159639 -0.025549299635023132 0.0032020429840362657 0.025549299635023132
1.7595540114143828E8 0.003233042569169453 0.02592269670152183 0.9967669574308307 -0.02592269670152183 0.9967669574308307 -0.02592269670152183 0.003233042569169453 0.02592269670152183
1.786108151372127E8 0.0032646606339990364 0.026301606102605114 0.9967353393660012 -0.026301606102605114 0.9967353393660012 -0.026301606102605114 0.0032646606339990364 0.026301606102605114
1.8130630305764765E8 0.0032969149663097308 0.026686112505210514 0.9967030850336902 -0.026686112505210514 0.9967030850336902 -0.026686112505210514 0.0032969149663097308 0.026686112505210514
1.840424696745189E8 0.0033298240400280793 0.027076301776612303 0.9966701759599718 -0.027076301776612303 0.9966701759599718 -0.027076301776612303 0.0033298240400280793 0.027076301776612303
1.8681992888645732E8 0.003363407032169758 0.02747226099202236 0.9966365929678304 -0.027472260992022362 0.9966365929678304 -0.027472260992022362 0.003363407032169758 0.02747226099202236
1.8963930385668582E8 0.003397683839813062 0.027874078442273256 0.9966023161601871 -0.027874078442273253 0.9966023161601871 -0.027874078442273253 0.003397683839813062 0.027874078442273256
1.92501227152835E8 0.0034326750971105753 0.028281843641605162 0.9965673249028894 -0.028281843641605166 0.9965673249028894 -0.028281843641605166 0.0034326750971105753 0.028281843641605162
1.9540634088886917E8 0.003468402192352617 0.02869564733557769 0.9965315978076474 -0.028695647335577695 0.9965315978076474 -0.028695647335577695 0.003468402192352617 0.02869564733557769
1.983552968691535E8 0.003504887285097622 0.029115581509126773 0.9964951127149023 -0.029115581509126773 0.9964951127149023 -0.029115581509126773 0.003504887285097622 0.029115581509126773
2.0134875673469606E8 0.003542153323386153 0.02954173939478678 0.9964578466766137 -0.02954173939478678 0.9964578466766137 -0.02954173939478678 0.003542153323386153 0.02954173939478678
2.0438739211159652E8 0.003580224061056493 0.029974215481096113 0.9964197759389435 -0.029974215481096113 0.9964197759389435 -0.029974215481096113 0.003580224061056493 0.029974215481096113
2.074718847617352E8 0.003619124075181195 0.03041310552120457 0.996380875924819 -0.03041310552120457 0.996380875924819 -0.03041310552120457 0.003619124075181195 0.03041310552120457
2.106029267357361E8 0.0036588787836451296 0.03085850654169956 0.9963411212163549 -0.030858506541699558 0.9963411212163549 -0.030858506541699558 0.0036588787836451296 0.03085850654169956
2.1378122052823865E8 0.0036995144628867507 0.03131051685166723 0.9963004855371133 -0.03131051685166724 0.9963004855371133 -0.03131051685166724 0.0036995144628867507 0.03131051685166723
2.1700747923551247E8 0.0037410582658252956 0.031769236052003734 0.9962589417341747 -0.03176923605200374 0.9962589417341747 -0.03176923605200374 0.0037410582658252956 0.031769236052003734
2.2028242671545094E8 0.0037835382399976952 0.032234765044990864 0.9962164617600026 -0.032234765044990864 0.9962164617600026 -0.032234765044990864 0.0037835382399976952 0.032234765044990864
2.23606797749979E8 0.003826983345929847 0.03270720604414948 0.9961730166540701 -0.03270720604414948 0.9961730166540701 -0.03270720604414948 0.003826983345929847 0.03270720604414948
2.2698133820991236E8 0.003871423475767695 0.03318666258438303 0.9961285765242324 -0.03318666258438303 0.9961285765242324 -0.03318666258438303 0.003871423475767695 0.03318666258438303
2.3040680522230446E8 0.003916889472194435 0.033673239532422405 0.9960831105278056 -0.033673239532422405 0.9960831105278056 -0.033673239532422405 0.003916889472194435 0.033673239532422405
2.338839673403185E8 0.003963413147660771 0.03416704309758288 0.9960365868523392 -0.03416704309758287 0.9960365868523392 -0.03416704309758287 0.003963413147660771 0.03416704309758288
2.37413604715664E8 0.00401102730395594 0.034668180842842795 0.9959889726960439 -0.034668180842842795 0.9959889726960439 -0.034668180842842795 0.00401102730395594 0.034668180842842795
