!Murata Part Number: LQP15MN8N2B02
!These Parameters are Measured in Series Mode Connection
!       o--[Z]--o
!Port1              Port2
!       o-------o
!
!Freq. Start=50[MHz] Stop=20[GHz], 401[Steps]
# Hz S RI R 50
!Freq.(Hz) S11(Real) S11(Imag) S21(Real) S21(Imag) S12(Real) S12(Imag) S22(Real) S22(Imag)
5.0E7 0.008364896814514546 0.024739238631434245 0.9916351031854855 -0.024739238631434245 0.9916351031854855 -0.024739238631434245 0.008364896814514546 0.024739238631434245
5.0754570186123446E7 0.008388371779388148 0.025111287685919522 0.9916116282206119 -0.025111287685919522 0.9916116282206119 -0.025111287685919522 0.008388371779388148 0.025111287685919522
5.152052789556263E7 0.008412552689752193 0.02548889707009218 0.9915874473102478 -0.02548889707009218 0.9915874473102478 -0.02548889707009218 0.008412552689752193 0.02548889707009218
5.229804498202928E7 0.008437460615445815 0.02587214820904716 0.9915625393845543 -0.02587214820904716 0.9915625393845543 -0.02587214820904716 0.008437460615445815 0.02587214820904716
5.308729589274893E7 0.008463117241301901 0.02626112364724118 0.9915368827586981 -0.026261123647241185 0.9915368827586981 -0.026261123647241185 0.008463117241301901 0.02626112364724118
5.388845770760058E7 0.008489544884379158 0.026655907060736322 0.9915104551156209 -0.026655907060736322 0.9915104551156209 -0.026655907060736322 0.008489544884379158 0.026655907060736322
5.470171017884717E7 0.00851676651163456 0.02705658326943992 0.9914832334883656 -0.02705658326943992 0.9914832334883656 -0.02705658326943992 0.00851676651163456 0.02705658326943992
5.5527235771465644E7 0.008544805758045056 0.02746323824933432 0.9914551942419548 -0.02746323824933432 0.9914551942419548 -0.02746323824933432 0.008544805758045056 0.02746323824933432
5.6365219704085544E7 0.008573686945187328 0.027875959144689166 0.9914263130548128 -0.027875959144689166 0.9914263130548128 -0.027875959144689166 0.008573686945187328 0.027875959144689166
5.721584999054556E7 0.008603435100284558 0.028294834280248836 0.9913965648997154 -0.028294834280248836 0.9913965648997154 -0.028294834280248836 0.008603435100284558 0.028294834280248836
5.807931748207712E7 0.008634075975729212 0.028719953173387727 0.9913659240242709 -0.028719953173387727 0.9913659240242709 -0.028719953173387727 0.008634075975729212 0.028719953173387727
5.8955815910124585E7 0.008665636069090654 0.029151406546224837 0.9913343639309093 -0.02915140654622484 0.9913343639309093 -0.02915140654622484 0.008665636069090654 0.029151406546224837
5.984554192981184E7 0.008698142643616768 0.02958928633769023 0.9913018573563833 -0.02958928633769023 0.9913018573563833 -0.02958928633769023 0.008698142643616768 0.02958928633769023
6.074869516406457E7 0.00873162374923838 0.030033685715533873 0.9912683762507617 -0.030033685715533873 0.9912683762507617 -0.030033685715533873 0.00873162374923838 0.030033685715533873
6.166547824839868E7 0.008766108244085606 0.03048469908826902 0.9912338917559143 -0.03048469908826902 0.9912338917559143 -0.03048469908826902 0.008766108244085606 0.03048469908826902
6.2596096876384385E7 0.008801625816525003 0.030942422117040163 0.991198374183475 -0.030942422117040163 0.991198374183475 -0.030942422117040163 0.008801625816525003 0.030942422117040163
6.354075984579668E7 0.008838207007726495 0.03140695172740668 0.9911617929922735 -0.03140695172740668 0.9911617929922735 -0.03140695172740668 0.008838207007726495 0.03140695172740668
6.449967910546205E7 0.00887588323476896 0.03187838612103213 0.9911241167652309 -0.03187838612103213 0.9911241167652309 -0.03187838612103213 0.00887588323476896 0.03187838612103213
6.547306980281226E7 0.008914686814293327 0.03235682478726936 0.9910853131857066 -0.03235682478726936 0.9910853131857066 -0.03235682478726936 0.008914686814293327 0.03235682478726936
6.646115033215589E7 0.008954650986711983 0.03284236851463097 0.9910453490132879 -0.032842368514630974 0.9910453490132879 -0.032842368514630974 0.008954650986711983 0.03284236851463097
6.746414238367817E7 0.008995809940983196 0.0333351194021346 0.9910041900590165 -0.0333351194021346 0.9910041900590165 -0.0333351194021346 0.008995809940983196 0.0333351194021346
6.848227099318038E7 0.009038198839959198 0.033835180870512044 0.9909618011600407 -0.033835180870512044 0.9909618011600407 -0.033835180870512044 0.009038198839959198 0.033835180870512044
6.951576459256999E7 0.009081853846316473 0.03434265767327114 0.9909181461536835 -0.03434265767327114 0.9909181461536835 -0.03434265767327114 0.009081853846316473 0.03434265767327114
7.056485506111258E7 0.009126812149076709 0.03485765590759889 0.9908731878509232 -0.03485765590759889 0.9908731878509232 -0.03485765590759889 0.009126812149076709 0.03485765590759889
7.162977777745734E7 0.009173111990726665 0.03538028302509408 0.9908268880092733 -0.03538028302509408 0.9908268880092733 -0.03538028302509408 0.009173111990726665 0.03538028302509408
7.271077167244768E7 0.009220792694945235 0.03591064784231741 0.9907792073050549 -0.03591064784231741 0.9907792073050549 -0.03591064784231741 0.009220792694945235 0.03591064784231741
7.380807928272885E7 0.009269894694945748 0.03644886055114714 0.9907301053050541 -0.03644886055114714 0.9907301053050541 -0.03644886055114714 0.009269894694945748 0.03644886055114714
7.492194680516452E7 0.009320459562441314 0.036995032728927374 0.9906795404375588 -0.036995032728927374 0.9906795404375588 -0.036995032728927374 0.009320459562441314 0.036995032728927374
7.60526241520746E7 0.009372530037241103 0.037549277348396706 0.990627469962759 -0.037549277348396706 0.990627469962759 -0.037549277348396706 0.009372530037241103 0.037549277348396706
7.720036500730675E7 0.00942615005748504 0.03811170878738418 0.9905738499425152 -0.03811170878738418 0.9905738499425152 -0.03811170878738418 0.00942615005748504 0.03811170878738418
7.836542688315398E7 0.009481364790524346 0.038682442838259654 0.9905186352094756 -0.038682442838259654 0.9905186352094756 -0.038682442838259654 0.009481364790524346 0.038682442838259654
7.954807117813127E7 0.009538220664455156 0.039261596717125126 0.9904617793355448 -0.039261596717125126 0.9904617793355448 -0.039261596717125126 0.009538220664455156 0.039261596717125126
8.074856323562416E7 0.009596765400312192 0.03984928907273392 0.9904032345996879 -0.039849289072733926 0.9904032345996879 -0.039849289072733926 0.009596765400312192 0.03984928907273392
8.196717240342227E7 0.009657048044929362 0.04044563999512409 0.9903429519550707 -0.0404456399951241 0.9903429519550707 -0.0404456399951241 0.009657048044929362 0.04044563999512409
8.320417209415154E7 0.009719119004473914 0.041050771023952916 0.9902808809955261 -0.04105077102395292 0.9902808809955261 -0.04105077102395292 0.009719119004473914 0.041050771023952916
8.445983984661816E7 0.009783030078660535 0.04166480515651802 0.9902169699213393 -0.04166480515651802 0.9902169699213393 -0.04166480515651802 0.009783030078660535 0.04166480515651802
8.573445738807854E7 0.009848834495651652 0.04228786685545263 0.9901511655043482 -0.04228786685545263 0.9901511655043482 -0.04228786685545263 0.009848834495651652 0.04228786685545263
8.702831069744885E7 0.00991658694764993 0.042920082056080354 0.9900834130523501 -0.04292008205608036 0.9900834130523501 -0.04292008205608036 0.00991658694764993 0.042920082056080354
8.834169006946853E7 0.00998634362718885 0.04356157817341643 0.9900136563728111 -0.04356157817341643 0.9900136563728111 -0.04356157817341643 0.00998634362718885 0.04356157817341643
8.96748901798321E7 0.010058162264126926 0.044212484108801804 0.9899418377358731 -0.044212484108801804 0.9899418377358731 -0.044212484108801804 0.010058162264126926 0.044212484108801804
9.1028210151304E7 0.010132102163351177 0.04487293025615681 0.989867897836649 -0.044872930256156816 0.989867897836649 -0.044872930256156816 0.010132102163351177 0.04487293025615681
9.240195362083109E7 0.010208224243194956 0.04554304850784063 0.9897917757568048 -0.045543048507840626 0.9897917757568048 -0.045543048507840626 0.010208224243194956 0.04554304850784063
9.379642880766791E7 0.010286591074575524 0.04622297226010447 0.9897134089254246 -0.04622297226010446 0.9897134089254246 -0.04622297226010446 0.010286591074575524 0.04622297226010447
9.521194858253023E7 0.010367266920856273 0.04691283641812456 0.9896327330791438 -0.04691283641812456 0.9896327330791438 -0.04691283641812456 0.010367266920856273 0.04691283641812456
9.664883053779216E7 0.0104503177784386 0.0476127774006035 0.9895496822215615 -0.0476127774006035 0.9895496822215615 -0.0476127774006035 0.0104503177784386 0.0476127774006035
9.810739705874248E7 0.010535811418088363 0.048322933143926924 0.9894641885819117 -0.048322933143926924 0.9894641885819117 -0.048322933143926924 0.010535811418088363 0.048322933143926924
9.958797539591652E7 0.010623817427001763 0.049043443105864386 0.9893761825729984 -0.04904344310586439 0.9893761825729984 -0.04904344310586439 0.010623817427001763 0.049043443105864386
1.0109089773851961E8 0.01071440725161555 0.04977444826880258 0.9892855927483846 -0.04977444826880258 0.9892855927483846 -0.04977444826880258 0.01071440725161555 0.04977444826880258
1.0261650128895843E8 0.010807654241166604 0.050516091142500566 0.9891923457588333 -0.050516091142500566 0.9891923457588333 -0.050516091142500566 0.010807654241166604 0.050516091142500566
1.0416512833849736E8 0.010903633692005886 0.05126851576635613 0.989096366307994 -0.05126851576635613 0.989096366307994 -0.05126851576635613 0.010903633692005886 0.05126851576635613
1.0573712634405641E8 0.011002422892672128 0.05203186771117411 0.9889975771073278 -0.05203186771117411 0.9889975771073278 -0.05203186771117411 0.011002422892672128 0.05203186771117411
1.0733284800616828E8 0.0111041011697309 0.052806294080427224 0.9888958988302692 -0.05280629408042724 0.9888958988302692 -0.05280629408042724 0.0111041011697309 0.052806294080427224
1.0895265134811176E8 0.011208749934384758 0.053591943511001196 0.9887912500656152 -0.05359194351100121 0.9887912500656152 -0.05359194351100121 0.011208749934384758 0.053591943511001196
1.1059689979623953E8 0.011316452729861126 0.054388966173416584 0.9886835472701389 -0.0543889661734166 0.9886835472701389 -0.0543889661734166 0.011316452729861126 0.054388966173416584
1.1226596226151802E8 0.011427295279584498 0.05519751377152024 0.9885727047204155 -0.05519751377152024 0.9885727047204155 -0.05519751377152024 0.011427295279584498 0.05519751377152024
1.1396021322229806E8 0.011541365536140753 0.05601773954164082 0.9884586344638593 -0.05601773954164082 0.9884586344638593 -0.05601773954164082 0.011541365536140753 0.05601773954164082
1.1568003280833441E8 0.011658753731041653 0.05684979825120261 0.9883412462689585 -0.05684979825120262 0.9883412462689585 -0.05684979825120262 0.011658753731041653 0.05684979825120261
1.1742580688607343E8 0.011779552425298859 0.05769384619679411 0.9882204475747012 -0.05769384619679411 0.9882204475747012 -0.05769384619679411 0.011779552425298859 0.05769384619679411
1.1919792714522783E8 0.011903856560817626 0.05855004120168759 0.9880961434391826 -0.0585500412016876 0.9880961434391826 -0.0585500412016876 0.011903856560817626 0.05855004120168759
1.2099679118665792E8 0.012031763512621503 0.05941854261280753 0.9879682364873786 -0.05941854261280753 0.9879682364873786 -0.05941854261280753 0.012031763512621503 0.05941854261280753
1.2282280261157903E8 0.012163373141920791 0.06029951129714642 0.9878366268580794 -0.06029951129714642 0.9878366268580794 -0.06029951129714642 0.012163373141920791 0.06029951129714642
1.2467637111211549E8 0.012298787850039093 0.06119310963762807 0.9877012121499611 -0.06119310963762807 0.9877012121499611 -0.06119310963762807 0.012298787850039093 0.06119310963762807
1.265579125632208E8 0.012438112633213655 0.06209950152841828 0.9875618873667862 -0.06209950152841828 0.9875618873667862 -0.06209950152841828 0.012438112633213655 0.06209950152841828
1.284678491159853E8 0.01258145513828755 0.06301885236968523 0.9874185448617124 -0.06301885236968523 0.9874185448617124 -0.06301885236968523 0.01258145513828755 0.06301885236968523
1.3040660929235186E8 0.012728925719313475 0.0639513290618117 0.9872710742806866 -0.06395132906181168 0.9872710742806866 -0.06395132906181168 0.012728925719313475 0.0639513290618117
1.3237462808126101E8 0.01288063749509147 0.0648970999990628 0.9871193625049086 -0.06489709999906279 0.9871193625049086 -0.06489709999906279 0.01288063749509147 0.0648970999990628
1.3437234703624701E8 0.013036706407665284 0.06585633506271339 0.9869632935923349 -0.06585633506271339 0.9869632935923349 -0.06585633506271339 0.013036706407665284 0.06585633506271339
1.364002143745067E8 0.013197251281805026 0.06682920561364032 0.986802748718195 -0.06682920561364032 0.986802748718195 -0.06682920561364032 0.013197251281805026 0.06682920561364032
1.3845868507746372E8 0.01336239388550673 0.0678158844843855 0.9866376061144932 -0.06781588448438551 0.9866376061144932 -0.06781588448438551 0.01336239388550673 0.0678158844843855
1.405482209928499E8 0.013532258991542673 0.06881654597069549 0.9864677410084572 -0.06881654597069549 0.9864677410084572 -0.06881654597069549 0.013532258991542673 0.06881654597069549
1.426692909383278E8 0.013706974440100085 0.0698313658225453 0.9862930255599 -0.0698313658225453 0.9862930255599 -0.0698313658225453 0.013706974440100085 0.0698313658225453
1.4482237080667645E8 0.013886671202549484 0.07086052123465243 0.9861133287974506 -0.07086052123465242 0.9861133287974506 -0.07086052123465242 0.013886671202549484 0.07086052123465243
1.4700794367256513E8 0.014071483446388273 0.07190419083648905 0.9859285165536117 -0.07190419083648905 0.9859285165536117 -0.07190419083648905 0.014071483446388273 0.07190419083648905
1.492264999009378E8 0.01426154860140943 0.07296255468179898 0.9857384513985905 -0.07296255468179898 0.9857384513985905 -0.07296255468179898 0.01426154860140943 0.07296255468179898
1.5147853725703382E8 0.014457007427149955 0.07403579423762556 0.9855429925728502 -0.07403579423762557 0.9855429925728502 -0.07403579423762557 0.014457007427149955 0.07403579423762556
1.5376456101806876E8 0.014658004081678782 0.07512409237285708 0.9853419959183212 -0.07512409237285708 0.9853419959183212 -0.07512409237285708 0.014658004081678782 0.07512409237285708
1.5608508408660066E8 0.014864686191789232 0.07622763334629414 0.985135313808211 -0.07622763334629414 0.985135313808211 -0.07622763334629414 0.014864686191789232 0.07622763334629414
1.5844062710560706E8 0.015077204924666328 0.07734660279424234 0.9849227950753336 -0.07734660279424234 0.9849227950753336 -0.07734660279424234 0.015077204924666328 0.07734660279424234
1.6083171857529896E8 0.015295715061105778 0.07848118771763257 0.9847042849388942 -0.07848118771763256 0.9847042849388942 -0.07848118771763256 0.015295715061105778 0.07848118771763257
1.632588949716973E8 0.015520375070366913 0.07963157646866764 0.984479624929633 -0.07963157646866763 0.984479624929633 -0.07963157646866763 0.015520375070366913 0.07963157646866764
1.6572270086699936E8 0.015751347186748955 0.08079795873699316 0.9842486528132509 -0.08079795873699316 0.9842486528132509 -0.08079795873699316 0.015751347186748955 0.08079795873699316
1.6822368905176118E8 0.01598879748798604 0.08198052553538546 0.9840112025120139 -0.08198052553538544 0.9840112025120139 -0.08198052553538544 0.01598879748798604 0.08198052553538546
1.7076242065892437E8 0.0162328959755638 0.08317946918494717 0.9837671040244361 -0.08317946918494719 0.9837671040244361 -0.08317946918494719 0.0162328959755638 0.08317946918494717
1.7333946528971428E8 0.016483816657067045 0.08439498329979589 0.983516183342933 -0.08439498329979589 0.983516183342933 -0.08439498329979589 0.016483816657067045 0.08439498329979589
1.7595540114143828E8 0.01674173763067558 0.0856272627712263 0.9832582623693243 -0.0856272627712263 0.9832582623693243 -0.0856272627712263 0.01674173763067558 0.0856272627712263
1.786108151372127E8 0.017006841171932508 0.08687650375132137 0.9829931588280676 -0.08687650375132137 0.9829931588280676 -0.08687650375132137 0.017006841171932508 0.08687650375132137
1.8130630305764765E8 0.01727931382291673 0.08814290363598047 0.9827206861770833 -0.08814290363598047 0.9827206861770833 -0.08814290363598047 0.01727931382291673 0.08814290363598047
1.840424696745189E8 0.017559346483959234 0.08942666104732613 0.9824406535160406 -0.08942666104732613 0.9824406535160406 -0.08942666104732613 0.017559346483959234 0.08942666104732613
1.8681992888645732E8 0.01784713450804992 0.09072797581544255 0.9821528654919504 -0.09072797581544256 0.9821528654919504 -0.09072797581544256 0.01784713450804992 0.09072797581544255
1.8963930385668582E8 0.018142877798089593 0.09204704895939045 0.9818571222019103 -0.09204704895939045 0.9818571222019103 -0.09204704895939045 0.018142877798089593 0.09204704895939045
1.92501227152835E8 0.018446780907148828 0.09338408266743237 0.9815532190928513 -0.09338408266743237 0.9815532190928513 -0.09338408266743237 0.018446780907148828 0.09338408266743237
1.9540634088886917E8 0.01875905314190292 0.09473928027639297 0.9812409468580969 -0.09473928027639296 0.9812409468580969 -0.09473928027639296 0.01875905314190292 0.09473928027639297
1.983552968691535E8 0.01907990866941892 0.09611284625006555 0.9809200913305811 -0.09611284625006555 0.9809200913305811 -0.09611284625006555 0.01907990866941892 0.09611284625006555
2.0134875673469606E8 0.01940956662747744 0.09750498615656494 0.9805904333725226 -0.09750498615656494 0.9805904333725226 -0.09750498615656494 0.01940956662747744 0.09750498615656494
2.0438739211159652E8 0.019748251238618366 0.09891590664451212 0.9802517487613817 -0.09891590664451211 0.9802517487613817 -0.09891590664451211 0.019748251238618366 0.09891590664451212
2.074718847617352E8 0.020096191928104957 0.10034581541792083 0.9799038080718953 -0.10034581541792083 0.9799038080718953 -0.10034581541792083 0.020096191928104957 0.10034581541792083
2.106029267357361E8 0.020453623446006507 0.10179492120964248 0.9795463765539935 -0.1017949212096425 0.9795463765539935 -0.1017949212096425 0.020453623446006507 0.10179492120964248
2.1378122052823865E8 0.02082078599360379 0.10326343375320621 0.9791792140063962 -0.10326343375320621 0.9791792140063962 -0.10326343375320621 0.02082078599360379 0.10326343375320621
2.1700747923551247E8 0.02119792535432558 0.10475156375287498 0.9788020746456744 -0.10475156375287498 0.9788020746456744 -0.10475156375287498 0.02119792535432558 0.10475156375287498
2.2028242671545094E8 0.021585293029426907 0.1062595228517183 0.9784147069705731 -0.10625952285171833 0.9784147069705731 -0.10625952285171833 0.021585293029426907 0.1062595228517183
2.23606797749979E8 0.021983146378622236 0.10778752359748374 0.9780168536213776 -0.10778752359748374 0.9780168536213776 -0.10778752359748374 0.021983146378622236 0.10778752359748374
2.2698133820991236E8 0.02239174876588669 0.10933577940602603 0.9776082512341132 -0.10933577940602603 0.9776082512341132 -0.10933577940602603 0.02239174876588669 0.10933577940602603
2.3040680522230446E8 0.02281136971063849 0.11090450452203285 0.9771886302893615 -0.11090450452203286 0.9771886302893615 -0.11090450452203286 0.02281136971063849 0.11090450452203285
2.338839673403185E8 0.023242285044513884 0.11249391397676246 0.9767577149554862 -0.11249391397676246 0.9767577149554862 -0.11249391397676246 0.023242285044513884 0.11249391397676246
2.37413604715664E8 0.02368477707394238 0.1141042235424843 0.9763152229260577 -0.11410422354248428 0.9763152229260577 -0.11410422354248428 0.02368477707394238 0.1141042235424843
2.4099650927363476E8 0.024139134748725474 0.11573564968328996 0.9758608652512742 -0.11573564968328996 0.9758608652512742 -0.11573564968328996 0.024139134748725474 0.11573564968328996
2.446334848907889E8 0.024605653836815584 0.11738840950191667 0.9753943461631845 -0.11738840950191667 0.9753943461631845 -0.11738840950191667 0.024605653836815584 0.11738840950191667
