!Murata Part Number: LQP15MN1N7W02
!These Parameters are Measured in Series Mode Connection
!       o--[Z]--o
!Port1              Port2
!       o-------o
!
!Freq. Start=50[MHz] Stop=20[GHz], 401[Steps]
# Hz S RI R 50
!Freq.(Hz) S11(Real) S11(Imag) S21(Real) S21(Imag) S12(Real) S12(Imag) S22(Real) S22(Imag)
5.0E7 7.660435211630565E-4 0.004366120394408198 0.999233956478837 -0.004366120394408198 0.999233956478837 -0.004366120394408198 7.660435211630565E-4 0.004366120394408198
5.0754570186123446E7 7.68056072527701E-4 0.004431737354380556 0.9992319439274724 -0.004431737354380556 0.9992319439274724 -0.004431737354380556 7.68056072527701E-4 0.004431737354380556
5.152052789556263E7 7.701267395459271E-4 0.004498332582477182 0.9992298732604541 -0.004498332582477182 0.9992298732604541 -0.004498332582477182 7.701267395459271E-4 0.004498332582477182
5.229804498202928E7 7.722571097260291E-4 0.004565920336307628 0.9992277428902739 -0.004565920336307628 0.9992277428902739 -0.004565920336307628 7.722571097260291E-4 0.004565920336307628
5.308729589274893E7 7.74448808712493E-4 0.004634515068668681 0.9992255511912874 -0.0046345150686686815 0.9992255511912874 -0.0046345150686686815 7.74448808712493E-4 0.004634515068668681
5.388845770760058E7 7.767035009036766E-4 0.004704131429802128 0.9992232964990962 -0.004704131429802129 0.9992232964990962 -0.004704131429802129 7.767035009036766E-4 0.004704131429802128
5.470171017884717E7 7.790228900619463E-4 0.004774784269670463 0.9992209771099381 -0.004774784269670463 0.9992209771099381 -0.004774784269670463 7.790228900619463E-4 0.004774784269670463
5.5527235771465644E7 7.814087199150042E-4 0.004846488640251049 0.999218591280085 -0.004846488640251049 0.999218591280085 -0.004846488640251049 7.814087199150042E-4 0.004846488640251049
5.6365219704085544E7 7.838627747470652E-4 0.004919259797849286 0.9992161372252529 -0.004919259797849286 0.9992161372252529 -0.004919259797849286 7.838627747470652E-4 0.004919259797849286
5.721584999054556E7 7.863868799785023E-4 0.004993113205431441 0.9992136131200215 -0.004993113205431441 0.9992136131200215 -0.004993113205431441 7.863868799785023E-4 0.004993113205431441
5.807931748207712E7 7.889829027325102E-4 0.00506806453497782 0.9992110170972676 -0.0050680645349778205 0.9992110170972676 -0.0050680645349778205 7.889829027325102E-4 0.00506806453497782
5.8955815910124585E7 7.916527523872808E-4 0.0051441296698571575 0.9992083472476126 -0.0051441296698571575 0.9992083472476126 -0.0051441296698571575 7.916527523872808E-4 0.0051441296698571575
5.984554192981184E7 7.943983811121345E-4 0.00522132470722307 0.9992056016188877 -0.00522132470722307 0.9992056016188877 -0.00522132470722307 7.943983811121345E-4 0.00522132470722307
6.074869516406457E7 7.972217843859837E-4 0.005299665960433601 0.999202778215614 -0.005299665960433601 0.999202778215614 -0.005299665960433601 7.972217843859837E-4 0.005299665960433601
6.166547824839868E7 8.001250014964672E-4 0.005379169961494976 0.9991998749985035 -0.005379169961494976 0.9991998749985035 -0.005379169961494976 8.001250014964672E-4 0.005379169961494976
6.2596096876384385E7 8.031101160180304E-4 0.0054598534635307994 0.9991968898839818 -0.0054598534635307994 0.9991968898839818 -0.0054598534635307994 8.031101160180304E-4 0.0054598534635307994
6.354075984579668E7 8.061792562671878E-4 0.0055417334432780515 0.999193820743733 -0.005541733443278052 0.999193820743733 -0.005541733443278052 8.061792562671878E-4 0.0055417334432780515
6.449967910546205E7 8.093345957331472E-4 0.00562482710361135 0.9991906654042669 -0.00562482710361135 0.9991906654042669 -0.00562482710361135 8.093345957331472E-4 0.00562482710361135
6.547306980281226E7 8.125783534819545E-4 0.005709151876097157 0.999187421646518 -0.005709151876097157 0.999187421646518 -0.005709151876097157 8.125783534819545E-4 0.005709151876097157
6.646115033215589E7 8.159127945322558E-4 0.005794725423579653 0.9991840872054678 -0.005794725423579653 0.9991840872054678 -0.005794725423579653 8.159127945322558E-4 0.005794725423579653
6.746414238367817E7 8.19340230200769E-4 0.005881565642800265 0.9991806597697993 -0.005881565642800265 0.9991806597697993 -0.005881565642800265 8.19340230200769E-4 0.005881565642800265
6.848227099318038E7 8.22863018415508E-4 0.0059696906670529066 0.9991771369815844 -0.0059696906670529066 0.9991771369815844 -0.0059696906670529066 8.22863018415508E-4 0.0059696906670529066
6.951576459256999E7 8.264835639948051E-4 0.00605911886887728 0.9991735164360053 -0.00605911886887728 0.9991735164360053 -0.00605911886887728 8.264835639948051E-4 0.00605911886887728
7.056485506111258E7 8.302043188901483E-4 0.006149868862792586 0.99916979568111 -0.006149868862792587 0.99916979568111 -0.006149868862792587 8.302043188901483E-4 0.006149868862792586
7.162977777745734E7 8.340277823908617E-4 0.006241959508074455 0.999165972217609 -0.006241959508074455 0.999165972217609 -0.006241959508074455 8.340277823908617E-4 0.006241959508074455
7.271077167244768E7 8.379565012886568E-4 0.006335409911577816 0.9991620434987114 -0.006335409911577816 0.9991620434987114 -0.006335409911577816 8.379565012886568E-4 0.006335409911577816
7.380807928272885E7 8.419930700000979E-4 0.006430239430608867 0.9991580069299999 -0.006430239430608867 0.9991580069299999 -0.006430239430608867 8.419930700000979E-4 0.006430239430608867
7.492194680516452E7 8.461401306450575E-4 0.0065264676758493975 0.999153859869355 -0.0065264676758493975 0.999153859869355 -0.0065264676758493975 8.461401306450575E-4 0.0065264676758493975
7.60526241520746E7 8.504003730792761E-4 0.006624114514336987 0.9991495996269207 -0.006624114514336987 0.9991495996269207 -0.006624114514336987 8.504003730792761E-4 0.006624114514336987
7.720036500730675E7 8.547765348791946E-4 0.006723200072504855 0.9991452234651207 -0.006723200072504855 0.9991452234651207 -0.006723200072504855 8.547765348791946E-4 0.006723200072504855
7.836542688315398E7 8.592714012772898E-4 0.006823744739285338 0.9991407285987226 -0.006823744739285338 0.9991407285987226 -0.006823744739285338 8.592714012772898E-4 0.006823744739285338
7.954807117813127E7 8.638878050462344E-4 0.006925769169281259 0.9991361121949538 -0.006925769169281259 0.9991361121949538 -0.006925769169281259 8.638878050462344E-4 0.006925769169281259
8.074856323562416E7 8.68628626330304E-4 0.0070292942860097065 0.9991313713736696 -0.0070292942860097065 0.9991313713736696 -0.0070292942860097065 8.68628626330304E-4 0.0070292942860097065
8.196717240342227E7 8.734967924225516E-4 0.007134341285222947 0.9991265032075776 -0.007134341285222947 0.9991265032075776 -0.007134341285222947 8.734967924225516E-4 0.007134341285222947
8.320417209415154E7 8.784952774864391E-4 0.007240931638311597 0.9991215047225136 -0.007240931638311597 0.9991215047225136 -0.007240931638311597 8.784952774864391E-4 0.007240931638311597
8.445983984661816E7 8.836271022207404E-4 0.007349087095795305 0.9991163728977793 -0.007349087095795305 0.9991163728977793 -0.007349087095795305 8.836271022207404E-4 0.007349087095795305
8.573445738807854E7 8.888953334667273E-4 0.007458829690906545 0.9991111046665332 -0.007458829690906545 0.9991111046665332 -0.007458829690906545 8.888953334667273E-4 0.007458829690906545
8.702831069744885E7 8.943030837568405E-4 0.007570181743273424 0.9991056969162432 -0.007570181743273424 0.9991056969162432 -0.007570181743273424 8.943030837568405E-4 0.007570181743273424
8.834169006946853E7 8.998535108042747E-4 0.0076831658627076055 0.9991001464891958 -0.007683165862707606 0.9991001464891958 -0.007683165862707606 8.998535108042747E-4 0.0076831658627076055
8.96748901798321E7 9.055498169331577E-4 0.0077978049531038165 0.9990944501830669 -0.0077978049531038165 0.9990944501830669 -0.0077978049531038165 9.055498169331577E-4 0.0077978049531038165
9.1028210151304E7 9.113952484492686E-4 0.007914122216457637 0.9990886047515508 -0.007914122216457637 0.9990886047515508 -0.007914122216457637 9.113952484492686E-4 0.007914122216457637
9.240195362083109E7 9.173930949515444E-4 0.008032141157008505 0.9990826069050484 -0.008032141157008505 0.9990826069050484 -0.008032141157008505 9.173930949515444E-4 0.008032141157008505
9.379642880766791E7 9.235466885849623E-4 0.008151885585515255 0.999076453311415 -0.008151885585515255 0.999076453311415 -0.008151885585515255 9.235466885849623E-4 0.008151885585515255
9.521194858253023E7 9.29859403235714E-4 0.00827337962367159 0.9990701405967642 -0.00827337962367159 0.9990701405967642 -0.00827337962367159 9.29859403235714E-4 0.00827337962367159
9.664883053779216E7 9.363346536700036E-4 0.008396647708669332 0.9990636653463298 -0.008396647708669332 0.9990636653463298 -0.008396647708669332 9.363346536700036E-4 0.008396647708669332
9.810739705874248E7 9.42975894618198E-4 0.008521714597917361 0.9990570241053818 -0.008521714597917361 0.9990570241053818 -0.008521714597917361 9.42975894618198E-4 0.008521714597917361
9.958797539591652E7 9.497866198064931E-4 0.008648605373924461 0.9990502133801935 -0.008648605373924461 0.9990502133801935 -0.008648605373924461 9.497866198064931E-4 0.008648605373924461
1.0109089773851961E8 9.567703609387581E-4 0.008777345449354471 0.9990432296390612 -0.008777345449354471 0.9990432296390612 -0.008777345449354471 9.567703609387581E-4 0.008777345449354471
1.0261650128895843E8 9.639306866317011E-4 0.008907960572262364 0.9990360693133682 -0.008907960572262362 0.9990360693133682 -0.008907960572262362 9.639306866317011E-4 0.008907960572262364
1.0416512833849736E8 9.71271201307037E-4 0.00904047683151986 0.999028728798693 -0.009040476831519862 0.999028728798693 -0.009040476831519862 9.71271201307037E-4 0.00904047683151986
1.0573712634405641E8 9.787955440449098E-4 0.009174920662439636 0.9990212044559552 -0.009174920662439636 0.9990212044559552 -0.009174920662439636 9.787955440449098E-4 0.009174920662439636
1.0733284800616828E8 9.86507387403395E-4 0.00931131885260688 0.9990134926125968 -0.009311318852606882 0.9990134926125968 -0.009311318852606882 9.86507387403395E-4 0.00931131885260688
1.0895265134811176E8 9.944104362095455E-4 0.009449698547927415 0.9990055895637904 -0.009449698547927415 0.9990055895637904 -0.009449698547927415 9.944104362095455E-4 0.009449698547927415
1.1059689979623953E8 0.0010025084263280634 0.00959008725890129 0.9989974915736719 -0.00959008725890129 0.9989974915736719 -0.00959008725890129 0.0010025084263280634 0.00959008725890129
1.1226596226151802E8 0.001010805123414363 0.009732512867131003 0.9989891948765858 -0.009732512867131001 0.9989891948765858 -0.009732512867131001 0.001010805123414363 0.009732512867131003
1.1396021322229806E8 0.0010193043216594909 0.009877003632073304 0.9989806956783405 -0.009877003632073306 0.9989806956783405 -0.009877003632073306 0.0010193043216594909 0.009877003632073304
1.1568003280833441E8 0.0010280098425350446 0.010023588198043512 0.9989719901574651 -0.010023588198043512 0.9989719901574651 -0.010023588198043512 0.0010280098425350446 0.010023588198043512
1.1742580688607343E8 0.0010369255335469804 0.010172295601480972 0.998963074466453 -0.010172295601480972 0.998963074466453 -0.010172295601480972 0.0010369255335469804 0.010172295601480972
1.1919792714522783E8 0.0010460552670079515 0.010323155278484417 0.9989539447329919 -0.010323155278484417 0.9989539447329919 -0.010323155278484417 0.0010460552670079515 0.010323155278484417
1.2099679118665792E8 0.0010554029388385414 0.010476197072625329 0.9989445970611615 -0.010476197072625327 0.9989445970611615 -0.010476197072625327 0.0010554029388385414 0.010476197072625329
1.2282280261157903E8 0.0010649724674085248 0.01063145124304735 0.9989350275325913 -0.01063145124304735 0.9989350275325913 -0.01063145124304735 0.0010649724674085248 0.01063145124304735
1.2467637111211549E8 0.0010747677924300633 0.010788948472859373 0.99892523220757 -0.010788948472859375 0.99892523220757 -0.010788948472859375 0.0010747677924300633 0.010788948472859373
1.265579125632208E8 0.0010847928739154697 0.01094871987782939 0.9989152071260845 -0.010948719877829388 0.9989152071260845 -0.010948719877829388 0.0010847928739154697 0.01094871987782939
1.284678491159853E8 0.0010950516912129494 0.01111079701538583 0.9989049483087872 -0.01111079701538583 0.9989049483087872 -0.01111079701538583 0.0010950516912129494 0.01111079701538583
1.3040660929235186E8 0.0011055482421344445 0.011275211893932404 0.9988944517578655 -0.011275211893932404 0.9988944517578655 -0.011275211893932404 0.0011055482421344445 0.011275211893932404
1.3237462808126101E8 0.001116286542190434 0.011441996982481967 0.9988837134578096 -0.011441996982481967 0.9988837134578096 -0.011441996982481967 0.001116286542190434 0.011441996982481967
1.3437234703624701E8 0.0011272706239472202 0.011611185220613992 0.9988727293760528 -0.011611185220613992 0.9988727293760528 -0.011611185220613992 0.0011272706239472202 0.011611185220613992
1.364002143745067E8 0.0011385045365229023 0.011782810028759784 0.9988614954634769 -0.011782810028759784 0.9988614954634769 -0.011782810028759784 0.0011385045365229023 0.011782810028759784
1.3845868507746372E8 0.00114999234523886 0.011956905318818451 0.9988500076547611 -0.011956905318818451 0.9988500076547611 -0.011956905318818451 0.00114999234523886 0.011956905318818451
1.405482209928499E8 0.0011617381314441076 0.012133505505105712 0.9988382618685557 -0.012133505505105712 0.9988382618685557 -0.012133505505105712 0.0011617381314441076 0.012133505505105712
1.426692909383278E8 0.0011737459925304703 0.012312645515637023 0.9988262540074697 -0.012312645515637023 0.9988262540074697 -0.012312645515637023 0.0011737459925304703 0.012312645515637023
1.4482237080667645E8 0.0011860200421569117 0.012494360803744905 0.9988139799578429 -0.012494360803744905 0.9988139799578429 -0.012494360803744905 0.0011860200421569117 0.012494360803744905
1.4700794367256513E8 0.001198564410701805 0.012678687360029724 0.9988014355892982 -0.012678687360029724 0.9988014355892982 -0.012678687360029724 0.001198564410701805 0.012678687360029724
1.492264999009378E8 0.001211383245962218 0.012865661724641762 0.9987886167540377 -0.012865661724641759 0.9987886167540377 -0.012865661724641759 0.001211383245962218 0.012865661724641762
1.5147853725703382E8 0.0012244807141195391 0.013055320999891285 0.9987755192858805 -0.013055320999891285 0.9987755192858805 -0.013055320999891285 0.0012244807141195391 0.013055320999891285
1.5376456101806876E8 0.0012378610009909123 0.013247702863182036 0.9987621389990091 -0.013247702863182036 0.9987621389990091 -0.013247702863182036 0.0012378610009909123 0.013247702863182036
1.5608508408660066E8 0.0012515283135860146 0.013442845580262366 0.998748471686414 -0.013442845580262363 0.998748471686414 -0.013442845580262363 0.0012515283135860146 0.013442845580262366
1.5844062710560706E8 0.0012654868819886517 0.013640788018786676 0.9987345131180115 -0.013640788018786676 0.9987345131180115 -0.013640788018786676 0.0012654868819886517 0.013640788018786676
1.6083171857529896E8 0.001279740961582512 0.013841569662178881 0.9987202590384173 -0.01384156966217888 0.9987202590384173 -0.01384156966217888 0.001279740961582512 0.013841569662178881
1.632588949716973E8 0.0012942948356401377 0.014045230623787736 0.9987057051643599 -0.014045230623787736 0.9987057051643599 -0.014045230623787736 0.0012942948356401377 0.014045230623787736
1.6572270086699936E8 0.0013091528182938245 0.014251811661323008 0.998690847181706 -0.01425181166132301 0.998690847181706 -0.01425181166132301 0.0013091528182938245 0.014251811661323008
1.6822368905176118E8 0.0013243192579066203 0.014461354191559639 0.9986756807420933 -0.014461354191559639 0.9986756807420933 -0.014461354191559639 0.0013243192579066203 0.014461354191559639
1.7076242065892437E8 0.001339798540861036 0.01467390030529615 0.9986602014591388 -0.01467390030529615 0.9986602014591388 -0.01467390030529615 0.001339798540861036 0.01467390030529615
1.7333946528971428E8 0.0013555950957822827 0.014889492782551842 0.9986444049042177 -0.014889492782551842 0.9986444049042177 -0.014889492782551842 0.0013555950957822827 0.014889492782551842
1.7595540114143828E8 0.0013717133982120314 0.015108175107986222 0.9986282866017879 -0.015108175107986219 0.9986282866017879 -0.015108175107986219 0.0013717133982120314 0.015108175107986222
1.786108151372127E8 0.0013881579757476913 0.015329991486522986 0.9986118420242521 -0.015329991486522985 0.9986118420242521 -0.015329991486522985 0.0013881579757476913 0.015329991486522986
1.8130630305764765E8 0.001404933413661096 0.015554986859159422 0.9985950665863389 -0.015554986859159422 0.9985950665863389 -0.015554986859159422 0.001404933413661096 0.015554986859159422
1.840424696745189E8 0.0014220443610092708 0.015783206918941244 0.9985779556389908 -0.015783206918941244 0.9985779556389908 -0.015783206918941244 0.0014220443610092708 0.015783206918941244
1.8681992888645732E8 0.0014394955372486263 0.016014698127081808 0.9985605044627514 -0.016014698127081808 0.9985605044627514 -0.016014698127081808 0.0014394955372486263 0.016014698127081808
1.8963930385668582E8 0.0014572917393624906 0.01624950772920379 0.9985427082606375 -0.01624950772920379 0.9985427082606375 -0.01624950772920379 0.0014572917393624906 0.01624950772920379
1.92501227152835E8 0.0014754378495103178 0.016487683771680407 0.9985245621504897 -0.016487683771680407 0.9985245621504897 -0.016487683771680407 0.0014754378495103178 0.016487683771680407
1.9540634088886917E8 0.001493938843205361 0.016729275118053 0.9985060611567946 -0.016729275118053 0.9985060611567946 -0.016729275118053 0.001493938843205361 0.016729275118053
1.983552968691535E8 0.001512799798025795 0.016974331465500852 0.9984872002019742 -0.016974331465500852 0.9984872002019742 -0.016974331465500852 0.001512799798025795 0.016974331465500852
2.0134875673469606E8 0.001532025902862596 0.01722290336133908 0.9984679740971374 -0.01722290336133908 0.9984679740971374 -0.01722290336133908 0.001532025902862596 0.01722290336133908
2.0438739211159652E8 0.0015516224677055725 0.017475042219519905 0.9984483775322943 -0.017475042219519905 0.9984483775322943 -0.017475042219519905 0.0015516224677055725 0.017475042219519905
2.074718847617352E8 0.0015715949339671366 0.01773080033711284 0.9984284050660329 -0.017730800337112843 0.9984284050660329 -0.017730800337112843 0.0015715949339671366 0.01773080033711284
2.106029267357361E8 0.001591948885341438 0.01799023091073912 0.9984080511146586 -0.01799023091073912 0.9984080511146586 -0.01799023091073912 0.001591948885341438 0.01799023091073912
2.1378122052823865E8 0.0016126900591946591 0.018253388052936356 0.9983873099408054 -0.01825338805293636 0.9983873099408054 -0.01825338805293636 0.0016126900591946591 0.018253388052936356
2.1700747923551247E8 0.0016338243584802519 0.018520326808429417 0.9983661756415196 -0.018520326808429417 0.9983661756415196 -0.018520326808429417 0.0016338243584802519 0.018520326808429417
2.2028242671545094E8 0.0016553578641711247 0.01879110317028463 0.998344642135829 -0.018791103170284627 0.998344642135829 -0.018791103170284627 0.0016553578641711247 0.01879110317028463
2.23606797749979E8 0.00167729684819883 0.019065774095924685 0.9983227031518012 -0.019065774095924685 0.9983227031518012 -0.019065774095924685 0.00167729684819883 0.019065774095924685
2.2698133820991236E8 0.0016996477868881181 0.019344397522983274 0.9983003522131119 -0.019344397522983274 0.9983003522131119 -0.019344397522983274 0.0016996477868881181 0.019344397522983274
2.3040680522230446E8 0.0017224173748734068 0.01962703238497895 0.9982775826251267 -0.01962703238497895 0.9982775826251267 -0.01962703238497895 0.0017224173748734068 0.01962703238497895
2.338839673403185E8 0.0017456125394821605 0.019913738626789614 0.9982543874605178 -0.019913738626789614 0.9982543874605178 -0.019913738626789614 0.0017456125394821605 0.019913738626789614
2.37413604715664E8 0.001769240455568613 0.020204577219910216 0.9982307595444314 -0.020204577219910216 0.9982307595444314 -0.020204577219910216 0.001769240455568613 0.020204577219910216
