!Murata Part Number: LQP15MN4N3B02
!These Parameters are Measured in Series Mode Connection
!       o--[Z]--o
!Port1              Port2
!       o-------o
!
!Freq. Start=50[MHz] Stop=20[GHz], 401[Steps]
# Hz S RI R 50
!Freq.(Hz) S11(Real) S11(Imag) S21(Real) S21(Imag) S12(Real) S12(Imag) S22(Real) S22(Imag)
5.0E7 0.003474378075937082 0.012928197169650187 0.9965256219240629 -0.012928197169650187 0.9965256219240629 -0.012928197169650187 0.003474378075937082 0.012928197169650187
5.0754570186123446E7 0.0034876758819207087 0.013119026162553372 0.9965123241180793 -0.01311902616255337 0.9965123241180793 -0.01311902616255337 0.0034876758819207087 0.013119026162553372
5.152052789556263E7 0.0035012718267748077 0.013312596175597257 0.9964987281732252 -0.013312596175597257 0.9964987281732252 -0.013312596175597257 0.0035012718267748077 0.013312596175597257
5.229804498202928E7 0.0035151706765761443 0.013508945427201456 0.996484829323424 -0.013508945427201458 0.996484829323424 -0.013508945427201458 0.0035151706765761443 0.013508945427201456
5.308729589274893E7 0.0035293772224937446 0.013708112718861357 0.9964706227775062 -0.013708112718861357 0.9964706227775062 -0.013708112718861357 0.0035293772224937446 0.013708112718861357
5.388845770760058E7 0.0035438962819087116 0.013910137448809406 0.9964561037180913 -0.013910137448809406 0.9964561037180913 -0.013910137448809406 0.0035438962819087116 0.013910137448809406
5.470171017884717E7 0.0035587326998549147 0.014115059626048535 0.9964412673001448 -0.014115059626048535 0.9964412673001448 -0.014115059626048535 0.0035587326998549147 0.014115059626048535
5.5527235771465644E7 0.0035738913508038934 0.014322919884752306 0.996426108649196 -0.014322919884752306 0.996426108649196 -0.014322919884752306 0.0035738913508038934 0.014322919884752306
5.6365219704085544E7 0.003589377140817482 0.014533759499025162 0.9964106228591826 -0.014533759499025162 0.9964106228591826 -0.014533759499025162 0.003589377140817482 0.014533759499025162
5.721584999054556E7 0.003605195010091593 0.014747620398014298 0.9963948049899084 -0.014747620398014295 0.9963948049899084 -0.014747620398014295 0.003605195010091593 0.014747620398014298
5.807931748207712E7 0.003621349935914619 0.014964545181363363 0.9963786500640853 -0.014964545181363366 0.9963786500640853 -0.014964545181363366 0.003621349935914619 0.014964545181363363
5.8955815910124585E7 0.0036378469360635857 0.01518457713499634 0.9963621530639365 -0.015184577134996343 0.9963621530639365 -0.015184577134996343 0.0036378469360635857 0.01518457713499634
5.984554192981184E7 0.0036546910726609383 0.015407760247218483 0.9963453089273391 -0.015407760247218483 0.9963453089273391 -0.015407760247218483 0.0036546910726609383 0.015407760247218483
6.074869516406457E7 0.003671887456514276 0.015634139225119505 0.9963281125434856 -0.0156341392251195 0.9963281125434856 -0.0156341392251195 0.003671887456514276 0.015634139225119505
6.166547824839868E7 0.0036894412519607573 0.015863759511262523 0.9963105587480393 -0.015863759511262523 0.9963105587480393 -0.015863759511262523 0.0036894412519607573 0.015863759511262523
6.2596096876384385E7 0.003707357682237202 0.01609666730064088 0.9962926423177628 -0.01609666730064088 0.9962926423177628 -0.01609666730064088 0.003707357682237202 0.01609666730064088
6.354075984579668E7 0.003725642035395889 0.016332909557883052 0.9962743579646041 -0.016332909557883052 0.9962743579646041 -0.016332909557883052 0.003725642035395889 0.016332909557883052
6.449967910546205E7 0.0037442996707851093 0.01657253403468473 0.996255700329215 -0.01657253403468473 0.996255700329215 -0.01657253403468473 0.0037442996707851093 0.01657253403468473
6.547306980281226E7 0.0037633360261123145 0.016815589287445337 0.9962366639738878 -0.016815589287445337 0.9962366639738878 -0.016815589287445337 0.0037633360261123145 0.016815589287445337
6.646115033215589E7 0.0037827566251063694 0.01706212469508524 0.9962172433748936 -0.01706212469508524 0.9962172433748936 -0.01706212469508524 0.0037827566251063694 0.01706212469508524
6.746414238367817E7 0.0038025670857940084 0.017312190477018232 0.996197432914206 -0.017312190477018232 0.996197432914206 -0.017312190477018232 0.0038025670857940084 0.017312190477018232
6.848227099318038E7 0.003822773129403972 0.01756583771125309 0.996177226870596 -0.01756583771125309 0.996177226870596 -0.01756583771125309 0.003822773129403972 0.01756583771125309
6.951576459256999E7 0.0038433805899106437 0.017823118352596562 0.9961566194100893 -0.017823118352596562 0.9961566194100893 -0.017823118352596562 0.0038433805899106437 0.017823118352596562
7.056485506111258E7 0.00386439542422722 0.018084085250929628 0.9961356045757728 -0.01808408525092963 0.9961356045757728 -0.01808408525092963 0.00386439542422722 0.018084085250929628
7.162977777745734E7 0.0038858237230564663 0.018348792169527634 0.9961141762769438 -0.018348792169527634 0.9961141762769438 -0.018348792169527634 0.0038858237230564663 0.018348792169527634
7.271077167244768E7 0.003907671722405249 0.018617293803394625 0.9960923282775948 -0.018617293803394625 0.9960923282775948 -0.018617293803394625 0.003907671722405249 0.018617293803394625
7.380807928272885E7 0.003929945815766891 0.018889645797581723 0.9960700541842332 -0.018889645797581723 0.9960700541842332 -0.018889645797581723 0.003929945815766891 0.018889645797581723
7.492194680516452E7 0.0039526525669732705 0.019165904765458704 0.9960473474330267 -0.019165904765458704 0.9960473474330267 -0.019165904765458704 0.0039526525669732705 0.019165904765458704
7.60526241520746E7 0.00397579872371652 0.01944612830690851 0.9960242012762833 -0.01944612830690851 0.9960242012762833 -0.01944612830690851 0.00397579872371652 0.01944612830690851
7.720036500730675E7 0.003999391231737908 0.019730375026413734 0.996000608768262 -0.019730375026413734 0.996000608768262 -0.019730375026413734 0.003999391231737908 0.019730375026413734
7.836542688315398E7 0.004023437249679334 0.020018704551005143 0.9959765627503206 -0.020018704551005143 0.9959765627503206 -0.020018704551005143 0.004023437249679334 0.020018704551005143
7.954807117813127E7 0.004047944164590708 0.0203111775480422 0.9959520558354092 -0.0203111775480422 0.9959520558354092 -0.0203111775480422 0.004047944164590708 0.0203111775480422
8.074856323562416E7 0.004072919608084283 0.02060785574279651 0.9959270803919159 -0.02060785574279651 0.9959270803919159 -0.02060785574279651 0.004072919608084283 0.02060785574279651
8.196717240342227E7 0.004098371473124968 0.02090880193580984 0.995901628526875 -0.020908801935809844 0.995901628526875 -0.020908801935809844 0.004098371473124968 0.02090880193580984
8.320417209415154E7 0.004124307931443597 0.02121408001999971 0.9958756920685564 -0.02121408001999971 0.9958756920685564 -0.02121408001999971 0.004124307931443597 0.02121408001999971
8.445983984661816E7 0.004150737451558154 0.02152375499748629 0.9958492625484421 -0.02152375499748629 0.9958492625484421 -0.02152375499748629 0.004150737451558154 0.02152375499748629
8.573445738807854E7 0.004177668817386187 0.0218378929961163 0.9958223311826138 -0.0218378929961163 0.9958223311826138 -0.0218378929961163 0.004177668817386187 0.0218378929961163
8.702831069744885E7 0.004205111147429846 0.02215656128566087 0.9957948888525702 -0.02215656128566087 0.9957948888525702 -0.02215656128566087 0.004205111147429846 0.02215656128566087
8.834169006946853E7 0.004233073914513467 0.02247982829366613 0.9957669260854866 -0.02247982829366613 0.9957669260854866 -0.02247982829366613 0.004233073914513467 0.02247982829366613
8.96748901798321E7 0.004261566966052219 0.02280776362093741 0.9957384330339477 -0.02280776362093741 0.9957384330339477 -0.02280776362093741 0.004261566966052219 0.02280776362093741
9.1028210151304E7 0.0042906005448289965 0.02314043805663977 0.9957093994551711 -0.02314043805663977 0.9957093994551711 -0.02314043805663977 0.0042906005448289965 0.02314043805663977
9.240195362083109E7 0.004320185310255813 0.02347792359299967 0.9956798146897442 -0.023477923592999675 0.9956798146897442 -0.023477923592999675 0.004320185310255813 0.02347792359299967
9.379642880766791E7 0.004350332360094963 0.023820293439595245 0.9956496676399051 -0.02382029343959524 0.9956496676399051 -0.02382029343959524 0.004350332360094963 0.023820293439595245
9.521194858253023E7 0.0043810532526146655 0.02416762203722443 0.9956189467473854 -0.024167622037224428 0.9956189467473854 -0.024167622037224428 0.0043810532526146655 0.02416762203722443
9.664883053779216E7 0.004412360029153369 0.02451998507134315 0.9955876399708465 -0.02451998507134315 0.9955876399708465 -0.02451998507134315 0.004412360029153369 0.02451998507134315
9.810739705874248E7 0.004444265237066782 0.024877459485067817 0.9955557347629332 -0.024877459485067817 0.9955557347629332 -0.024877459485067817 0.004444265237066782 0.024877459485067817
9.958797539591652E7 0.004476781953031573 0.025240123491739017 0.9955232180469684 -0.025240123491739017 0.9955232180469684 -0.025240123491739017 0.004476781953031573 0.025240123491739017
1.0109089773851961E8 0.004509923806679993 0.025608056587045736 0.9954900761933199 -0.025608056587045732 0.9954900761933199 -0.025608056587045732 0.004509923806679993 0.025608056587045736
1.0261650128895843E8 0.004543705004540116 0.025981339560711914 0.9954562949954597 -0.025981339560711914 0.9954562949954597 -0.025981339560711914 0.004543705004540116 0.025981339560711914
1.0416512833849736E8 0.004578140354257014 0.02636005450774948 0.9954218596457429 -0.026360054507749482 0.9954218596457429 -0.026360054507749482 0.004578140354257014 0.02636005450774948
1.0573712634405641E8 0.004613245289071097 0.026744284839284305 0.9953867547109287 -0.026744284839284302 0.9953867547109287 -0.026744284839284302 0.004613245289071097 0.026744284839284305
1.0733284800616828E8 0.004649035892530949 0.02713411529296398 0.9953509641074691 -0.027134115292963983 0.9953509641074691 -0.027134115292963983 0.004649035892530949 0.02713411529296398
1.0895265134811176E8 0.0046855289234192295 0.02752963194295816 0.9953144710765808 -0.02752963194295815 0.9953144710765808 -0.02752963194295815 0.0046855289234192295 0.02752963194295816
1.1059689979623953E8 0.004722741840871766 0.02793092220956452 0.9952772581591282 -0.02793092220956452 0.9952772581591282 -0.02793092220956452 0.004722741840871766 0.02793092220956452
1.1226596226151802E8 0.004760692829671513 0.02833807486843528 0.9952393071703285 -0.02833807486843528 0.9952393071703285 -0.02833807486843528 0.004760692829671513 0.02833807486843528
1.1396021322229806E8 0.004799400825700895 0.02875118005944045 0.9952005991742989 -0.02875118005944045 0.9952005991742989 -0.02875118005944045 0.004799400825700895 0.02875118005944045
1.1568003280833441E8 0.00483888554153809 0.02917032929518663 0.995161114458462 -0.02917032929518663 0.995161114458462 -0.02917032929518663 0.00483888554153809 0.02917032929518663
1.1742580688607343E8 0.004879167492184648 0.029595615469210194 0.9951208325078156 -0.029595615469210197 0.9951208325078156 -0.029595615469210197 0.004879167492184648 0.029595615469210194
1.1919792714522783E8 0.004920268020914343 0.030027132863866397 0.9950797319790857 -0.030027132863866397 0.9950797319790857 -0.030027132863866397 0.004920268020914343 0.030027132863866397
1.2099679118665792E8 0.004962209325235137 0.030464977157935703 0.9950377906747649 -0.030464977157935703 0.9950377906747649 -0.030464977157935703 0.004962209325235137 0.030464977157935703
1.2282280261157903E8 0.005005014482958598 0.030909245433970233 0.9949949855170411 -0.030909245433970233 0.9949949855170411 -0.030909245433970233 0.005005014482958598 0.030909245433970233
1.2467637111211549E8 0.005048707478373597 0.03136003618540381 0.9949512925216264 -0.03136003618540381 0.9949512925216264 -0.03136003618540381 0.005048707478373597 0.03136003618540381
1.265579125632208E8 0.005093313228523304 0.031817449323449015 0.9949066867714769 -0.031817449323449015 0.9949066867714769 -0.031817449323449015 0.005093313228523304 0.031817449323449015
1.284678491159853E8 0.005138857609587194 0.03228158618380572 0.9948611423904128 -0.03228158618380572 0.9948611423904128 -0.03228158618380572 0.005138857609587194 0.03228158618380572
1.3040660929235186E8 0.0051853674833720375 0.032752549533204986 0.9948146325166279 -0.032752549533204986 0.9948146325166279 -0.032752549533204986 0.0051853674833720375 0.032752549533204986
1.3237462808126101E8 0.005232870723918289 0.03323044357581212 0.9947671292760818 -0.03323044357581212 0.9947671292760818 -0.03323044357581212 0.005232870723918289 0.03323044357581212
1.3437234703624701E8 0.005281396244230769 0.033715373959513004 0.9947186037557693 -0.033715373959513004 0.9947186037557693 -0.033715373959513004 0.005281396244230769 0.033715373959513004
1.364002143745067E8 0.005330974023144706 0.03420744778210635 0.9946690259768551 -0.034207447782106354 0.9946690259768551 -0.034207447782106354 0.005330974023144706 0.03420744778210635
1.3845868507746372E8 0.005381635132340584 0.034706773597424974 0.9946183648676594 -0.034706773597424974 0.9946183648676594 -0.034706773597424974 0.005381635132340584 0.034706773597424974
1.405482209928499E8 0.0054334117635232914 0.0352134614214071 0.9945665882364767 -0.0352134614214071 0.9945665882364767 -0.0352134614214071 0.0054334117635232914 0.0352134614214071
1.426692909383278E8 0.0054863372557833094 0.0357276227381392 0.9945136627442167 -0.0357276227381392 0.9945136627442167 -0.0357276227381392 0.0054863372557833094 0.0357276227381392
1.4482237080667645E8 0.005540446123159517 0.03624937050588971 0.9944595538768404 -0.03624937050588971 0.9944595538768404 -0.03624937050588971 0.005540446123159517 0.03624937050588971
1.4700794367256513E8 0.005595774082425089 0.03677881916315205 0.9944042259175748 -0.036778819163152045 0.9944042259175748 -0.036778819163152045 0.005595774082425089 0.03677881916315205
1.492264999009378E8 0.005652358081119771 0.037316084634714475 0.99434764191888 -0.037316084634714475 0.99434764191888 -0.037316084634714475 0.005652358081119771 0.037316084634714475
1.5147853725703382E8 0.005710236325853424 0.03786128433777251 0.9942897636741465 -0.03786128433777251 0.9942897636741465 -0.03786128433777251 0.005710236325853424 0.03786128433777251
1.5376456101806876E8 0.0057694483109072 0.03841453718809841 0.994230551689093 -0.03841453718809842 0.994230551689093 -0.03841453718809842 0.0057694483109072 0.03841453718809841
1.5608508408660066E8 0.005830034847160118 0.038975963606280487 0.9941699651528398 -0.038975963606280487 0.9941699651528398 -0.038975963606280487 0.005830034847160118 0.038975963606280487
1.5844062710560706E8 0.005892038091370093 0.03954568552404397 0.9941079619086299 -0.03954568552404397 0.9941079619086299 -0.03954568552404397 0.005892038091370093 0.03954568552404397
1.6083171857529896E8 0.005955501575839566 0.04012382639066307 0.9940444984241605 -0.04012382639066307 0.9940444984241605 -0.04012382639066307 0.005955501575839566 0.04012382639066307
1.632588949716973E8 0.006020470238496864 0.040710511179472386 0.9939795297615032 -0.040710511179472386 0.9939795297615032 -0.040710511179472386 0.006020470238496864 0.040710511179472386
1.6572270086699936E8 0.006086990453425406 0.04130586639448485 0.9939130095465747 -0.04130586639448485 0.9939130095465747 -0.04130586639448485 0.006086990453425406 0.04130586639448485
1.6822368905176118E8 0.006155110061873529 0.04191002007712064 0.9938448899381265 -0.041910020077120635 0.9938448899381265 -0.041910020077120635 0.006155110061873529 0.04191002007712064
1.7076242065892437E8 0.00622487840377851 0.04252310181305141 0.9937751215962216 -0.04252310181305141 0.9937751215962216 -0.04252310181305141 0.00622487840377851 0.04252310181305141
1.7333946528971428E8 0.006296346349838781 0.04314524273916134 0.9937036536501613 -0.04314524273916134 0.9937036536501613 -0.04314524273916134 0.006296346349838781 0.04314524273916134
1.7595540114143828E8 0.006369566334169022 0.04377657555062593 0.993630433665831 -0.04377657555062593 0.993630433665831 -0.04377657555062593 0.006369566334169022 0.04377657555062593
1.786108151372127E8 0.0064445923875730395 0.044417234508107875 0.993555407612427 -0.044417234508107875 0.993555407612427 -0.044417234508107875 0.0064445923875730395 0.044417234508107875
1.8130630305764765E8 0.00652148017146979 0.04506735544506759 0.9934785198285303 -0.04506735544506759 0.9934785198285303 -0.04506735544506759 0.00652148017146979 0.04506735544506759
1.840424696745189E8 0.006600287012508212 0.045727075775185345 0.9933997129874919 -0.045727075775185345 0.9933997129874919 -0.045727075775185345 0.006600287012508212 0.045727075775185345
1.8681992888645732E8 0.006681071937906666 0.046396534499890243 0.9933189280620932 -0.04639653449989025 0.9933189280620932 -0.04639653449989025 0.006681071937906666 0.046396534499890243
1.8963930385668582E8 0.0067638957115531495 0.04707587221599037 0.9932361042884468 -0.04707587221599037 0.9932361042884468 -0.04707587221599037 0.0067638957115531495 0.04707587221599037
1.92501227152835E8 0.006848820870902493 0.04776523112339736 0.9931511791290976 -0.04776523112339735 0.9931511791290976 -0.04776523112339735 0.006848820870902493 0.04776523112339736
1.9540634088886917E8 0.00693591176470706 0.048464755032937804 0.993064088235293 -0.048464755032937804 0.993064088235293 -0.048464755032937804 0.00693591176470706 0.048464755032937804
1.983552968691535E8 0.007025234591617567 0.049174589374242565 0.9929747654083823 -0.04917458937424256 0.9929747654083823 -0.04917458937424256 0.007025234591617567 0.049174589374242565
2.0134875673469606E8 0.007116857439690999 0.04989488120370516 0.992883142560309 -0.04989488120370516 0.992883142560309 -0.04989488120370516 0.007116857439690999 0.04989488120370516
2.0438739211159652E8 0.007210850326842561 0.05062577921249815 0.9927891496731575 -0.050625779212498154 0.9927891496731575 -0.050625779212498154 0.007210850326842561 0.05062577921249815
2.074718847617352E8 0.007307285242279333 0.051367433734638125 0.9926927147577205 -0.05136743373463811 0.9926927147577205 -0.05136743373463811 0.007307285242279333 0.051367433734638125
2.106029267357361E8 0.007406236188953175 0.05211999675508632 0.9925937638110469 -0.05211999675508632 0.9925937638110469 -0.05211999675508632 0.007406236188953175 0.05211999675508632
2.1378122052823865E8 0.0075077792270712125 0.05288362191787439 0.9924922207729288 -0.05288362191787439 0.9924922207729288 -0.05288362191787439 0.0075077792270712125 0.05288362191787439
2.1700747923551247E8 0.007611992518702564 0.05365846453424208 0.9923880074812975 -0.05365846453424209 0.9923880074812975 -0.05365846453424209 0.007611992518702564 0.05365846453424208
2.2028242671545094E8 0.007718956373520593 0.05444468159077457 0.9922810436264795 -0.05444468159077457 0.9922810436264795 -0.05444468159077457 0.007718956373520593 0.05444468159077457
2.23606797749979E8 0.007828753295720695 0.055242431757525884 0.9921712467042793 -0.055242431757525884 0.9921712467042793 -0.055242431757525884 0.007828753295720695 0.055242431757525884
2.2698133820991236E8 0.007941468032154475 0.056051875396115614 0.9920585319678457 -0.056051875396115614 0.9920585319678457 -0.056051875396115614 0.007941468032154475 0.056051875396115614
2.3040680522230446E8 0.008057187621722016 0.0568731745677843 0.9919428123782781 -0.0568731745677843 0.9919428123782781 -0.0568731745677843 0.008057187621722016 0.0568731745677843
2.338839673403185E8 0.008176001446065175 0.057706493041394254 0.9918239985539347 -0.057706493041394254 0.9918239985539347 -0.057706493041394254 0.008176001446065175 0.057706493041394254
2.37413604715664E8 0.008298001281605885 0.05855199630136072 0.9917019987183942 -0.05855199630136074 0.9917019987183942 -0.05855199630136074 0.008298001281605885 0.05855199630136072
2.4099650927363476E8 0.008423281352975012 0.05940985155549899 0.9915767186470249 -0.05940985155549899 0.9915767186470249 -0.05940985155549899 0.008423281352975012 0.05940985155549899
