!Murata Part Number: LQP15MN2N5W02
!These Parameters are Measured in Series Mode Connection
!       o--[Z]--o
!Port1              Port2
!       o-------o
!
!Freq. Start=50[MHz] Stop=20[GHz], 401[Steps]
# Hz S RI R 50
!Freq.(Hz) S11(Real) S11(Imag) S21(Real) S21(Imag) S12(Real) S12(Imag) S22(Real) S22(Imag)
5.0E7 0.0011644121291682144 0.006983442680038615 0.9988355878708318 -0.006983442680038615 0.9988355878708318 -0.006983442680038615 0.0011644121291682144 0.006983442680038615
5.0754570186123446E7 0.001169268316703565 0.007087891455362424 0.9988307316832965 -0.007087891455362424 0.9988307316832965 -0.007087891455362424 0.001169268316703565 0.007087891455362424
5.152052789556263E7 0.0011742574462632082 0.007193877421836996 0.9988257425537368 -0.007193877421836996 0.9988257425537368 -0.007193877421836996 0.0011742574462632082 0.007193877421836996
5.229804498202928E7 0.0011793827535548035 0.007301422275909058 0.9988206172464452 -0.007301422275909056 0.9988206172464452 -0.007301422275909056 0.0011793827535548035 0.007301422275909058
5.308729589274893E7 0.001184647531511421 0.007410547992344574 0.9988153524684886 -0.007410547992344574 0.9988153524684886 -0.007410547992344574 0.001184647531511421 0.007410547992344574
5.388845770760058E7 0.0011900551301887296 0.007521276827429317 0.9988099448698113 -0.007521276827429318 0.9988099448698113 -0.007521276827429318 0.0011900551301887296 0.007521276827429317
5.470171017884717E7 0.0011956089565982118 0.007633631322242368 0.9988043910434017 -0.007633631322242368 0.9988043910434017 -0.007633631322242368 0.0011956089565982118 0.007633631322242368
5.5527235771465644E7 0.0012013124744743016 0.007747634306007761 0.9987986875255257 -0.007747634306007761 0.9987986875255257 -0.007747634306007761 0.0012013124744743016 0.007747634306007761
5.6365219704085544E7 0.001207169203973511 0.007863308899530077 0.9987928307960265 -0.007863308899530078 0.9987928307960265 -0.007863308899530078 0.001207169203973511 0.007863308899530077
5.721584999054556E7 0.0012131827213037259 0.00798067851871985 0.9987868172786963 -0.00798067851871985 0.9987868172786963 -0.00798067851871985 0.0012131827213037259 0.00798067851871985
5.807931748207712E7 0.0012193566582820437 0.008099766878215104 0.9987806433417179 -0.008099766878215104 0.9987806433417179 -0.008099766878215104 0.0012193566582820437 0.008099766878215104
5.8955815910124585E7 0.0012256947018197534 0.008220597995105779 0.9987743052981801 -0.00822059799510578 0.9987743052981801 -0.00822059799510578 0.0012256947018197534 0.008220597995105779
5.984554192981184E7 0.0012322005933332288 0.00834319619276791 0.9987677994066668 -0.00834319619276791 0.9987677994066668 -0.00834319619276791 0.0012322005933332288 0.00834319619276791
6.074869516406457E7 0.0012388781280798266 0.008467586104815005 0.9987611218719201 -0.008467586104815007 0.9987611218719201 -0.008467586104815007 0.0012388781280798266 0.008467586104815005
6.166547824839868E7 0.0012457311544181295 0.008593792679174317 0.9987542688455818 -0.008593792679174317 0.9987542688455818 -0.008593792679174317 0.0012457311544181295 0.008593792679174317
6.2596096876384385E7 0.0012527635729922054 0.00872184118229598 0.9987472364270079 -0.00872184118229598 0.9987472364270079 -0.00872184118229598 0.0012527635729922054 0.00872184118229598
6.354075984579668E7 0.001259979335839903 0.008851757203503506 0.9987400206641601 -0.008851757203503506 0.9987400206641601 -0.008851757203503506 0.001259979335839903 0.008851757203503506
6.449967910546205E7 0.0012673824454255897 0.008983566659494267 0.9987326175545743 -0.008983566659494267 0.9987326175545743 -0.008983566659494267 0.0012673824454255897 0.008983566659494267
6.547306980281226E7 0.0012749769535981453 0.009117295798999081 0.9987250230464018 -0.009117295798999081 0.9987250230464018 -0.009117295798999081 0.0012749769535981453 0.009117295798999081
6.646115033215589E7 0.0012827669604754965 0.009252971207610265 0.9987172330395246 -0.009252971207610265 0.9987172330395246 -0.009252971207610265 0.0012827669604754965 0.009252971207610265
6.746414238367817E7 0.0012907566132574562 0.009390619812787791 0.9987092433867425 -0.009390619812787791 0.9987092433867425 -0.009390619812787791 0.0012907566132574562 0.009390619812787791
6.848227099318038E7 0.0012989501049691411 0.009530268889053567 0.998701049895031 -0.009530268889053567 0.998701049895031 -0.009530268889053567 0.0012989501049691411 0.009530268889053567
6.951576459256999E7 0.0013073516731378432 0.009671946063384033 0.9986926483268621 -0.009671946063384033 0.9986926483268621 -0.009671946063384033 0.0013073516731378432 0.009671946063384033
7.056485506111258E7 0.0013159655984067858 0.009815679320811569 0.9986840344015933 -0.009815679320811569 0.9986840344015933 -0.009815679320811569 0.0013159655984067858 0.009815679320811569
7.162977777745734E7 0.00132479620308987 0.009961497010245401 0.9986752037969103 -0.009961497010245401 0.9986752037969103 -0.009961497010245401 0.00132479620308987 0.009961497010245401
7.271077167244768E7 0.0013338478496721553 0.010109427850522885 0.9986661521503278 -0.010109427850522885 0.9986661521503278 -0.010109427850522885 0.0013338478496721553 0.010109427850522885
7.380807928272885E7 0.0013431249392615613 0.010259500936702236 0.9986568750607385 -0.010259500936702236 0.9986568750607385 -0.010259500936702236 0.0013431249392615613 0.010259500936702236
7.492194680516452E7 0.0013526319099979873 0.010411745746607798 0.9986473680900022 -0.010411745746607798 0.9986473680900022 -0.010411745746607798 0.0013526319099979873 0.010411745746607798
7.60526241520746E7 0.0013623732354268482 0.010566192147639108 0.9986376267645731 -0.01056619214763911 0.9986376267645731 -0.01056619214763911 0.0013623732354268482 0.010566192147639108
7.720036500730675E7 0.0013723534228448273 0.010722870403855044 0.9986276465771551 -0.010722870403855042 0.9986276465771551 -0.010722870403855042 0.0013723534228448273 0.010722870403855044
7.836542688315398E7 0.0013825770116264735 0.01088181118334423 0.9986174229883734 -0.010881811183344229 0.9986174229883734 -0.010881811183344229 0.0013825770116264735 0.01088181118334423
7.954807117813127E7 0.00139304857154114 0.011043045565892855 0.998606951428459 -0.011043045565892855 0.998606951428459 -0.011043045565892855 0.00139304857154114 0.011043045565892855
8.074856323562416E7 0.0014037727010706687 0.011206605050960989 0.9985962272989295 -0.011206605050960989 0.9985962272989295 -0.011206605050960989 0.0014037727010706687 0.011206605050960989
8.196717240342227E7 0.001414754025739089 0.011372521565978101 0.998585245974261 -0.011372521565978103 0.998585245974261 -0.011372521565978103 0.001414754025739089 0.011372521565978101
8.320417209415154E7 0.0014259971964665785 0.011540827474968542 0.9985740028035337 -0.011540827474968542 0.9985740028035337 -0.011540827474968542 0.0014259971964665785 0.011540827474968542
8.445983984661816E7 0.001437506887960807 0.011711555587516907 0.9985624931120389 -0.011711555587516905 0.9985624931120389 -0.011711555587516905 0.001437506887960807 0.011711555587516907
8.573445738807854E7 0.001449287797159792 0.011884739168083473 0.9985507122028401 -0.011884739168083473 0.9985507122028401 -0.011884739168083473 0.001449287797159792 0.011884739168083473
8.702831069744885E7 0.001461344641741281 0.012060411945678738 0.9985386553582589 -0.012060411945678738 0.9985386553582589 -0.012060411945678738 0.001461344641741281 0.012060411945678738
8.834169006946853E7 0.0014736821587146424 0.012238608123906038 0.9985263178412853 -0.012238608123906036 0.9985263178412853 -0.012238608123906036 0.0014736821587146424 0.012238608123906038
8.96748901798321E7 0.0014863051031121846 0.012419362391380352 0.9985136948968879 -0.012419362391380352 0.9985136948968879 -0.012419362391380352 0.0014863051031121846 0.012419362391380352
9.1028210151304E7 0.0014992182467976857 0.012602709932530676 0.9985007817532023 -0.012602709932530676 0.9985007817532023 -0.012602709932530676 0.0014992182467976857 0.012602709932530676
9.240195362083109E7 0.0015124263774108566 0.01278868643879264 0.9984875736225892 -0.01278868643879264 0.9984875736225892 -0.01278868643879264 0.0015124263774108566 0.01278868643879264
9.379642880766791E7 0.001525934297467267 0.012977328120197085 0.9984740657025327 -0.012977328120197085 0.9984740657025327 -0.012977328120197085 0.001525934297467267 0.012977328120197085
9.521194858253023E7 0.0015397468236341058 0.013168671717359432 0.9984602531763658 -0.013168671717359436 0.9984602531763658 -0.013168671717359436 0.0015397468236341058 0.013168671717359432
9.664883053779216E7 0.0015538687862028638 0.013362754513873434 0.9984461312137971 -0.013362754513873438 0.9984461312137971 -0.013362754513873438 0.0015538687862028638 0.013362754513873434
9.810739705874248E7 0.001568305028780786 0.01355961434911198 0.9984316949712194 -0.013559614349111983 0.9984316949712194 -0.013559614349111983 0.001568305028780786 0.01355961434911198
9.958797539591652E7 0.0015830604082235384 0.013759289631436364 0.9984169395917765 -0.013759289631436364 0.9984169395917765 -0.013759289631436364 0.0015830604082235384 0.013759289631436364
1.0109089773851961E8 0.0015981397948320894 0.013961819351813948 0.9984018602051679 -0.013961819351813948 0.9984018602051679 -0.013961819351813948 0.0015981397948320894 0.013961819351813948
1.0261650128895843E8 0.00161354807283733 0.014167243097843103 0.9983864519271627 -0.014167243097843103 0.9983864519271627 -0.014167243097843103 0.00161354807283733 0.014167243097843103
1.0416512833849736E8 0.0016292901411962884 0.014375601068182616 0.9983707098588036 -0.014375601068182616 0.9983707098588036 -0.014375601068182616 0.0016292901411962884 0.014375601068182616
1.0573712634405641E8 0.0016453709147241117 0.014586934087381358 0.998354629085276 -0.014586934087381358 0.998354629085276 -0.014586934087381358 0.0016453709147241117 0.014586934087381358
1.0733284800616828E8 0.0016617953255861767 0.014801283621102631 0.9983382046744139 -0.014801283621102631 0.9983382046744139 -0.014801283621102631 0.0016617953255861767 0.014801283621102631
1.0895265134811176E8 0.001678568325174712 0.015018691791735686 0.9983214316748252 -0.01501869179173569 0.9983214316748252 -0.01501869179173569 0.001678568325174712 0.015018691791735686
1.1059689979623953E8 0.0016956948863942932 0.015239201394385615 0.9983043051136056 -0.015239201394385615 0.9983043051136056 -0.015239201394385615 0.0016956948863942932 0.015239201394385615
1.1226596226151802E8 0.001713180006380387 0.01546285591323107 0.9982868199936196 -0.015462855913231066 0.9982868199936196 -0.015462855913231066 0.001713180006380387 0.01546285591323107
1.1396021322229806E8 0.0017310287096747442 0.01568969953823744 0.9982689712903251 -0.015689699538237435 0.9982689712903251 -0.015689699538237435 0.0017310287096747442 0.01568969953823744
1.1568003280833441E8 0.001749246051881058 0.015919777182211773 0.9982507539481191 -0.015919777182211773 0.9982507539481191 -0.015919777182211773 0.001749246051881058 0.015919777182211773
1.1742580688607343E8 0.0017678371238236473 0.016153134498183862 0.9982321628761764 -0.016153134498183862 0.9982321628761764 -0.016153134498183862 0.0017678371238236473 0.016153134498183862
1.1919792714522783E8 0.0017868070562311903 0.01638981789709625 0.9982131929437689 -0.01638981789709625 0.9982131929437689 -0.01638981789709625 0.0017868070562311903 0.01638981789709625
1.2099679118665792E8 0.0018061610249666597 0.016629874565784575 0.9981938389750333 -0.016629874565784575 0.9981938389750333 -0.016629874565784575 0.0018061610249666597 0.016629874565784575
1.2282280261157903E8 0.001825904256823569 0.01687335248522795 0.9981740957431764 -0.016873352485227953 0.9981740957431764 -0.016873352485227953 0.001825904256823569 0.01687335248522795
1.2467637111211549E8 0.0018460420359074298 0.017120300449047516 0.9981539579640926 -0.01712030044904752 0.9981539579640926 -0.01712030044904752 0.0018460420359074298 0.017120300449047516
1.265579125632208E8 0.0018665797106200634 0.017370768082230235 0.9981334202893799 -0.017370768082230235 0.9981334202893799 -0.017370768082230235 0.0018665797106200634 0.017370768082230235
1.284678491159853E8 0.0018875227012629162 0.01762480586005344 0.9981124772987371 -0.017624805860053435 0.9981124772987371 -0.017624805860053435 0.0018875227012629162 0.01762480586005344
1.3040660929235186E8 0.001908876508273931 0.017882465127184454 0.9980911234917261 -0.017882465127184454 0.9980911234917261 -0.017882465127184454 0.001908876508273931 0.017882465127184454
1.3237462808126101E8 0.0019306467211109212 0.01814379811692893 0.998069353278889 -0.01814379811692893 0.998069353278889 -0.01814379811692893 0.0019306467211109212 0.01814379811692893
1.3437234703624701E8 0.001952839027792442 0.018408857970599973 0.9980471609722076 -0.018408857970599973 0.9980471609722076 -0.018408857970599973 0.001952839027792442 0.018408857970599973
1.364002143745067E8 0.0019754592251053863 0.01867769875697998 0.9980245407748949 -0.01867769875697998 0.9980245407748949 -0.01867769875697998 0.0019754592251053863 0.01867769875697998
1.3845868507746372E8 0.0019985132294864623 0.01895037549184627 0.9980014867705136 -0.01895037549184627 0.9980014867705136 -0.01895037549184627 0.0019985132294864623 0.01895037549184627
1.405482209928499E8 0.0020220070885826552 0.019226944157531033 0.9979779929114173 -0.019226944157531033 0.9979779929114173 -0.019226944157531033 0.0020220070885826552 0.019226944157531033
1.426692909383278E8 0.0020459469934936826 0.01950746172248609 0.9979540530065063 -0.01950746172248609 0.9979540530065063 -0.01950746172248609 0.0020459469934936826 0.01950746172248609
1.4482237080667645E8 0.002070339291697256 0.01979198616082267 0.9979296607083027 -0.01979198616082267 0.9979296607083027 -0.01979198616082267 0.002070339291697256 0.01979198616082267
1.4700794367256513E8 0.002095190500655849 0.020080576471797035 0.9979048094993441 -0.020080576471797035 0.9979048094993441 -0.020080576471797035 0.002095190500655849 0.020080576471797035
1.492264999009378E8 0.0021205073221013965 0.02037329269921228 0.9978794926778985 -0.02037329269921228 0.9978794926778985 -0.02037329269921228 0.0021205073221013965 0.02037329269921228
1.5147853725703382E8 0.002146296656992289 0.020670195950708153 0.9978537033430078 -0.020670195950708153 0.9978537033430078 -0.020670195950708153 0.002146296656992289 0.020670195950708153
1.5376456101806876E8 0.0021725656211348207 0.020971348416910708 0.997827434378865 -0.020971348416910708 0.997827434378865 -0.020971348416910708 0.0021725656211348207 0.020971348416910708
1.5608508408660066E8 0.002199321561459244 0.021276813390415136 0.997800678438541 -0.021276813390415136 0.997800678438541 -0.021276813390415136 0.002199321561459244 0.021276813390415136
1.5844062710560706E8 0.002226572072938543 0.02158665528457573 0.9977734279270616 -0.021586655284575727 0.9977734279270616 -0.021586655284575727 0.002226572072938543 0.02158665528457573
1.6083171857529896E8 0.0022543250161362063 0.02190093965207884 0.9977456749838639 -0.02190093965207884 0.9977456749838639 -0.02190093965207884 0.0022543250161362063 0.02190093965207884
1.632588949716973E8 0.0022825885353674577 0.0222197332032758 0.9977174114646324 -0.022219733203275797 0.9977174114646324 -0.022219733203275797 0.0022825885353674577 0.0222197332032758
1.6572270086699936E8 0.0023113710774568057 0.022543103824254753 0.997688628922543 -0.022543103824254753 0.997688628922543 -0.022543103824254753 0.0023113710774568057 0.022543103824254753
1.6822368905176118E8 0.002340681411073281 0.02287112059463197 0.9976593185889266 -0.02287112059463197 0.9976593185889266 -0.02287112059463197 0.002340681411073281 0.02287112059463197
1.7076242065892437E8 0.0023705286466234182 0.023203853805045475 0.9976294713533764 -0.023203853805045475 0.9976294713533764 -0.023203853805045475 0.0023705286466234182 0.023203853805045475
1.7333946528971428E8 0.002400922256680966 0.02354137497433596 0.9975990777433191 -0.02354137497433596 0.9975990777433191 -0.02354137497433596 0.002400922256680966 0.02354137497433596
1.7595540114143828E8 0.002431872096931305 0.023883756866401883 0.9975681279030686 -0.02388375686640188 0.9975681279030686 -0.02388375686640188 0.002431872096931305 0.023883756866401883
1.786108151372127E8 0.0024633884276079564 0.024231073506718614 0.997536611572392 -0.024231073506718614 0.997536611572392 -0.024231073506718614 0.0024633884276079564 0.024231073506718614
1.8130630305764765E8 0.0024954819353979873 0.024583400198513274 0.9975045180646019 -0.02458340019851327 0.9975045180646019 -0.02458340019851327 0.0024954819353979873 0.024583400198513274
1.840424696745189E8 0.0025281637557929503 0.024940813538590005 0.9974718362442072 -0.02494081353859 0.9974718362442072 -0.02494081353859 0.0025281637557929503 0.024940813538590005
1.8681992888645732E8 0.0025614454958619005 0.025303391432802476 0.9974385545041381 -0.02530339143280248 0.9974385545041381 -0.02530339143280248 0.0025614454958619005 0.025303391432802476
1.8963930385668582E8 0.0025953392574233135 0.025671213111173225 0.9974046607425767 -0.025671213111173225 0.9974046607425767 -0.025671213111173225 0.0025953392574233135 0.025671213111173225
1.92501227152835E8 0.002629857660593178 0.026044359142661858 0.9973701423394067 -0.02604435914266185 0.9973701423394067 -0.02604435914266185 0.002629857660593178 0.026044359142661858
1.9540634088886917E8 0.002665013867687207 0.026422911449586774 0.9973349861323128 -0.026422911449586774 0.9973349861323128 -0.026422911449586774 0.002665013867687207 0.026422911449586774
1.983552968691535E8 0.0027008216074560654 0.026806953321707155 0.9972991783925438 -0.026806953321707155 0.9972991783925438 -0.026806953321707155 0.0027008216074560654 0.026806953321707155
2.0134875673469606E8 0.0027372951996336606 0.027196569429974657 0.9972627048003663 -0.027196569429974657 0.9972627048003663 -0.027196569429974657 0.0027372951996336606 0.027196569429974657
2.0438739211159652E8 0.0027744495797799094 0.027591845839966454 0.9972255504202202 -0.027591845839966454 0.9972255504202202 -0.027591845839966454 0.0027744495797799094 0.027591845839966454
2.074718847617352E8 0.002812300324400971 0.02799287002501306 0.9971876996755992 -0.02799287002501306 0.9971876996755992 -0.02799287002501306 0.002812300324400971 0.02799287002501306
2.106029267357361E8 0.0028508636763316976 0.028399730879036862 0.9971491363236684 -0.02839973087903687 0.9971491363236684 -0.02839973087903687 0.0028508636763316976 0.028399730879036862
2.1378122052823865E8 0.0028901565703670037 0.02881251872911861 0.9971098434296329 -0.02881251872911862 0.9971098434296329 -0.02881251872911862 0.0028901565703670037 0.02881251872911861
2.1700747923551247E8 0.0029301966591309347 0.029231325347811185 0.9970698033408688 -0.029231325347811185 0.9970698033408688 -0.029231325347811185 0.0029301966591309347 0.029231325347811185
2.2028242671545094E8 0.0029710023391745 0.0296562439652211 0.9970289976608256 -0.0296562439652211 0.9970289976608256 -0.0296562439652211 0.0029710023391745 0.0296562439652211
2.23606797749979E8 0.003012592777295632 0.030087369280879687 0.9969874072227044 -0.030087369280879687 0.9969874072227044 -0.030087369280879687 0.003012592777295632 0.030087369280879687
2.2698133820991236E8 0.0030549879370771805 0.030524797475427048 0.9969450120629227 -0.03052479747542704 0.9969450120629227 -0.03052479747542704 0.0030549879370771805 0.030524797475427048
2.3040680522230446E8 0.0030982086056413126 0.030968626222132246 0.9969017913943589 -0.030968626222132246 0.9969017913943589 -0.030968626222132246 0.0030982086056413126 0.030968626222132246
2.338839673403185E8 0.003142276420621354 0.03141895469827452 0.9968577235793785 -0.031418954698274514 0.9968577235793785 -0.031418954698274514 0.003142276420621354 0.03141895469827452
2.37413604715664E8 0.0031872138973547265 0.031875883596410234 0.9968127861026453 -0.031875883596410234 0.9968127861026453 -0.031875883596410234 0.0031872138973547265 0.031875883596410234
