!Murata Part Number: LQP15MN2N2B02
!These Parameters are Measured in Series Mode Connection
!       o--[Z]--o
!Port1              Port2
!       o-------o
!
!Freq. Start=50[MHz] Stop=20[GHz], 401[Steps]
# Hz S RI R 50
!Freq.(Hz) S11(Real) S11(Imag) S21(Real) S21(Imag) S12(Real) S12(Imag) S22(Real) S22(Imag)
5.0E7 0.0011200889726659482 0.005996210457250894 0.998879911027334 -0.005996210457250894 0.998879911027334 -0.005996210457250894 0.0011200889726659482 0.005996210457250894
5.0754570186123446E7 0.0011236899619739397 0.0060860561053868965 0.998876310038026 -0.006086056105386896 0.998876310038026 -0.006086056105386896 0.0011236899619739397 0.0060860561053868965
5.152052789556263E7 0.0011273909418916999 0.006177230498063407 0.9988726090581084 -0.006177230498063407 0.9988726090581084 -0.006177230498063407 0.0011273909418916999 0.006177230498063407
5.229804498202928E7 0.0011311944242101725 0.006269752620016879 0.9988688055757898 -0.006269752620016879 0.9988688055757898 -0.006269752620016879 0.0011311944242101725 0.006269752620016879
5.308729589274893E7 0.0011351029694542107 0.006363641705799297 0.9988648970305459 -0.006363641705799297 0.9988648970305459 -0.006363641705799297 0.0011351029694542107 0.006363641705799297
5.388845770760058E7 0.0011391191870696374 0.006458917242665592 0.9988608808129302 -0.006458917242665592 0.9988608808129302 -0.006458917242665592 0.0011391191870696374 0.006458917242665592
5.470171017884717E7 0.0011432457355681721 0.0065555989735113385 0.9988567542644318 -0.0065555989735113385 0.9988567542644318 -0.0065555989735113385 0.0011432457355681721 0.0065555989735113385
5.5527235771465644E7 0.001147485322628269 0.006653706899864008 0.9988525146773719 -0.006653706899864008 0.9988525146773719 -0.006653706899864008 0.001147485322628269 0.006653706899864008
5.6365219704085544E7 0.0011518407051499921 0.006753261284931452 0.9988481592948499 -0.006753261284931452 0.9988481592948499 -0.006753261284931452 0.0011518407051499921 0.006753261284931452
5.721584999054556E7 0.0011563146892620648 0.006854282656711388 0.9988436853107379 -0.006854282656711386 0.9988436853107379 -0.006854282656711386 0.0011563146892620648 0.006854282656711388
5.807931748207712E7 0.0011609101302793381 0.006956791811165966 0.9988390898697207 -0.006956791811165966 0.9988390898697207 -0.006956791811165966 0.0011609101302793381 0.006956791811165966
5.8955815910124585E7 0.001165629932608979 0.007060809815465793 0.9988343700673912 -0.007060809815465793 0.9988343700673912 -0.007060809815465793 0.001165629932608979 0.007060809815465793
5.984554192981184E7 0.0011704770496038033 0.007166358011307966 0.9988295229503961 -0.007166358011307964 0.9988295229503961 -0.007166358011307964 0.0011704770496038033 0.007166358011307966
6.074869516406457E7 0.00117545448336128 0.007273458018312994 0.9988245455166389 -0.007273458018312996 0.9988245455166389 -0.007273458018312996 0.00117545448336128 0.007273458018312994
6.166547824839868E7 0.0011805652844668862 0.00738213173750576 0.9988194347155331 -0.007382131737505761 0.9988194347155331 -0.007382131737505761 0.0011805652844668862 0.00738213173750576
6.2596096876384385E7 0.0011858125516806504 0.007492401354885918 0.9988141874483192 -0.007492401354885916 0.9988141874483192 -0.007492401354885916 0.0011858125516806504 0.007492401354885918
6.354075984579668E7 0.0011911994315658956 0.007604289345093467 0.9988088005684341 -0.007604289345093467 0.9988088005684341 -0.007604289345093467 0.0011911994315658956 0.007604289345093467
6.449967910546205E7 0.001196729118059398 0.007717818475175423 0.9988032708819404 -0.007717818475175423 0.9988032708819404 -0.007717818475175423 0.001196729118059398 0.007717818475175423
6.547306980281226E7 0.0012024048519824193 0.007833011808459902 0.9987975951480176 -0.0078330118084599 0.9987975951480176 -0.0078330118084599 0.0012024048519824193 0.007833011808459902
6.646115033215589E7 0.001208229920492311 0.007949892708544173 0.9987917700795076 -0.007949892708544173 0.9987917700795076 -0.007949892708544173 0.001208229920492311 0.007949892708544173
6.746414238367817E7 0.0012142076564746669 0.008068484843403473 0.9987857923435255 -0.008068484843403473 0.9987857923435255 -0.008068484843403473 0.0012142076564746669 0.008068484843403473
6.848227099318038E7 0.001220341437876314 0.008188812189627732 0.9987796585621236 -0.008188812189627732 0.9987796585621236 -0.008188812189627732 0.001220341437876314 0.008188812189627732
6.951576459256999E7 0.0012266346869797696 0.008310899036793593 0.9987733653130202 -0.008310899036793593 0.9987733653130202 -0.008310899036793593 0.0012266346869797696 0.008310899036793593
7.056485506111258E7 0.0012330908696201296 0.008434769991979297 0.99876690913038 -0.008434769991979297 0.99876690913038 -0.008434769991979297 0.0012330908696201296 0.008434769991979297
7.162977777745734E7 0.0012397134943457964 0.008560449984430474 0.9987602865056541 -0.008560449984430474 0.9987602865056541 -0.008560449984430474 0.0012397134943457964 0.008560449984430474
7.271077167244768E7 0.0012465061115248112 0.00868796427038483 0.9987534938884752 -0.00868796427038483 0.9987534938884752 -0.00868796427038483 0.0012465061115248112 0.00868796427038483
7.380807928272885E7 0.0012534723123990646 0.008817338438064155 0.9987465276876009 -0.008817338438064154 0.9987465276876009 -0.008817338438064154 0.0012534723123990646 0.008817338438064155
7.492194680516452E7 0.001260615728089122 0.008948598412842262 0.9987393842719109 -0.008948598412842262 0.9987393842719109 -0.008948598412842262 0.001260615728089122 0.008948598412842262
7.60526241520746E7 0.0012679400285528885 0.009081770462597491 0.9987320599714471 -0.009081770462597493 0.9987320599714471 -0.009081770462597493 0.0012679400285528885 0.009081770462597491
7.720036500730675E7 0.0012754489215019375 0.00921688120325883 0.9987245510784981 -0.00921688120325883 0.9987245510784981 -0.00921688120325883 0.0012754489215019375 0.00921688120325883
7.836542688315398E7 0.0012831461512798467 0.00935395760455457 0.9987168538487201 -0.00935395760455457 0.9987168538487201 -0.00935395760455457 0.0012831461512798467 0.00935395760455457
7.954807117813127E7 0.0012910354977075157 0.00949302699597273 0.9987089645022924 -0.00949302699597273 0.9987089645022924 -0.00949302699597273 0.0012910354977075157 0.00949302699597273
8.074856323562416E7 0.0012991207749010682 0.009634117072942426 0.9987008792250989 -0.009634117072942426 0.9987008792250989 -0.009634117072942426 0.0012991207749010682 0.009634117072942426
8.196717240342227E7 0.001307405830068589 0.009777255903245418 0.9986925941699314 -0.00977725590324542 0.9986925941699314 -0.00977725590324542 0.001307405830068589 0.009777255903245418
8.320417209415154E7 0.0013158945422926326 0.009922471933667147 0.9986841054577075 -0.009922471933667147 0.9986841054577075 -0.009922471933667147 0.0013158945422926326 0.009922471933667147
8.445983984661816E7 0.0013245908213061603 0.010069793996896358 0.9986754091786938 -0.01006979399689636 0.9986754091786938 -0.01006979399689636 0.0013245908213061603 0.010069793996896358
8.573445738807854E7 0.001333498606270247 0.010219251318682475 0.9986665013937299 -0.010219251318682475 0.9986665013937299 -0.010219251318682475 0.001333498606270247 0.010219251318682475
8.702831069744885E7 0.0013426218645626923 0.010370873525259608 0.9986573781354375 -0.010370873525259608 0.9986573781354375 -0.010370873525259608 0.0013426218645626923 0.010370873525259608
8.834169006946853E7 0.0013519645905873856 0.01052469065104595 0.9986480354094126 -0.010524690651045948 0.9986480354094126 -0.010524690651045948 0.0013519645905873856 0.01052469065104595
8.96748901798321E7 0.0013615308046150785 0.0106807331466271 0.9986384691953849 -0.0106807331466271 0.9986384691953849 -0.0106807331466271 0.0013615308046150785 0.0106807331466271
9.1028210151304E7 0.0013713245516669488 0.01083903188703137 0.998628675448333 -0.01083903188703137 0.998628675448333 -0.01083903188703137 0.0013713245516669488 0.01083903188703137
9.240195362083109E7 0.0013813499004531687 0.010999618180304871 0.9986186500995468 -0.010999618180304871 0.9986186500995468 -0.010999618180304871 0.0013813499004531687 0.010999618180304871
9.379642880766791E7 0.001391610942379423 0.011162523776393832 0.9986083890576205 -0.011162523776393832 0.9986083890576205 -0.011162523776393832 0.001391610942379423 0.011162523776393832
9.521194858253023E7 0.001402111790635105 0.011327780876340747 0.998597888209365 -0.011327780876340746 0.998597888209365 -0.011327780876340746 0.001402111790635105 0.011327780876340747
9.664883053779216E7 0.0014128565793776924 0.011495422141800838 0.998587143420622 -0.011495422141800837 0.998587143420622 -0.011495422141800837 0.0014128565793776924 0.011495422141800838
9.810739705874248E7 0.0014238494630284873 0.011665480704884204 0.9985761505369716 -0.011665480704884205 0.9985761505369716 -0.011665480704884205 0.0014238494630284873 0.011665480704884204
9.958797539591652E7 0.0014350946156956802 0.011837990178328662 0.9985649053843042 -0.011837990178328662 0.9985649053843042 -0.011837990178328662 0.0014350946156956802 0.011837990178328662
1.0109089773851961E8 0.001446596230741318 0.012012984666007294 0.9985534037692587 -0.012012984666007294 0.9985534037692587 -0.012012984666007294 0.001446596230741318 0.012012984666007294
1.0261650128895843E8 0.0014583585205094286 0.012190498773773954 0.9985416414794905 -0.012190498773773952 0.9985416414794905 -0.012190498773773952 0.0014583585205094286 0.012190498773773954
1.0416512833849736E8 0.0014703857162331382 0.012370567620648979 0.998529614283767 -0.012370567620648977 0.998529614283767 -0.012370567620648977 0.0014703857162331382 0.012370567620648979
1.0573712634405641E8 0.0014826820681391418 0.01255322685034643 0.9985173179318609 -0.01255322685034643 0.9985173179318609 -0.01255322685034643 0.0014826820681391418 0.01255322685034643
1.0733284800616828E8 0.0014952518457683986 0.012738512643143084 0.9985047481542316 -0.012738512643143086 0.9985047481542316 -0.012738512643143086 0.0014952518457683986 0.012738512643143084
1.0895265134811176E8 0.0015080993385322955 0.012926461728088295 0.9984919006614675 -0.012926461728088295 0.9984919006614675 -0.012926461728088295 0.0015080993385322955 0.012926461728088295
1.1059689979623953E8 0.00152122885652389 0.013117111395552616 0.998478771143476 -0.01311711139555262 0.998478771143476 -0.01311711139555262 0.00152122885652389 0.013117111395552616
1.1226596226151802E8 0.0015346447316040809 0.013310499510111942 0.9984653552683957 -0.013310499510111942 0.9984653552683957 -0.013310499510111942 0.0015346447316040809 0.013310499510111942
1.1396021322229806E8 0.0015483513187827295 0.01350666452376255 0.9984516486812173 -0.01350666452376255 0.9984516486812173 -0.01350666452376255 0.0015483513187827295 0.01350666452376255
1.1568003280833441E8 0.0015623529979148015 0.013705645489461113 0.998437647002085 -0.013705645489461113 0.998437647002085 -0.013705645489461113 0.0015623529979148015 0.013705645489461113
1.1742580688607343E8 0.0015766541757316066 0.013907482074982555 0.9984233458242685 -0.013907482074982555 0.9984233458242685 -0.013907482074982555 0.0015766541757316066 0.013907482074982555
1.1919792714522783E8 0.0015912592882270239 0.014112214577086927 0.998408740711773 -0.014112214577086927 0.998408740711773 -0.014112214577086927 0.0015912592882270239 0.014112214577086927
1.2099679118665792E8 0.001606172803418396 0.01431988393598548 0.9983938271965815 -0.01431988393598548 0.9983938271965815 -0.01431988393598548 0.001606172803418396 0.01431988393598548
1.2282280261157903E8 0.0016213992245013723 0.014530531750094416 0.9983786007754987 -0.014530531750094415 0.9983786007754987 -0.014530531750094415 0.0016213992245013723 0.014530531750094416
1.2467637111211549E8 0.0016369430934174965 0.014744200291063483 0.9983630569065827 -0.014744200291063483 0.9983630569065827 -0.014744200291063483 0.0016369430934174965 0.014744200291063483
1.265579125632208E8 0.0016528089948527405 0.01496093251906529 0.9983471910051475 -0.01496093251906529 0.9983471910051475 -0.01496093251906529 0.0016528089948527405 0.01496093251906529
1.284678491159853E8 0.0016690015606844388 0.015180772098329786 0.9983309984393154 -0.015180772098329786 0.9983309984393154 -0.015180772098329786 0.0016690015606844388 0.015180772098329786
1.3040660929235186E8 0.0016855254748932022 0.015403763412907067 0.9983144745251069 -0.015403763412907067 0.9983144745251069 -0.015403763412907067 0.0016855254748932022 0.015403763412907067
1.3237462808126101E8 0.0017023854789554324 0.015629951582640248 0.9982976145210445 -0.015629951582640248 0.9982976145210445 -0.015629951582640248 0.0017023854789554324 0.015629951582640248
1.3437234703624701E8 0.0017195863777309279 0.01585938247932938 0.9982804136222692 -0.015859382479329377 0.9982804136222692 -0.015859382479329377 0.0017195863777309279 0.01585938247932938
1.364002143745067E8 0.0017371330458588726 0.016092102743065637 0.9982628669541411 -0.016092102743065634 0.9982628669541411 -0.016092102743065634 0.0017371330458588726 0.016092102743065637
1.3845868507746372E8 0.001755030434674138 0.016328159798714686 0.9982449695653258 -0.016328159798714686 0.9982449695653258 -0.016328159798714686 0.001755030434674138 0.016328159798714686
1.405482209928499E8 0.001773283579654371 0.016567601872526417 0.9982267164203458 -0.016567601872526417 0.9982267164203458 -0.016567601872526417 0.001773283579654371 0.016567601872526417
1.426692909383278E8 0.0017918976084068594 0.016810478008848235 0.9982081023915931 -0.016810478008848235 0.9982081023915931 -0.016810478008848235 0.0017918976084068594 0.016810478008848235
1.4482237080667645E8 0.0018108777492024332 0.01705683808691775 0.9981891222507976 -0.017056838086917745 0.9981891222507976 -0.017056838086917745 0.0018108777492024332 0.01705683808691775
1.4700794367256513E8 0.0018302293400620318 0.017306732837710514 0.9981697706599381 -0.017306732837710514 0.9981697706599381 -0.017306732837710514 0.0018302293400620318 0.017306732837710514
1.492264999009378E8 0.0018499578383996949 0.017560213860817905 0.9981500421616003 -0.017560213860817908 0.9981500421616003 -0.017560213860817908 0.0018499578383996949 0.017560213860817905
1.5147853725703382E8 0.001870068831223977 0.01781733364133013 0.9981299311687759 -0.017817333641330126 0.9981299311687759 -0.017817333641330126 0.001870068831223977 0.01781733364133013
1.5376456101806876E8 0.001890568045897821 0.01807814556669901 0.9981094319541021 -0.01807814556669901 0.9981094319541021 -0.01807814556669901 0.001890568045897821 0.01807814556669901
1.5608508408660066E8 0.0019114613614550336 0.018342703943555562 0.998088538638545 -0.018342703943555562 0.998088538638545 -0.018342703943555562 0.0019114613614550336 0.018342703943555562
1.5844062710560706E8 0.0019327548204696116 0.018611064014457408 0.9980672451795305 -0.018611064014457408 0.9980672451795305 -0.018611064014457408 0.0019327548204696116 0.018611064014457408
1.6083171857529896E8 0.001954454641472169 0.018883281974541657 0.998045545358528 -0.018883281974541657 0.998045545358528 -0.018883281974541657 0.001954454641472169 0.018883281974541657
1.632588949716973E8 0.0019765672319058867 0.019159414988059432 0.9980234327680942 -0.019159414988059432 0.9980234327680942 -0.019159414988059432 0.0019765672319058867 0.019159414988059432
1.6572270086699936E8 0.0019990992016124787 0.019439521204768988 0.9980009007983875 -0.019439521204768988 0.9980009007983875 -0.019439521204768988 0.0019990992016124787 0.019439521204768988
1.6822368905176118E8 0.0020220573768368905 0.01972365977616546 0.9979779426231631 -0.019723659776165463 0.9979779426231631 -0.019723659776165463 0.0020220573768368905 0.01972365977616546
1.7076242065892437E8 0.0020454488147377083 0.020011890871526297 0.9979545511852624 -0.020011890871526297 0.9979545511852624 -0.020011890871526297 0.0020454488147377083 0.020011890871526297
1.7333946528971428E8 0.0020692808183885927 0.020304275693752868 0.9979307191816115 -0.020304275693752868 0.9979307191816115 -0.020304275693752868 0.0020692808183885927 0.020304275693752868
1.7595540114143828E8 0.002093560952254532 0.020600876494990178 0.9979064390477456 -0.020600876494990178 0.9979064390477456 -0.020600876494990178 0.002093560952254532 0.020600876494990178
1.786108151372127E8 0.0021182970581252974 0.020901756592008224 0.9978817029418746 -0.020901756592008224 0.9978817029418746 -0.020901756592008224 0.0021182970581252974 0.020901756592008224
1.8130630305764765E8 0.002143497271487205 0.021206980381330506 0.9978565027285128 -0.021206980381330506 0.9978565027285128 -0.021206980381330506 0.002143497271487205 0.021206980381330506
1.840424696745189E8 0.0021691700383131723 0.021516613354096773 0.9978308299616869 -0.021516613354096777 0.9978308299616869 -0.021516613354096777 0.0021691700383131723 0.021516613354096773
1.8681992888645732E8 0.0021953241322501503 0.02183072211064962 0.9978046758677499 -0.02183072211064962 0.9978046758677499 -0.02183072211064962 0.0021953241322501503 0.02183072211064962
1.8963930385668582E8 0.002221968672182168 0.02214937437483615 0.997778031327818 -0.02214937437483615 0.997778031327818 -0.02214937437483615 0.002221968672182168 0.02214937437483615
1.92501227152835E8 0.0022491131401467584 0.02247263900801867 0.9977508868598531 -0.02247263900801867 0.9977508868598531 -0.02247263900801867 0.0022491131401467584 0.02247263900801867
1.9540634088886917E8 0.002276767399582093 0.02280058602279035 0.997723232600418 -0.022800586022790354 0.997723232600418 -0.022800586022790354 0.002276767399582093 0.02280058602279035
1.983552968691535E8 0.0023049417138819887 0.023133286596394083 0.997695058286118 -0.023133286596394083 0.997695058286118 -0.023133286596394083 0.0023049417138819887 0.023133286596394083
2.0134875673469606E8 0.002333646765236094 0.023470813083845705 0.9976663532347638 -0.023470813083845705 0.9976663532347638 -0.023470813083845705 0.002333646765236094 0.023470813083845705
2.0438739211159652E8 0.002362893673732676 0.02381323903076427 0.9976371063262672 -0.023813239030764266 0.9976371063262672 -0.023813239030764266 0.002362893673732676 0.02381323903076427
2.074718847617352E8 0.002392694016702096 0.024160639185915368 0.9976073059832977 -0.024160639185915364 0.9976073059832977 -0.024160639185915364 0.002392694016702096 0.024160639185915368
2.106029267357361E8 0.0024230598482796184 0.02451308951347513 0.9975769401517202 -0.024513089513475125 0.9975769401517202 -0.024513089513475125 0.0024230598482796184 0.02451308951347513
2.1378122052823865E8 0.002454003719167202 0.024870667205025294 0.9975459962808326 -0.024870667205025294 0.9975459962808326 -0.024870667205025294 0.002454003719167202 0.024870667205025294
2.1700747923551247E8 0.002485538696575029 0.025233450691291827 0.997514461303425 -0.025233450691291827 0.997514461303425 -0.025233450691291827 0.002485538696575029 0.025233450691291827
2.2028242671545094E8 0.002517678384324863 0.025601519653641682 0.9974823216156751 -0.025601519653641682 0.9974823216156751 -0.025601519653641682 0.002517678384324863 0.025601519653641682
2.23606797749979E8 0.0025504369430988383 0.025974955035354474 0.9974495630569012 -0.025974955035354474 0.9974495630569012 -0.025974955035354474 0.0025504369430988383 0.025974955035354474
2.2698133820991236E8 0.0025838291108190386 0.026353839052687754 0.9974161708891809 -0.02635383905268775 0.9974161708891809 -0.02635383905268775 0.0025838291108190386 0.026353839052687754
2.3040680522230446E8 0.0026178702231450545 0.026738255205756255 0.9973821297768549 -0.026738255205756255 0.9973821297768549 -0.026738255205756255 0.0026178702231450545 0.026738255205756255
2.338839673403185E8 0.0026525762340787987 0.027128288289247238 0.9973474237659211 -0.027128288289247238 0.9973474237659211 -0.027128288289247238 0.0026525762340787987 0.027128288289247238
