!Murata Part Number: LQP15MN1N1W02
!These Parameters are Measured in Series Mode Connection
!       o--[Z]--o
!Port1              Port2
!       o-------o
!
!Freq. Start=50[MHz] Stop=20[GHz], 401[Steps]
# Hz S RI R 50
!Freq.(Hz) S11(Real) S11(Imag) S21(Real) S21(Imag) S12(Real) S12(Imag) S22(Real) S22(Imag)
5.0E7 1.6987410096013875E-4 0.0023354716680140395 0.9998301258990399 -0.0023354716680140395 0.9998301258990399 -0.0023354716680140395 1.6987410096013875E-4 0.0023354716680140395
5.0754570186123446E7 1.7046899891814987E-4 0.0023706459749660066 0.9998295310010817 -0.0023706459749660066 0.9998295310010817 -0.0023706459749660066 1.7046899891814987E-4 0.0023706459749660066
5.152052789556263E7 1.7108126521805386E-4 0.0024063479639355157 0.999828918734782 -0.0024063479639355153 0.999828918734782 -0.0024063479639355153 1.7108126521805386E-4 0.0024063479639355157
5.229804498202928E7 1.717113854356228E-4 0.0024425854631960364 0.9998282886145644 -0.0024425854631960364 0.9998282886145644 -0.0024425854631960364 1.717113854356228E-4 0.0024425854631960364
5.308729589274893E7 1.7235985746520092E-4 0.002479366413645941 0.9998276401425348 -0.0024793664136459406 0.9998276401425348 -0.0024793664136459406 1.7235985746520092E-4 0.002479366413645941
5.388845770760058E7 1.730271917593609E-4 0.0025166988703049778 0.9998269728082406 -0.0025166988703049778 0.9998269728082406 -0.0025166988703049778 1.730271917593609E-4 0.0025166988703049778
5.470171017884717E7 1.7371391156892295E-4 0.0025545910038274806 0.9998262860884309 -0.0025545910038274806 0.9998262860884309 -0.0025545910038274806 1.7371391156892295E-4 0.0025545910038274806
5.5527235771465644E7 1.744205531830348E-4 0.002593051102032533 0.9998255794468168 -0.002593051102032533 0.9998255794468168 -0.002593051102032533 1.744205531830348E-4 0.002593051102032533
5.6365219704085544E7 1.7514766616899712E-4 0.002632087571451282 0.999824852333831 -0.0026320875714512817 0.999824852333831 -0.0026320875714512817 1.7514766616899712E-4 0.002632087571451282
5.721584999054556E7 1.7589581361149748E-4 0.002671708938891696 0.9998241041863888 -0.002671708938891696 0.9998241041863888 -0.002671708938891696 1.7589581361149748E-4 0.002671708938891696
5.807931748207712E7 1.7666557235089685E-4 0.002711923853020974 0.999823334427649 -0.002711923853020974 0.999823334427649 -0.002711923853020974 1.7666557235089685E-4 0.002711923853020974
5.8955815910124585E7 1.774575332201925E-4 0.002752741085965932 0.9998225424667799 -0.002752741085965932 0.9998225424667799 -0.002752741085965932 1.774575332201925E-4 0.002752741085965932
5.984554192981184E7 1.7827230128026087E-4 0.002794169534931632 0.9998217276987197 -0.002794169534931632 0.9998217276987197 -0.002794169534931632 1.7827230128026087E-4 0.002794169534931632
6.074869516406457E7 1.7911049605296445E-4 0.0028362182238386036 0.9998208895039469 -0.002836218223838603 0.9998208895039469 -0.002836218223838603 1.7911049605296445E-4 0.0028362182238386036
6.166547824839868E7 1.799727517516838E-4 0.002878896304978997 0.9998200272482481 -0.002878896304978997 0.9998200272482481 -0.002878896304978997 1.799727517516838E-4 0.002878896304978997
6.2596096876384385E7 1.808597175088176E-4 0.00292221306069204 0.9998191402824911 -0.00292221306069204 0.9998191402824911 -0.00292221306069204 1.808597175088176E-4 0.00292221306069204
6.354075984579668E7 1.8177205759977046E-4 0.002966177905059215 0.9998182279424003 -0.002966177905059215 0.9998182279424003 -0.002966177905059215 1.8177205759977046E-4 0.002966177905059215
6.449967910546205E7 1.8271045166292908E-4 0.0030108003856195776 0.999817289548337 -0.0030108003856195776 0.999817289548337 -0.0030108003856195776 1.8271045166292908E-4 0.0030108003856195776
6.547306980281226E7 1.8367559491510555E-4 0.0030560901851057003 0.9998163244050848 -0.0030560901851057003 0.9998163244050848 -0.0030560901851057003 1.8367559491510555E-4 0.0030560901851057003
6.646115033215589E7 1.8466819836190763E-4 0.0031020571232007414 0.9998153318016381 -0.0031020571232007414 0.9998153318016381 -0.0031020571232007414 1.8466819836190763E-4 0.0031020571232007414
6.746414238367817E7 1.8568898900247366E-4 0.0031487111583171747 0.9998143110109974 -0.0031487111583171743 0.9998143110109974 -0.0031487111583171743 1.8568898900247366E-4 0.0031487111583171747
6.848227099318038E7 1.867387100279933E-4 0.0031960623893977753 0.9998132612899719 -0.0031960623893977753 0.9998132612899719 -0.0031960623893977753 1.867387100279933E-4 0.0031960623893977753
6.951576459256999E7 1.8781812101341535E-4 0.003244121057739491 0.9998121818789867 -0.003244121057739491 0.9998121818789867 -0.003244121057739491 1.8781812101341535E-4 0.003244121057739491
7.056485506111258E7 1.8892799810172454E-4 0.0032928975488408668 0.9998110720018981 -0.0032928975488408676 0.9998110720018981 -0.0032928975488408676 1.8892799810172454E-4 0.0032928975488408668
7.162977777745734E7 1.9006913418015566E-4 0.0033424023942737417 0.9998099308658202 -0.0033424023942737417 0.9998099308658202 -0.0033424023942737417 1.9006913418015566E-4 0.0033424023942737417
7.271077167244768E7 1.9124233904769774E-4 0.003392646273580015 0.9998087576609523 -0.003392646273580015 0.9998087576609523 -0.003392646273580015 1.9124233904769774E-4 0.003392646273580015
7.380807928272885E7 1.9244843957322283E-4 0.0034436400161942994 0.9998075515604267 -0.0034436400161943002 0.9998075515604267 -0.0034436400161943002 1.9244843957322283E-4 0.0034436400161942994
7.492194680516452E7 1.9368827984356905E-4 0.003495394603393347 0.9998063117201563 -0.0034953946033933468 0.9998063117201563 -0.0034953946033933468 1.9368827984356905E-4 0.003495394603393347
7.60526241520746E7 1.949627213008921E-4 0.0035479211702732173 0.9998050372786988 -0.0035479211702732164 0.9998050372786988 -0.0035479211702732164 1.949627213008921E-4 0.0035479211702732173
7.720036500730675E7 1.9627264286859228E-4 0.003601231007755195 0.9998037273571315 -0.003601231007755195 0.9998037273571315 -0.003601231007755195 1.9627264286859228E-4 0.003601231007755195
7.836542688315398E7 1.9761894106512173E-4 0.003655335564621538 0.9998023810589349 -0.003655335564621538 0.9998023810589349 -0.003655335564621538 1.9761894106512173E-4 0.003655335564621538
7.954807117813127E7 1.9900253010497222E-4 0.0037102464495822416 0.999800997469895 -0.0037102464495822416 0.999800997469895 -0.0037102464495822416 1.9900253010497222E-4 0.0037102464495822416
8.074856323562416E7 2.0042434198614355E-4 0.0037659754333740116 0.9997995756580138 -0.0037659754333740124 0.9997995756580138 -0.0037659754333740124 2.0042434198614355E-4 0.0037659754333740116
8.196717240342227E7 2.0188532656339884E-4 0.0038225344508927817 0.9997981146734365 -0.0038225344508927817 0.9997981146734365 -0.0038225344508927817 2.0188532656339884E-4 0.0038225344508927817
8.320417209415154E7 2.0338645160662014E-4 0.003879935603361181 0.9997966135483934 -0.0038799356033611806 0.9997966135483934 -0.0038799356033611806 2.0338645160662014E-4 0.003879935603361181
8.445983984661816E7 2.04928702843591E-4 0.003938191160532394 0.9997950712971563 -0.0039381911605323935 0.9997950712971563 -0.0039381911605323935 2.04928702843591E-4 0.003938191160532394
8.573445738807854E7 2.0651308398654663E-4 0.003997313562932009 0.9997934869160136 -0.003997313562932009 0.9997934869160136 -0.003997313562932009 2.0651308398654663E-4 0.003997313562932009
8.702831069744885E7 2.0814061674185788E-4 0.004057315424139496 0.9997918593832581 -0.004057315424139496 0.9997918593832581 -0.004057315424139496 2.0814061674185788E-4 0.004057315424139496
8.834169006946853E7 2.098123408022415E-4 0.004118209533111076 0.9997901876591978 -0.004118209533111076 0.9997901876591978 -0.004118209533111076 2.098123408022415E-4 0.004118209533111076
8.96748901798321E7 2.1152931382091683E-4 0.004180008856545798 0.9997884706861793 -0.004180008856545798 0.9997884706861793 -0.004180008856545798 2.1152931382091683E-4 0.004180008856545798
9.1028210151304E7 2.13292611367178E-4 0.004242726541296821 0.9997867073886326 -0.004242726541296822 0.9997867073886326 -0.004242726541296822 2.13292611367178E-4 0.004242726541296821
9.240195362083109E7 2.151033268628868E-4 0.004306375916829892 0.999784896673137 -0.004306375916829891 0.999784896673137 -0.004306375916829891 2.151033268628868E-4 0.004306375916829892
9.379642880766791E7 2.1696257149945018E-4 0.004370970497731195 0.9997830374285006 -0.004370970497731196 0.9997830374285006 -0.004370970497731196 2.1696257149945018E-4 0.004370970497731195
9.521194858253023E7 2.1887147413490228E-4 0.004436523986266824 0.9997811285258651 -0.004436523986266824 0.9997811285258651 -0.004436523986266824 2.1887147413490228E-4 0.004436523986266824
9.664883053779216E7 2.2083118117078462E-4 0.00450305027499623 0.999779168818829 -0.00450305027499623 0.999779168818829 -0.00450305027499623 2.2083118117078462E-4 0.00450305027499623
9.810739705874248E7 2.2284285640858652E-4 0.004570563449442101 0.9997771571435914 -0.004570563449442101 0.9997771571435914 -0.004570563449442101 2.2284285640858652E-4 0.004570563449442101
9.958797539591652E7 2.2490768088559952E-4 0.004639077790819247 0.9997750923191144 -0.004639077790819247 0.9997750923191144 -0.004639077790819247 2.2490768088559952E-4 0.004639077790819247
1.0109089773851961E8 2.270268526901314E-4 0.004708607778825169 0.9997729731473096 -0.0047086077788251685 0.9997729731473096 -0.0047086077788251685 2.270268526901314E-4 0.004708607778825169
1.0261650128895843E8 2.292015867561266E-4 0.00477916809449509 0.999770798413244 -0.00477916809449509 0.999770798413244 -0.00477916809449509 2.292015867561266E-4 0.00477916809449509
1.0416512833849736E8 2.3143311463735575E-4 0.004850773623124302 0.9997685668853624 -0.004850773623124301 0.9997685668853624 -0.004850773623124301 2.3143311463735575E-4 0.004850773623124302
1.0573712634405641E8 2.337226842614619E-4 0.004923439457260856 0.9997662773157387 -0.004923439457260857 0.9997662773157387 -0.004923439457260857 2.337226842614619E-4 0.004923439457260856
1.0733284800616828E8 2.3607155966427884E-4 0.004997180899771642 0.9997639284403357 -0.004997180899771641 0.9997639284403357 -0.004997180899771641 2.3607155966427884E-4 0.004997180899771642
1.0895265134811176E8 2.3848102070498544E-4 0.005072013466985017 0.9997615189792949 -0.005072013466985017 0.9997615189792949 -0.005072013466985017 2.3848102070498544E-4 0.005072013466985017
1.1059689979623953E8 2.4095236276281667E-4 0.005147952891913294 0.999759047637237 -0.005147952891913293 0.999759047637237 -0.005147952891913293 2.4095236276281667E-4 0.005147952891913294
1.1226596226151802E8 2.4348689641621177E-4 0.005225015127558363 0.9997565131035838 -0.005225015127558363 0.9997565131035838 -0.005225015127558363 2.4348689641621177E-4 0.005225015127558363
1.1396021322229806E8 2.460859471054617E-4 0.005303216350303931 0.9997539140528946 -0.005303216350303931 0.9997539140528946 -0.005303216350303931 2.460859471054617E-4 0.005303216350303931
1.1568003280833441E8 2.48750854780103E-4 0.005382572963397811 0.9997512491452198 -0.00538257296339781 0.9997512491452198 -0.00538257296339781 2.48750854780103E-4 0.005382572963397811
1.1742580688607343E8 2.514829735325048E-4 0.0054631016005278355 0.9997485170264675 -0.0054631016005278355 0.9997485170264675 -0.0054631016005278355 2.514829735325048E-4 0.0054631016005278355
1.1919792714522783E8 2.542836712193018E-4 0.005544819129494977 0.9997457163287806 -0.005544819129494977 0.9997457163287806 -0.005544819129494977 2.542836712193018E-4 0.005544819129494977
1.2099679118665792E8 2.571543290725492E-4 0.005627742655987305 0.9997428456709275 -0.005627742655987304 0.9997428456709275 -0.005627742655987304 2.571543290725492E-4 0.005627742655987305
1.2282280261157903E8 2.600963413026988E-4 0.005711889527458435 0.9997399036586972 -0.005711889527458435 0.9997399036586972 -0.005711889527458435 2.600963413026988E-4 0.005711889527458435
1.2467637111211549E8 2.6311111469573886E-4 0.005797277337114154 0.9997368888853042 -0.005797277337114154 0.9997368888853042 -0.005797277337114154 2.6311111469573886E-4 0.005797277337114154
1.265579125632208E8 2.6620006820708106E-4 0.005883923928010849 0.9997337999317929 -0.005883923928010848 0.9997337999317929 -0.005883923928010848 2.6620006820708106E-4 0.005883923928010849
1.284678491159853E8 2.6936463255503783E-4 0.005971847397269426 0.999730635367445 -0.0059718473972694254 0.999730635367445 -0.0059718473972694254 2.6936463255503783E-4 0.005971847397269426
1.3040660929235186E8 2.726062498169898E-4 0.006061066100408298 0.9997273937501829 -0.006061066100408298 0.9997273937501829 -0.006061066100408298 2.726062498169898E-4 0.006061066100408298
1.3237462808126101E8 2.759263730316129E-4 0.006151598655799027 0.9997240736269682 -0.006151598655799028 0.9997240736269682 -0.006151598655799028 2.759263730316129E-4 0.006151598655799027
1.3437234703624701E8 2.7932646581080414E-4 0.006243463949248055 0.999720673534189 -0.006243463949248054 0.999720673534189 -0.006243463949248054 2.7932646581080414E-4 0.006243463949248055
1.364002143745067E8 2.8280800196522264E-4 0.006336681138707947 0.9997171919980348 -0.006336681138707948 0.9997171919980348 -0.006336681138707948 2.8280800196522264E-4 0.006336681138707947
1.3845868507746372E8 2.8637246514763744E-4 0.006431269659121435 0.9997136275348524 -0.006431269659121435 0.9997136275348524 -0.006431269659121435 2.8637246514763744E-4 0.006431269659121435
1.405482209928499E8 2.900213485185484E-4 0.006527249227401318 0.9997099786514815 -0.006527249227401316 0.9997099786514815 -0.006527249227401316 2.900213485185484E-4 0.006527249227401318
1.426692909383278E8 2.937561544388289E-4 0.006624639847549281 0.9997062438455612 -0.006624639847549281 0.9997062438455612 -0.006624639847549281 2.937561544388289E-4 0.006624639847549281
1.4482237080667645E8 2.9757839419440054E-4 0.006723461815916346 0.9997024216058058 -0.006723461815916346 0.9997024216058058 -0.006723461815916346 2.9757839419440054E-4 0.006723461815916346
1.4700794367256513E8 3.014895877582278E-4 0.006823735726607582 0.9996985104122418 -0.006823735726607582 0.9996985104122418 -0.006823735726607582 3.014895877582278E-4 0.006823735726607582
1.492264999009378E8 3.05491263595167E-4 0.006925482477033371 0.9996945087364049 -0.006925482477033371 0.9996945087364049 -0.006925482477033371 3.05491263595167E-4 0.006925482477033371
1.5147853725703382E8 3.0958495851546525E-4 0.007028723273609353 0.9996904150414847 -0.007028723273609353 0.9996904150414847 -0.007028723273609353 3.0958495851546525E-4 0.007028723273609353
1.5376456101806876E8 3.1377221758292697E-4 0.007133479637606795 0.9996862277824172 -0.007133479637606795 0.9996862277824172 -0.007133479637606795 3.1377221758292697E-4 0.007133479637606795
1.5608508408660066E8 3.180545940840041E-4 0.0072397734111549735 0.9996819454059159 -0.0072397734111549735 0.9996819454059159 -0.0072397734111549735 3.180545940840041E-4 0.0072397734111549735
1.5844062710560706E8 3.224336495642478E-4 0.007347626763396566 0.9996775663504358 -0.007347626763396566 0.9996775663504358 -0.007347626763396566 3.224336495642478E-4 0.007347626763396566
1.6083171857529896E8 3.269109539387664E-4 0.0074570621967970105 0.9996730890460612 -0.007457062196797009 0.9996730890460612 -0.007457062196797009 3.269109539387664E-4 0.0074570621967970105
1.632588949716973E8 3.31488085683476E-4 0.007568102553608137 0.9996685119143165 -0.007568102553608135 0.9996685119143165 -0.007568102553608135 3.31488085683476E-4 0.007568102553608137
1.6572270086699936E8 3.3616663211408036E-4 0.0076807710224861825 0.9996638333678861 -0.0076807710224861825 0.9996638333678861 -0.0076807710224861825 3.3616663211408036E-4 0.0076807710224861825
1.6822368905176118E8 3.4094818975981137E-4 0.007795091145263688 0.9996590518102401 -0.007795091145263686 0.9996590518102401 -0.007795091145263686 3.4094818975981137E-4 0.007795091145263688
1.7076242065892437E8 3.458343648390513E-4 0.007911086823874525 0.9996541656351611 -0.007911086823874525 0.9996541656351611 -0.007911086823874525 3.458343648390513E-4 0.007911086823874525
1.7333946528971428E8 3.5082677384399316E-4 0.008028782327430725 0.9996491732261562 -0.008028782327430725 0.9996491732261562 -0.008028782327430725 3.5082677384399316E-4 0.008028782327430725
1.7595540114143828E8 3.5592704424150805E-4 0.008148202299449315 0.9996440729557585 -0.008148202299449315 0.9996440729557585 -0.008148202299449315 3.5592704424150805E-4 0.008148202299449315
1.786108151372127E8 3.611368152973637E-4 0.008269371765227008 0.9996388631847027 -0.00826937176522701 0.9996388631847027 -0.00826937176522701 3.611368152973637E-4 0.008269371765227008
1.8130630305764765E8 3.664577390308629E-4 0.008392316139359935 0.9996335422609693 -0.008392316139359935 0.9996335422609693 -0.008392316139359935 3.664577390308629E-4 0.008392316139359935
1.840424696745189E8 3.718914813068746E-4 0.00851706123340529 0.9996281085186932 -0.00851706123340529 0.9996281085186932 -0.00851706123340529 3.718914813068746E-4 0.00851706123340529
1.8681992888645732E8 3.774397230720631E-4 0.008643633263681099 0.9996225602769281 -0.008643633263681099 0.9996225602769281 -0.008643633263681099 3.774397230720631E-4 0.008643633263681099
1.8963930385668582E8 3.831041617419443E-4 0.008772058859200018 0.9996168958382579 -0.008772058859200018 0.9996168958382579 -0.008772058859200018 3.831041617419443E-4 0.008772058859200018
1.92501227152835E8 3.888865127451484E-4 0.008902365069732434 0.9996111134872548 -0.008902365069732434 0.9996111134872548 -0.008902365069732434 3.888865127451484E-4 0.008902365069732434
1.9540634088886917E8 3.9478851123098547E-4 0.009034579373993776 0.9996052114887691 -0.009034579373993776 0.9996052114887691 -0.009034579373993776 3.9478851123098547E-4 0.009034579373993776
1.983552968691535E8 4.008119139460867E-4 0.00916872968795039 0.999599188086054 -0.00916872968795039 0.999599188086054 -0.00916872968795039 4.008119139460867E-4 0.00916872968795039
2.0134875673469606E8 4.069585012855204E-4 0.009304844373238069 0.9995930414987145 -0.009304844373238069 0.9995930414987145 -0.009304844373238069 4.069585012855204E-4 0.009304844373238069
2.0438739211159652E8 4.132300795233598E-4 0.009442952245686682 0.9995867699204766 -0.009442952245686682 0.9995867699204766 -0.009442952245686682 4.132300795233598E-4 0.009442952245686682
2.074718847617352E8 4.1962848322723716E-4 0.009583082583944283 0.9995803715167727 -0.009583082583944283 0.9995803715167727 -0.009583082583944283 4.1962848322723716E-4 0.009583082583944283
2.106029267357361E8 4.2615557786089363E-4 0.009725265138193346 0.9995738444221391 -0.009725265138193346 0.9995738444221391 -0.009725265138193346 4.2615557786089363E-4 0.009725265138193346
2.1378122052823865E8 4.328132625782296E-4 0.009869530138951874 0.9995671867374217 -0.009869530138951874 0.9995671867374217 -0.009869530138951874 4.328132625782296E-4 0.009869530138951874
2.1700747923551247E8 4.396034732117629E-4 0.010015908305951596 0.9995603965267883 -0.010015908305951596 0.9995603965267883 -0.010015908305951596 4.396034732117629E-4 0.010015908305951596
2.2028242671545094E8 4.46528185457812E-4 0.0101644308570853 0.999553471814542 -0.0101644308570853 0.999553471814542 -0.0101644308570853 4.46528185457812E-4 0.0101644308570853
2.23606797749979E8 4.5358941826008305E-4 0.010315129517415322 0.9995464105817399 -0.010315129517415322 0.9995464105817399 -0.010315129517415322 4.5358941826008305E-4 0.010315129517415322
2.2698133820991236E8 4.607892373926921E-4 0.01046803652823488 0.9995392107626073 -0.01046803652823488 0.9995392107626073 -0.01046803652823488 4.607892373926921E-4 0.01046803652823488
2.3040680522230446E8 4.6812975924296924E-4 0.010623184656174163 0.9995318702407568 -0.010623184656174163 0.9995318702407568 -0.010623184656174163 4.6812975924296924E-4 0.010623184656174163
2.338839673403185E8 4.756131547937082E-4 0.010780607202342796 0.9995243868452062 -0.010780607202342798 0.9995243868452062 -0.010780607202342798 4.756131547937082E-4 0.010780607202342796
