!Murata Part Number: LQP15MN3N0B02
!These Parameters are Measured in Series Mode Connection
!       o--[Z]--o
!Port1              Port2
!       o-------o
!
!Freq. Start=50[MHz] Stop=20[GHz], 401[Steps]
# Hz S RI R 50
!Freq.(Hz) S11(Real) S11(Imag) S21(Real) S21(Imag) S12(Real) S12(Imag) S22(Real) S22(Imag)
5.0E7 0.0023961964933437415 0.008555406867258442 0.9976038035066562 -0.00855540686725844 0.9976038035066562 -0.00855540686725844 0.0023961964933437415 0.008555406867258442
5.0754570186123446E7 0.0024034942290993714 0.008682476428691268 0.9975965057709008 -0.008682476428691268 0.9975965057709008 -0.008682476428691268 0.0024034942290993714 0.008682476428691268
5.152052789556263E7 0.0024109705735747876 0.008811387722847704 0.9975890294264254 -0.008811387722847704 0.9975890294264254 -0.008811387722847704 0.0024109705735747876 0.008811387722847704
5.229804498202928E7 0.0024186288812420337 0.008942166201514742 0.9975813711187579 -0.008942166201514742 0.9975813711187579 -0.008942166201514742 0.0024186288812420337 0.008942166201514742
5.308729589274893E7 0.0024264725250552877 0.009074837659123366 0.9975735274749447 -0.009074837659123366 0.9975735274749447 -0.009074837659123366 0.0024264725250552877 0.009074837659123366
5.388845770760058E7 0.0024345048948866722 0.009209428239206095 0.9975654951051133 -0.009209428239206095 0.9975654951051133 -0.009209428239206095 0.0024345048948866722 0.009209428239206095
5.470171017884717E7 0.0024427293959561804 0.009345964441109245 0.9975572706040438 -0.009345964441109245 0.9975572706040438 -0.009345964441109245 0.0024427293959561804 0.009345964441109245
5.5527235771465644E7 0.0024511494472647137 0.009484473126968781 0.9975488505527353 -0.009484473126968783 0.9975488505527353 -0.009484473126968783 0.0024511494472647137 0.009484473126968781
5.6365219704085544E7 0.00245976848004002 0.009624981528958758 0.99754023151996 -0.009624981528958758 0.99754023151996 -0.009624981528958758 0.00245976848004002 0.009624981528958758
5.721584999054556E7 0.002468589936206077 0.009767517256820757 0.9975314100637939 -0.009767517256820757 0.9975314100637939 -0.009767517256820757 0.002468589936206077 0.009767517256820757
5.807931748207712E7 0.0024776172668872433 0.009912108305682716 0.9975223827331129 -0.009912108305682716 0.9975223827331129 -0.009912108305682716 0.0024776172668872433 0.009912108305682716
5.8955815910124585E7 0.00248685393095932 0.010058783064174974 0.9975131460690407 -0.010058783064174974 0.9975131460690407 -0.010058783064174974 0.00248685393095932 0.010058783064174974
5.984554192981184E7 0.0024963033936604238 0.010207570322850999 0.9975036966063398 -0.010207570322850999 0.9975036966063398 -0.010207570322850999 0.0024963033936604238 0.010207570322850999
6.074869516406457E7 0.0025059691252753554 0.01035849928291971 0.9974940308747247 -0.01035849928291971 0.9974940308747247 -0.01035849928291971 0.0025059691252753554 0.01035849928291971
6.166547824839868E7 0.0025158545999079303 0.0105115995652958 0.9974841454000921 -0.0105115995652958 0.9974841454000921 -0.0105115995652958 0.0025158545999079303 0.0105115995652958
6.2596096876384385E7 0.0025259632943564927 0.010666901219973697 0.9974740367056435 -0.010666901219973697 0.9974740367056435 -0.010666901219973697 0.0025259632943564927 0.010666901219973697
6.354075984579668E7 0.0025362986871085183 0.010824434735730235 0.9974637013128916 -0.010824434735730235 0.9974637013128916 -0.010824434735730235 0.0025362986871085183 0.010824434735730235
6.449967910546205E7 0.0025468642574709792 0.010984231050160163 0.997453135742529 -0.010984231050160163 0.997453135742529 -0.010984231050160163 0.0025468642574709792 0.010984231050160163
6.547306980281226E7 0.0025576634848537448 0.0111463215600479 0.997442336515146 -0.0111463215600479 0.997442336515146 -0.0111463215600479 0.0025576634848537448 0.0111463215600479
6.646115033215589E7 0.002568699848223919 0.01131073813207785 0.9974313001517763 -0.011310738132077851 0.9974313001517763 -0.011310738132077851 0.002568699848223919 0.01131073813207785
6.746414238367817E7 0.002579976825749604 0.011477513113884761 0.9974200231742503 -0.011477513113884761 0.9974200231742503 -0.011477513113884761 0.002579976825749604 0.011477513113884761
6.848227099318038E7 0.002591497894652063 0.011646679345444413 0.997408502105348 -0.011646679345444413 0.997408502105348 -0.011646679345444413 0.002591497894652063 0.011646679345444413
6.951576459256999E7 0.002603266531285669 0.01181827017080385 0.9973967334687145 -0.01181827017080385 0.9973967334687145 -0.01181827017080385 0.002603266531285669 0.01181827017080385
7.056485506111258E7 0.00261528621146547 0.011992319450149185 0.9973847137885345 -0.011992319450149185 0.9973847137885345 -0.011992319450149185 0.00261528621146547 0.011992319450149185
7.162977777745734E7 0.0026275604110623614 0.012168861572207637 0.9973724395889376 -0.012168861572207638 0.9973724395889376 -0.012168861572207638 0.0026275604110623614 0.012168861572207637
7.271077167244768E7 0.0026400926068861946 0.012347931466979448 0.9973599073931138 -0.012347931466979448 0.9973599073931138 -0.012347931466979448 0.0026400926068861946 0.012347931466979448
7.380807928272885E7 0.0026528862778771073 0.012529564618793575 0.9973471137221228 -0.012529564618793574 0.9973471137221228 -0.012529564618793574 0.0026528862778771073 0.012529564618793575
7.492194680516452E7 0.00266594490662548 0.012713797079680076 0.9973340550933745 -0.012713797079680076 0.9973340550933745 -0.012713797079680076 0.00266594490662548 0.012713797079680076
7.60526241520746E7 0.0026792719812407406 0.012900665483050432 0.9973207280187592 -0.012900665483050432 0.9973207280187592 -0.012900665483050432 0.0026792719812407406 0.012900665483050432
7.720036500730675E7 0.0026928709975890548 0.013090207057675744 0.9973071290024109 -0.013090207057675744 0.9973071290024109 -0.013090207057675744 0.0026928709975890548 0.013090207057675744
7.836542688315398E7 0.0027067454619195772 0.013282459641951228 0.9972932545380805 -0.013282459641951228 0.9972932545380805 -0.013282459641951228 0.0027067454619195772 0.013282459641951228
7.954807117813127E7 0.0027208988938985153 0.01347746169843414 0.9972791011061015 -0.01347746169843414 0.9972791011061015 -0.01347746169843414 0.0027208988938985153 0.01347746169843414
8.074856323562416E7 0.0027353348300696427 0.01367525232864061 0.9972646651699304 -0.01367525232864061 0.9972646651699304 -0.01367525232864061 0.0027353348300696427 0.01367525232864061
8.196717240342227E7 0.0027500568277592243 0.013875871288085645 0.9972499431722407 -0.013875871288085649 0.9972499431722407 -0.013875871288085649 0.0027500568277592243 0.013875871288085645
8.320417209415154E7 0.002765068469442453 0.014079359001549193 0.9972349315305576 -0.014079359001549193 0.9972349315305576 -0.014079359001549193 0.002765068469442453 0.014079359001549193
8.445983984661816E7 0.0027803733675875603 0.014285756578549552 0.9972196266324125 -0.014285756578549552 0.9972196266324125 -0.014285756578549552 0.0027803733675875603 0.014285756578549552
8.573445738807854E7 0.002795975169992709 0.0144951058290047 0.9972040248300073 -0.0144951058290047 0.9972040248300073 -0.0144951058290047 0.002795975169992709 0.0144951058290047
8.702831069744885E7 0.002811877565629492 0.014707449279060182 0.9971881224343705 -0.014707449279060182 0.9971881224343705 -0.014707449279060182 0.002811877565629492 0.014707449279060182
8.834169006946853E7 0.002828084291005639 0.014922830187061809 0.9971719157089944 -0.014922830187061809 0.9971719157089944 -0.014922830187061809 0.002828084291005639 0.014922830187061809
8.96748901798321E7 0.0028445991370580443 0.015141292559649836 0.9971554008629419 -0.015141292559649836 0.9971554008629419 -0.015141292559649836 0.0028445991370580443 0.015141292559649836
9.1028210151304E7 0.002861425956585713 0.015362881167950837 0.9971385740434143 -0.015362881167950836 0.9971385740434143 -0.015362881167950836 0.002861425956585713 0.015362881167950837
9.240195362083109E7 0.0028785686722305665 0.015587641563842156 0.9971214313277693 -0.015587641563842156 0.9971214313277693 -0.015587641563842156 0.0028785686722305665 0.015587641563842156
9.379642880766791E7 0.0028960312850124133 0.015815620096263895 0.9971039687149876 -0.015815620096263895 0.9971039687149876 -0.015815620096263895 0.0028960312850124133 0.015815620096263895
9.521194858253023E7 0.0029138178834224476 0.016046863927551988 0.9970861821165775 -0.016046863927551988 0.9970861821165775 -0.016046863927551988 0.0029138178834224476 0.016046863927551988
9.664883053779216E7 0.002931932653077964 0.016281421049766445 0.9970680673469221 -0.01628142104976645 0.9970680673469221 -0.01628142104976645 0.002931932653077964 0.016281421049766445
9.810739705874248E7 0.002950379886938923 0.0165193403009879 0.9970496201130612 -0.0165193403009879 0.9970496201130612 -0.0165193403009879 0.002950379886938923 0.0165193403009879
9.958797539591652E7 0.0029691639960851067 0.016760671381555913 0.9970308360039148 -0.016760671381555913 0.9970308360039148 -0.016760671381555913 0.0029691639960851067 0.016760671381555913
1.0109089773851961E8 0.0029882895210507085 0.017005464870222718 0.9970117104789493 -0.017005464870222718 0.9970117104789493 -0.017005464870222718 0.0029882895210507085 0.017005464870222718
1.0261650128895843E8 0.0030077611437110945 0.01725377224019592 0.996992238856289 -0.01725377224019592 0.996992238856289 -0.01725377224019592 0.0030077611437110945 0.01725377224019592
1.0416512833849736E8 0.003027583699714627 0.017505645875044624 0.9969724163002853 -0.017505645875044624 0.9969724163002853 -0.017505645875044624 0.003027583699714627 0.017505645875044624
1.0573712634405641E8 0.0030477621914504873 0.017761139084443912 0.9969522378085494 -0.017761139084443912 0.9969522378085494 -0.017761139084443912 0.0030477621914504873 0.017761139084443912
1.0733284800616828E8 0.0030683018015415144 0.01802030611973331 0.9969316981984584 -0.01802030611973331 0.9969316981984584 -0.01802030611973331 0.0030683018015415144 0.01802030611973331
1.0895265134811176E8 0.0030892079068492563 0.01828320218926604 0.9969107920931508 -0.01828320218926604 0.9969107920931508 -0.01828320218926604 0.0030892079068492563 0.01828320218926604
1.1059689979623953E8 0.00311048609297677 0.018549883473527047 0.9968895139070232 -0.01854988347352705 0.9968895139070232 -0.01854988347352705 0.00311048609297677 0.018549883473527047
1.1226596226151802E8 0.0031321421692529347 0.01882040713999901 0.9968678578307469 -0.01882040713999901 0.9968678578307469 -0.01882040713999901 0.0031321421692529347 0.01882040713999901
1.1396021322229806E8 0.003154182184180595 0.019094831357756928 0.9968458178158194 -0.019094831357756928 0.9968458178158194 -0.019094831357756928 0.003154182184180595 0.019094831357756928
1.1568003280833441E8 0.0031766124413294297 0.019373215311773925 0.9968233875586706 -0.019373215311773925 0.9968233875586706 -0.019373215311773925 0.0031766124413294297 0.019373215311773925
1.1742580688607343E8 0.0031994395156531245 0.019655619216922077 0.9968005604843471 -0.01965561921692208 0.9968005604843471 -0.01965561921692208 0.0031994395156531245 0.019655619216922077
1.1919792714522783E8 0.003222670270209414 0.01994210433165458 0.9967773297297907 -0.01994210433165458 0.9967773297297907 -0.01994210433165458 0.003222670270209414 0.01994210433165458
1.2099679118665792E8 0.003246311873260486 0.020232732971356936 0.9967536881267395 -0.020232732971356936 0.9967536881267395 -0.020232732971356936 0.003246311873260486 0.020232732971356936
1.2282280261157903E8 0.003270371815730601 0.02052756852135752 0.9967296281842695 -0.02052756852135752 0.9967296281842695 -0.02052756852135752 0.003270371815730601 0.02052756852135752
1.2467637111211549E8 0.0032948579289970824 0.02082667544958943 0.9967051420710029 -0.02082667544958943 0.9967051420710029 -0.02082667544958943 0.0032948579289970824 0.02082667544958943
1.265579125632208E8 0.0033197784029905504 0.021130119318898417 0.9966802215970094 -0.021130119318898414 0.9966802215970094 -0.021130119318898414 0.0033197784029905504 0.021130119318898417
1.284678491159853E8 0.0033451418045799593 0.0214379667989931 0.9966548581954199 -0.0214379667989931 0.9966548581954199 -0.0214379667989931 0.0033451418045799593 0.0214379667989931
1.3040660929235186E8 0.0033709570962181176 0.021750285678036836 0.9966290429037818 -0.02175028567803684 0.9966290429037818 -0.02175028567803684 0.0033709570962181176 0.021750285678036836
1.3237462808126101E8 0.0033972336548234827 0.022067144873882064 0.9966027663451765 -0.02206714487388206 0.9966027663451765 -0.02206714487388206 0.0033972336548234827 0.022067144873882064
1.3437234703624701E8 0.0034239812908744977 0.02238861444495073 0.9965760187091254 -0.02238861444495073 0.9965760187091254 -0.02238861444495073 0.0034239812908744977 0.02238861444495073
1.364002143745067E8 0.003451210267693275 0.022714765600766382 0.9965487897323069 -0.022714765600766386 0.9965487897323069 -0.022714765600766386 0.003451210267693275 0.022714765600766382
1.3845868507746372E8 0.0034789313208962794 0.023045670712145645 0.9965210686791036 -0.023045670712145645 0.9965210686791036 -0.023045670712145645 0.0034789313208962794 0.023045670712145645
1.405482209928499E8 0.0035071556779906225 0.02338140332105897 0.9964928443220095 -0.02338140332105897 0.9964928443220095 -0.02338140332105897 0.0035071556779906225 0.02338140332105897
1.426692909383278E8 0.0035358950780957055 0.0237220381501724 0.9964641049219042 -0.023722038150172403 0.9964641049219042 -0.023722038150172403 0.0035358950780957055 0.0237220381501724
1.4482237080667645E8 0.00356516179177131 0.024067651112084188 0.9964348382082286 -0.024067651112084188 0.9964348382082286 -0.024067651112084188 0.00356516179177131 0.024067651112084188
1.4700794367256513E8 0.0035949686409347047 0.024418319318271476 0.9964050313590653 -0.024418319318271476 0.9964050313590653 -0.024418319318271476 0.0035949686409347047 0.024418319318271476
1.492264999009378E8 0.0036253290188509356 0.024774121087764465 0.9963746709811493 -0.02477412108776447 0.9963746709811493 -0.02477412108776447 0.0036253290188509356 0.024774121087764465
1.5147853725703382E8 0.003656256910182192 0.0251351359555662 0.9963437430898178 -0.0251351359555662 0.9963437430898178 -0.0251351359555662 0.003656256910182192 0.0251351359555662
1.5376456101806876E8 0.0036877669110840987 0.025501444680838307 0.9963122330889159 -0.025501444680838307 0.9963122330889159 -0.025501444680838307 0.0036877669110840987 0.025501444680838307
1.5608508408660066E8 0.003719874249338572 0.02587312925487335 0.9962801257506614 -0.02587312925487335 0.9962801257506614 -0.02587312925487335 0.003719874249338572 0.02587312925487335
1.5844062710560706E8 0.003752594804515084 0.026250272908876073 0.9962474051954847 -0.026250272908876073 0.9962474051954847 -0.026250272908876073 0.003752594804515084 0.026250272908876073
1.6083171857529896E8 0.003785945128154166 0.02663296012157648 0.9962140548718459 -0.026632960121576472 0.9962140548718459 -0.026632960121576472 0.003785945128154166 0.02663296012157648
1.632588949716973E8 0.003819942463969135 0.027021276626697913 0.996180057536031 -0.027021276626697913 0.996180057536031 -0.027021276626697913 0.003819942463969135 0.027021276626697913
1.6572270086699936E8 0.0038546047680642777 0.02741530942030476 0.9961453952319357 -0.02741530942030476 0.9961453952319357 -0.02741530942030476 0.0038546047680642777 0.02741530942030476
1.6822368905176118E8 0.0038899507291698123 0.027815146768053457 0.9961100492708302 -0.027815146768053464 0.9961100492708302 -0.027815146768053464 0.0038899507291698123 0.027815146768053457
1.7076242065892437E8 0.0039259997888962 0.028220878212371844 0.9960740002111038 -0.028220878212371844 0.9960740002111038 -0.028220878212371844 0.0039259997888962 0.028220878212371844
1.7333946528971428E8 0.003962772162012526 0.028632594579590782 0.9960372278379874 -0.028632594579590782 0.9960372278379874 -0.028632594579590782 0.003962772162012526 0.028632594579590782
1.7595540114143828E8 0.004000288856755817 0.029050387987052895 0.9959997111432441 -0.029050387987052895 0.9959997111432441 -0.029050387987052895 0.004000288856755817 0.029050387987052895
1.786108151372127E8 0.004038571695180186 0.029474351850221705 0.9959614283048198 -0.029474351850221705 0.9959614283048198 -0.029474351850221705 0.004038571695180186 0.029474351850221705
1.8130630305764765E8 0.00407764333355687 0.02990458088981521 0.9959223566664431 -0.029904580889815218 0.9959223566664431 -0.029904580889815218 0.00407764333355687 0.02990458088981521
1.840424696745189E8 0.0041175272828379746 0.030341171138986312 0.9958824727171621 -0.03034117113898631 0.9958824727171621 -0.03034117113898631 0.0041175272828379746 0.030341171138986312
1.8681992888645732E8 0.00415824792919887 0.030784219950572417 0.9958417520708011 -0.030784219950572417 0.9958417520708011 -0.030784219950572417 0.00415824792919887 0.030784219950572417
1.8963930385668582E8 0.004199830554675744 0.03123382600443546 0.9958001694453242 -0.031233826004435455 0.9958001694453242 -0.031233826004435455 0.004199830554675744 0.03123382600443546
1.92501227152835E8 0.004242301357916662 0.03169008931491253 0.9957576986420833 -0.03169008931491253 0.9957576986420833 -0.03169008931491253 0.004242301357916662 0.03169008931491253
1.9540634088886917E8 0.004285687475066069 0.032153111238396606 0.9957143125249341 -0.032153111238396606 0.9957143125249341 -0.032153111238396606 0.004285687475066069 0.032153111238396606
1.983552968691535E8 0.004330017000804081 0.03262299448106542 0.995669982999196 -0.03262299448106542 0.995669982999196 -0.03262299448106542 0.004330017000804081 0.03262299448106542
2.0134875673469606E8 0.004375319009563403 0.033099843106775634 0.9956246809904364 -0.033099843106775634 0.9956246809904364 -0.033099843106775634 0.004375319009563403 0.033099843106775634
2.0438739211159652E8 0.004421623576947888 0.0335837625451379 0.9955783764230521 -0.0335837625451379 0.9955783764230521 -0.0335837625451379 0.004421623576947888 0.0335837625451379
2.074718847617352E8 0.004468961801378063 0.034074859599787836 0.9955310381986219 -0.03407485959978783 0.9955310381986219 -0.03407485959978783 0.004468961801378063 0.034074859599787836
2.106029267357361E8 0.004517365825989832 0.03457324245686583 0.9954826341740101 -0.03457324245686583 0.9954826341740101 -0.03457324245686583 0.004517365825989832 0.03457324245686583
2.1378122052823865E8 0.004566868860813683 0.035079020693717926 0.9954331311391861 -0.035079020693717926 0.9954331311391861 -0.035079020693717926 0.004566868860813683 0.035079020693717926
2.1700747923551247E8 0.004617505205262534 0.03559230528782871 0.9953824947947374 -0.03559230528782871 0.9953824947947374 -0.03559230528782871 0.004617505205262534 0.03559230528782871
2.2028242671545094E8 0.004669310270957057 0.036113208625995395 0.9953306897290429 -0.036113208625995395 0.9953306897290429 -0.036113208625995395 0.004669310270957057 0.036113208625995395
2.23606797749979E8 0.00472232060491816 0.036641844513751944 0.9952776793950817 -0.036641844513751944 0.9952776793950817 -0.036641844513751944 0.00472232060491816 0.036641844513751944
2.2698133820991236E8 0.004776573913156714 0.037178328185049826 0.9952234260868431 -0.037178328185049826 0.9952234260868431 -0.037178328185049826 0.004776573913156714 0.037178328185049826
2.3040680522230446E8 0.0048321090846913115 0.03772277631220184 0.9951678909153088 -0.03772277631220184 0.9951678909153088 -0.03772277631220184 0.0048321090846913115 0.03772277631220184
2.338839673403185E8 0.004888966216025215 0.03827530701609356 0.9951110337839748 -0.03827530701609356 0.9951110337839748 -0.03827530701609356 0.004888966216025215 0.03827530701609356
2.37413604715664E8 0.004947186636114088 0.03883603987666642 0.9950528133638858 -0.03883603987666642 0.9950528133638858 -0.03883603987666642 0.004947186636114088 0.03883603987666642
