!Murata Part Number: LQP15MN12NG02
!These Parameters are Measured in Series Mode Connection
!       o--[Z]--o
!Port1              Port2
!       o-------o
!
!Freq. Start=50[MHz] Stop=20[GHz], 401[Steps]
# Hz S RI R 50
!Freq.(Hz) S11(Real) S11(Imag) S21(Real) S21(Imag) S12(Real) S12(Imag) S22(Real) S22(Imag)
5.0E7 0.011221042916289801 0.03621666466694258 0.9887789570837102 -0.03621666466694257 0.9887789570837102 -0.03621666466694257 0.011221042916289801 0.03621666466694258
5.0754570186123446E7 0.011267080942401638 0.0367607736104677 0.9887329190575984 -0.0367607736104677 0.9887329190575984 -0.0367607736104677 0.011267080942401638 0.0367607736104677
5.152052789556263E7 0.011314507231138209 0.037312985876226355 0.9886854927688618 -0.03731298587622636 0.9886854927688618 -0.03731298587622636 0.011314507231138209 0.037312985876226355
5.229804498202928E7 0.011363363375765812 0.037873418840228705 0.9886366366242343 -0.03787341884022871 0.9886366366242343 -0.03787341884022871 0.011363363375765812 0.037873418840228705
5.308729589274893E7 0.011413692194954854 0.03844219142927068 0.988586307805045 -0.03844219142927068 0.988586307805045 -0.03844219142927068 0.011413692194954854 0.03844219142927068
5.388845770760058E7 0.011465537767700687 0.03901942413467704 0.9885344622322992 -0.03901942413467703 0.9885344622322992 -0.03901942413467703 0.011465537767700687 0.03901942413467704
5.470171017884717E7 0.011518945469170514 0.039605239025840094 0.9884810545308294 -0.03960523902584009 0.9884810545308294 -0.03960523902584009 0.011518945469170514 0.039605239025840094
5.5527235771465644E7 0.011573962007496849 0.0401997597635349 0.9884260379925031 -0.04019975976353489 0.9884260379925031 -0.04019975976353489 0.011573962007496849 0.0401997597635349
5.6365219704085544E7 0.011630635461538105 0.040803111612990196 0.9883693645384619 -0.040803111612990196 0.9883693645384619 -0.040803111612990196 0.011630635461538105 0.040803111612990196
5.721584999054556E7 0.011689015319627013 0.04141542145669381 0.9883109846803728 -0.04141542145669381 0.9883109846803728 -0.04141542145669381 0.011689015319627013 0.04141542145669381
5.807931748207712E7 0.011749152519327883 0.042036817806910196 0.9882508474806722 -0.042036817806910196 0.9882508474806722 -0.042036817806910196 0.011749152519327883 0.042036817806910196
5.8955815910124585E7 0.01181109948822366 0.04266743081788677 0.9881889005117763 -0.042667430817886765 0.9881889005117763 -0.042667430817886765 0.01181109948822366 0.04266743081788677
5.984554192981184E7 0.01187491018575424 0.0433073922977252 0.9881250898142457 -0.0433073922977252 0.9881250898142457 -0.0433073922977252 0.01187491018575424 0.0433073922977252
6.074869516406457E7 0.011940640146127075 0.04395683571989153 0.988059359853873 -0.043956835719891535 0.988059359853873 -0.043956835719891535 0.011940640146127075 0.04395683571989153
6.166547824839868E7 0.012008346522321758 0.04461589623433971 0.9879916534776783 -0.044615896234339716 0.9879916534776783 -0.044615896234339716 0.012008346522321758 0.04461589623433971
6.2596096876384385E7 0.012078088131209995 0.04528471067822062 0.9879219118687901 -0.04528471067822062 0.9879219118687901 -0.04528471067822062 0.012078088131209995 0.04528471067822062
6.354075984579668E7 0.012149925499812437 0.04596341758614808 0.9878500745001876 -0.04596341758614808 0.9878500745001876 -0.04596341758614808 0.012149925499812437 0.04596341758614808
6.449967910546205E7 0.012223920912714122 0.046652157199992404 0.9877760790872858 -0.046652157199992404 0.9877760790872858 -0.046652157199992404 0.012223920912714122 0.046652157199992404
6.547306980281226E7 0.012300138460659953 0.04735107147817043 0.98769986153934 -0.04735107147817043 0.98769986153934 -0.04735107147817043 0.012300138460659953 0.04735107147817043
6.646115033215589E7 0.012378644090351748 0.04806030410440022 0.9876213559096484 -0.04806030410440022 0.9876213559096484 -0.04806030410440022 0.012378644090351748 0.04806030410440022
6.746414238367817E7 0.012459505655468472 0.048780000495886974 0.9875404943445316 -0.048780000495886974 0.9875404943445316 -0.048780000495886974 0.012459505655468472 0.048780000495886974
6.848227099318038E7 0.012542792968930792 0.049510307810905665 0.987457207031069 -0.04951030781090566 0.987457207031069 -0.04951030781090566 0.012542792968930792 0.049510307810905665
6.951576459256999E7 0.012628577856431402 0.05025137495574499 0.9873714221435687 -0.05025137495574499 0.9873714221435687 -0.05025137495574499 0.012628577856431402 0.05025137495574499
7.056485506111258E7 0.012716934211251986 0.05100335259097463 0.987283065788748 -0.05100335259097463 0.987283065788748 -0.05100335259097463 0.012716934211251986 0.05100335259097463
7.162977777745734E7 0.012807938050387845 0.05176639313699862 0.9871920619496122 -0.05176639313699862 0.9871920619496122 -0.05176639313699862 0.012807938050387845 0.05176639313699862
7.271077167244768E7 0.012901667572000605 0.05254065077885372 0.9870983324279993 -0.05254065077885372 0.9870983324279993 -0.05254065077885372 0.012901667572000605 0.05254065077885372
7.380807928272885E7 0.01299820321421948 0.05332628147021267 0.9870017967857805 -0.053326281470212664 0.9870017967857805 -0.053326281470212664 0.01299820321421948 0.05332628147021267
7.492194680516452E7 0.013097627715310901 0.054123442936548916 0.986902372284689 -0.05412344293654891 0.986902372284689 -0.05412344293654891 0.013097627715310901 0.054123442936548916
7.60526241520746E7 0.01320002617523616 0.054932294677419245 0.9867999738247638 -0.054932294677419245 0.9867999738247638 -0.054932294677419245 0.01320002617523616 0.054932294677419245
7.720036500730675E7 0.013305486118616247 0.05575299796781866 0.9866945138813837 -0.05575299796781864 0.9866945138813837 -0.05575299796781864 0.013305486118616247 0.05575299796781866
7.836542688315398E7 0.013414097559122495 0.05658571585856034 0.9865859024408775 -0.05658571585856034 0.9865859024408775 -0.05658571585856034 0.013414097559122495 0.05658571585856034
7.954807117813127E7 0.013525953065311161 0.057430613175632673 0.9864740469346889 -0.057430613175632673 0.9864740469346889 -0.057430613175632673 0.013525953065311161 0.057430613175632673
8.074856323562416E7 0.013641147827919437 0.058287856518482596 0.9863588521720806 -0.058287856518482596 0.9863588521720806 -0.058287856518482596 0.013641147827919437 0.058287856518482596
8.196717240342227E7 0.01375977972863992 0.05915761425717453 0.98624022027136 -0.059157614257174515 0.98624022027136 -0.059157614257174515 0.01375977972863992 0.05915761425717453
8.320417209415154E7 0.013881949410389628 0.060040056528371466 0.9861180505896103 -0.060040056528371466 0.9861180505896103 -0.060040056528371466 0.013881949410389628 0.060040056528371466
8.445983984661816E7 0.014007760349088917 0.060935355230083296 0.9859922396509111 -0.060935355230083296 0.9859922396509111 -0.060935355230083296 0.014007760349088917 0.060935355230083296
8.573445738807854E7 0.014137318926965112 0.06184368401512689 0.9858626810730349 -0.0618436840151269 0.9858626810730349 -0.0618436840151269 0.014137318926965112 0.06184368401512689
8.702831069744885E7 0.014270734507394425 0.06276521828323968 0.9857292654926056 -0.06276521828323968 0.9857292654926056 -0.06276521828323968 0.014270734507394425 0.06276521828323968
8.834169006946853E7 0.01440811951129498 0.06370013517178756 0.9855918804887052 -0.06370013517178758 0.9855918804887052 -0.06370013517178758 0.01440811951129498 0.06370013517178756
8.96748901798321E7 0.014549589495082725 0.06464861354500648 0.9854504105049174 -0.06464861354500646 0.9854504105049174 -0.06464861354500646 0.014549589495082725 0.06464861354500648
9.1028210151304E7 0.014695263230200964 0.06561083398171497 0.985304736769799 -0.06561083398171497 0.985304736769799 -0.06561083398171497 0.014695263230200964 0.06561083398171497
9.240195362083109E7 0.014845262784233017 0.06658697876143399 0.985154737215767 -0.06658697876143398 0.985154737215767 -0.06658697876143398 0.014845262784233017 0.06658697876143399
9.379642880766791E7 0.014999713603606427 0.06757723184884838 0.9850002863963934 -0.06757723184884838 0.9850002863963934 -0.06757723184884838 0.014999713603606427 0.06757723184884838
9.521194858253023E7 0.015158744597895813 0.06858177887654306 0.9848412554021041 -0.06858177887654307 0.9848412554021041 -0.06858177887654307 0.015158744597895813 0.06858177887654306
9.664883053779216E7 0.015322488225730053 0.0696008071259452 0.9846775117742698 -0.0696008071259452 0.9846775117742698 -0.0696008071259452 0.015322488225730053 0.0696008071259452
9.810739705874248E7 0.015491080582308392 0.07063450550640289 0.9845089194176915 -0.07063450550640289 0.9845089194176915 -0.07063450550640289 0.015491080582308392 0.07063450550640289
9.958797539591652E7 0.01566466148852806 0.07168306453232821 0.984335338511472 -0.07168306453232821 0.984335338511472 -0.07168306453232821 0.01566466148852806 0.07168306453232821
1.0109089773851961E8 0.01584337458172516 0.07274667629833238 0.9841566254182748 -0.07274667629833238 0.9841566254182748 -0.07274667629833238 0.01584337458172516 0.07274667629833238
1.0261650128895843E8 0.01602736740802846 0.07382553445227874 0.9839726325919715 -0.07382553445227874 0.9839726325919715 -0.07382553445227874 0.01602736740802846 0.07382553445227874
1.0416512833849736E8 0.01621679151632422 0.07491983416617719 0.9837832084836756 -0.07491983416617719 0.9837832084836756 -0.07491983416617719 0.01621679151632422 0.07491983416617719
1.0573712634405641E8 0.01641180255382883 0.07602977210484431 0.9835881974461711 -0.07602977210484431 0.9835881974461711 -0.07602977210484431 0.01641180255382883 0.07602977210484431
1.0733284800616828E8 0.01661256036326375 0.07715554639225042 0.9833874396367364 -0.07715554639225043 0.9833874396367364 -0.07715554639225043 0.01661256036326375 0.07715554639225042
1.0895265134811176E8 0.016819229081625895 0.0782973565754739 0.983180770918374 -0.0782973565754739 0.983180770918374 -0.0782973565754739 0.016819229081625895 0.0782973565754739
1.1059689979623953E8 0.01703197724054471 0.07945540358618325 0.9829680227594554 -0.07945540358618325 0.9829680227594554 -0.07945540358618325 0.01703197724054471 0.07945540358618325
1.1226596226151802E8 0.017250977868214973 0.0806298896995641 0.9827490221317852 -0.0806298896995641 0.9827490221317852 -0.0806298896995641 0.017250977868214973 0.0806298896995641
1.1396021322229806E8 0.017476408592893077 0.08182101849060953 0.9825235914071071 -0.08182101849060953 0.9825235914071071 -0.08182101849060953 0.017476408592893077 0.08182101849060953
1.1568003280833441E8 0.017708451747941983 0.08302899478768948 0.982291548252058 -0.08302899478768946 0.982291548252058 -0.08302899478768946 0.017708451747941983 0.08302899478768948
1.1742580688607343E8 0.017947294478408746 0.08425402462331513 0.9820527055215912 -0.08425402462331513 0.9820527055215912 -0.08425402462331513 0.017947294478408746 0.08425402462331513
1.1919792714522783E8 0.0181931288491159 0.08549631518201276 0.9818068711508842 -0.08549631518201276 0.9818068711508842 -0.08549631518201276 0.0181931288491159 0.08549631518201276
1.2099679118665792E8 0.01844615195424656 0.08675607474522055 0.9815538480457536 -0.08675607474522057 0.9815538480457536 -0.08675607474522057 0.01844615195424656 0.08675607474522055
1.2282280261157903E8 0.018706566028401123 0.08803351263312276 0.9812934339715988 -0.08803351263312276 0.9812934339715988 -0.08803351263312276 0.018706566028401123 0.08803351263312276
1.2467637111211549E8 0.01897457855910108 0.08932883914333224 0.981025421440899 -0.08932883914333224 0.981025421440899 -0.08932883914333224 0.01897457855910108 0.08932883914333224
1.265579125632208E8 0.01925040240071418 0.09064226548633462 0.9807495975992857 -0.09064226548633462 0.9807495975992857 -0.09064226548633462 0.01925040240071418 0.09064226548633462
1.284678491159853E8 0.01953425588977287 0.091974003717605 0.9804657441102272 -0.09197400371760499 0.9804657441102272 -0.09197400371760499 0.01953425588977287 0.091974003717605
1.3040660929235186E8 0.01982636296165636 0.09332426666630823 0.9801736370383437 -0.09332426666630822 0.9801736370383437 -0.09332426666630822 0.01982636296165636 0.09332426666630823
1.3237462808126101E8 0.020126953268605 0.09469326786049416 0.9798730467313949 -0.09469326786049416 0.9798730467313949 -0.09469326786049416 0.020126953268605 0.09469326786049416
1.3437234703624701E8 0.020436262299033597 0.09608122144869705 0.9795637377009663 -0.09608122144869705 0.9795637377009663 -0.09608122144869705 0.020436262299033597 0.09608122144869705
1.364002143745067E8 0.020754531498109265 0.09748834211785024 0.9792454685018909 -0.09748834211785024 0.9792454685018909 -0.09748834211785024 0.020754531498109265 0.09748834211785024
1.3845868507746372E8 0.021082008389557615 0.09891484500742562 0.9789179916104425 -0.09891484500742563 0.9789179916104425 -0.09891484500742563 0.021082008389557615 0.09891484500742562
1.405482209928499E8 0.021418946698659725 0.10036094561970714 0.9785810533013403 -0.10036094561970715 0.9785810533013403 -0.10036094561970715 0.021418946698659725 0.10036094561970714
1.426692909383278E8 0.021765606476401262 0.10182685972610817 0.9782343935235989 -0.10182685972610817 0.9782343935235989 -0.10182685972610817 0.021765606476401262 0.10182685972610817
1.4482237080667645E8 0.022122254224734 0.10331280326944148 0.977877745775266 -0.1033128032694415 0.977877745775266 -0.1033128032694415 0.022122254224734 0.10331280326944148
1.4700794367256513E8 0.02248916302290886 0.10481899226205102 0.9775108369770911 -0.10481899226205099 0.9775108369770911 -0.10481899226205099 0.02248916302290886 0.10481899226205102
1.492264999009378E8 0.02286661265483914 0.1063456426797131 0.9771333873451609 -0.1063456426797131 0.9771333873451609 -0.1063456426797131 0.02286661265483914 0.1063456426797131
1.5147853725703382E8 0.023254889737451965 0.10789297035121706 0.9767451102625481 -0.10789297035121706 0.9767451102625481 -0.10789297035121706 0.023254889737451965 0.10789297035121706
1.5376456101806876E8 0.023654287849985137 0.10946119084353013 0.976345712150015 -0.10946119084353013 0.976345712150015 -0.10946119084353013 0.023654287849985137 0.10946119084353013
1.5608508408660066E8 0.02406510766418727 0.1110505193424566 0.9759348923358127 -0.1110505193424566 0.9759348923358127 -0.1110505193424566 0.02406510766418727 0.1110505193424566
1.5844062710560706E8 0.024487657075378075 0.11266117052869494 0.9755123429246219 -0.11266117052869494 0.9755123429246219 -0.11266117052869494 0.024487657075378075 0.11266117052869494
1.6083171857529896E8 0.024922251334326625 0.11429335844919976 0.9750777486656734 -0.11429335844919976 0.9750777486656734 -0.11429335844919976 0.024922251334326625 0.11429335844919976
1.632588949716973E8 0.02536921317990563 0.1159472963837516 0.9746307868200944 -0.11594729638375162 0.9746307868200944 -0.11594729638375162 0.02536921317990563 0.1159472963837516
1.6572270086699936E8 0.02582887297248029 0.11762319670663826 0.9741711270275196 -0.11762319670663826 0.9741711270275196 -0.11762319670663826 0.02582887297248029 0.11762319670663826
1.6822368905176118E8 0.026301568827991215 0.11932127074334674 0.9736984311720087 -0.11932127074334674 0.9736984311720087 -0.11932127074334674 0.026301568827991215 0.11932127074334674
1.7076242065892437E8 0.026787646752692112 0.12104172862216636 0.9732123532473079 -0.12104172862216636 0.9732123532473079 -0.12104172862216636 0.026787646752692112 0.12104172862216636
1.7333946528971428E8 0.0272874607785038 0.12278477912059707 0.9727125392214961 -0.12278477912059707 0.9727125392214961 -0.12278477912059707 0.0272874607785038 0.12278477912059707
1.7595540114143828E8 0.027801373098948163 0.1245506295064579 0.9721986269010521 -0.1245506295064579 0.9721986269010521 -0.1245506295064579 0.027801373098948163 0.1245506295064579
1.786108151372127E8 0.028329754205626497 0.12633948537358314 0.9716702457943736 -0.12633948537358317 0.9716702457943736 -0.12633948537358317 0.028329754205626497 0.12633948537358314
1.8130630305764765E8 0.028872983025208947 0.12815155047199311 0.9711270169747911 -0.12815155047199314 0.9711270169747911 -0.12815155047199314 0.028872983025208947 0.12815155047199311
1.840424696745189E8 0.029431447056903346 0.1299870265324187 0.9705685529430969 -0.1299870265324187 0.9705685529430969 -0.1299870265324187 0.029431447056903346 0.1299870265324187
1.8681992888645732E8 0.030005542510373573 0.13184611308505578 0.9699944574896262 -0.13184611308505575 0.9699944574896262 -0.13184611308505575 0.030005542510373573 0.13184611308505578
1.8963930385668582E8 0.030595674444079606 0.13372900727241793 0.9694043255559204 -0.13372900727241793 0.9694043255559204 -0.13372900727241793 0.030595674444079606 0.13372900727241793
1.92501227152835E8 0.0312022569040128 0.1356359036561489 0.9687977430959871 -0.1356359036561489 0.9687977430959871 -0.1356359036561489 0.0312022569040128 0.1356359036561489
1.9540634088886917E8 0.03182571306280241 0.1375669940176495 0.9681742869371976 -0.1375669940176495 0.9681742869371976 -0.1375669940176495 0.03182571306280241 0.1375669940176495
1.983552968691535E8 0.03246647535916981 0.13952246715236338 0.9675335246408302 -0.13952246715236338 0.9675335246408302 -0.13952246715236338 0.03246647535916981 0.13952246715236338
2.0134875673469606E8 0.033124985637709436 0.14150250865755726 0.9668750143622904 -0.14150250865755723 0.9668750143622904 -0.14150250865755723 0.033124985637709436 0.14150250865755726
2.0438739211159652E8 0.03380169528897481 0.14350730071341955 0.9661983047110253 -0.14350730071341955 0.9661983047110253 -0.14350730071341955 0.03380169528897481 0.14350730071341955
2.074718847617352E8 0.034497065389849764 0.14553702185729003 0.9655029346101504 -0.14553702185729003 0.9655029346101504 -0.14553702185729003 0.034497065389849764 0.14553702185729003
2.106029267357361E8 0.03521156684418421 0.14759184675081988 0.964788433155816 -0.14759184675081988 0.964788433155816 -0.14759184675081988 0.03521156684418421 0.14759184675081988
2.1378122052823865E8 0.035945680523672606 0.14967194593984617 0.9640543194763275 -0.1496719459398462 0.9640543194763275 -0.1496719459398462 0.035945680523672606 0.14967194593984617
2.1700747923551247E8 0.03669989740895252 0.15177748560675178 0.9633001025910476 -0.15177748560675178 0.9633001025910476 -0.15177748560675178 0.03669989740895252 0.15177748560675178
2.2028242671545094E8 0.03747471873089648 0.15390862731506053 0.9625252812691034 -0.15390862731506053 0.9625252812691034 -0.15390862731506053 0.03747471873089648 0.15390862731506053
2.23606797749979E8 0.03827065611206842 0.15606552774600507 0.9617293438879316 -0.15606552774600504 0.9617293438879316 -0.15606552774600504 0.03827065611206842 0.15606552774600507
2.2698133820991236E8 0.03908823170830876 0.1582483384267805 0.9609117682916912 -0.1582483384267805 0.9609117682916912 -0.1582483384267805 0.03908823170830876 0.1582483384267805
2.3040680522230446E8 0.03992797835040719 0.16045720545017939 0.9600720216495929 -0.16045720545017939 0.9600720216495929 -0.16045720545017939 0.03992797835040719 0.16045720545017939
2.338839673403185E8 0.04079043968581252 0.16269226918527976 0.9592095603141872 -0.16269226918527976 0.9592095603141872 -0.16269226918527976 0.04079043968581252 0.16269226918527976
2.37413604715664E8 0.041676170320320255 0.16495366397883843 0.9583238296796796 -0.16495366397883843 0.9583238296796796 -0.16495366397883843 0.041676170320320255 0.16495366397883843
2.4099650927363476E8 0.04258573595966406 0.16724151784701158 0.957414264040336 -0.16724151784701158 0.957414264040336 -0.16724151784701158 0.04258573595966406 0.16724151784701158
2.446334848907889E8 0.043519713550925265 0.16955595215700708 0.9564802864490747 -0.1695559521570071 0.9564802864490747 -0.1695559521570071 0.043519713550925265 0.16955595215700708
2.4832534757531032E8 0.04447869142365508 0.17189708129824055 0.955521308576345 -0.17189708129824058 0.955521308576345 -0.17189708129824058 0.04447869142365508 0.17189708129824055
