!Murata Part Number: LQP15MN6N2B02
!These Parameters are Measured in Series Mode Connection
!       o--[Z]--o
!Port1              Port2
!       o-------o
!
!Freq. Start=50[MHz] Stop=20[GHz], 401[Steps]
# Hz S RI R 50
!Freq.(Hz) S11(Real) S11(Imag) S21(Real) S21(Imag) S12(Real) S12(Imag) S22(Real) S22(Imag)
5.0E7 0.005541153890857222 0.018902939813228846 0.994458846109143 -0.018902939813228846 0.994458846109143 -0.018902939813228846 0.005541153890857222 0.018902939813228846
5.0754570186123446E7 0.005557718919602786 0.019187017081121315 0.9944422810803972 -0.019187017081121315 0.9944422810803972 -0.019187017081121315 0.005557718919602786 0.019187017081121315
5.152052789556263E7 0.005574778412507978 0.01947532889956089 0.9944252215874921 -0.019475328899560895 0.9944252215874921 -0.019475328899560895 0.005574778412507978 0.01947532889956089
5.229804498202928E7 0.005592346877158269 0.019767936846236112 0.9944076531228417 -0.019767936846236112 0.9944076531228417 -0.019767936846236112 0.005592346877158269 0.019767936846236112
5.308729589274893E7 0.005610439230637694 0.02006490332819921 0.9943895607693625 -0.02006490332819921 0.9943895607693625 -0.02006490332819921 0.005610439230637694 0.02006490332819921
5.388845770760058E7 0.005629070810166714 0.02036629159033276 0.9943709291898334 -0.02036629159033276 0.9943709291898334 -0.02036629159033276 0.005629070810166714 0.02036629159033276
5.470171017884717E7 0.005648257383964348 0.020672165723796397 0.9943517426160356 -0.020672165723796397 0.9943517426160356 -0.020672165723796397 0.005648257383964348 0.020672165723796397
5.5527235771465644E7 0.00566801516233616 0.020982590674448933 0.9943319848376638 -0.020982590674448933 0.9943319848376638 -0.020982590674448933 0.00566801516233616 0.020982590674448933
5.6365219704085544E7 0.0056883608089897675 0.021297632251241646 0.9943116391910103 -0.021297632251241646 0.9943116391910103 -0.021297632251241646 0.0056883608089897675 0.021297632251241646
5.721584999054556E7 0.005709311452579202 0.021617357134577853 0.9942906885474209 -0.021617357134577853 0.9942906885474209 -0.021617357134577853 0.005709311452579202 0.021617357134577853
5.807931748207712E7 0.005730884698479378 0.021941832884634485 0.9942691153015206 -0.021941832884634485 0.9942691153015206 -0.021941832884634485 0.005730884698479378 0.021941832884634485
5.8955815910124585E7 0.0057530986407915985 0.022271127949640684 0.9942469013592085 -0.02227112794964068 0.9942469013592085 -0.02227112794964068 0.0057530986407915985 0.022271127949640684
5.984554192981184E7 0.005775971874580922 0.022605311674108914 0.9942240281254191 -0.022605311674108914 0.9942240281254191 -0.022605311674108914 0.005775971874580922 0.022605311674108914
6.074869516406457E7 0.005799523508345945 0.0229444543070137 0.9942004764916541 -0.0229444543070137 0.9942004764916541 -0.0229444543070137 0.005799523508345945 0.0229444543070137
6.166547824839868E7 0.005823773176721271 0.02328862700991335 0.9941762268232787 -0.02328862700991335 0.9941762268232787 -0.02328862700991335 0.005823773176721271 0.02328862700991335
6.2596096876384385E7 0.005848741053412798 0.02363790186500987 0.994151258946587 -0.023637901865009865 0.994151258946587 -0.023637901865009865 0.005848741053412798 0.02363790186500987
6.354075984579668E7 0.005874447864365556 0.023992351883142398 0.9941255521356345 -0.023992351883142395 0.9941255521356345 -0.023992351883142395 0.005874447864365556 0.023992351883142398
6.449967910546205E7 0.005900914901163686 0.024352051011709407 0.9940990850988362 -0.02435205101170941 0.9940990850988362 -0.02435205101170941 0.005900914901163686 0.024352051011709407
6.547306980281226E7 0.005928164034661785 0.0247170741425152 0.9940718359653382 -0.024717074142515203 0.9940718359653382 -0.024717074142515203 0.005928164034661785 0.0247170741425152
6.646115033215589E7 0.00595621772884656 0.025087497119536097 0.9940437822711535 -0.025087497119536097 0.9940437822711535 -0.025087497119536097 0.00595621772884656 0.025087497119536097
6.746414238367817E7 0.005985099054927468 0.025463396746601922 0.9940149009450726 -0.025463396746601922 0.9940149009450726 -0.025463396746601922 0.005985099054927468 0.025463396746601922
6.848227099318038E7 0.006014831705654681 0.025844850794988623 0.9939851682943452 -0.025844850794988623 0.9939851682943452 -0.025844850794988623 0.006014831705654681 0.025844850794988623
6.951576459256999E7 0.006045440009862391 0.026231938010917884 0.9939545599901376 -0.026231938010917884 0.9939545599901376 -0.026231938010917884 0.006045440009862391 0.026231938010917884
7.056485506111258E7 0.006076948947235141 0.026624738122959762 0.9939230510527649 -0.026624738122959762 0.9939230510527649 -0.026624738122959762 0.006076948947235141 0.026624738122959762
7.162977777745734E7 0.006109384163294595 0.027023331849334996 0.9938906158367055 -0.027023331849334996 0.9938906158367055 -0.027023331849334996 0.006109384163294595 0.027023331849334996
7.271077167244768E7 0.006142771984603732 0.02742780090511331 0.9938572280153963 -0.027427800905113302 0.9938572280153963 -0.027427800905113302 0.006142771984603732 0.02742780090511331
7.380807928272885E7 0.006177139434185155 0.02783822800930473 0.9938228605658148 -0.02783822800930473 0.9938228605658148 -0.02783822800930473 0.006177139434185155 0.02783822800930473
7.492194680516452E7 0.00621251424714993 0.028254696891841458 0.9937874857528499 -0.028254696891841458 0.9937874857528499 -0.028254696891841458 0.00621251424714993 0.028254696891841458
7.60526241520746E7 0.006248924886532889 0.028677292300447608 0.993751075113467 -0.0286772923004476 0.993751075113467 -0.0286772923004476 0.006248924886532889 0.028677292300447608
7.720036500730675E7 0.00628640055933016 0.029106100007395188 0.9937135994406698 -0.029106100007395188 0.9937135994406698 -0.029106100007395188 0.00628640055933016 0.029106100007395188
7.836542688315398E7 0.006324971232734199 0.02954120681614487 0.9936750287672658 -0.029541206816144878 0.9936750287672658 -0.029541206816144878 0.006324971232734199 0.02954120681614487
7.954807117813127E7 0.0063646676505614685 0.029982700567870738 0.9936353323494387 -0.02998270056787074 0.9936353323494387 -0.02998270056787074 0.0063646676505614685 0.029982700567870738
8.074856323562416E7 0.006405521349867389 0.030430670147868568 0.9935944786501326 -0.030430670147868575 0.9935944786501326 -0.030430670147868575 0.006405521349867389 0.030430670147868568
8.196717240342227E7 0.00644756467774308 0.030885205491848287 0.9935524353222567 -0.030885205491848287 0.9935524353222567 -0.030885205491848287 0.00644756467774308 0.030885205491848287
8.320417209415154E7 0.006490830808288025 0.031346397592111476 0.9935091691917121 -0.031346397592111476 0.9935091691917121 -0.031346397592111476 0.006490830808288025 0.031346397592111476
8.445983984661816E7 0.00653535375975262 0.03181433850361581 0.9934646462402474 -0.03181433850361581 0.9934646462402474 -0.03181433850361581 0.00653535375975262 0.03181433850361581
8.573445738807854E7 0.006581168411844304 0.03228912134992925 0.9934188315881557 -0.03228912134992925 0.9934188315881557 -0.03228912134992925 0.006581168411844304 0.03228912134992925
8.702831069744885E7 0.006628310523190779 0.03277084032907718 0.9933716894768093 -0.03277084032907718 0.9933716894768093 -0.03277084032907718 0.006628310523190779 0.03277084032907718
8.834169006946853E7 0.006676816748953721 0.03325959071928725 0.9933231832510463 -0.03325959071928726 0.9933231832510463 -0.03325959071928726 0.006676816748953721 0.03325959071928725
8.96748901798321E7 0.006726724658586269 0.03375546888463749 0.9932732753414137 -0.03375546888463749 0.9932732753414137 -0.03375546888463749 0.006726724658586269 0.03375546888463749
9.1028210151304E7 0.006778072753727495 0.03425857228061395 0.9932219272462725 -0.03425857228061396 0.9932219272462725 -0.03425857228061396 0.006778072753727495 0.03425857228061395
9.240195362083109E7 0.0068309004862270924 0.03476899945958587 0.9931690995137727 -0.03476899945958587 0.9931690995137727 -0.03476899945958587 0.0068309004862270924 0.03476899945958587
9.379642880766791E7 0.006885248276293623 0.03528685007620739 0.9931147517237064 -0.03528685007620739 0.9931147517237064 -0.03528685007620739 0.006885248276293623 0.03528685007620739
9.521194858253023E7 0.006941157530759696 0.03581222489275569 0.9930588424692403 -0.035812224892755685 0.9930588424692403 -0.035812224892755685 0.006941157530759696 0.03581222489275569
9.664883053779216E7 0.006998670661457829 0.036345225784417734 0.993001329338542 -0.03634522578441774 0.993001329338542 -0.03634522578441774 0.006998670661457829 0.036345225784417734
9.810739705874248E7 0.007057831103700925 0.036885955744538186 0.9929421688962992 -0.036885955744538186 0.9929421688962992 -0.036885955744538186 0.007057831103700925 0.036885955744538186
9.958797539591652E7 0.007118683334861645 0.037434518889843116 0.9928813166651385 -0.037434518889843116 0.9928813166651385 -0.037434518889843116 0.007118683334861645 0.037434518889843116
1.0109089773851961E8 0.007181272893045825 0.03799102046565613 0.9928187271069541 -0.03799102046565613 0.9928187271069541 -0.03799102046565613 0.007181272893045825 0.03799102046565613
1.0261650128895843E8 0.0072456463958551365 0.03855556685112399 0.992754353604145 -0.03855556685112398 0.992754353604145 -0.03855556685112398 0.0072456463958551365 0.03855556685112399
1.0416512833849736E8 0.007311851559235487 0.03912826556447152 0.9926881484407645 -0.03912826556447152 0.9926881484407645 -0.03912826556447152 0.007311851559235487 0.03912826556447152
1.0573712634405641E8 0.00737993721640818 0.039709225268307224 0.9926200627835917 -0.039709225268307224 0.9926200627835917 -0.039709225268307224 0.00737993721640818 0.039709225268307224
1.0733284800616828E8 0.007449953336882086 0.04029855577500218 0.992550046663118 -0.04029855577500218 0.992550046663118 -0.04029855577500218 0.007449953336882086 0.04029855577500218
1.0895265134811176E8 0.007521951045546163 0.040896368052167516 0.9924780489544538 -0.04089636805216751 0.9924780489544538 -0.04089636805216751 0.007521951045546163 0.040896368052167516
1.1059689979623953E8 0.007595982641843018 0.041502774228256906 0.992404017358157 -0.041502774228256906 0.992404017358157 -0.041502774228256906 0.007595982641843018 0.041502774228256906
1.1226596226151802E8 0.007672101619025846 0.04211788759832326 0.9923278983809742 -0.04211788759832326 0.9923278983809742 -0.04211788759832326 0.007672101619025846 0.04211788759832326
1.1396021322229806E8 0.007750362683502675 0.042741822629959715 0.9922496373164973 -0.042741822629959715 0.9922496373164973 -0.042741822629959715 0.007750362683502675 0.042741822629959715
1.1568003280833441E8 0.007830821774273824 0.043374694969458075 0.9921691782257261 -0.04337469496945807 0.9921691782257261 -0.04337469496945807 0.007830821774273824 0.043374694969458075
1.1742580688607343E8 0.007913536082470687 0.04401662144821918 0.9920864639175293 -0.04401662144821919 0.9920864639175293 -0.04401662144821919 0.007913536082470687 0.04401662144821918
1.1919792714522783E8 0.007998564071006216 0.04466772008945174 0.9920014359289937 -0.04466772008945174 0.9920014359289937 -0.04466772008945174 0.007998564071006216 0.04466772008945174
1.2099679118665792E8 0.008085965494350115 0.04532811011519808 0.9919140345056501 -0.045328110115198085 0.9919140345056501 -0.045328110115198085 0.008085965494350115 0.04532811011519808
1.2282280261157903E8 0.008175801418444702 0.04599791195372784 0.9918241985815553 -0.04599791195372784 0.9918241985815553 -0.04599791195372784 0.008175801418444702 0.04599791195372784
1.2467637111211549E8 0.008268134240780333 0.04667724724734124 0.9917318657592198 -0.04667724724734124 0.9917318657592198 -0.04667724724734124 0.008268134240780333 0.04667724724734124
1.265579125632208E8 0.008363027710652718 0.047366238860626256 0.9916369722893471 -0.04736623886062625 0.9916369722893471 -0.04736623886062625 0.008363027710652718 0.047366238860626256
1.284678491159853E8 0.008460546949628302 0.048065010889216095 0.9915394530503717 -0.048065010889216095 0.9915394530503717 -0.048065010889216095 0.008460546949628302 0.048065010889216095
1.3040660929235186E8 0.008560758472247349 0.04877368866909324 0.9914392415277526 -0.04877368866909325 0.9914392415277526 -0.04877368866909325 0.008560758472247349 0.04877368866909324
1.3237462808126101E8 0.00866373020699911 0.04949239878648989 0.9913362697930009 -0.04949239878648989 0.9913362697930009 -0.04949239878648989 0.00866373020699911 0.04949239878648989
1.3437234703624701E8 0.00876953151760764 0.05022126908843442 0.9912304684823925 -0.05022126908843441 0.9912304684823925 -0.05022126908843441 0.00876953151760764 0.05022126908843442
1.364002143745067E8 0.008878233224671597 0.050960428693994905 0.9911217667753284 -0.05096042869399491 0.9911217667753284 -0.05096042869399491 0.008878233224671597 0.050960428693994905
1.3845868507746372E8 0.00898990762770683 0.05171000800627243 0.9910100923722931 -0.05171000800627243 0.9910100923722931 -0.05171000800627243 0.00898990762770683 0.05171000800627243
1.405482209928499E8 0.00910462852764537 0.052470138725195715 0.9908953714723547 -0.052470138725195715 0.9908953714723547 -0.052470138725195715 0.00910462852764537 0.052470138725195715
1.426692909383278E8 0.009222471249850853 0.0532409538611713 0.990777528750149 -0.0532409538611713 0.990777528750149 -0.0532409538611713 0.009222471249850853 0.0532409538611713
1.4482237080667645E8 0.009343512667715638 0.05402258774964143 0.9906564873322843 -0.05402258774964143 0.9906564873322843 -0.05402258774964143 0.009343512667715638 0.05402258774964143
1.4700794367256513E8 0.009467831226911883 0.054815176066602994 0.9905321687730881 -0.054815176066602994 0.9905321687730881 -0.054815176066602994 0.009467831226911883 0.054815176066602994
1.492264999009378E8 0.009595506970374718 0.055618855845138884 0.9904044930296252 -0.055618855845138884 0.9904044930296252 -0.055618855845138884 0.009595506970374718 0.055618855845138884
1.5147853725703382E8 0.009726621564103054 0.05643376549301359 0.9902733784358969 -0.05643376549301359 0.9902733784358969 -0.05643376549301359 0.009726621564103054 0.05643376549301359
1.5376456101806876E8 0.009861258323870109 0.05726004481138162 0.9901387416761299 -0.05726004481138162 0.9901387416761299 -0.05726004481138162 0.009861258323870109 0.05726004481138162
1.5608508408660066E8 0.009999502242943409 0.05809783501465666 0.9900004977570566 -0.05809783501465666 0.9900004977570566 -0.05809783501465666 0.009999502242943409 0.05809783501465666
1.5844062710560706E8 0.010141440020921239 0.0589472787515863 0.9898585599790789 -0.0589472787515863 0.9898585599790789 -0.0589472787515863 0.010141440020921239 0.0589472787515863
1.6083171857529896E8 0.010287160093800264 0.059808520127573726 0.9897128399061998 -0.059808520127573726 0.9897128399061998 -0.059808520127573726 0.010287160093800264 0.059808520127573726
1.632588949716973E8 0.010436752665396782 0.06068170472828472 0.9895632473346032 -0.060681704728284706 0.9895632473346032 -0.060681704728284706 0.010436752665396782 0.06068170472828472
1.6572270086699936E8 0.010590309740252095 0.06156697964457392 0.9894096902597479 -0.06156697964457392 0.9894096902597479 -0.06156697964457392 0.010590309740252095 0.06156697964457392
1.6822368905176118E8 0.010747925158160232 0.06246449349875883 0.9892520748418399 -0.06246449349875884 0.9892520748418399 -0.06246449349875884 0.010747925158160232 0.06246449349875883
1.7076242065892437E8 0.010909694630464402 0.06337439647226491 0.9890903053695357 -0.06337439647226491 0.9890903053695357 -0.06337439647226491 0.010909694630464402 0.06337439647226491
1.7333946528971428E8 0.01107571577827648 0.06429684033465861 0.9889242842217234 -0.06429684033465861 0.9889242842217234 -0.06429684033465861 0.01107571577827648 0.06429684033465861
1.7595540114143828E8 0.011246088172781698 0.06523197847407845 0.9887539118272182 -0.06523197847407845 0.9887539118272182 -0.06523197847407845 0.011246088172781698 0.06523197847407845
1.786108151372127E8 0.011420913377798414 0.06617996592906533 0.9885790866222018 -0.06617996592906533 0.9885790866222018 -0.06617996592906533 0.011420913377798414 0.06617996592906533
1.8130630305764765E8 0.011600294994770543 0.06714095942178651 0.9883997050052294 -0.06714095942178651 0.9883997050052294 -0.06714095942178651 0.011600294994770543 0.06714095942178651
1.840424696745189E8 0.011784338710377377 0.06811511739263641 0.9882156612896227 -0.06811511739263641 0.9882156612896227 -0.06811511739263641 0.011784338710377377 0.06811511739263641
1.8681992888645732E8 0.011973152346952549 0.06910260003618834 0.9880268476530474 -0.06910260003618834 0.9880268476530474 -0.06910260003618834 0.011973152346952549 0.06910260003618834
1.8963930385668582E8 0.01216684591591066 0.07010356933846049 0.9878331540840894 -0.07010356933846049 0.9878331540840894 -0.07010356933846049 0.01216684591591066 0.07010356933846049
1.92501227152835E8 0.012365531674385892 0.07111818911544628 0.987634468325614 -0.07111818911544628 0.987634468325614 -0.07111818911544628 0.012365531674385892 0.07111818911544628
1.9540634088886917E8 0.012569324185293 0.07214662505284916 0.9874306758147071 -0.07214662505284918 0.9874306758147071 -0.07214662505284918 0.012569324185293 0.07214662505284916
1.983552968691535E8 0.012778340381025504 0.07318904474694574 0.9872216596189746 -0.07318904474694574 0.9872216596189746 -0.07318904474694574 0.012778340381025504 0.07318904474694574
2.0134875673469606E8 0.012992699631010822 0.0742456177464894 0.9870073003689892 -0.0742456177464894 0.9870073003689892 -0.0742456177464894 0.012992699631010822 0.0742456177464894
2.0438739211159652E8 0.01321252381334511 0.07531651559555096 0.9867874761866546 -0.07531651559555096 0.9867874761866546 -0.07531651559555096 0.01321252381334511 0.07531651559555096
2.074718847617352E8 0.013437937390733824 0.0764019118771775 0.9865620626092663 -0.0764019118771775 0.9865620626092663 -0.0764019118771775 0.013437937390733824 0.0764019118771775
2.106029267357361E8 0.013669067490965109 0.07750198225773398 0.9863309325090348 -0.07750198225773398 0.9863309325090348 -0.07750198225773398 0.013669067490965109 0.07750198225773398
2.1378122052823865E8 0.013906043992144934 0.0786169045317775 0.9860939560078551 -0.0786169045317775 0.9860939560078551 -0.0786169045317775 0.013906043992144934 0.0786169045317775
2.1700747923551247E8 0.01414899961292174 0.07974685866729442 0.9858510003870783 -0.07974685866729443 0.9858510003870783 -0.07974685866729443 0.01414899961292174 0.07974685866729442
2.2028242671545094E8 0.014398070007927708 0.08089202685111553 0.9856019299920724 -0.08089202685111553 0.9856019299920724 -0.08089202685111553 0.014398070007927708 0.08089202685111553
2.23606797749979E8 0.014653393868660918 0.0820525935343044 0.9853466061313391 -0.0820525935343044 0.9853466061313391 -0.0820525935343044 0.014653393868660918 0.0820525935343044
2.2698133820991236E8 0.014915113030029287 0.08322874547729824 0.9850848869699709 -0.08322874547729824 0.9850848869699709 -0.08322874547729824 0.014915113030029287 0.08322874547729824
2.3040680522230446E8 0.015183372582771797 0.08442067179455964 0.9848166274172283 -0.08442067179455964 0.9848166274172283 -0.08442067179455964 0.015183372582771797 0.08442067179455964
2.338839673403185E8 0.01545832099196671 0.08562856399848186 0.9845416790080332 -0.08562856399848184 0.9845416790080332 -0.08562856399848184 0.01545832099196671 0.08562856399848186
2.37413604715664E8 0.015740110221828765 0.08685261604227013 0.9842598897781711 -0.08685261604227013 0.9842598897781711 -0.08685261604227013 0.015740110221828765 0.08685261604227013
2.4099650927363476E8 0.016028895866987983 0.08809302436150368 0.983971104133012 -0.08809302436150368 0.983971104133012 -0.08809302436150368 0.016028895866987983 0.08809302436150368
