!Murata Part Number: LQP15MN18NG02
!These Parameters are Measured in Series Mode Connection
!       o--[Z]--o
!Port1              Port2
!       o-------o
!
!Freq. Start=50[MHz] Stop=20[GHz], 401[Steps]
# Hz S RI R 50
!Freq.(Hz) S11(Real) S11(Imag) S21(Real) S21(Imag) S12(Real) S12(Imag) S22(Real) S22(Imag)
5.0E7 0.018072297867958963 0.05404772126215257 0.981927702132041 -0.05404772126215256 0.981927702132041 -0.05404772126215256 0.018072297867958963 0.05404772126215257
5.0754570186123446E7 0.018171641641382828 0.05485667116328977 0.9818283583586171 -0.05485667116328977 0.9818283583586171 -0.05485667116328977 0.018171641641382828 0.05485667116328977
5.152052789556263E7 0.01827397387980049 0.055677524084950455 0.9817260261201994 -0.05567752408495045 0.9817260261201994 -0.05567752408495045 0.01827397387980049 0.055677524084950455
5.229804498202928E7 0.01837938347810125 0.056510445866807944 0.9816206165218989 -0.05651044586680794 0.9816206165218989 -0.05651044586680794 0.01837938347810125 0.056510445866807944
5.308729589274893E7 0.018487961914527427 0.0573556042350576 0.9815120380854726 -0.0573556042350576 0.9815120380854726 -0.0573556042350576 0.018487961914527427 0.0573556042350576
5.388845770760058E7 0.018599803322070382 0.05821316880390757 0.9814001966779297 -0.05821316880390757 0.9814001966779297 -0.05821316880390757 0.018599803322070382 0.05821316880390757
5.470171017884717E7 0.018715004561617486 0.059083311075952355 0.9812849954383825 -0.059083311075952355 0.9812849954383825 -0.059083311075952355 0.018715004561617486 0.059083311075952355
5.5527235771465644E7 0.018833665296879284 0.05996620444136748 0.9811663347031208 -0.05996620444136748 0.9811663347031208 -0.05996620444136748 0.018833665296879284 0.05996620444136748
5.6365219704085544E7 0.01895588807112594 0.060862024175860924 0.981044111928874 -0.06086202417586091 0.981044111928874 -0.06086202417586091 0.01895588807112594 0.060862024175860924
5.721584999054556E7 0.019081778385761385 0.061770947437314844 0.9809182216142386 -0.06177094743731485 0.9809182216142386 -0.06177094743731485 0.019081778385761385 0.061770947437314844
5.807931748207712E7 0.019211444780762706 0.06269315326104717 0.9807885552192372 -0.06269315326104717 0.9807885552192372 -0.06269315326104717 0.019211444780762706 0.06269315326104717
5.8955815910124585E7 0.019344998917012423 0.06362882255362215 0.9806550010829874 -0.06362882255362215 0.9806550010829874 -0.06362882255362215 0.019344998917012423 0.06362882255362215
5.984554192981184E7 0.019482555660549693 0.06457813808513395 0.9805174443394502 -0.06457813808513395 0.9805174443394502 -0.06457813808513395 0.019482555660549693 0.06457813808513395
6.074869516406457E7 0.019624233168766263 0.06554128447988596 0.9803757668312336 -0.06554128447988596 0.9803757668312336 -0.06554128447988596 0.019624233168766263 0.06554128447988596
6.166547824839868E7 0.01977015297857188 0.06651844820538544 0.980229847021428 -0.06651844820538545 0.980229847021428 -0.06651844820538545 0.01977015297857188 0.06651844820538544
6.2596096876384385E7 0.01992044009655231 0.06750981755956906 0.9800795599034476 -0.06750981755956906 0.9800795599034476 -0.06750981755956906 0.01992044009655231 0.06750981755956906
6.354075984579668E7 0.020075223091143096 0.06851558265617386 0.9799247769088568 -0.06851558265617386 0.9799247769088568 -0.06851558265617386 0.020075223091143096 0.06851558265617386
6.449967910546205E7 0.02023463418683935 0.06953593540816268 0.9797653658131606 -0.06953593540816268 0.9797653658131606 -0.06953593540816268 0.02023463418683935 0.06953593540816268
6.547306980281226E7 0.020398809360461973 0.0705710695091121 0.979601190639538 -0.07057106950911211 0.979601190639538 -0.07057106950911211 0.020398809360461973 0.0705710695091121
6.646115033215589E7 0.02056788843949778 0.07162118041246614 0.9794321115605021 -0.07162118041246614 0.9794321115605021 -0.07162118041246614 0.02056788843949778 0.07162118041246614
6.746414238367817E7 0.02074201520253044 0.07268646530855637 0.9792579847974695 -0.07268646530855637 0.9792579847974695 -0.07268646530855637 0.02074201520253044 0.07268646530855637
6.848227099318038E7 0.020921337481776332 0.07376712309928575 0.9790786625182236 -0.07376712309928574 0.9790786625182236 -0.07376712309928574 0.020921337481776332 0.07376712309928575
6.951576459256999E7 0.021106007267738168 0.07486335437036998 0.9788939927322619 -0.07486335437036998 0.9788939927322619 -0.07486335437036998 0.021106007267738168 0.07486335437036998
7.056485506111258E7 0.021296180815986263 0.07597536136102626 0.9787038191840136 -0.07597536136102626 0.9787038191840136 -0.07597536136102626 0.021296180815986263 0.07597536136102626
7.162977777745734E7 0.02149201875607589 0.07710334793099677 0.9785079812439241 -0.07710334793099677 0.9785079812439241 -0.07710334793099677 0.02149201875607589 0.07710334793099677
7.271077167244768E7 0.02169368620260567 0.07824751952478974 0.9783063137973942 -0.07824751952478974 0.9783063137973942 -0.07824751952478974 0.02169368620260567 0.07824751952478974
7.380807928272885E7 0.02190135286841981 0.07940808313301762 0.9780986471315801 -0.0794080831330176 0.9780986471315801 -0.0794080831330176 0.02190135286841981 0.07940808313301762
7.492194680516452E7 0.022115193179953904 0.08058524725070872 0.977884806820046 -0.0805852472507087 0.977884806820046 -0.0805852472507087 0.022115193179953904 0.08058524725070872
7.60526241520746E7 0.022335386394720838 0.0817792218324641 0.9776646136052792 -0.08177922183246411 0.9776646136052792 -0.08177922183246411 0.022335386394720838 0.0817792218324641
7.720036500730675E7 0.022562116720929882 0.08299021824432896 0.9774378832790701 -0.08299021824432898 0.9774378832790701 -0.08299021824432898 0.022562116720929882 0.08299021824432896
7.836542688315398E7 0.022795573439228674 0.08421844921224265 0.9772044265607714 -0.08421844921224265 0.9772044265607714 -0.08421844921224265 0.022795573439228674 0.08421844921224265
7.954807117813127E7 0.023035951026553828 0.08546412876692921 0.976964048973446 -0.0854641287669292 0.976964048973446 -0.0854641287669292 0.023035951026553828 0.08546412876692921
8.074856323562416E7 0.023283449282071787 0.08672747218508553 0.9767165507179282 -0.08672747218508554 0.9767165507179282 -0.08672747218508554 0.023283449282071787 0.08672747218508553
8.196717240342227E7 0.023538273455187362 0.08800869592672092 0.9764617265448126 -0.08800869592672093 0.9764617265448126 -0.08800869592672093 0.023538273455187362 0.08800869592672092
8.320417209415154E7 0.02380063437559288 0.08930801756849857 0.9761993656244071 -0.08930801756849857 0.9761993656244071 -0.08930801756849857 0.02380063437559288 0.08930801756849857
8.445983984661816E7 0.02407074858532563 0.0906256557329247 0.9759292514146743 -0.0906256557329247 0.9759292514146743 -0.0906256557329247 0.02407074858532563 0.0906256557329247
8.573445738807854E7 0.02434883847279665 0.09196183001322913 0.9756511615272033 -0.09196183001322915 0.9756511615272033 -0.09196183001322915 0.02434883847279665 0.09196183001322913
8.702831069744885E7 0.02463513240874839 0.09331676089377594 0.9753648675912517 -0.09331676089377595 0.9753648675912517 -0.09331676089377595 0.02463513240874839 0.09331676089377594
8.834169006946853E7 0.024929864884092698 0.09469066966584004 0.9750701351159072 -0.09469066966584005 0.9750701351159072 -0.09469066966584005 0.024929864884092698 0.09469066966584004
8.96748901798321E7 0.02523327664957522 0.0960837783385829 0.9747667233504248 -0.0960837783385829 0.9747667233504248 -0.0960837783385829 0.02523327664957522 0.0960837783385829
9.1028210151304E7 0.025545614857205603 0.09749630954505563 0.9744543851427945 -0.09749630954505563 0.9744543851427945 -0.09749630954505563 0.025545614857205603 0.09749630954505563
9.240195362083109E7 0.025867133203386294 0.09892848644305591 0.9741328667966137 -0.09892848644305591 0.9741328667966137 -0.09892848644305591 0.025867133203386294 0.09892848644305591
9.379642880766791E7 0.026198092073666097 0.10038053261066184 0.973801907926334 -0.10038053261066184 0.973801907926334 -0.10038053261066184 0.026198092073666097 0.10038053261066184
9.521194858253023E7 0.026538758689037125 0.10185267193626209 0.973461241310963 -0.10185267193626209 0.973461241310963 -0.10185267193626209 0.026538758689037125 0.10185267193626209
9.664883053779216E7 0.026889407253686506 0.10334512850290088 0.9731105927463134 -0.10334512850290088 0.9731105927463134 -0.10334512850290088 0.026889407253686506 0.10334512850290088
9.810739705874248E7 0.027250319104105986 0.104858126466751 0.9727496808958939 -0.104858126466751 0.9727496808958939 -0.104858126466751 0.027250319104105986 0.104858126466751
9.958797539591652E7 0.02762178285945476 0.10639188992952821 0.9723782171405452 -0.10639188992952821 0.9723782171405452 -0.10639188992952821 0.02762178285945476 0.10639188992952821
1.0109089773851961E8 0.028004094573062 0.10794664280465757 0.9719959054269379 -0.10794664280465757 0.9719959054269379 -0.10794664280465757 0.028004094573062 0.10794664280465757
1.0261650128895843E8 0.028397557884947047 0.10952260867699931 0.9716024421150529 -0.10952260867699931 0.9716024421150529 -0.10952260867699931 0.028397557884947047 0.10952260867699931
1.0416512833849736E8 0.028802484175225518 0.11112001065594149 0.9711975158247744 -0.11112001065594151 0.9711975158247744 -0.11112001065594151 0.028802484175225518 0.11112001065594149
1.0573712634405641E8 0.029219192718260647 0.11273907122166499 0.9707808072817395 -0.11273907122166497 0.9707808072817395 -0.11273907122166497 0.029219192718260647 0.11273907122166499
1.0733284800616828E8 0.02964801083740922 0.1143800120643854 0.9703519891625908 -0.1143800120643854 0.9703519891625908 -0.1143800120643854 0.02964801083740922 0.1143800120643854
1.0895265134811176E8 0.030089274060200576 0.11604305391637534 0.9699107259397994 -0.11604305391637534 0.9699107259397994 -0.11604305391637534 0.030089274060200576 0.11604305391637534
1.1059689979623953E8 0.03054332627377814 0.11772841637657104 0.9694566737262217 -0.11772841637657104 0.9694566737262217 -0.11772841637657104 0.03054332627377814 0.11772841637657104
1.1226596226151802E8 0.031010519880420896 0.11943631772756708 0.9689894801195791 -0.11943631772756706 0.9689894801195791 -0.11943631772756706 0.031010519880420896 0.11943631772756708
1.1396021322229806E8 0.031491215952951596 0.12116697474480294 0.9685087840470484 -0.12116697474480294 0.9685087840470484 -0.12116697474480294 0.031491215952951596 0.12116697474480294
1.1568003280833441E8 0.031985784389827646 0.1229206024977469 0.9680142156101721 -0.1229206024977469 0.9680142156101721 -0.1229206024977469 0.031985784389827646 0.1229206024977469
1.1742580688607343E8 0.03249460406969825 0.12469741414288393 0.9675053959303019 -0.12469741414288393 0.9675053959303019 -0.12469741414288393 0.03249460406969825 0.12469741414288393
1.1919792714522783E8 0.033018063005200424 0.12649762070831566 0.9669819369947995 -0.12649762070831566 0.9669819369947995 -0.12649762070831566 0.033018063005200424 0.12649762070831566
1.2099679118665792E8 0.03355655849575341 0.12832143086978356 0.9664434415042467 -0.1283214308697836 0.9664434415042467 -0.1283214308697836 0.03355655849575341 0.12832143086978356
1.2282280261157903E8 0.0341104972791001 0.13016905071792934 0.9658895027209 -0.13016905071792936 0.9658895027209 -0.13016905071792936 0.0341104972791001 0.13016905071792934
1.2467637111211549E8 0.03468029568133034 0.13204068351660914 0.9653197043186698 -0.13204068351660914 0.9653197043186698 -0.13204068351660914 0.03468029568133034 0.13204068351660914
1.265579125632208E8 0.03526637976510944 0.1339365294520842 0.9647336202348907 -0.1339365294520842 0.9647336202348907 -0.1339365294520842 0.03526637976510944 0.1339365294520842
1.284678491159853E8 0.03586918547582185 0.13585678537291293 0.9641308145241783 -0.1358567853729129 0.9641308145241783 -0.1358567853729129 0.03586918547582185 0.13585678537291293
1.3040660929235186E8 0.03648915878532747 0.13780164452037602 0.9635108412146723 -0.13780164452037602 0.9635108412146723 -0.13780164452037602 0.03648915878532747 0.13780164452037602
1.3237462808126101E8 0.037126755833015286 0.1397712962492728 0.9628732441669847 -0.1397712962492728 0.9628732441669847 -0.1397712962492728 0.037126755833015286 0.1397712962492728
1.3437234703624701E8 0.037782443063825666 0.14176592573893115 0.9622175569361743 -0.14176592573893115 0.9622175569361743 -0.14176592573893115 0.037782443063825666 0.14176592573893115
1.364002143745067E8 0.038456697362900284 0.14378571369428342 0.9615433026370999 -0.1437857136942834 0.9615433026370999 -0.1437857136942834 0.038456697362900284 0.14378571369428342
1.3845868507746372E8 0.03915000618650582 0.1458308360368672 0.960849993813494 -0.1458308360368672 0.960849993813494 -0.1458308360368672 0.03915000618650582 0.1458308360368672
1.405482209928499E8 0.039862867688863844 0.1479014635856175 0.9601371323111362 -0.1479014635856175 0.9601371323111362 -0.1479014635856175 0.039862867688863844 0.1479014635856175
1.426692909383278E8 0.04059579084450813 0.14999776172732848 0.9594042091554921 -0.14999776172732848 0.9594042091554921 -0.14999776172732848 0.04059579084450813 0.14999776172732848
1.4482237080667645E8 0.04134929556577688 0.1521198900766703 0.9586507044342231 -0.1521198900766703 0.9586507044342231 -0.1521198900766703 0.04134929556577688 0.1521198900766703
1.4700794367256513E8 0.04212391281503603 0.1542680021256599 0.9578760871849641 -0.1542680021256599 0.9578760871849641 -0.1542680021256599 0.04212391281503603 0.1542680021256599
1.492264999009378E8 0.04292018471121668 0.1564422448824923 0.9570798152887833 -0.1564422448824923 0.9570798152887833 -0.1564422448824923 0.04292018471121668 0.1564422448824923
1.5147853725703382E8 0.04373866463023915 0.15864275849965487 0.9562613353697609 -0.1586427584996549 0.9562613353697609 -0.1586427584996549 0.04373866463023915 0.15864275849965487
1.5376456101806876E8 0.044579917298883845 0.1608696758912561 0.955420082701116 -0.1608696758912561 0.955420082701116 -0.1608696758912561 0.044579917298883845 0.1608696758912561
1.5608508408660066E8 0.04544451888165855 0.16312312233951587 0.9545554811183414 -0.16312312233951587 0.9545554811183414 -0.16312312233951587 0.04544451888165855 0.16312312233951587
1.5844062710560706E8 0.04633305706020074 0.16540321509037678 0.9536669429397994 -0.16540321509037678 0.9536669429397994 -0.16540321509037678 0.04633305706020074 0.16540321509037678
1.6083171857529896E8 0.04724613110474382 0.16771006293821067 0.9527538688952562 -0.16771006293821067 0.9527538688952562 -0.16771006293821067 0.04724613110474382 0.16771006293821067
1.632588949716973E8 0.04818435193716572 0.17004376579960867 0.9518156480628344 -0.17004376579960867 0.9518156480628344 -0.17004376579960867 0.04818435193716572 0.17004376579960867
1.6572270086699936E8 0.04914834218513048 0.17240441427626066 0.9508516578148696 -0.1724044142762607 0.9508516578148696 -0.1724044142762607 0.04914834218513048 0.17240441427626066
1.6822368905176118E8 0.050138736226822335 0.17479208920694078 0.9498612637731777 -0.17479208920694075 0.9498612637731777 -0.17479208920694075 0.050138736226822335 0.17479208920694078
1.7076242065892437E8 0.051156180225767095 0.17720686120863863 0.948843819774233 -0.17720686120863866 0.948843819774233 -0.17720686120863866 0.051156180225767095 0.17720686120863863
1.7333946528971428E8 0.05220133215522438 0.17964879020688476 0.9477986678447756 -0.17964879020688473 0.9477986678447756 -0.17964879020688473 0.05220133215522438 0.17964879020688476
1.7595540114143828E8 0.05327486181163066 0.1821179249553414 0.9467251381883693 -0.1821179249553414 0.9467251381883693 -0.1821179249553414 0.05327486181163066 0.1821179249553414
1.786108151372127E8 0.054377450816564005 0.1846143025447431 0.9456225491834359 -0.1846143025447431 0.9456225491834359 -0.1846143025447431 0.054377450816564005 0.1846143025447431
1.8130630305764765E8 0.05550979260669757 0.18713794790128963 0.9444902073933024 -0.18713794790128963 0.9444902073933024 -0.18713794790128963 0.05550979260669757 0.18713794790128963
1.840424696745189E8 0.056672592411202136 0.18968887327461062 0.9433274075887977 -0.18968887327461056 0.9433274075887977 -0.18968887327461056 0.056672592411202136 0.18968887327461062
1.8681992888645732E8 0.05786656721605437 0.19226707771543783 0.9421334327839456 -0.19226707771543783 0.9421334327839456 -0.19226707771543783 0.05786656721605437 0.19226707771543783
1.8963930385668582E8 0.05909244571470291 0.19487254654313957 0.940907554285297 -0.19487254654313957 0.940907554285297 -0.19487254654313957 0.05909244571470291 0.19487254654313957
1.92501227152835E8 0.06035096824453937 0.19750525080328407 0.9396490317554608 -0.19750525080328404 0.9396490317554608 -0.19750525080328404 0.06035096824453937 0.19750525080328407
1.9540634088886917E8 0.06164288670862043 0.2001651467154218 0.9383571132913796 -0.20016514671542182 0.9383571132913796 -0.20016514671542182 0.06164288670862043 0.2001651467154218
1.983552968691535E8 0.06296896448208111 0.20285217511128648 0.9370310355179188 -0.20285217511128653 0.9370310355179188 -0.20285217511128653 0.06296896448208111 0.20285217511128648
2.0134875673469606E8 0.06432997630267857 0.20556626086363455 0.9356700236973213 -0.20556626086363455 0.9356700236973213 -0.20556626086363455 0.06432997630267857 0.20556626086363455
2.0438739211159652E8 0.06572670814490142 0.20830731230595578 0.9342732918550986 -0.2083073123059558 0.9342732918550986 -0.2083073123059558 0.06572670814490142 0.20830731230595578
2.074718847617352E8 0.06715995707707781 0.21107522064330644 0.9328400429229222 -0.21107522064330644 0.9328400429229222 -0.21107522064330644 0.06715995707707781 0.21107522064330644
2.106029267357361E8 0.06863053110091098 0.21386985935452535 0.9313694688990891 -0.21386985935452535 0.9313694688990891 -0.21386985935452535 0.06863053110091098 0.21386985935452535
2.1378122052823865E8 0.07013924897286944 0.21669108358611394 0.9298607510271305 -0.21669108358611394 0.9298607510271305 -0.21669108358611394 0.07013924897286944 0.21669108358611394
2.1700747923551247E8 0.07168694000685319 0.2195387295380704 0.9283130599931467 -0.21953872953807038 0.9283130599931467 -0.21953872953807038 0.07168694000685319 0.2195387295380704
2.2028242671545094E8 0.07327444385755402 0.22241261384198271 0.926725556142446 -0.22241261384198277 0.926725556142446 -0.22241261384198277 0.07327444385755402 0.22241261384198271
2.23606797749979E8 0.07490261028392299 0.2253125329317013 0.9250973897160769 -0.22531253293170128 0.9250973897160769 -0.22531253293170128 0.07490261028392299 0.2253125329317013
2.2698133820991236E8 0.07657229889215057 0.2282382624069195 0.9234277011078494 -0.2282382624069195 0.9234277011078494 -0.2282382624069195 0.07657229889215057 0.2282382624069195
2.3040680522230446E8 0.07828437885755844 0.23118955639000807 0.9217156211424415 -0.23118955639000807 0.9217156211424415 -0.23118955639000807 0.07828437885755844 0.23118955639000807
2.338839673403185E8 0.08003972862479301 0.23416614687645879 0.9199602713752069 -0.23416614687645876 0.9199602713752069 -0.23416614687645876 0.08003972862479301 0.23416614687645879
2.37413604715664E8 0.0818392355857002 0.23716774307930738 0.9181607644142997 -0.23716774307930738 0.9181607644142997 -0.23716774307930738 0.0818392355857002 0.23716774307930738
2.4099650927363476E8 0.08368379573424835 0.24019403076791826 0.9163162042657518 -0.24019403076791826 0.9163162042657518 -0.24019403076791826 0.08368379573424835 0.24019403076791826
2.446334848907889E8 0.0855743132978536 0.24324467160152727 0.9144256867021463 -0.2432446716015272 0.9144256867021463 -0.2432446716015272 0.0855743132978536 0.24324467160152727
2.4832534757531032E8 0.0875117003444432 0.24631930245795317 0.9124882996555568 -0.24631930245795317 0.9124882996555568 -0.24631930245795317 0.0875117003444432 0.24631930245795317
