!Murata Part Number: LQP15MN5N6B02
!These Parameters are Measured in Series Mode Connection
!       o--[Z]--o
!Port1              Port2
!       o-------o
!
!Freq. Start=50[MHz] Stop=20[GHz], 401[Steps]
# Hz S RI R 50
!Freq.(Hz) S11(Real) S11(Imag) S21(Real) S21(Imag) S12(Real) S12(Imag) S22(Real) S22(Imag)
5.0E7 0.004860744952262507 0.017306961679444125 0.9951392550477376 -0.017306961679444125 0.9951392550477376 -0.017306961679444125 0.004860744952262507 0.017306961679444125
5.0754570186123446E7 0.0048823968159859114 0.01756166268911212 0.9951176031840142 -0.01756166268911212 0.9951176031840142 -0.01756166268911212 0.0048823968159859114 0.01756166268911212
5.152052789556263E7 0.004904549841239863 0.01781999230240683 0.99509545015876 -0.01781999230240683 0.99509545015876 -0.01781999230240683 0.004904549841239863 0.01781999230240683
5.229804498202928E7 0.0049272127559158345 0.018082000117218923 0.9950727872440842 -0.018082000117218923 0.9950727872440842 -0.018082000117218923 0.0049272127559158345 0.018082000117218923
5.308729589274893E7 0.004950394361457513 0.018347736469769598 0.9950496056385425 -0.018347736469769598 0.9950496056385425 -0.018347736469769598 0.004950394361457513 0.018347736469769598
5.388845770760058E7 0.004974103534825008 0.01861725245269327 0.9950258964651748 -0.018617252452693266 0.9950258964651748 -0.018617252452693266 0.004974103534825008 0.01861725245269327
5.470171017884717E7 0.00499834923093213 0.01889059993367265 0.9950016507690678 -0.01889059993367265 0.9950016507690678 -0.01889059993367265 0.00499834923093213 0.01889059993367265
5.5527235771465644E7 0.0050231404855938635 0.019167831574620646 0.9949768595144062 -0.019167831574620646 0.9949768595144062 -0.019167831574620646 0.0050231404855938635 0.019167831574620646
5.6365219704085544E7 0.00504848641902191 0.01944900085140151 0.994951513580978 -0.01944900085140151 0.994951513580978 -0.01944900085140151 0.00504848641902191 0.01944900085140151
5.721584999054556E7 0.005074396239906464 0.01973416207408134 0.9949256037600938 -0.01973416207408134 0.9949256037600938 -0.01973416207408134 0.005074396239906464 0.01973416207408134
5.807931748207712E7 0.005100879250122581 0.020023370407694974 0.9948991207498774 -0.020023370407694974 0.9948991207498774 -0.020023370407694974 0.005100879250122581 0.020023370407694974
5.8955815910124585E7 0.00512794485009966 0.02031668189351458 0.9948720551499002 -0.02031668189351458 0.9948720551499002 -0.02031668189351458 0.00512794485009966 0.02031668189351458
5.984554192981184E7 0.005155602544892278 0.020614153470802032 0.9948443974551077 -0.020614153470802032 0.9948443974551077 -0.020614153470802032 0.005155602544892278 0.020614153470802032
6.074869516406457E7 0.005183861950990381 0.020915842999024666 0.9948161380490096 -0.020915842999024666 0.9948161380490096 -0.020915842999024666 0.005183861950990381 0.020915842999024666
6.166547824839868E7 0.005212732803906199 0.02122180928051166 0.9947872671960941 -0.02122180928051166 0.9947872671960941 -0.02122180928051166 0.005212732803906199 0.02122180928051166
6.2596096876384385E7 0.005242224966574536 0.021532112083524974 0.9947577750334254 -0.021532112083524974 0.9947577750334254 -0.021532112083524974 0.005242224966574536 0.021532112083524974
6.354075984579668E7 0.005272348438602081 0.02184681216571699 0.9947276515613981 -0.021846812165716992 0.9947276515613981 -0.021846812165716992 0.005272348438602081 0.02184681216571699
6.449967910546205E7 0.005303113366400098 0.022165971297943288 0.9946968866335999 -0.022165971297943288 0.9946968866335999 -0.022165971297943288 0.005303113366400098 0.022165971297943288
6.547306980281226E7 0.005334530054233581 0.022489652288397673 0.9946654699457663 -0.022489652288397673 0.9946654699457663 -0.022489652288397673 0.005334530054233581 0.022489652288397673
6.646115033215589E7 0.005366608976218084 0.022817919007032908 0.9946333910237819 -0.022817919007032908 0.9946333910237819 -0.022817919007032908 0.005366608976218084 0.022817919007032908
6.746414238367817E7 0.0053993607892937395 0.0231508364102291 0.9946006392107063 -0.023150836410229105 0.9946006392107063 -0.023150836410229105 0.0053993607892937395 0.0231508364102291
6.848227099318038E7 0.0054327963472037034 0.023488470565668846 0.9945672036527963 -0.023488470565668846 0.9945672036527963 -0.023488470565668846 0.0054327963472037034 0.023488470565668846
6.951576459256999E7 0.005466926715502132 0.023830888677376576 0.9945330732844979 -0.023830888677376576 0.9945330732844979 -0.023830888677376576 0.005466926715502132 0.023830888677376576
7.056485506111258E7 0.005501763187614064 0.024178159110877083 0.9944982368123859 -0.02417815911087708 0.9944982368123859 -0.02417815911087708 0.005501763187614064 0.024178159110877083
7.162977777745734E7 0.005537317301967119 0.024530351418426972 0.9944626826980327 -0.024530351418426972 0.9944626826980327 -0.024530351418426972 0.005537317301967119 0.024530351418426972
7.271077167244768E7 0.005573600860211838 0.024887536364270862 0.9944263991397881 -0.024887536364270862 0.9944263991397881 -0.024887536364270862 0.005573600860211838 0.024887536364270862
7.380807928272885E7 0.005610625946544588 0.02524978594987285 0.9943893740534554 -0.02524978594987285 0.9943893740534554 -0.02524978594987285 0.005610625946544588 0.02524978594987285
7.492194680516452E7 0.005648404948143744 0.025617173439072993 0.9943515950518563 -0.025617173439072993 0.9943515950518563 -0.025617173439072993 0.005648404948143744 0.025617173439072993
7.60526241520746E7 0.005686950576726596 0.025989773383117244 0.9943130494232734 -0.025989773383117237 0.9943130494232734 -0.025989773383117237 0.005686950576726596 0.025989773383117244
7.720036500730675E7 0.005726275891230994 0.02636766164550914 0.994273724108769 -0.02636766164550914 0.994273724108769 -0.02636766164550914 0.005726275891230994 0.02636766164550914
7.836542688315398E7 0.005766394321622414 0.02675091542663115 0.9942336056783776 -0.02675091542663115 0.9942336056783776 -0.02675091542663115 0.005766394321622414 0.02675091542663115
7.954807117813127E7 0.00580731969382354 0.027139613288083515 0.9941926803061766 -0.027139613288083512 0.9941926803061766 -0.027139613288083512 0.00580731969382354 0.027139613288083515
8.074856323562416E7 0.005849066255760064 0.02753383517668891 0.9941509337442398 -0.02753383517668891 0.9941509337442398 -0.02753383517668891 0.005849066255760064 0.02753383517668891
8.196717240342227E7 0.005891648704512798 0.027933662448111875 0.9941083512954871 -0.027933662448111875 0.9941083512954871 -0.027933662448111875 0.005891648704512798 0.027933662448111875
8.320417209415154E7 0.00593508221456295 0.028339177890042908 0.9940649177854372 -0.028339177890042904 0.9940649177854372 -0.028339177890042904 0.00593508221456295 0.028339177890042908
8.445983984661816E7 0.005979382467113912 0.02875046574489827 0.9940206175328861 -0.02875046574489827 0.9940206175328861 -0.02875046574489827 0.005979382467113912 0.02875046574489827
8.573445738807854E7 0.006024565680469802 0.029167611731988622 0.9939754343195301 -0.029167611731988622 0.9939754343195301 -0.029167611731988622 0.006024565680469802 0.029167611731988622
8.702831069744885E7 0.006070648641447738 0.02959070306911053 0.9939293513585522 -0.02959070306911053 0.9939293513585522 -0.02959070306911053 0.006070648641447738 0.02959070306911053
8.834169006946853E7 0.006117648737798114 0.030019828493518114 0.9938823512622017 -0.030019828493518114 0.9938823512622017 -0.030019828493518114 0.006117648737798114 0.030019828493518114
8.96748901798321E7 0.006165583991604227 0.03045507828223379 0.9938344160083957 -0.03045507828223379 0.9938344160083957 -0.03045507828223379 0.006165583991604227 0.03045507828223379
9.1028210151304E7 0.0062144730936302284 0.030896544271660026 0.9937855269063696 -0.030896544271660026 0.9937855269063696 -0.030896544271660026 0.0062144730936302284 0.030896544271660026
9.240195362083109E7 0.006264335438584033 0.03134431987645688 0.993735664561416 -0.03134431987645688 0.993735664561416 -0.03134431987645688 0.006264335438584033 0.03134431987645688
9.379642880766791E7 0.006315191161259898 0.03179850010765316 0.99368480883874 -0.03179850010765316 0.99368480883874 -0.03179850010765316 0.006315191161259898 0.03179850010765316
9.521194858253023E7 0.006367061173523648 0.032259181589962216 0.9936329388264764 -0.032259181589962216 0.9936329388264764 -0.032259181589962216 0.006367061173523648 0.032259181589962216
9.664883053779216E7 0.006419967202102217 0.03272646257827743 0.9935800327978977 -0.03272646257827743 0.9935800327978977 -0.03272646257827743 0.006419967202102217 0.03272646257827743
9.810739705874248E7 0.0064739318271380105 0.03320044297332483 0.993526068172862 -0.03320044297332483 0.993526068172862 -0.03320044297332483 0.0064739318271380105 0.03320044297332483
9.958797539591652E7 0.006528978521468001 0.03368122433645506 0.9934710214785318 -0.03368122433645506 0.9934710214785318 -0.03368122433645506 0.006528978521468001 0.03368122433645506
1.0109089773851961E8 0.006585131690587051 0.03416890990356026 0.993414868309413 -0.03416890990356026 0.993414868309413 -0.03416890990356026 0.006585131690587051 0.03416890990356026
1.0261650128895843E8 0.006642416713254901 0.034663604598104636 0.9933575832867452 -0.034663604598104636 0.9933575832867452 -0.034663604598104636 0.006642416713254901 0.034663604598104636
1.0416512833849736E8 0.0067008599827066695 0.03516541504326187 0.9932991400172934 -0.03516541504326187 0.9932991400172934 -0.03516541504326187 0.0067008599827066695 0.03516541504326187
1.0573712634405641E8 0.006760488948427368 0.03567444957315609 0.9932395110515728 -0.03567444957315609 0.9932395110515728 -0.03567444957315609 0.006760488948427368 0.03567444957315609
1.0733284800616828E8 0.006821332158451947 0.036190818243206045 0.9931786678415481 -0.03619081824320604 0.9931786678415481 -0.03619081824320604 0.006821332158451947 0.036190818243206045
1.0895265134811176E8 0.00688341930215374 0.036714632839576565 0.9931165806978461 -0.036714632839576565 0.9931165806978461 -0.036714632839576565 0.00688341930215374 0.036714632839576565
1.1059689979623953E8 0.006946781253486003 0.037246006887744106 0.993053218746514 -0.037246006887744106 0.993053218746514 -0.037246006887744106 0.006946781253486003 0.037246006887744106
1.1226596226151802E8 0.007011450114642935 0.037785055660186175 0.9929885498853569 -0.037785055660186175 0.9929885498853569 -0.037785055660186175 0.007011450114642935 0.037785055660186175
1.1396021322229806E8 0.007077459260109216 0.038331896183208036 0.9929225407398908 -0.038331896183208036 0.9929225407398908 -0.038331896183208036 0.007077459260109216 0.038331896183208036
1.1568003280833441E8 0.00714484338106933 0.03888664724292223 0.9928551566189306 -0.03888664724292223 0.9928551566189306 -0.03888664724292223 0.00714484338106933 0.03888664724292223
1.1742580688607343E8 0.007213638530150938 0.039449429390399256 0.9927863614698492 -0.039449429390399256 0.9927863614698492 -0.039449429390399256 0.007213638530150938 0.039449429390399256
1.1919792714522783E8 0.007283882166479384 0.04002036494600948 0.9927161178335204 -0.04002036494600948 0.9927161178335204 -0.04002036494600948 0.007283882166479384 0.04002036494600948
1.2099679118665792E8 0.007355613201023813 0.04059957800297921 0.9926443867989763 -0.04059957800297921 0.9926443867989763 -0.04059957800297921 0.007355613201023813 0.04059957800297921
1.2282280261157903E8 0.007428872042218492 0.04118719443018406 0.9925711279577815 -0.04118719443018406 0.9925711279577815 -0.04118719443018406 0.007428872042218492 0.04118719443018406
1.2467637111211549E8 0.007503700641846568 0.041783341874205605 0.9924962993581535 -0.041783341874205605 0.9924962993581535 -0.041783341874205605 0.007503700641846568 0.041783341874205605
1.265579125632208E8 0.007580142541177033 0.042388149760676924 0.9924198574588229 -0.04238814976067692 0.9924198574588229 -0.04238814976067692 0.007580142541177033 0.042388149760676924
1.284678491159853E8 0.00765824291734914 0.043001749294944186 0.9923417570826508 -0.043001749294944186 0.9923417570826508 -0.043001749294944186 0.00765824291734914 0.043001749294944186
1.3040660929235186E8 0.00773804863000247 0.043624273462071324 0.9922619513699974 -0.043624273462071324 0.9922619513699974 -0.043624273462071324 0.00773804863000247 0.043624273462071324
1.3237462808126101E8 0.007819608268154194 0.04425585702621497 0.9921803917318459 -0.04425585702621497 0.9921803917318459 -0.04425585702621497 0.007819608268154194 0.04425585702621497
1.3437234703624701E8 0.007902972197328925 0.04489663652939649 0.9920970278026711 -0.04489663652939649 0.9920970278026711 -0.04489663652939649 0.007902972197328925 0.04489663652939649
1.364002143745067E8 0.007988192606950103 0.045546750289697256 0.9920118073930498 -0.045546750289697256 0.9920118073930498 -0.045546750289697256 0.007988192606950103 0.045546750289697256
1.3845868507746372E8 0.008075323558005259 0.046206338398902716 0.9919246764419949 -0.046206338398902716 0.9919246764419949 -0.046206338398902716 0.008075323558005259 0.046206338398902716
1.405482209928499E8 0.008164421031000959 0.04687554271961866 0.9918355789689991 -0.046875542719618656 0.9918355789689991 -0.046875542719618656 0.008164421031000959 0.04687554271961866
1.426692909383278E8 0.008255542974226586 0.047554506881883354 0.9917444570257733 -0.047554506881883354 0.9917444570257733 -0.047554506881883354 0.008255542974226586 0.047554506881883354
1.4482237080667645E8 0.008348749352348906 0.04824337627929511 0.9916512506476509 -0.04824337627929511 0.9916512506476509 -0.04824337627929511 0.008348749352348906 0.04824337627929511
1.4700794367256513E8 0.008444102195362728 0.04894229806467526 0.9915558978046373 -0.04894229806467526 0.9915558978046373 -0.04894229806467526 0.008444102195362728 0.04894229806467526
1.492264999009378E8 0.008541665647925299 0.0496514211452826 0.9914583343520746 -0.049651421145282607 0.9914583343520746 -0.049651421145282607 0.008541665647925299 0.0496514211452826
1.5147853725703382E8 0.00864150601910485 0.050370896177593986 0.991358493980895 -0.05037089617759399 0.991358493980895 -0.05037089617759399 0.00864150601910485 0.050370896177593986
1.5376456101806876E8 0.008743691832575999 0.05110087556166288 0.9912563081674242 -0.05110087556166288 0.9912563081674242 -0.05110087556166288 0.008743691832575999 0.05110087556166288
1.5608508408660066E8 0.008848293877296637 0.051841513435064775 0.9911517061227035 -0.05184151343506476 0.9911517061227035 -0.05184151343506476 0.008848293877296637 0.051841513435064775
1.5844062710560706E8 0.008955385258703034 0.052592965666436266 0.9910446147412969 -0.05259296566643628 0.9910446147412969 -0.05259296566643628 0.008955385258703034 0.052592965666436266
1.6083171857529896E8 0.00906504145046134 0.05335538984861128 0.9909349585495386 -0.05335538984861128 0.9909349585495386 -0.05335538984861128 0.00906504145046134 0.05335538984861128
1.632588949716973E8 0.009177340346815102 0.05412894529135468 0.990822659653185 -0.05412894529135468 0.990822659653185 -0.05412894529135468 0.009177340346815102 0.05412894529135468
1.6572270086699936E8 0.00929236231556959 0.05491379301369155 0.9907076376844304 -0.05491379301369154 0.9907076376844304 -0.05491379301369154 0.00929236231556959 0.05491379301369155
1.6822368905176118E8 0.009410190251754621 0.055710095735826325 0.9905898097482455 -0.055710095735826325 0.9905898097482455 -0.055710095735826325 0.009410190251754621 0.055710095735826325
1.7076242065892437E8 0.009530909632008266 0.05651801787064369 0.9904690903679918 -0.05651801787064369 0.9904690903679918 -0.05651801787064369 0.009530909632008266 0.05651801787064369
1.7333946528971428E8 0.009654608569724318 0.057337725514780113 0.9903453914302757 -0.057337725514780113 0.9903453914302757 -0.057337725514780113 0.009654608569724318 0.057337725514780113
1.7595540114143828E8 0.00978137787100671 0.05816938643925159 0.9902186221289934 -0.05816938643925159 0.9902186221289934 -0.05816938643925159 0.00978137787100671 0.05816938643925159
1.786108151372127E8 0.009911311091473947 0.05901317007962075 0.9900886889085259 -0.05901317007962075 0.9900886889085259 -0.05901317007962075 0.009911311091473947 0.05901317007962075
1.8130630305764765E8 0.010044504593956954 0.05986924752568403 0.9899554954060428 -0.05986924752568403 0.9899554954060428 -0.05986924752568403 0.010044504593956954 0.05986924752568403
1.840424696745189E8 0.010181057607132863 0.06073779151065562 0.9898189423928672 -0.06073779151065562 0.9898189423928672 -0.06073779151065562 0.010181057607132863 0.06073779151065562
1.8681992888645732E8 0.010321072285137439 0.06161897639982425 0.9896789277148627 -0.06161897639982426 0.9896789277148627 -0.06161897639982426 0.010321072285137439 0.06161897639982425
1.8963930385668582E8 0.010464653768197813 0.06251297817865481 0.9895353462318023 -0.06251297817865482 0.9895353462318023 -0.06251297817865482 0.010464653768197813 0.06251297817865481
1.92501227152835E8 0.010611910244326932 0.06341997444030573 0.989388089755673 -0.06341997444030573 0.989388089755673 -0.06341997444030573 0.010611910244326932 0.06341997444030573
1.9540634088886917E8 0.010762953012119991 0.06434014437253018 0.9892370469878801 -0.06434014437253018 0.9892370469878801 -0.06434014437253018 0.010762953012119991 0.06434014437253018
1.983552968691535E8 0.010917896544692544 0.0652736687439271 0.9890821034553073 -0.0652736687439271 0.9890821034553073 -0.0652736687439271 0.010917896544692544 0.0652736687439271
2.0134875673469606E8 0.01107685855479912 0.06622072988950767 0.988923141445201 -0.06622072988950767 0.988923141445201 -0.06622072988950767 0.01107685855479912 0.06622072988950767
2.0438739211159652E8 0.011239960061169932 0.06718151169553868 0.98876003993883 -0.06718151169553868 0.98876003993883 -0.06718151169553868 0.011239960061169932 0.06718151169553868
2.074718847617352E8 0.011407325456102825 0.06815619958362563 0.988592674543897 -0.06815619958362562 0.988592674543897 -0.06815619958362562 0.011407325456102825 0.06815619958362563
2.106029267357361E8 0.011579082574346214 0.06914498049399447 0.988420917425654 -0.06914498049399447 0.988420917425654 -0.06914498049399447 0.011579082574346214 0.06914498049399447
2.1378122052823865E8 0.011755362763308224 0.07014804286793186 0.9882446372366916 -0.07014804286793186 0.9882446372366916 -0.07014804286793186 0.011755362763308224 0.07014804286793186
2.1700747923551247E8 0.011936300954626292 0.07116557662934159 0.9880636990453738 -0.07116557662934159 0.9880636990453738 -0.07116557662934159 0.011936300954626292 0.07116557662934159
2.2028242671545094E8 0.012122035737130622 0.07219777316537394 0.9878779642628693 -0.07219777316537394 0.9878779642628693 -0.07219777316537394 0.012122035737130622 0.07219777316537394
2.23606797749979E8 0.012312709431234596 0.07324482530608542 0.9876872905687653 -0.07324482530608542 0.9876872905687653 -0.07324482530608542 0.012312709431234596 0.07324482530608542
2.2698133820991236E8 0.012508468164784188 0.07430692730308362 0.9874915318352159 -0.07430692730308362 0.9874915318352159 -0.07430692730308362 0.012508468164784188 0.07430692730308362
2.3040680522230446E8 0.012709461950398604 0.07538427480711357 0.9872905380496013 -0.07538427480711357 0.9872905380496013 -0.07538427480711357 0.012709461950398604 0.07538427480711357
2.338839673403185E8 0.01291584476433372 0.07647706484454042 0.9870841552356664 -0.07647706484454041 0.9870841552356664 -0.07647706484454041 0.01291584476433372 0.07647706484454042
2.37413604715664E8 0.013127774626900103 0.07758549579268319 0.9868722253730997 -0.07758549579268317 0.9868722253730997 -0.07758549579268317 0.013127774626900103 0.07758549579268319
2.4099650927363476E8 0.01334541368446748 0.07870976735395505 0.9866545863155328 -0.07870976735395506 0.9866545863155328 -0.07870976735395506 0.01334541368446748 0.07870976735395505
