!Murata Part Number: LQP15MN3N4W02
!These Parameters are Measured in Series Mode Connection
!       o--[Z]--o
!Port1              Port2
!       o-------o
!
!Freq. Start=50[MHz] Stop=20[GHz], 401[Steps]
# Hz S RI R 50
!Freq.(Hz) S11(Real) S11(Imag) S21(Real) S21(Imag) S12(Real) S12(Imag) S22(Real) S22(Imag)
5.0E7 0.0022380723926870103 0.010116140874359818 0.997761927607313 -0.01011614087435982 0.997761927607313 -0.01011614087435982 0.0022380723926870103 0.010116140874359818
5.0754570186123446E7 0.0022478036315091957 0.010266228452944469 0.9977521963684908 -0.010266228452944469 0.9977521963684908 -0.010266228452944469 0.0022478036315091957 0.010266228452944469
5.152052789556263E7 0.0022577778768175538 0.010418483602976222 0.9977422221231823 -0.010418483602976222 0.9977422221231823 -0.010418483602976222 0.0022577778768175538 0.010418483602976222
5.229804498202928E7 0.0022679999301736193 0.010572935920844746 0.9977320000698262 -0.010572935920844746 0.9977320000698262 -0.010572935920844746 0.0022679999301736193 0.010572935920844746
5.308729589274893E7 0.002278474631085615 0.010729615387049024 0.9977215253689143 -0.010729615387049026 0.9977215253689143 -0.010729615387049026 0.002278474631085615 0.010729615387049024
5.388845770760058E7 0.0022892068550920217 0.01088855237318152 0.9977107931449078 -0.01088855237318152 0.9977107931449078 -0.01088855237318152 0.0022892068550920217 0.01088855237318152
5.470171017884717E7 0.0023002015118126504 0.01104977764921344 0.9976997984881875 -0.01104977764921344 0.9976997984881875 -0.01104977764921344 0.0023002015118126504 0.01104977764921344
5.5527235771465644E7 0.0023114635429770493 0.011213322391093615 0.9976885364570228 -0.011213322391093614 0.9976885364570228 -0.011213322391093614 0.0023114635429770493 0.011213322391093615
5.6365219704085544E7 0.0023229979204411385 0.011379218188673568 0.997677002079559 -0.011379218188673568 0.997677002079559 -0.011379218188673568 0.0023229979204411385 0.011379218188673568
5.721584999054556E7 0.002334809644203948 0.011547497053971262 0.9976651903557959 -0.011547497053971264 0.9976651903557959 -0.011547497053971264 0.002334809644203948 0.011547497053971262
5.807931748207712E7 0.0023469037404374267 0.011718191429785635 0.9976530962595626 -0.011718191429785635 0.9976530962595626 -0.011718191429785635 0.0023469037404374267 0.011718191429785635
5.8955815910124585E7 0.002359285259543327 0.011891334198673772 0.9976407147404567 -0.011891334198673774 0.9976407147404567 -0.011891334198673774 0.002359285259543327 0.011891334198673772
5.984554192981184E7 0.002371959274252312 0.012066958692302399 0.9976280407257475 -0.012066958692302399 0.9976280407257475 -0.012066958692302399 0.002371959274252312 0.012066958692302399
6.074869516406457E7 0.0023849308777814755 0.01224509870118448 0.9976150691222185 -0.01224509870118448 0.9976150691222185 -0.01224509870118448 0.0023849308777814755 0.01224509870118448
6.166547824839868E7 0.0023982051820676123 0.012425788484811623 0.9976017948179324 -0.012425788484811623 0.9976017948179324 -0.012425788484811623 0.0023982051820676123 0.012425788484811623
6.2596096876384385E7 0.002411787316094667 0.012609062782191982 0.9975882126839052 -0.012609062782191982 0.9975882126839052 -0.012609062782191982 0.002411787316094667 0.012609062782191982
6.354075984579668E7 0.0024256824243348764 0.012794956822802926 0.997574317575665 -0.012794956822802926 0.997574317575665 -0.012794956822802926 0.0024256824243348764 0.012794956822802926
6.449967910546205E7 0.002439895665324191 0.012983506337966487 0.9975601043346758 -0.012983506337966487 0.9975601043346758 -0.012983506337966487 0.002439895665324191 0.012983506337966487
6.547306980281226E7 0.0024544322103936442 0.013174747572655226 0.9975455677896066 -0.013174747572655222 0.9975455677896066 -0.013174747572655222 0.0024544322103936442 0.013174747572655226
6.646115033215589E7 0.002469297242579278 0.013368717297734483 0.9975307027574206 -0.013368717297734483 0.9975307027574206 -0.013368717297734483 0.002469297242579278 0.013368717297734483
6.746414238367817E7 0.0024844959557343057 0.01356545282264653 0.9975155040442658 -0.013565452822646533 0.9975155040442658 -0.013565452822646533 0.0024844959557343057 0.01356545282264653
6.848227099318038E7 0.0025000335538679884 0.013764992008540113 0.997499966446132 -0.013764992008540113 0.997499966446132 -0.013764992008540113 0.0025000335538679884 0.013764992008540113
6.951576459256999E7 0.0025159152507366793 0.013967373281848413 0.9974840847492633 -0.013967373281848413 0.9974840847492633 -0.013967373281848413 0.0025159152507366793 0.013967373281848413
7.056485506111258E7 0.002532146269713137 0.014172635648316263 0.9974678537302867 -0.014172635648316263 0.9974678537302867 -0.014172635648316263 0.002532146269713137 0.014172635648316263
7.162977777745734E7 0.002548731843961023 0.01438081870747639 0.997451268156039 -0.01438081870747639 0.997451268156039 -0.01438081870747639 0.002548731843961023 0.01438081870747639
7.271077167244768E7 0.0025656772169419953 0.01459196266757266 0.9974343227830581 -0.01459196266757266 0.9974343227830581 -0.01459196266757266 0.0025656772169419953 0.01459196266757266
7.380807928272885E7 0.002582987643283385 0.014806108360926664 0.9974170123567165 -0.014806108360926664 0.9974170123567165 -0.014806108360926664 0.002582987643283385 0.014806108360926664
7.492194680516452E7 0.0026006683900347536 0.015023297259742212 0.9973993316099653 -0.01502329725974221 0.9973993316099653 -0.01502329725974221 0.0026006683900347536 0.015023297259742212
7.60526241520746E7 0.0026187247383419312 0.015243571492340369 0.9973812752616582 -0.015243571492340367 0.9973812752616582 -0.015243571492340367 0.0026187247383419312 0.015243571492340369
7.720036500730675E7 0.0026371619855672388 0.015466973859815911 0.9973628380144327 -0.015466973859815911 0.9973628380144327 -0.015466973859815911 0.0026371619855672388 0.015466973859815911
7.836542688315398E7 0.002655985447884564 0.015693547853104096 0.9973440145521153 -0.015693547853104093 0.9973440145521153 -0.015693547853104093 0.002655985447884564 0.015693547853104096
7.954807117813127E7 0.002675200463377808 0.015923337670444477 0.9973247995366221 -0.01592333767044448 0.9973247995366221 -0.01592333767044448 0.002675200463377808 0.015923337670444477
8.074856323562416E7 0.002694812395670857 0.016156388235226717 0.9973051876043291 -0.016156388235226717 0.9973051876043291 -0.016156388235226717 0.002694812395670857 0.016156388235226717
8.196717240342227E7 0.0027148266381168034 0.016392745214201216 0.9972851733618833 -0.016392745214201216 0.9972851733618833 -0.016392745214201216 0.0027148266381168034 0.016392745214201216
8.320417209415154E7 0.0027352486185733896 0.01663245503603539 0.9972647513814268 -0.01663245503603539 0.9972647513814268 -0.01663245503603539 0.0027352486185733896 0.01663245503603539
8.445983984661816E7 0.0027560838047908675 0.0168755649101942 0.997243916195209 -0.0168755649101942 0.997243916195209 -0.0168755649101942 0.0027560838047908675 0.0168755649101942
8.573445738807854E7 0.0027773377104374866 0.01712212284612209 0.9972226622895626 -0.01712212284612209 0.9972226622895626 -0.01712212284612209 0.0027773377104374866 0.01712212284612209
8.702831069744885E7 0.002799015901786499 0.01737217767270076 0.9972009840982133 -0.017372177672700762 0.9972009840982133 -0.017372177672700762 0.002799015901786499 0.01737217767270076
8.834169006946853E7 0.0028211240050874256 0.017625779057956294 0.9971788759949127 -0.017625779057956294 0.9971788759949127 -0.017625779057956294 0.0028211240050874256 0.017625779057956294
8.96748901798321E7 0.0028436677146425654 0.017882977528986432 0.9971563322853575 -0.017882977528986432 0.9971563322853575 -0.017882977528986432 0.0028436677146425654 0.017882977528986432
9.1028210151304E7 0.0028666528016082003 0.01814382449207795 0.9971333471983918 -0.01814382449207795 0.9971333471983918 -0.01814382449207795 0.0028666528016082003 0.01814382449207795
9.240195362083109E7 0.0028900851235379825 0.018408372252981833 0.997109914876462 -0.018408372252981833 0.997109914876462 -0.018408372252981833 0.0028900851235379825 0.018408372252981833
9.379642880766791E7 0.0029139706346840333 0.01867667403731303 0.9970860293653161 -0.01867667403731303 0.9970860293653161 -0.01867667403731303 0.0029139706346840333 0.01867667403731303
9.521194858253023E7 0.002938315397069064 0.01894878401103999 0.9970616846029309 -0.01894878401103999 0.9970616846029309 -0.01894878401103999 0.002938315397069064 0.01894878401103999
9.664883053779216E7 0.0029631255923406245 0.01922475730102844 0.9970368744076593 -0.019224757301028437 0.9970368744076593 -0.019224757301028437 0.0029631255923406245 0.01922475730102844
9.810739705874248E7 0.0029884075344160364 0.019504650015602212 0.9970115924655841 -0.019504650015602212 0.9970115924655841 -0.019504650015602212 0.0029884075344160364 0.019504650015602212
9.958797539591652E7 0.0030141676829242257 0.01978851926508431 0.9969858323170759 -0.019788519265084313 0.9969858323170759 -0.019788519265084313 0.0030141676829242257 0.01978851926508431
1.0109089773851961E8 0.0030404126574479036 0.020076423182279788 0.9969595873425521 -0.020076423182279788 0.9969595873425521 -0.020076423182279788 0.0030404126574479036 0.020076423182279788
1.0261650128895843E8 0.0030671492525669885 0.020368420942862467 0.996932850747433 -0.020368420942862463 0.996932850747433 -0.020368420942862463 0.0030671492525669885 0.020368420942862467
1.0416512833849736E8 0.0030943844537014275 0.02066457278562718 0.9969056155462988 -0.020664572785627184 0.9969056155462988 -0.020664572785627184 0.0030943844537014275 0.02066457278562718
1.0573712634405641E8 0.0031221254537487655 0.020964940032569396 0.9968778745462513 -0.020964940032569396 0.9968778745462513 -0.020964940032569396 0.0031221254537487655 0.020964940032569396
1.0733284800616828E8 0.0031503796705091933 0.021269585108754492 0.9968496203294908 -0.021269585108754496 0.9968496203294908 -0.021269585108754496 0.0031503796705091933 0.021269585108754492
1.0895265134811176E8 0.003179154764887972 0.021578571561939878 0.9968208452351122 -0.021578571561939878 0.9968208452351122 -0.021578571561939878 0.003179154764887972 0.021578571561939878
1.1059689979623953E8 0.0032084586598624732 0.021891964081913448 0.9967915413401375 -0.021891964081913448 0.9967915413401375 -0.021891964081913448 0.0032084586598624732 0.021891964081913448
1.1226596226151802E8 0.003238299560198569 0.022209828519513964 0.9967617004398015 -0.02220982851951396 0.9967617004398015 -0.02220982851951396 0.003238299560198569 0.022209828519513964
1.1396021322229806E8 0.0032686859728983937 0.022532231905299283 0.9967313140271016 -0.022532231905299283 0.9967313140271016 -0.022532231905299283 0.0032686859728983937 0.022532231905299283
1.1568003280833441E8 0.0032996267283592817 0.0228592424678308 0.9967003732716408 -0.0228592424678308 0.9967003732716408 -0.0228592424678308 0.0032996267283592817 0.0228592424678308
1.1742580688607343E8 0.0033311310022212846 0.02319092965154394 0.9966688689977787 -0.02319092965154394 0.9966688689977787 -0.02319092965154394 0.0033311310022212846 0.02319092965154394
1.1919792714522783E8 0.0033632083378786542 0.023527364134176682 0.9966367916621214 -0.023527364134176682 0.9966367916621214 -0.023527364134176682 0.0033632083378786542 0.023527364134176682
1.2099679118665792E8 0.0033958686696286882 0.0238686178437303 0.9966041313303713 -0.0238686178437303 0.9966041313303713 -0.0238686178437303 0.0033958686696286882 0.0238686178437303
1.2282280261157903E8 0.003429122346429618 0.024214763974939026 0.9965708776535703 -0.024214763974939026 0.9965708776535703 -0.024214763974939026 0.003429122346429618 0.024214763974939026
1.2467637111211549E8 0.0034629801562377827 0.024565877005227957 0.9965370198437621 -0.024565877005227957 0.9965370198437621 -0.024565877005227957 0.0034629801562377827 0.024565877005227957
1.265579125632208E8 0.0034974533508929195 0.02492203271014101 0.9965025466491071 -0.024922032710141005 0.9965025466491071 -0.024922032710141005 0.0034974533508929195 0.02492203271014101
1.284678491159853E8 0.003532553671519529 0.025283308178224054 0.9964674463284806 -0.025283308178224054 0.9964674463284806 -0.025283308178224054 0.003532553671519529 0.025283308178224054
1.3040660929235186E8 0.003568293374411387 0.025649781825350767 0.9964317066255888 -0.025649781825350774 0.9964317066255888 -0.025649781825350774 0.003568293374411387 0.025649781825350767
1.3237462808126101E8 0.003604685257365836 0.026021533408482227 0.9963953147426342 -0.026021533408482227 0.9963953147426342 -0.026021533408482227 0.003604685257365836 0.026021533408482227
1.3437234703624701E8 0.0036417426864342605 0.026398644038853992 0.9963582573135658 -0.026398644038853992 0.9963582573135658 -0.026398644038853992 0.0036417426864342605 0.026398644038853992
1.364002143745067E8 0.003679479623055168 0.02678119619458776 0.9963205203769449 -0.02678119619458776 0.9963205203769449 -0.02678119619458776 0.003679479623055168 0.02678119619458776
1.3845868507746372E8 0.0037179106515366866 0.027169273732727595 0.996282089348463 -0.027169273732727595 0.996282089348463 -0.027169273732727595 0.0037179106515366866 0.027169273732727595
1.405482209928499E8 0.0037570510068558284 0.02756296190070378 0.9962429489931441 -0.02756296190070378 0.9962429489931441 -0.02756296190070378 0.0037570510068558284 0.02756296190070378
1.426692909383278E8 0.003796916602742804 0.027962347347230364 0.9962030833972572 -0.02796234734723036 0.9962030833972572 -0.02796234734723036 0.003796916602742804 0.027962347347230364
1.4482237080667645E8 0.003837524060019807 0.028367518132645514 0.9961624759399802 -0.028367518132645514 0.9961624759399802 -0.028367518132645514 0.003837524060019807 0.028367518132645514
1.4700794367256513E8 0.0038788907351650346 0.02877856373870615 0.9961211092648349 -0.028778563738706145 0.9961211092648349 -0.028778563738706145 0.0038788907351650346 0.02877856373870615
1.492264999009378E8 0.003921034749074432 0.02919557507785145 0.9960789652509258 -0.02919557507785145 0.9960789652509258 -0.02919557507785145 0.003921034749074432 0.02919557507785145
1.5147853725703382E8 0.003963975015995447 0.02961864450195212 0.9960360249840046 -0.02961864450195212 0.9960360249840046 -0.02961864450195212 0.003963975015995447 0.02961864450195212
1.5376456101806876E8 0.0040077312726091744 0.03004786581056447 0.9959922687273908 -0.030047865810564477 0.9959922687273908 -0.030047865810564477 0.0040077312726091744 0.03004786581056447
1.5608508408660066E8 0.004052324107239555 0.030483334258710842 0.9959476758927606 -0.030483334258710842 0.9959476758927606 -0.030483334258710842 0.004052324107239555 0.030483334258710842
1.5844062710560706E8 0.004097774989170704 0.03092514656420939 0.9959022250108294 -0.03092514656420939 0.9959022250108294 -0.03092514656420939 0.004097774989170704 0.03092514656420939
1.6083171857529896E8 0.004144106298056068 0.031373400914578645 0.9958558937019438 -0.03137340091457864 0.9958558937019438 -0.03137340091457864 0.004144106298056068 0.031373400914578645
1.632588949716973E8 0.004191341353405763 0.03182819697354265 0.9958086586465943 -0.03182819697354265 0.9958086586465943 -0.03182819697354265 0.004191341353405763 0.03182819697354265
1.6572270086699936E8 0.004239504444141355 0.03228963588716516 0.9957604955558587 -0.03228963588716516 0.9957604955558587 -0.03228963588716516 0.004239504444141355 0.03228963588716516
1.6822368905176118E8 0.004288620858210119 0.03275782028964062 0.9957113791417899 -0.032757820289640624 0.9957113791417899 -0.032757820289640624 0.004288620858210119 0.03275782028964062
1.7076242065892437E8 0.004338716912253909 0.0332328543087724 0.995661283087746 -0.033232854308772396 0.995661283087746 -0.033232854308772396 0.004338716912253909 0.0332328543087724
1.7333946528971428E8 0.004389819981330617 0.03371484357116728 0.9956101800186693 -0.03371484357116728 0.9956101800186693 -0.03371484357116728 0.004389819981330617 0.03371484357116728
1.7595540114143828E8 0.004441958528689344 0.03420389520717705 0.9955580414713108 -0.03420389520717705 0.9955580414713108 -0.03420389520717705 0.004441958528689344 0.03420389520717705
1.786108151372127E8 0.004495162135603222 0.034700117855617024 0.9955048378643967 -0.034700117855617024 0.9955048378643967 -0.034700117855617024 0.004495162135603222 0.034700117855617024
1.8130630305764765E8 0.004549461531266946 0.03520362166829174 0.9954505384687331 -0.035203621668291746 0.9954505384687331 -0.035203621668291746 0.004549461531266946 0.03520362166829174
1.840424696745189E8 0.004604888622768813 0.03571451831435712 0.9953951113772314 -0.03571451831435712 0.9953951113772314 -0.03571451831435712 0.004604888622768813 0.03571451831435712
1.8681992888645732E8 0.00466147652515003 0.036232920984548264 0.99533852347485 -0.036232920984548264 0.99533852347485 -0.036232920984548264 0.00466147652515003 0.036232920984548264
1.8963930385668582E8 0.004719259591566658 0.036758944395300835 0.9952807404084335 -0.03675894439530083 0.9952807404084335 -0.03675894439530083 0.004719259591566658 0.036758944395300835
1.92501227152835E8 0.004778273443572284 0.037292704792793015 0.9952217265564276 -0.037292704792793015 0.9952217265564276 -0.037292704792793015 0.004778273443572284 0.037292704792793015
1.9540634088886917E8 0.004838555001541912 0.037834319956933905 0.995161444998458 -0.037834319956933905 0.995161444998458 -0.037834319956933905 0.004838555001541912 0.037834319956933905
1.983552968691535E8 0.004900142515260057 0.03838390920532278 0.99509985748474 -0.03838390920532278 0.99509985748474 -0.03838390920532278 0.004900142515260057 0.03838390920532278
2.0134875673469606E8 0.004963075594698149 0.038941593397202295 0.995036924405302 -0.0389415933972023 0.995036924405302 -0.0389415933972023 0.004963075594698149 0.038941593397202295
2.0438739211159652E8 0.005027395241008481 0.0395074949374268 0.9949726047589916 -0.0395074949374268 0.9949726047589916 -0.0395074949374268 0.005027395241008481 0.0395074949374268
2.074718847617352E8 0.005093143877763859 0.040081737780465546 0.9949068561222361 -0.040081737780465546 0.9949068561222361 -0.040081737780465546 0.005093143877763859 0.040081737780465546
2.106029267357361E8 0.00516036538247386 0.040664447434458455 0.9948396346175262 -0.040664447434458455 0.9948396346175262 -0.040664447434458455 0.00516036538247386 0.040664447434458455
2.1378122052823865E8 0.005229105118410217 0.041255750965340746 0.9947708948815899 -0.04125575096534075 0.9947708948815899 -0.04125575096534075 0.005229105118410217 0.041255750965340746
2.1700747923551247E8 0.005299409966775287 0.04185577700105001 0.9947005900332248 -0.04185577700105001 0.9947005900332248 -0.04185577700105001 0.005299409966775287 0.04185577700105001
2.2028242671545094E8 0.005371328359248865 0.04246465573582841 0.9946286716407511 -0.04246465573582841 0.9946286716407511 -0.04246465573582841 0.005371328359248865 0.04246465573582841
2.23606797749979E8 0.005444910310949656 0.04308251893462963 0.9945550896890504 -0.04308251893462963 0.9945550896890504 -0.04308251893462963 0.005444910310949656 0.04308251893462963
2.2698133820991236E8 0.005520207453848848 0.04370949993763943 0.9944797925461513 -0.04370949993763943 0.9944797925461513 -0.04370949993763943 0.005520207453848848 0.04370949993763943
2.3040680522230446E8 0.005597273070673906 0.0443457336649157 0.9944027269293261 -0.04434573366491569 0.9944027269293261 -0.04434573366491569 0.005597273070673906 0.0443457336649157
2.338839673403185E8 0.005676162129341482 0.044991356621152515 0.9943238378706585 -0.04499135662115251 0.9943238378706585 -0.04499135662115251 0.005676162129341482 0.044991356621152515
2.37413604715664E8 0.005756931317959008 0.04564650690057127 0.994243068682041 -0.04564650690057127 0.994243068682041 -0.04564650690057127 0.005756931317959008 0.04564650690057127
