!Murata Part Number: LQP15MN3N2W02
!These Parameters are Measured in Series Mode Connection
!       o--[Z]--o
!Port1              Port2
!       o-------o
!
!Freq. Start=50[MHz] Stop=20[GHz], 401[Steps]
# Hz S RI R 50
!Freq.(Hz) S11(Real) S11(Imag) S21(Real) S21(Imag) S12(Real) S12(Imag) S22(Real) S22(Imag)
5.0E7 0.0022007374907102566 0.009454334288543592 0.9977992625092896 -0.009454334288543594 0.9977992625092896 -0.009454334288543594 0.0022007374907102566 0.009454334288543592
5.0754570186123446E7 0.0022096058162805435 0.009594886751991721 0.9977903941837195 -0.009594886751991721 0.9977903941837195 -0.009594886751991721 0.0022096058162805435 0.009594886751991721
5.152052789556263E7 0.0022187041925703158 0.009737476492114872 0.9977812958074298 -0.00973747649211487 0.9977812958074298 -0.00973747649211487 0.0022187041925703158 0.009737476492114872
5.229804498202928E7 0.0022280375747451564 0.00988213133518702 0.9977719624252549 -0.009882131335187021 0.9977719624252549 -0.009882131335187021 0.0022280375747451564 0.00988213133518702
5.308729589274893E7 0.002237610975082801 0.010028879452050006 0.9977623890249173 -0.010028879452050006 0.9977623890249173 -0.010028879452050006 0.002237610975082801 0.010028879452050006
5.388845770760058E7 0.0022474294613495393 0.010177749363146575 0.9977525705386505 -0.010177749363146575 0.9977525705386505 -0.010177749363146575 0.0022474294613495393 0.010177749363146575
5.470171017884717E7 0.002257498155081594 0.010328769943769089 0.9977425018449185 -0.01032876994376909 0.9977425018449185 -0.01032876994376909 0.002257498155081594 0.010328769943769089
5.5527235771465644E7 0.0022678222297746508 0.010481970429536625 0.9977321777702254 -0.010481970429536625 0.9977321777702254 -0.010481970429536625 0.0022678222297746508 0.010481970429536625
5.6365219704085544E7 0.00227840690898545 0.010637380422113516 0.9977215930910145 -0.010637380422113516 0.9977215930910145 -0.010637380422113516 0.00227840690898545 0.010637380422113516
5.721584999054556E7 0.002289257464350162 0.010795029895182768 0.99771074253565 -0.010795029895182768 0.99771074253565 -0.010795029895182768 0.002289257464350162 0.010795029895182768
5.807931748207712E7 0.0023003792135251277 0.010954949200687993 0.9976996207864749 -0.010954949200687993 0.9976996207864749 -0.010954949200687993 0.0023003792135251277 0.010954949200687993
5.8955815910124585E7 0.0023117775180564208 0.011117169075357704 0.9976882224819438 -0.011117169075357704 0.9976882224819438 -0.011117169075357704 0.0023117775180564208 0.011117169075357704
5.984554192981184E7 0.0023234577811856445 0.01128172064752611 0.9976765422188143 -0.01128172064752611 0.9976765422188143 -0.01128172064752611 0.0023234577811856445 0.01128172064752611
6.074869516406457E7 0.0023354254456003825 0.011448635444264506 0.9976645745543998 -0.011448635444264506 0.9976645745543998 -0.011448635444264506 0.0023354254456003825 0.011448635444264506
6.166547824839868E7 0.0023476859911387283 0.011617945398837606 0.9976523140088612 -0.011617945398837606 0.9976523140088612 -0.011617945398837606 0.0023476859911387283 0.011617945398837606
6.2596096876384385E7 0.0023602449324584035 0.011789682858498976 0.9976397550675415 -0.011789682858498976 0.9976397550675415 -0.011789682858498976 0.0023602449324584035 0.011789682858498976
6.354075984579668E7 0.0023731078166821275 0.01196388059263996 0.9976268921833178 -0.011963880592639958 0.9976268921833178 -0.011963880592639958 0.0023731078166821275 0.01196388059263996
6.449967910546205E7 0.0023862802210319833 0.012140571801305903 0.9976137197789681 -0.012140571801305903 0.9976137197789681 -0.012140571801305903 0.0023862802210319833 0.012140571801305903
6.547306980281226E7 0.002399767750466779 0.012319790124093831 0.9976002322495333 -0.012319790124093831 0.9976002322495333 -0.012319790124093831 0.002399767750466779 0.012319790124093831
6.646115033215589E7 0.002413576035337541 0.012501569649444894 0.9975864239646625 -0.012501569649444894 0.9975864239646625 -0.012501569649444894 0.002413576035337541 0.012501569649444894
6.746414238367817E7 0.0024277107290775896 0.01268594492434498 0.9975722892709225 -0.01268594492434498 0.9975722892709225 -0.01268594492434498 0.0024277107290775896 0.01268594492434498
6.848227099318038E7 0.0024421775059447937 0.012872950964445956 0.9975578224940552 -0.01287295096444596 0.9975578224940552 -0.01287295096444596 0.0024421775059447937 0.012872950964445956
6.951576459256999E7 0.002456982058834948 0.01306262326461999 0.9975430179411652 -0.013062623264619986 0.9975430179411652 -0.013062623264619986 0.002456982058834948 0.01306262326461999
7.056485506111258E7 0.0024721300971863804 0.013254997809957971 0.9975278699028137 -0.013254997809957971 0.9975278699028137 -0.013254997809957971 0.0024721300971863804 0.013254997809957971
7.162977777745734E7 0.002487627344997237 0.013450111087223155 0.9975123726550028 -0.013450111087223155 0.9975123726550028 -0.013450111087223155 0.002487627344997237 0.013450111087223155
7.271077167244768E7 0.0025034795389780574 0.013648000096769466 0.997496520461022 -0.013648000096769466 0.997496520461022 -0.013648000096769466 0.0025034795389780574 0.013648000096769466
7.380807928272885E7 0.002519692426863431 0.013848702364933269 0.9974803075731365 -0.013848702364933269 0.9974803075731365 -0.013848702364933269 0.002519692426863431 0.013848702364933269
7.492194680516452E7 0.002536271765907841 0.01405225595690645 0.9974637282340921 -0.01405225595690645 0.9974637282340921 -0.01405225595690645 0.002536271765907841 0.01405225595690645
7.60526241520746E7 0.0025532233215917154 0.014258699490096902 0.9974467766784082 -0.014258699490096902 0.9974467766784082 -0.014258699490096902 0.0025532233215917154 0.014258699490096902
7.720036500730675E7 0.002570552866564989 0.014468072147981766 0.9974294471334348 -0.014468072147981766 0.9974294471334348 -0.014468072147981766 0.002570552866564989 0.014468072147981766
7.836542688315398E7 0.0025882661798563023 0.014680413694456773 0.9974117338201438 -0.014680413694456773 0.9974117338201438 -0.014680413694456773 0.0025882661798563023 0.014680413694456773
7.954807117813127E7 0.0026063690463770323 0.014895764488683884 0.9973936309536231 -0.014895764488683884 0.9973936309536231 -0.014895764488683884 0.0026063690463770323 0.014895764488683884
8.074856323562416E7 0.002624867256750103 0.015114165500437524 0.9973751327432497 -0.015114165500437524 0.9973751327432497 -0.015114165500437524 0.002624867256750103 0.015114165500437524
8.196717240342227E7 0.0026437666074942386 0.015335658325947823 0.9973562333925058 -0.015335658325947823 0.9973562333925058 -0.015335658325947823 0.0026437666074942386 0.015335658325947823
8.320417209415154E7 0.002663072901595061 0.015560285204237754 0.9973369270984049 -0.015560285204237754 0.9973369270984049 -0.015560285204237754 0.002663072901595061 0.015560285204237754
8.445983984661816E7 0.0026827919494947718 0.015788089033948727 0.9973172080505053 -0.015788089033948727 0.9973172080505053 -0.015788089033948727 0.0026827919494947718 0.015788089033948727
8.573445738807854E7 0.0027029295705326473 0.016019113390647252 0.9972970704294675 -0.016019113390647252 0.9972970704294675 -0.016019113390647252 0.0027029295705326473 0.016019113390647252
8.702831069744885E7 0.0027234915948687157 0.016253402544603297 0.9972765084051313 -0.016253402544603297 0.9972765084051313 -0.016253402544603297 0.0027234915948687157 0.016253402544603297
8.834169006946853E7 0.002744483865923046 0.01649100147902848 0.9972555161340771 -0.016491001479028482 0.9972555161340771 -0.016491001479028482 0.002744483865923046 0.01649100147902848
8.96748901798321E7 0.002765912243363022 0.01673195590876031 0.9972340877566369 -0.01673195590876031 0.9972340877566369 -0.01673195590876031 0.002765912243363022 0.01673195590876031
9.1028210151304E7 0.0027877826066705865 0.016976312299376187 0.9972122173933295 -0.016976312299376187 0.9972122173933295 -0.016976312299376187 0.0027877826066705865 0.016976312299376187
9.240195362083109E7 0.0028101008593210642 0.017224117886718567 0.997189899140679 -0.017224117886718567 0.997189899140679 -0.017224117886718567 0.0028101008593210642 0.017224117886718567
9.379642880766791E7 0.002832872933604478 0.01747542069681062 0.9971671270663954 -0.01747542069681062 0.9971671270663954 -0.01747542069681062 0.002832872933604478 0.01747542069681062
9.521194858253023E7 0.002856104796119337 0.017730269566138955 0.9971438952038807 -0.017730269566138955 0.9971438952038807 -0.017730269566138955 0.002856104796119337 0.017730269566138955
9.664883053779216E7 0.002879802453968008 0.01798871416227837 0.997120197546032 -0.01798871416227837 0.997120197546032 -0.01798871416227837 0.002879802453968008 0.01798871416227837
9.810739705874248E7 0.0029039719616812806 0.01825080500483054 0.9970960280383186 -0.01825080500483054 0.9970960280383186 -0.01825080500483054 0.0029039719616812806 0.01825080500483054
9.958797539591652E7 0.002928619428898496 0.018516593486647182 0.9970713805711017 -0.018516593486647182 0.9970713805711017 -0.018516593486647182 0.002928619428898496 0.018516593486647182
1.0109089773851961E8 0.002953751028827826 0.018786131895305595 0.9970462489711722 -0.018786131895305595 0.9970462489711722 -0.018786131895305595 0.002953751028827826 0.018786131895305595
1.0261650128895843E8 0.0029793730075094627 0.019059473434802715 0.9970206269924906 -0.019059473434802715 0.9970206269924906 -0.019059473434802715 0.0029793730075094627 0.019059473434802715
1.0416512833849736E8 0.003005491693902476 0.019336672247432032 0.9969945083060976 -0.019336672247432032 0.9969945083060976 -0.019336672247432032 0.003005491693902476 0.019336672247432032
1.0573712634405641E8 0.003032113510813825 0.01961778343580585 0.9969678864891863 -0.019617783435805853 0.9969678864891863 -0.019617783435805853 0.003032113510813825 0.01961778343580585
1.0733284800616828E8 0.0030592449866856447 0.019902863084983957 0.9969407550133144 -0.019902863084983957 0.9969407550133144 -0.019902863084983957 0.0030592449866856447 0.019902863084983957
1.0895265134811176E8 0.0030868927682543832 0.020191968284668328 0.9969131072317456 -0.020191968284668328 0.9969131072317456 -0.020191968284668328 0.0030868927682543832 0.020191968284668328
1.1059689979623953E8 0.0031150636340926247 0.0204851571514224 0.9968849363659071 -0.0204851571514224 0.9968849363659071 -0.0204851571514224 0.0031150636340926247 0.0204851571514224
1.1226596226151802E8 0.003143764509041671 0.020782488850872406 0.9968562354909583 -0.020782488850872402 0.9968562354909583 -0.020782488850872402 0.003143764509041671 0.020782488850872406
1.1396021322229806E8 0.0031730024795399753 0.021084023619847726 0.99682699752046 -0.021084023619847726 0.99682699752046 -0.021084023619847726 0.0031730024795399753 0.021084023619847726
1.1568003280833441E8 0.003202784809849511 0.021389822788416484 0.9967972151901503 -0.021389822788416484 0.9967972151901503 -0.021389822788416484 0.003202784809849511 0.021389822788416484
1.1742580688607343E8 0.0032331189591790774 0.021699948801772707 0.9967668810408209 -0.021699948801772707 0.9967668810408209 -0.021699948801772707 0.0032331189591790774 0.021699948801772707
1.1919792714522783E8 0.0032640125997004097 0.022014465241931184 0.9967359874002997 -0.022014465241931184 0.9967359874002997 -0.022014465241931184 0.0032640125997004097 0.022014465241931184
1.2099679118665792E8 0.0032954736354497915 0.02233343684918663 0.9967045263645503 -0.02233343684918663 0.9967045263645503 -0.02233343684918663 0.0032954736354497915 0.02233343684918663
1.2282280261157903E8 0.0033275102221047436 0.022656929543294336 0.996672489777895 -0.022656929543294336 0.996672489777895 -0.022656929543294336 0.0033275102221047436 0.022656929543294336
1.2467637111211549E8 0.0033601307876222645 0.02298501044433041 0.9966398692123777 -0.02298501044433041 0.9966398692123777 -0.02298501044433041 0.0033601307876222645 0.02298501044433041
1.265579125632208E8 0.003393344053721983 0.02331774789319073 0.9966066559462782 -0.023317747893190726 0.9966066559462782 -0.023317747893190726 0.003393344053721983 0.02331774789319073
1.284678491159853E8 0.003427159058194731 0.02365521147168951 0.9965728409418055 -0.02365521147168951 0.9965728409418055 -0.02365521147168951 0.003427159058194731 0.02365521147168951
1.3040660929235186E8 0.0034615851780140975 0.023997472022219836 0.9965384148219859 -0.023997472022219836 0.9965384148219859 -0.023997472022219836 0.0034615851780140975 0.023997472022219836
1.3237462808126101E8 0.0034966321532258634 0.02434460166694048 0.9965033678467738 -0.02434460166694048 0.9965033678467738 -0.02434460166694048 0.0034966321532258634 0.02434460166694048
1.3437234703624701E8 0.0035323101115877224 0.02469667382645584 0.9964676898884123 -0.02469667382645584 0.9964676898884123 -0.02469667382645584 0.0035323101115877224 0.02469667382645584
1.364002143745067E8 0.0035686295939292272 0.025053763237957882 0.9964313704060708 -0.025053763237957882 0.9964313704060708 -0.025053763237957882 0.0035686295939292272 0.025053763237957882
1.3845868507746372E8 0.0036056015801999718 0.02541594597280231 0.9963943984198002 -0.02541594597280231 0.9963943984198002 -0.02541594597280231 0.0036056015801999718 0.02541594597280231
1.405482209928499E8 0.003643237516171889 0.02578329945349308 0.9963567624838281 -0.025783299453493086 0.9963567624838281 -0.025783299453493086 0.003643237516171889 0.02578329945349308
1.426692909383278E8 0.0036815493407601615 0.026155902470053727 0.99631845065924 -0.026155902470053727 0.99631845065924 -0.026155902470053727 0.0036815493407601615 0.026155902470053727
1.4482237080667645E8 0.0037205495139256443 0.026533835195765743 0.9962794504860745 -0.026533835195765743 0.9962794504860745 -0.026533835195765743 0.0037205495139256443 0.026533835195765743
1.4700794367256513E8 0.003760251045120856 0.026917179202259056 0.9962397489548792 -0.026917179202259056 0.9962397489548792 -0.026917179202259056 0.003760251045120856 0.026917179202259056
1.492264999009378E8 0.0038006675222406164 0.027306017473941704 0.9961993324777594 -0.027306017473941704 0.9961993324777594 -0.027306017473941704 0.0038006675222406164 0.027306017473941704
1.5147853725703382E8 0.0038418131410381433 0.027700434421760553 0.9961581868589618 -0.027700434421760553 0.9961581868589618 -0.027700434421760553 0.0038418131410381433 0.027700434421760553
1.5376456101806876E8 0.0038837027349671012 0.02810051589628747 0.9961162972650328 -0.02810051589628747 0.9961162972650328 -0.02810051589628747 0.0038837027349671012 0.02810051589628747
1.5608508408660066E8 0.003926351805410389 0.02850634920012948 0.9960736481945897 -0.02850634920012948 0.9960736481945897 -0.02850634920012948 0.003926351805410389 0.02850634920012948
1.5844062710560706E8 0.003969776552256927 0.02891802309966486 0.9960302234477431 -0.028918023099664857 0.9960302234477431 -0.028918023099664857 0.003969776552256927 0.02891802309966486
1.6083171857529896E8 0.004013993904788413 0.029335627836110517 0.9959860060952115 -0.029335627836110517 0.9959860060952115 -0.029335627836110517 0.004013993904788413 0.029335627836110517
1.632588949716973E8 0.004059021552839289 0.029759255135929443 0.9959409784471608 -0.029759255135929443 0.9959409784471608 -0.029759255135929443 0.004059021552839289 0.029759255135929443
1.6572270086699936E8 0.00410487797819441 0.030188998220590492 0.9958951220218057 -0.030188998220590492 0.9958951220218057 -0.030188998220590492 0.00410487797819441 0.030188998220590492
1.6822368905176118E8 0.00415158248619072 0.03062495181569554 0.9958484175138095 -0.030624951815695547 0.9958484175138095 -0.030624951815695547 0.00415158248619072 0.03062495181569554
1.7076242065892437E8 0.004199155237491125 0.031067212159492607 0.9958008447625089 -0.031067212159492607 0.9958008447625089 -0.031067212159492607 0.004199155237491125 0.031067212159492607
1.7333946528971428E8 0.004247617280001039 0.03151587701079584 0.995752382719999 -0.031515877010795834 0.995752382719999 -0.031515877010795834 0.004247617280001039 0.03151587701079584
1.7595540114143828E8 0.0042969905809004385 0.03197104565633621 0.9957030094190996 -0.03197104565633621 0.9957030094190996 -0.03197104565633621 0.0042969905809004385 0.03197104565633621
1.786108151372127E8 0.004347298058767039 0.032432818917569224 0.9956527019412331 -0.032432818917569224 0.9956527019412331 -0.032432818917569224 0.004347298058767039 0.032432818917569224
1.8130630305764765E8 0.004398563615768924 0.032901299156967614 0.995601436384231 -0.032901299156967614 0.995601436384231 -0.032901299156967614 0.004398563615768924 0.032901299156967614
1.840424696745189E8 0.004450812169908081 0.033376590283829666 0.9955491878300919 -0.033376590283829666 0.9955491878300919 -0.033376590283829666 0.004450812169908081 0.033376590283829666
1.8681992888645732E8 0.004504069687299372 0.033858797759634865 0.9954959303127008 -0.033858797759634865 0.9954959303127008 -0.033858797759634865 0.004504069687299372 0.033858797759634865
1.8963930385668582E8 0.0045583632144727436 0.034348028602980106 0.9954416367855272 -0.03434802860298011 0.9954416367855272 -0.03434802860298011 0.0045583632144727436 0.034348028602980106
1.92501227152835E8 0.004613720910689854 0.03484439139413103 0.9953862790893102 -0.03484439139413103 0.9953862790893102 -0.03484439139413103 0.004613720910689854 0.03484439139413103
1.9540634088886917E8 0.004670172080269635 0.035347996279223554 0.9953298279197302 -0.035347996279223554 0.9953298279197302 -0.035347996279223554 0.004670172080269635 0.035347996279223554
1.983552968691535E8 0.004727747204920793 0.035858954974151494 0.9952722527950791 -0.035858954974151494 0.9952722527950791 -0.035858954974151494 0.004727747204920793 0.035858954974151494
2.0134875673469606E8 0.004786477976082661 0.03637738076817629 0.9952135220239172 -0.03637738076817628 0.9952135220239172 -0.03637738076817628 0.004786477976082661 0.03637738076817629
2.0438739211159652E8 0.004846397327279238 0.03690338852729494 0.9951536026727206 -0.03690338852729494 0.9951536026727206 -0.03690338852729494 0.004846397327279238 0.03690338852729494
2.074718847617352E8 0.004907539466494604 0.03743709469740204 0.9950924605335054 -0.03743709469740204 0.9950924605335054 -0.03743709469740204 0.004907539466494604 0.03743709469740204
2.106029267357361E8 0.004969939908581296 0.03797861730728121 0.9950300600914186 -0.0379786173072812 0.9950300600914186 -0.0379786173072812 0.004969939908581296 0.03797861730728121
2.1378122052823865E8 0.005033635507716329 0.038528075971460726 0.9949663644922837 -0.03852807597146072 0.9949663644922837 -0.03852807597146072 0.005033635507716329 0.038528075971460726
2.1700747923551247E8 0.005098664489922786 0.03908559189296693 0.9949013355100771 -0.03908559189296693 0.9949013355100771 -0.03908559189296693 0.005098664489922786 0.03908559189296693
2.2028242671545094E8 0.005165066485677851 0.039651287866008154 0.9948349335143222 -0.039651287866008154 0.9948349335143222 -0.039651287866008154 0.005165066485677851 0.039651287866008154
2.23606797749979E8 0.005232882562631056 0.0402252882786203 0.9947671174373689 -0.0402252882786203 0.9947671174373689 -0.0402252882786203 0.005232882562631056 0.0402252882786203
2.2698133820991236E8 0.0053021552584592326 0.04080771911530405 0.9946978447415407 -0.04080771911530405 0.9946978447415407 -0.04080771911530405 0.0053021552584592326 0.04080771911530405
2.3040680522230446E8 0.005372928613887274 0.04139870795968185 0.9946270713861128 -0.04139870795968185 0.9946270713861128 -0.04139870795968185 0.005372928613887274 0.04139870795968185
2.338839673403185E8 0.005445248205906162 0.04199838399720087 0.9945547517940938 -0.04199838399720087 0.9945547517940938 -0.04199838399720087 0.005445248205906162 0.04199838399720087
2.37413604715664E8 0.005519161181222061 0.04260687801790695 0.994480838818778 -0.04260687801790695 0.994480838818778 -0.04260687801790695 0.005519161181222061 0.04260687801790695
