!Murata Part Number: LQP15MN6N8B02
!These Parameters are Measured in Series Mode Connection
!       o--[Z]--o
!Port1              Port2
!       o-------o
!
!Freq. Start=50[MHz] Stop=20[GHz], 401[Steps]
# Hz S RI R 50
!Freq.(Hz) S11(Real) S11(Imag) S21(Real) S21(Imag) S12(Real) S12(Imag) S22(Real) S22(Imag)
5.0E7 0.006493733111714549 0.020645993382086125 0.9935062668882854 -0.020645993382086125 0.9935062668882854 -0.020645993382086125 0.006493733111714549 0.020645993382086125
5.0754570186123446E7 0.006512286553720593 0.02095633312680703 0.9934877134462793 -0.02095633312680703 0.9934877134462793 -0.02095633312680703 0.006512286553720593 0.02095633312680703
5.152052789556263E7 0.006531395017636527 0.0212713012647457 0.9934686049823634 -0.0212713012647457 0.9934686049823634 -0.0212713012647457 0.006531395017636527 0.0212713012647457
5.229804498202928E7 0.006551074844326032 0.02159096520651114 0.9934489251556738 -0.02159096520651114 0.9934489251556738 -0.02159096520651114 0.006551074844326032 0.02159096520651114
5.308729589274893E7 0.006571342839657495 0.021915393275113073 0.9934286571603423 -0.021915393275113073 0.9934286571603423 -0.021915393275113073 0.006571342839657495 0.021915393275113073
5.388845770760058E7 0.006592216286813403 0.02224465471544838 0.9934077837131867 -0.022244654715448377 0.9934077837131867 -0.022244654715448377 0.006592216286813403 0.02224465471544838
5.470171017884717E7 0.006613712958873504 0.022578819703772342 0.9933862870411264 -0.022578819703772342 0.9933862870411264 -0.022578819703772342 0.006613712958873504 0.022578819703772342
5.5527235771465644E7 0.00663585113167497 0.022917959357149915 0.9933641488683251 -0.022917959357149915 0.9933641488683251 -0.022917959357149915 0.00663585113167497 0.022917959357149915
5.6365219704085544E7 0.006658649596952582 0.023262145742881934 0.9933413504030474 -0.023262145742881938 0.9933413504030474 -0.023262145742881938 0.006658649596952582 0.023262145742881934
5.721584999054556E7 0.00668212767576185 0.023611451887901407 0.9933178723242382 -0.023611451887901407 0.9933178723242382 -0.023611451887901407 0.00668212767576185 0.023611451887901407
5.807931748207712E7 0.006706305232187873 0.02396595178813464 0.9932936947678124 -0.023965951788134644 0.9932936947678124 -0.023965951788134644 0.006706305232187873 0.02396595178813464
5.8955815910124585E7 0.0067312026873424845 0.024325720417822046 0.9932687973126576 -0.024325720417822046 0.9932687973126576 -0.024325720417822046 0.0067312026873424845 0.024325720417822046
5.984554192981184E7 0.00675684103365221 0.02469083373879343 0.9932431589663477 -0.02469083373879343 0.9932431589663477 -0.02469083373879343 0.00675684103365221 0.02469083373879343
6.074869516406457E7 0.00678324184943918 0.025061368709692257 0.9932167581505607 -0.025061368709692257 0.9932167581505607 -0.025061368709692257 0.00678324184943918 0.025061368709692257
6.166547824839868E7 0.006810427313797145 0.025437403295143685 0.9931895726862028 -0.025437403295143685 0.9931895726862028 -0.025437403295143685 0.006810427313797145 0.025437403295143685
6.2596096876384385E7 0.0068384202217644215 0.025819016474860828 0.9931615797782356 -0.02581901647486083 0.9931615797782356 -0.02581901647486083 0.0068384202217644215 0.025819016474860828
6.354075984579668E7 0.006867243999795396 0.026206288252683986 0.9931327560002045 -0.026206288252683986 0.9931327560002045 -0.026206288252683986 0.006867243999795396 0.026206288252683986
6.449967910546205E7 0.006896922721532073 0.026599299665547242 0.9931030772784678 -0.026599299665547242 0.9931030772784678 -0.026599299665547242 0.006896922721532073 0.026599299665547242
6.547306980281226E7 0.006927481123876767 0.02699813279236716 0.9930725188761232 -0.026998132792367166 0.9930725188761232 -0.026998132792367166 0.006927481123876767 0.02699813279236716
6.646115033215589E7 0.006958944623366956 0.027402870762848187 0.9930410553766328 -0.027402870762848187 0.9930410553766328 -0.027402870762848187 0.006958944623366956 0.027402870762848187
6.746414238367817E7 0.006991339332852972 0.02781359776619945 0.993008660667147 -0.02781359776619945 0.993008660667147 -0.02781359776619945 0.006991339332852972 0.02781359776619945
6.848227099318038E7 0.00702469207847896 0.028230399059757792 0.992975307921521 -0.028230399059757792 0.992975307921521 -0.028230399059757792 0.00702469207847896 0.028230399059757792
6.951576459256999E7 0.007059030416967309 0.028653360977511973 0.9929409695830327 -0.02865336097751198 0.9929409695830327 -0.02865336097751198 0.007059030416967309 0.028653360977511973
7.056485506111258E7 0.007094382653206426 0.029082570938523112 0.9929056173467937 -0.029082570938523112 0.9929056173467937 -0.029082570938523112 0.007094382653206426 0.029082570938523112
7.162977777745734E7 0.007130777858141517 0.02951811745523651 0.9928692221418587 -0.02951811745523651 0.9928692221418587 -0.02951811745523651 0.007130777858141517 0.02951811745523651
7.271077167244768E7 0.007168245886967686 0.02996009014168053 0.9928317541130321 -0.029960090141680523 0.9928317541130321 -0.029960090141680523 0.007168245886967686 0.02996009014168053
7.380807928272885E7 0.0072068173976245 0.030408579721547993 0.9927931826023755 -0.030408579721548 0.9927931826023755 -0.030408579721548 0.0072068173976245 0.030408579721547993
7.492194680516452E7 0.00724652386959072 0.030863678036156247 0.9927534761304095 -0.030863678036156243 0.9927534761304095 -0.030863678036156243 0.00724652386959072 0.030863678036156247
7.60526241520746E7 0.007287397622977801 0.03132547805228215 0.9927126023770223 -0.031325478052282155 0.9927126023770223 -0.031325478052282155 0.007287397622977801 0.03132547805228215
7.720036500730675E7 0.007329471837920368 0.031794073869868676 0.9926705281620797 -0.031794073869868676 0.9926705281620797 -0.031794073869868676 0.007329471837920368 0.031794073869868676
7.836542688315398E7 0.007372780574261662 0.03226956072960013 0.9926272194257383 -0.03226956072960014 0.9926272194257383 -0.03226956072960014 0.007372780574261662 0.03226956072960013
7.954807117813127E7 0.007417358791531696 0.032752035020343725 0.9925826412084684 -0.032752035020343725 0.9925826412084684 -0.032752035020343725 0.007417358791531696 0.032752035020343725
8.074856323562416E7 0.0074632423692155775 0.03324159428645516 0.9925367576307845 -0.03324159428645516 0.9925367576307845 -0.03324159428645516 0.0074632423692155775 0.03324159428645516
8.196717240342227E7 0.007510468127309341 0.033738337234947256 0.9924895318726906 -0.033738337234947256 0.9924895318726906 -0.033738337234947256 0.007510468127309341 0.033738337234947256
8.320417209415154E7 0.007559073847160265 0.0342423637425206 0.9924409261528397 -0.0342423637425206 0.9924409261528397 -0.0342423637425206 0.007559073847160265 0.0342423637425206
8.445983984661816E7 0.007609098292588612 0.03475377486245593 0.9923909017074115 -0.03475377486245593 0.9923909017074115 -0.03475377486245593 0.007609098292588612 0.03475377486245593
8.573445738807854E7 0.007660581231287554 0.03527267283136919 0.9923394187687125 -0.03527267283136919 0.9923394187687125 -0.03527267283136919 0.007660581231287554 0.03527267283136919
8.702831069744885E7 0.0077135634564978565 0.03579916107583031 0.9922864365435021 -0.03579916107583031 0.9922864365435021 -0.03579916107583031 0.0077135634564978565 0.03579916107583031
8.834169006946853E7 0.007768086808953862 0.03633334421884796 0.9922319131910461 -0.03633334421884796 0.9922319131910461 -0.03633334421884796 0.007768086808953862 0.03633334421884796
8.96748901798321E7 0.007824194199097403 0.036875328086223534 0.9921758058009025 -0.036875328086223534 0.9921758058009025 -0.036875328086223534 0.007824194199097403 0.036875328086223534
9.1028210151304E7 0.00788192962955603 0.03742521971277826 0.9921180703704441 -0.037425219712778256 0.9921180703704441 -0.037425219712778256 0.00788192962955603 0.03742521971277826
9.240195362083109E7 0.007941338217882302 0.03798312734845847 0.9920586617821175 -0.03798312734845846 0.9920586617821175 -0.03798312734845846 0.007941338217882302 0.03798312734845847
9.379642880766791E7 0.008002466219550844 0.03854916046432548 0.9919975337804492 -0.03854916046432548 0.9919975337804492 -0.03854916046432548 0.008002466219550844 0.03854916046432548
9.521194858253023E7 0.008065361051210137 0.03912342975843695 0.9919346389487897 -0.03912342975843695 0.9919346389487897 -0.03912342975843695 0.008065361051210137 0.03912342975843695
9.664883053779216E7 0.008130071314186426 0.03970604716162895 0.9918699286858136 -0.03970604716162895 0.9918699286858136 -0.03970604716162895 0.008130071314186426 0.03970604716162895
9.810739705874248E7 0.008196646818237195 0.040297125843207625 0.9918033531817629 -0.040297125843207625 0.9918033531817629 -0.040297125843207625 0.008196646818237195 0.040297125843207625
9.958797539591652E7 0.008265138605552612 0.0408967802165627 0.9917348613944474 -0.0408967802165627 0.9917348613944474 -0.0408967802165627 0.008265138605552612 0.0408967802165627
1.0109089773851961E8 0.008335598975003418 0.04150512594471452 0.9916644010249968 -0.04150512594471452 0.9916644010249968 -0.04150512594471452 0.008335598975003418 0.04150512594471452
1.0261650128895843E8 0.008408081506634885 0.04212227994580922 0.9915919184933653 -0.042122279945809214 0.9915919184933653 -0.042122279945809214 0.008408081506634885 0.04212227994580922
1.0416512833849736E8 0.008482641086406955 0.04274836039857732 0.9915173589135928 -0.04274836039857732 0.9915173589135928 -0.04274836039857732 0.008482641086406955 0.04274836039857732
1.0573712634405641E8 0.008559333931181854 0.043383486747773134 0.9914406660688182 -0.04338348674777313 0.9914406660688182 -0.04338348674777313 0.008559333931181854 0.043383486747773134
1.0733284800616828E8 0.008638217613961446 0.04402777970961328 0.9913617823860386 -0.044027779709613274 0.9913617823860386 -0.044027779709613274 0.008638217613961446 0.04402777970961328
1.0895265134811176E8 0.008719351089377962 0.04468136127723542 0.991280648910622 -0.04468136127723542 0.991280648910622 -0.04468136127723542 0.008719351089377962 0.04468136127723542
1.1059689979623953E8 0.008802794719443055 0.04534435472619863 0.991197205280557 -0.04534435472619864 0.991197205280557 -0.04534435472619864 0.008802794719443055 0.04534435472619863
1.1226596226151802E8 0.008888610299561851 0.046016884620049686 0.9911113897004379 -0.04601688462004968 0.9911113897004379 -0.04601688462004968 0.008888610299561851 0.046016884620049686
1.1396021322229806E8 0.008976861084820363 0.04669907681598049 0.9910231389151797 -0.04669907681598049 0.9910231389151797 -0.04669907681598049 0.008976861084820363 0.04669907681598049
1.1568003280833441E8 0.00906761181655675 0.04739105847060422 0.9909323881834431 -0.04739105847060422 0.9909323881834431 -0.04739105847060422 0.00906761181655675 0.04739105847060422
1.1742580688607343E8 0.009160928749228952 0.048092958045879 0.9908390712507711 -0.048092958045879 0.9908390712507711 -0.048092958045879 0.009160928749228952 0.048092958045879
1.1919792714522783E8 0.009256879677593838 0.04880490531520977 0.9907431203224062 -0.048804905315209764 0.9907431203224062 -0.048804905315209764 0.009256879677593838 0.04880490531520977
1.2099679118665792E8 0.00935553396421561 0.049527031369761124 0.9906444660357843 -0.049527031369761124 0.9906444660357843 -0.049527031369761124 0.00935553396421561 0.049527031369761124
1.2282280261157903E8 0.009456962567323972 0.05025946862501458 0.9905430374326761 -0.05025946862501458 0.9905430374326761 -0.05025946862501458 0.009456962567323972 0.05025946862501458
1.2467637111211549E8 0.00956123806904601 0.05100235082760634 0.9904387619309539 -0.05100235082760633 0.9904387619309539 -0.05100235082760633 0.00956123806904601 0.05100235082760634
1.265579125632208E8 0.00966843470403893 0.05175581306248238 0.990331565295961 -0.051755813062482364 0.990331565295961 -0.051755813062482364 0.00966843470403893 0.05175581306248238
1.284678491159853E8 0.009778628388554594 0.05251999176040933 0.9902213716114453 -0.05251999176040934 0.9902213716114453 -0.05251999176040934 0.009778628388554594 0.05251999176040933
1.3040660929235186E8 0.009891896749970746 0.05329502470588098 0.9901081032500292 -0.05329502470588098 0.9901081032500292 -0.05329502470588098 0.009891896749970746 0.05329502470588098
1.3237462808126101E8 0.010008319156828132 0.054081051045460904 0.989991680843172 -0.054081051045460904 0.989991680843172 -0.054081051045460904 0.010008319156828132 0.054081051045460904
1.3437234703624701E8 0.010127976749417119 0.05487821129660287 0.9898720232505828 -0.054878211296602857 0.9898720232505828 -0.054878211296602857 0.010127976749417119 0.05487821129660287
1.364002143745067E8 0.010250952470962499 0.055686647356992094 0.9897490475290375 -0.055686647356992094 0.9897490475290375 -0.055686647356992094 0.010250952470962499 0.055686647356992094
1.3845868507746372E8 0.010377331099460008 0.05650650251444914 0.9896226689005398 -0.05650650251444914 0.9896226689005398 -0.05650650251444914 0.010377331099460008 0.05650650251444914
1.405482209928499E8 0.010507199280223733 0.05733792145744027 0.9894928007197761 -0.05733792145744027 0.9894928007197761 -0.05733792145744027 0.010507199280223733 0.05733792145744027
1.426692909383278E8 0.010640645559209261 0.058181050286237206 0.9893593544407906 -0.05818105028623721 0.9893593544407906 -0.05818105028623721 0.010640645559209261 0.058181050286237206
1.4482237080667645E8 0.010777760417183218 0.059036036524768444 0.9892222395828169 -0.059036036524768444 0.9892222395828169 -0.059036036524768444 0.010777760417183218 0.059036036524768444
1.4700794367256513E8 0.010918636304816483 0.0599030291332045 0.9890813636951834 -0.0599030291332045 0.9890813636951834 -0.0599030291332045 0.010918636304816483 0.0599030291332045
1.492264999009378E8 0.011063367678784491 0.06078217852131734 0.9889366323212154 -0.06078217852131733 0.9889366323212154 -0.06078217852131733 0.011063367678784491 0.06078217852131734
1.5147853725703382E8 0.01121205103896514 0.06167363656265318 0.9887879489610347 -0.06167363656265318 0.9887879489610347 -0.06167363656265318 0.01121205103896514 0.06167363656265318
1.5376456101806876E8 0.011364784966831628 0.06257755660955573 0.9886352150331682 -0.06257755660955573 0.9886352150331682 -0.06257755660955573 0.011364784966831628 0.06257755660955573
1.5608508408660066E8 0.011521670165144972 0.0634940935090744 0.9884783298348551 -0.0634940935090744 0.9884783298348551 -0.0634940935090744 0.011521670165144972 0.0634940935090744
1.5844062710560706E8 0.011682809499058103 0.06442340361978838 0.988317190500942 -0.06442340361978838 0.988317190500942 -0.06442340361978838 0.011682809499058103 0.06442340361978838
1.6083171857529896E8 0.01184830803875132 0.06536564482957502 0.9881516919612487 -0.06536564482957502 0.9881516919612487 -0.06536564482957502 0.01184830803875132 0.06536564482957502
1.632588949716973E8 0.012018273103726272 0.06632097657434514 0.9879817268962738 -0.06632097657434514 0.9879817268962738 -0.06632097657434514 0.012018273103726272 0.06632097657434514
1.6572270086699936E8 0.012192814308893784 0.06728955985776436 0.9878071856911061 -0.06728955985776436 0.9878071856911061 -0.06728955985776436 0.012192814308893784 0.06728955985776436
1.6822368905176118E8 0.012372043612598279 0.06827155727197283 0.9876279563874019 -0.06827155727197283 0.9876279563874019 -0.06827155727197283 0.012372043612598279 0.06827155727197283
1.7076242065892437E8 0.012556075366729761 0.06926713301931063 0.9874439246332701 -0.06926713301931063 0.9874439246332701 -0.06926713301931063 0.012556075366729761 0.06926713301931063
1.7333946528971428E8 0.012745026369081801 0.07027645293504745 0.9872549736309182 -0.07027645293504745 0.9872549736309182 -0.07027645293504745 0.012745026369081801 0.07027645293504745
1.7595540114143828E8 0.012939015918122028 0.07129968451110917 0.9870609840818779 -0.07129968451110917 0.9870609840818779 -0.07129968451110917 0.012939015918122028 0.07129968451110917
1.786108151372127E8 0.013138165870348752 0.07233699692078417 0.9868618341296511 -0.07233699692078417 0.9868618341296511 -0.07233699692078417 0.013138165870348752 0.07233699692078417
1.8130630305764765E8 0.013342600700415097 0.07338856104438313 0.986657399299585 -0.07338856104438311 0.986657399299585 -0.07338856104438311 0.013342600700415097 0.07338856104438313
1.840424696745189E8 0.01355244756420874 0.07445454949581617 0.9864475524357912 -0.07445454949581617 0.9864475524357912 -0.07445454949581617 0.01355244756420874 0.07445454949581617
1.8681992888645732E8 0.013767836365082215 0.07553513665004001 0.9862321636349177 -0.07553513665004001 0.9862321636349177 -0.07553513665004001 0.013767836365082215 0.07553513665004001
1.8963930385668582E8 0.013988899823435005 0.07663049867131566 0.9860111001765651 -0.07663049867131566 0.9860111001765651 -0.07663049867131566 0.013988899823435005 0.07663049867131566
1.92501227152835E8 0.01421577354985447 0.07774081354220534 0.9857842264501455 -0.07774081354220534 0.9857842264501455 -0.07774081354220534 0.01421577354985447 0.07774081354220534
1.9540634088886917E8 0.014448596122027708 0.07886626109322328 0.9855514038779725 -0.0788662610932233 0.9855514038779725 -0.0788662610932233 0.014448596122027708 0.07886626109322328
1.983552968691535E8 0.014687509165641165 0.0800070230330405 0.9853124908343589 -0.0800070230330405 0.9853124908343589 -0.0800070230330405 0.014687509165641165 0.0800070230330405
2.0134875673469606E8 0.014932657439488836 0.08116328297913011 0.9850673425605112 -0.0811632829791301 0.9850673425605112 -0.0811632829791301 0.014932657439488836 0.08116328297913011
2.0438739211159652E8 0.015184188925012361 0.08233522648872196 0.9848158110749876 -0.08233522648872195 0.9848158110749876 -0.08233522648872195 0.015184188925012361 0.08233522648872196
2.074718847617352E8 0.015442254920499221 0.08352304108992069 0.9845577450795009 -0.08352304108992069 0.9845577450795009 -0.08352304108992069 0.015442254920499221 0.08352304108992069
2.106029267357361E8 0.015707010140165928 0.0847269163128235 0.9842929898598342 -0.0847269163128235 0.9842929898598342 -0.0847269163128235 0.015707010140165928 0.0847269163128235
2.1378122052823865E8 0.01597861281835343 0.08594704372045588 0.9840213871816464 -0.08594704372045588 0.9840213871816464 -0.08594704372045588 0.01597861281835343 0.08594704372045588
2.1700747923551247E8 0.016257224819061222 0.08718361693932651 0.9837427751809389 -0.08718361693932651 0.9837427751809389 -0.08718361693932651 0.016257224819061222 0.08718361693932651
2.2028242671545094E8 0.016543011751044154 0.08843683168938217 0.983456988248956 -0.08843683168938217 0.983456988248956 -0.08843683168938217 0.016543011751044154 0.08843683168938217
2.23606797749979E8 0.01683614308869312 0.08970688581312662 0.9831638569113069 -0.08970688581312662 0.9831638569113069 -0.08970688581312662 0.01683614308869312 0.08970688581312662
2.2698133820991236E8 0.017136792298915873 0.09099397930364603 0.982863207701084 -0.09099397930364603 0.982863207701084 -0.09099397930364603 0.017136792298915873 0.09099397930364603
2.3040680522230446E8 0.01744513697422828 0.09229831433126513 0.9825548630257717 -0.09229831433126513 0.9825548630257717 -0.09229831433126513 0.01744513697422828 0.09229831433126513
2.338839673403185E8 0.01776135897225925 0.09362009526853848 0.9822386410277408 -0.09362009526853848 0.9822386410277408 -0.09362009526853848 0.01776135897225925 0.09362009526853848
2.37413604715664E8 0.018085644561863713 0.09495952871326145 0.9819143554381363 -0.09495952871326145 0.9819143554381363 -0.09495952871326145 0.018085644561863713 0.09495952871326145
2.4099650927363476E8 0.018418184576027855 0.09631682350916584 0.9815818154239722 -0.09631682350916584 0.9815818154239722 -0.09631682350916584 0.018418184576027855 0.09631682350916584
2.446334848907889E8 0.01875917457173939 0.09769219076394638 0.9812408254282605 -0.09769219076394638 0.9812408254282605 -0.09769219076394638 0.01875917457173939 0.09769219076394638
