!Murata Part Number: LQP15MN7N5B02
!These Parameters are Measured in Series Mode Connection
!       o--[Z]--o
!Port1              Port2
!       o-------o
!
!Freq. Start=50[MHz] Stop=20[GHz], 401[Steps]
# Hz S RI R 50
!Freq.(Hz) S11(Real) S11(Imag) S21(Real) S21(Imag) S12(Real) S12(Imag) S22(Real) S22(Imag)
5.0E7 0.007778121249450645 0.02263071816445409 0.9922218787505493 -0.02263071816445409 0.9922218787505493 -0.02263071816445409 0.007778121249450645 0.02263071816445409
5.0754570186123446E7 0.007798195505627926 0.022971128029472338 0.9922018044943722 -0.022971128029472335 0.9922018044943722 -0.022971128029472335 0.007798195505627926 0.022971128029472338
5.152052789556263E7 0.007818873177606428 0.02331662889555816 0.9921811268223937 -0.02331662889555816 0.9921811268223937 -0.02331662889555816 0.007818873177606428 0.02331662889555816
5.229804498202928E7 0.007840172269358908 0.023667295473176603 0.992159827730641 -0.023667295473176603 0.992159827730641 -0.023667295473176603 0.007840172269358908 0.023667295473176603
5.308729589274893E7 0.007862111309771014 0.024023203507182535 0.9921378886902289 -0.024023203507182532 0.9921378886902289 -0.024023203507182532 0.007862111309771014 0.024023203507182535
5.388845770760058E7 0.007884709367318565 0.024384429788491625 0.9921152906326816 -0.024384429788491622 0.9921152906326816 -0.024384429788491622 0.007884709367318565 0.024384429788491625
5.470171017884717E7 0.00790798606511802 0.024751052165768575 0.992092013934882 -0.02475105216576858 0.992092013934882 -0.02475105216576858 0.00790798606511802 0.024751052165768575
5.5527235771465644E7 0.00793196159635761 0.02512314955712755 0.9920680384036424 -0.02512314955712755 0.9920680384036424 -0.02512314955712755 0.00793196159635761 0.02512314955712755
5.6365219704085544E7 0.00795665674011649 0.025500801961839015 0.9920433432598835 -0.025500801961839015 0.9920433432598835 -0.025500801961839015 0.00795665674011649 0.025500801961839015
5.721584999054556E7 0.007982092877579236 0.0258840904720373 0.9920179071224209 -0.025884090472037307 0.9920179071224209 -0.025884090472037307 0.007982092877579236 0.0258840904720373
5.807931748207712E7 0.00800829200865333 0.02627309728442297 0.9919917079913466 -0.02627309728442297 0.9919917079913466 -0.02627309728442297 0.00800829200865333 0.02627309728442297
5.8955815910124585E7 0.00803527676899685 0.026667905711953495 0.9919647232310032 -0.0266679057119535 0.9919647232310032 -0.0266679057119535 0.00803527676899685 0.026667905711953495
5.984554192981184E7 0.00806307044746401 0.027068600195516088 0.991936929552536 -0.027068600195516088 0.991936929552536 -0.027068600195516088 0.00806307044746401 0.027068600195516088
6.074869516406457E7 0.00809169700397585 0.027475266315575744 0.9919083029960241 -0.027475266315575744 0.9919083029960241 -0.027475266315575744 0.00809169700397585 0.027475266315575744
6.166547824839868E7 0.008121181087823571 0.027887990803791732 0.9918788189121764 -0.027887990803791732 0.9918788189121764 -0.027887990803791732 0.008121181087823571 0.027887990803791732
6.2596096876384385E7 0.008151548056411877 0.028306861554595122 0.9918484519435881 -0.028306861554595122 0.9918484519435881 -0.028306861554595122 0.008151548056411877 0.028306861554595122
6.354075984579668E7 0.008182823994449747 0.028731967636720486 0.9918171760055502 -0.028731967636720486 0.9918171760055502 -0.028731967636720486 0.008182823994449747 0.028731967636720486
6.449967910546205E7 0.008215035733595904 0.029163399304683497 0.9917849642664043 -0.029163399304683497 0.9917849642664043 -0.029163399304683497 0.008215035733595904 0.029163399304683497
6.547306980281226E7 0.008248210872566195 0.029601248010196944 0.991751789127434 -0.029601248010196944 0.991751789127434 -0.029601248010196944 0.008248210872566195 0.029601248010196944
6.646115033215589E7 0.008282377797710279 0.030045606413517355 0.9917176222022898 -0.030045606413517355 0.9917176222022898 -0.030045606413517355 0.008282377797710279 0.030045606413517355
6.746414238367817E7 0.008317565704064526 0.030496568394713396 0.9916824342959353 -0.030496568394713396 0.9916824342959353 -0.030496568394713396 0.008317565704064526 0.030496568394713396
6.848227099318038E7 0.008353804616888328 0.03095422906484797 0.9916461953831116 -0.030954229064847964 0.9916461953831116 -0.030954229064847964 0.008353804616888328 0.03095422906484797
6.951576459256999E7 0.008391125413690729 0.03141868477706532 0.9916088745863093 -0.03141868477706531 0.9916088745863093 -0.03141868477706531 0.008391125413690729 0.03141868477706532
7.056485506111258E7 0.008429559846754175 0.03189003313757399 0.9915704401532457 -0.03189003313757399 0.9915704401532457 -0.03189003313757399 0.008429559846754175 0.03189003313757399
7.162977777745734E7 0.008469140566162287 0.0323683730165172 0.9915308594338377 -0.0323683730165172 0.9915308594338377 -0.0323683730165172 0.008469140566162287 0.0323683730165172
7.271077167244768E7 0.00850990114333802 0.03285380455872057 0.9914900988566621 -0.03285380455872057 0.9914900988566621 -0.03285380455872057 0.00850990114333802 0.03285380455872057
7.380807928272885E7 0.00855187609509893 0.03334642919430854 0.9914481239049011 -0.03334642919430854 0.9914481239049011 -0.03334642919430854 0.00855187609509893 0.03334642919430854
7.492194680516452E7 0.008595100908235795 0.033846349649179826 0.9914048990917641 -0.033846349649179826 0.9914048990917641 -0.033846349649179826 0.008595100908235795 0.033846349649179826
7.60526241520746E7 0.008639612064620718 0.034353669955331886 0.9913603879353793 -0.03435366995533189 0.9913603879353793 -0.03435366995533189 0.008639612064620718 0.034353669955331886
7.720036500730675E7 0.00868544706685089 0.034868495461025176 0.9913145529331491 -0.034868495461025176 0.9913145529331491 -0.034868495461025176 0.00868544706685089 0.034868495461025176
7.836542688315398E7 0.008732644464433777 0.035390932840777024 0.9912673555355663 -0.03539093284077703 0.9912673555355663 -0.03539093284077703 0.008732644464433777 0.035390932840777024
7.954807117813127E7 0.008781243880519466 0.035921090105175336 0.9912187561194807 -0.035921090105175336 0.9912187561194807 -0.035921090105175336 0.008781243880519466 0.035921090105175336
8.074856323562416E7 0.00883128603918573 0.03645907661050213 0.9911687139608144 -0.03645907661050213 0.9911687139608144 -0.03645907661050213 0.00883128603918573 0.03645907661050213
8.196717240342227E7 0.008882812793281075 0.0370050030681569 0.9911171872067188 -0.0370050030681569 0.9911171872067188 -0.0370050030681569 0.008882812793281075 0.0370050030681569
8.320417209415154E7 0.008935867152831069 0.037558981553870184 0.9910641328471689 -0.037558981553870184 0.9910641328471689 -0.037558981553870184 0.008935867152831069 0.037558981553870184
8.445983984661816E7 0.008990493314012752 0.038121125516696615 0.9910095066859873 -0.038121125516696615 0.9910095066859873 -0.038121125516696615 0.008990493314012752 0.038121125516696615
8.573445738807854E7 0.009046736688702164 0.03869154978777865 0.9909532633112978 -0.03869154978777865 0.9909532633112978 -0.03869154978777865 0.009046736688702164 0.03869154978777865
8.702831069744885E7 0.009104643934599381 0.039270370588870195 0.9908953560654006 -0.039270370588870195 0.9908953560654006 -0.039270370588870195 0.009104643934599381 0.039270370588870195
8.834169006946853E7 0.009164262985935692 0.03985770554061124 0.9908357370140642 -0.03985770554061123 0.9908357370140642 -0.03985770554061123 0.009164262985935692 0.03985770554061124
8.96748901798321E7 0.009225643084767114 0.040453673670543554 0.9907743569152329 -0.04045367367054355 0.9907743569152329 -0.04045367367054355 0.009225643084767114 0.040453673670543554
9.1028210151304E7 0.00928883481285842 0.041058395420858554 0.9907111651871415 -0.04105839542085855 0.9907111651871415 -0.04105839542085855 0.00928883481285842 0.041058395420858554
9.240195362083109E7 0.009353890124161695 0.04167199265586808 0.9906461098758385 -0.04167199265586808 0.9906461098758385 -0.04167199265586808 0.009353890124161695 0.04167199265586808
9.379642880766791E7 0.009420862377893262 0.04229458866918937 0.9905791376221068 -0.04229458866918937 0.9905791376221068 -0.04229458866918937 0.009420862377893262 0.04229458866918937
9.521194858253023E7 0.009489806372212833 0.04292630819063612 0.9905101936277872 -0.04292630819063612 0.9905101936277872 -0.04292630819063612 0.009489806372212833 0.04292630819063612
9.664883053779216E7 0.009560778378508576 0.04356727739280742 0.9904392216214916 -0.04356727739280742 0.9904392216214916 -0.04356727739280742 0.009560778378508576 0.04356727739280742
9.810739705874248E7 0.009633836176291747 0.044217623897367074 0.9903661638237082 -0.044217623897367074 0.9903661638237082 -0.044217623897367074 0.009633836176291747 0.044217623897367074
9.958797539591652E7 0.00970903908870465 0.04487747678100616 0.9902909609112955 -0.04487747678100617 0.9902909609112955 -0.04487747678100617 0.00970903908870465 0.04487747678100616
1.0109089773851961E8 0.009786448018645593 0.04554696658108254 0.9902135519813543 -0.04554696658108254 0.9902135519813543 -0.04554696658108254 0.009786448018645593 0.04554696658108254
1.0261650128895843E8 0.009866125485514658 0.046226225300931116 0.9901338745144855 -0.046226225300931116 0.9901338745144855 -0.046226225300931116 0.009866125485514658 0.046226225300931116
1.0416512833849736E8 0.009948135662584286 0.04691538641483964 0.9900518643374157 -0.046915386414839645 0.9900518643374157 -0.046915386414839645 0.009948135662584286 0.04691538641483964
1.0573712634405641E8 0.0100325444149988 0.04761458487268556 0.9899674555850012 -0.04761458487268556 0.9899674555850012 -0.04761458487268556 0.0100325444149988 0.04761458487268556
1.0733284800616828E8 0.010119419338407275 0.04832395710422973 0.9898805806615927 -0.04832395710422973 0.9898805806615927 -0.04832395710422973 0.010119419338407275 0.04832395710422973
1.0895265134811176E8 0.010208829798234656 0.04904364102306442 0.9897911702017653 -0.04904364102306442 0.9897911702017653 -0.04904364102306442 0.010208829798234656 0.04904364102306442
1.1059689979623953E8 0.010300846969596138 0.04977377603021277 0.989699153030404 -0.049773776030212775 0.989699153030404 -0.049773776030212775 0.010300846969596138 0.04977377603021277
1.1226596226151802E8 0.010395543877860798 0.05051450301737902 0.9896044561221393 -0.050514503017379 0.9896044561221393 -0.050514503017379 0.010395543877860798 0.05051450301737902
1.1396021322229806E8 0.010492995439870617 0.05126596436984861 0.9895070045601295 -0.05126596436984861 0.9895070045601295 -0.05126596436984861 0.010492995439870617 0.05126596436984861
1.1568003280833441E8 0.010593278505822154 0.05202830396903909 0.9894067214941777 -0.0520283039690391 0.9894067214941777 -0.0520283039690391 0.010593278505822154 0.05202830396903909
1.1742580688607343E8 0.010696471901818761 0.05280166719470349 0.9893035280981813 -0.0528016671947035 0.9893035280981813 -0.0528016671947035 0.010696471901818761 0.05280166719470349
1.1919792714522783E8 0.010802656473102275 0.053586200926788376 0.9891973435268978 -0.053586200926788376 0.9891973435268978 -0.053586200926788376 0.010802656473102275 0.053586200926788376
1.2099679118665792E8 0.010911915127974363 0.05438205354695126 0.9890880848720256 -0.054382053546951276 0.9890880848720256 -0.054382053546951276 0.010911915127974363 0.05438205354695126
1.2282280261157903E8 0.011024332882418768 0.055189374939741555 0.9889756671175811 -0.055189374939741555 0.9889756671175811 -0.055189374939741555 0.011024332882418768 0.055189374939741555
1.2467637111211549E8 0.011139996905437372 0.0560083164934515 0.9888600030945625 -0.0560083164934515 0.9888600030945625 -0.0560083164934515 0.011139996905437372 0.0560083164934515
1.265579125632208E8 0.011258996565114393 0.05683903110064424 0.9887410034348857 -0.05683903110064424 0.9887410034348857 -0.05683903110064424 0.011258996565114393 0.05683903110064424
1.284678491159853E8 0.011381423475425057 0.05768167315836731 0.9886185765245749 -0.05768167315836731 0.9886185765245749 -0.05768167315836731 0.011381423475425057 0.05768167315836731
1.3040660929235186E8 0.011507371543806969 0.058536398568061455 0.9884926284561931 -0.058536398568061455 0.9884926284561931 -0.058536398568061455 0.011507371543806969 0.058536398568061455
1.3237462808126101E8 0.011636937019514505 0.05940336473517469 0.9883630629804856 -0.05940336473517469 0.9883630629804856 -0.05940336473517469 0.011636937019514505 0.05940336473517469
1.3437234703624701E8 0.011770218542779305 0.06028273056849405 0.9882297814572206 -0.06028273056849405 0.9882297814572206 -0.06028273056849405 0.011770218542779305 0.06028273056849405
1.364002143745067E8 0.011907317194802213 0.06117465647920723 0.9880926828051977 -0.06117465647920723 0.9880926828051977 -0.06117465647920723 0.011907317194802213 0.06117465647920723
1.3845868507746372E8 0.012048336548605263 0.06207930437970819 0.987951663451395 -0.06207930437970819 0.987951663451395 -0.06207930437970819 0.012048336548605263 0.06207930437970819
1.405482209928499E8 0.01219338272077513 0.06299683768216076 0.9878066172792249 -0.06299683768216074 0.9878066172792249 -0.06299683768216074 0.01219338272077513 0.06299683768216076
1.426692909383278E8 0.012342564424133203 0.06392742129683605 0.9876574355758668 -0.06392742129683605 0.9876574355758668 -0.06392742129683605 0.012342564424133203 0.06392742129683605
1.4482237080667645E8 0.01249599302137082 0.06487122163023915 0.9875040069786291 -0.06487122163023915 0.9875040069786291 -0.06487122163023915 0.01249599302137082 0.06487122163023915
1.4700794367256513E8 0.012653782579692425 0.06582840658304183 0.9873462174203074 -0.06582840658304183 0.9873462174203074 -0.06582840658304183 0.012653782579692425 0.06582840658304183
1.492264999009378E8 0.012816049926513255 0.06679914554783724 0.9871839500734867 -0.06679914554783724 0.9871839500734867 -0.06679914554783724 0.012816049926513255 0.06679914554783724
1.5147853725703382E8 0.012982914706263305 0.06778360940673442 0.9870170852937367 -0.06778360940673442 0.9870170852937367 -0.06778360940673442 0.012982914706263305 0.06778360940673442
1.5376456101806876E8 0.01315449943835337 0.06878197052880772 0.9868455005616468 -0.06878197052880772 0.9868455005616468 -0.06878197052880772 0.01315449943835337 0.06878197052880772
1.5608508408660066E8 0.013330929576364612 0.06979440276741847 0.9866690704236354 -0.06979440276741847 0.9866690704236354 -0.06979440276741847 0.013330929576364612 0.06979440276741847
1.5844062710560706E8 0.013512333568528385 0.07082108145742355 0.9864876664314717 -0.07082108145742355 0.9864876664314717 -0.07082108145742355 0.013512333568528385 0.07082108145742355
1.6083171857529896E8 0.0136988429195684 0.0718621834122852 0.9863011570804315 -0.0718621834122852 0.9863011570804315 -0.0718621834122852 0.0136988429195684 0.0718621834122852
1.632588949716973E8 0.013890592253983647 0.07291788692109497 0.9861094077460164 -0.07291788692109497 0.9861094077460164 -0.07291788692109497 0.013890592253983647 0.07291788692109497
1.6572270086699936E8 0.014087719380856558 0.07398837174552281 0.9859122806191435 -0.07398837174552281 0.9859122806191435 -0.07398837174552281 0.014087719380856558 0.07398837174552281
1.6822368905176118E8 0.014290365360277233 0.07507381911669975 0.9857096346397228 -0.07507381911669975 0.9857096346397228 -0.07507381911669975 0.014290365360277233 0.07507381911669975
1.7076242065892437E8 0.014498674571481464 0.07617441173204008 0.9855013254285185 -0.07617441173204008 0.9855013254285185 -0.07617441173204008 0.014498674571481464 0.07617441173204008
1.7333946528971428E8 0.014712794782807067 0.07729033375200532 0.9852872052171928 -0.07729033375200532 0.9852872052171928 -0.07729033375200532 0.014712794782807067 0.07729033375200532
1.7595540114143828E8 0.014932877223580242 0.07842177079680897 0.9850671227764198 -0.07842177079680897 0.9850671227764198 -0.07842177079680897 0.014932877223580242 0.07842177079680897
1.786108151372127E8 0.015159076658051038 0.07956890994305559 0.9848409233419492 -0.0795689099430556 0.9848409233419492 -0.0795689099430556 0.015159076658051038 0.07956890994305559
1.8130630305764765E8 0.015391551461504177 0.08073193972030353 0.9846084485384959 -0.08073193972030353 0.9846084485384959 -0.08073193972030353 0.015391551461504177 0.08073193972030353
1.840424696745189E8 0.015630463698679417 0.08191105010753398 0.9843695363013206 -0.08191105010753398 0.9843695363013206 -0.08191105010753398 0.015630463698679417 0.08191105010753398
1.8681992888645732E8 0.015875979204642898 0.08310643252950319 0.9841240207953571 -0.0831064325295032 0.9841240207953571 -0.0831064325295032 0.015875979204642898 0.08310643252950319
1.8963930385668582E8 0.016128267668258638 0.0843182798529464 0.9838717323317412 -0.08431827985294639 0.9838717323317412 -0.08431827985294639 0.016128267668258638 0.0843182798529464
1.92501227152835E8 0.016387502718417195 0.08554678638259498 0.9836124972815828 -0.08554678638259498 0.9836124972815828 -0.08554678638259498 0.016387502718417195 0.08554678638259498
1.9540634088886917E8 0.016653862013185482 0.08679214785695849 0.9833461379868145 -0.08679214785695848 0.9833461379868145 -0.08679214785695848 0.016653862013185482 0.08679214785695849
1.983552968691535E8 0.016927527332049518 0.08805456144381314 0.9830724726679505 -0.08805456144381314 0.9830724726679505 -0.08805456144381314 0.016927527332049518 0.08805456144381314
2.0134875673469606E8 0.017208684671428855 0.08933422573532894 0.9827913153285711 -0.08933422573532894 0.9827913153285711 -0.08933422573532894 0.017208684671428855 0.08933422573532894
2.0438739211159652E8 0.01749752434364831 0.0906313407427542 0.9825024756563517 -0.0906313407427542 0.9825024756563517 -0.0906313407427542 0.01749752434364831 0.0906313407427542
2.074718847617352E8 0.017794241079558955 0.09194610789056473 0.982205758920441 -0.09194610789056473 0.982205758920441 -0.09194610789056473 0.017794241079558955 0.09194610789056473
2.106029267357361E8 0.018099034135006672 0.09327873000997092 0.9819009658649933 -0.09327873000997092 0.9819009658649933 -0.09327873000997092 0.018099034135006672 0.09327873000997092
2.1378122052823865E8 0.01841210740135176 0.09462941133166136 0.9815878925986482 -0.09462941133166135 0.9815878925986482 -0.09462941133166135 0.01841210740135176 0.09462941133166136
2.1700747923551247E8 0.018733669520248283 0.09599835747764632 0.9812663304797518 -0.09599835747764632 0.9812663304797518 -0.09599835747764632 0.018733669520248283 0.09599835747764632
2.2028242671545094E8 0.019063934002895876 0.09738577545204802 0.9809360659971041 -0.09738577545204802 0.9809360659971041 -0.09738577545204802 0.019063934002895876 0.09738577545204802
2.23606797749979E8 0.019403119353980113 0.0987918736306662 0.9805968806460201 -0.0987918736306662 0.9805968806460201 -0.0987918736306662 0.019403119353980113 0.0987918736306662
2.2698133820991236E8 0.019751449200520306 0.1002168617491307 0.9802485507994796 -0.10021686174913073 0.9802485507994796 -0.10021686174913073 0.019751449200520306 0.1002168617491307
2.3040680522230446E8 0.020109152425844948 0.1016609508894327 0.9798908475741552 -0.1016609508894327 0.9798908475741552 -0.1016609508894327 0.020109152425844948 0.1016609508894327
2.338839673403185E8 0.020476463308915366 0.10312435346460462 0.9795235366910847 -0.10312435346460462 0.9795235366910847 -0.10312435346460462 0.020476463308915366 0.10312435346460462
2.37413604715664E8 0.020853621669217868 0.10460728320130186 0.9791463783307821 -0.10460728320130186 0.9791463783307821 -0.10460728320130186 0.020853621669217868 0.10460728320130186
2.4099650927363476E8 0.021240873017442097 0.10610995512001242 0.978759126982558 -0.10610995512001245 0.978759126982558 -0.10610995512001245 0.021240873017442097 0.10610995512001242
2.446334848907889E8 0.021638468712160457 0.10763258551260277 0.9783615312878396 -0.10763258551260277 0.9783615312878396 -0.10763258551260277 0.021638468712160457 0.10763258551260277
