!Murata Part Number: LQP15MN2N3W02
!These Parameters are Measured in Series Mode Connection
!       o--[Z]--o
!Port1              Port2
!       o-------o
!
!Freq. Start=50[MHz] Stop=20[GHz], 401[Steps]
# Hz S RI R 50
!Freq.(Hz) S11(Real) S11(Imag) S21(Real) S21(Imag) S12(Real) S12(Imag) S22(Real) S22(Imag)
5.0E7 0.001182102094557343 0.00630284525940392 0.9988178979054426 -0.00630284525940392 0.9988178979054426 -0.00630284525940392 0.001182102094557343 0.00630284525940392
5.0754570186123446E7 0.00118605280234746 0.00639723691599381 0.9988139471976527 -0.00639723691599381 0.9988139471976527 -0.00639723691599381 0.00118605280234746 0.00639723691599381
5.152052789556263E7 0.0011901126199398075 0.006493022677664164 0.99880988738006 -0.006493022677664164 0.99880988738006 -0.006493022677664164 0.0011901126199398075 0.006493022677664164
5.229804498202928E7 0.0011942842566108705 0.0065902224010937925 0.998805715743389 -0.0065902224010937925 0.998805715743389 -0.0065902224010937925 0.0011942842566108705 0.0065902224010937925
5.308729589274893E7 0.001198570472583436 0.0066888562029409435 0.9988014295274167 -0.0066888562029409435 0.9988014295274167 -0.0066888562029409435 0.001198570472583436 0.0066888562029409435
5.388845770760058E7 0.0012029740791356365 0.006788944462881029 0.9987970259208644 -0.006788944462881029 0.9987970259208644 -0.006788944462881029 0.0012029740791356365 0.006788944462881029
5.470171017884717E7 0.001207497938662911 0.006890507826703447 0.998792502061337 -0.006890507826703447 0.998792502061337 -0.006890507826703447 0.001207497938662911 0.006890507826703447
5.5527235771465644E7 0.0012121449646910329 0.006993567209471409 0.9987878550353089 -0.006993567209471409 0.9987878550353089 -0.006993567209471409 0.0012121449646910329 0.006993567209471409
5.6365219704085544E7 0.0012169181218384497 0.007098143798749112 0.9987830818781617 -0.007098143798749112 0.9987830818781617 -0.007098143798749112 0.0012169181218384497 0.007098143798749112
5.721584999054556E7 0.001221820425726241 0.007204259057900704 0.9987781795742736 -0.007204259057900703 0.9987781795742736 -0.007204259057900703 0.001221820425726241 0.007204259057900704
5.807931748207712E7 0.0012268549428341364 0.007311934729465851 0.9987731450571659 -0.007311934729465851 0.9987731450571659 -0.007311934729465851 0.0012268549428341364 0.007311934729465851
5.8955815910124585E7 0.0012320247903011674 0.007421192838616996 0.998767975209699 -0.007421192838616996 0.998767975209699 -0.007421192838616996 0.0012320247903011674 0.007421192838616996
5.984554192981184E7 0.001237333135669643 0.007532055696703609 0.9987626668643304 -0.007532055696703608 0.9987626668643304 -0.007532055696703608 0.001237333135669643 0.007532055696703609
6.074869516406457E7 0.0012427831965713643 0.0076445459048890795 0.9987572168034285 -0.007644545904889081 0.9987572168034285 -0.007644545904889081 0.0012427831965713643 0.0076445459048890795
6.166547824839868E7 0.0012483782403551406 0.007758686357886228 0.9987516217596449 -0.007758686357886228 0.9987516217596449 -0.007758686357886228 0.0012483782403551406 0.007758686357886228
6.2596096876384385E7 0.0012541215836549126 0.007874500247797522 0.9987458784163451 -0.007874500247797522 0.9987458784163451 -0.007874500247797522 0.0012541215836549126 0.007874500247797522
6.354075984579668E7 0.0012600165918980354 0.00799201106806672 0.998739983408102 -0.00799201106806672 0.998739983408102 -0.00799201106806672 0.0012600165918980354 0.00799201106806672
6.449967910546205E7 0.001266066678753514 0.008111242617548461 0.9987339333212465 -0.008111242617548461 0.9987339333212465 -0.008111242617548461 0.001266066678753514 0.008111242617548461
6.547306980281226E7 0.0012722753055203226 0.00823221900470316 0.9987277246944799 -0.008232219004703159 0.9987277246944799 -0.008232219004703159 0.0012722753055203226 0.00823221900470316
6.646115033215589E7 0.0012786459804562298 0.008354964651924401 0.9987213540195437 -0.008354964651924401 0.9987213540195437 -0.008354964651924401 0.0012786459804562298 0.008354964651924401
6.746414238367817E7 0.0012851822580479365 0.008479504300006581 0.998714817741952 -0.008479504300006581 0.998714817741952 -0.008479504300006581 0.0012851822580479365 0.008479504300006581
6.848227099318038E7 0.0012918877382236663 0.008605863012760577 0.9987081122617765 -0.008605863012760577 0.9987081122617765 -0.008605863012760577 0.0012918877382236663 0.008605863012760577
6.951576459256999E7 0.0012987660655098439 0.008734066181785814 0.9987012339344902 -0.008734066181785814 0.9987012339344902 -0.008734066181785814 0.0012987660655098439 0.008734066181785814
7.056485506111258E7 0.001305820928133867 0.008864139531406974 0.9986941790718662 -0.008864139531406974 0.9986941790718662 -0.008864139531406974 0.001305820928133867 0.008864139531406974
7.162977777745734E7 0.0013130560570754843 0.008996109123784027 0.9986869439429245 -0.008996109123784027 0.9986869439429245 -0.008996109123784027 0.0013130560570754843 0.008996109123784027
7.271077167244768E7 0.0013204752250698232 0.00913000136420447 0.9986795247749302 -0.00913000136420447 0.9986795247749302 -0.00913000136420447 0.0013204752250698232 0.00913000136420447
7.380807928272885E7 0.0013280822455656125 0.009265843006566757 0.9986719177544344 -0.009265843006566759 0.9986719177544344 -0.009265843006566759 0.0013280822455656125 0.009265843006566757
7.492194680516452E7 0.0013358809716427368 0.009403661159064066 0.9986641190283573 -0.009403661159064066 0.9986641190283573 -0.009403661159064066 0.0013358809716427368 0.009403661159064066
7.60526241520746E7 0.001343875294893875 0.009543483290077807 0.998656124705106 -0.009543483290077807 0.998656124705106 -0.009543483290077807 0.001343875294893875 0.009543483290077807
7.720036500730675E7 0.0013520691442755798 0.00968533723429018 0.9986479308557245 -0.009685337234290178 0.9986479308557245 -0.009685337234290178 0.0013520691442755798 0.00968533723429018
7.836542688315398E7 0.0013604664849348296 0.009829251199025252 0.9986395335150652 -0.00982925119902525 0.9986395335150652 -0.00982925119902525 0.0013604664849348296 0.009829251199025252
7.954807117813127E7 0.0013690713170177978 0.00997525377082814 0.9986309286829823 -0.00997525377082814 0.9986309286829823 -0.00997525377082814 0.0013690713170177978 0.00997525377082814
8.074856323562416E7 0.0013778876744682382 0.010123373922291604 0.9986221123255318 -0.010123373922291604 0.9986221123255318 -0.010123373922291604 0.0013778876744682382 0.010123373922291604
8.196717240342227E7 0.0013869196238236899 0.0102736410191395 0.9986130803761762 -0.0102736410191395 0.9986130803761762 -0.0102736410191395 0.0013869196238236899 0.0102736410191395
8.320417209415154E7 0.0013961712630184185 0.010426084827576463 0.9986038287369816 -0.010426084827576461 0.9986038287369816 -0.010426084827576461 0.0013961712630184185 0.010426084827576463
8.445983984661816E7 0.001405646720202802 0.01058073552191272 0.9985943532797973 -0.01058073552191272 0.9985943532797973 -0.01058073552191272 0.001405646720202802 0.01058073552191272
8.573445738807854E7 0.0014153501525896554 0.010737623692473061 0.9985846498474105 -0.01073762369247306 0.9985846498474105 -0.01073762369247306 0.0014153501525896554 0.010737623692473061
8.702831069744885E7 0.0014252857453388003 0.010896780353798518 0.9985747142546613 -0.010896780353798518 0.9985747142546613 -0.010896780353798518 0.0014252857453388003 0.010896780353798518
8.834169006946853E7 0.0014354577104919702 0.011058236953148889 0.998564542289508 -0.01105823695314889 0.998564542289508 -0.01105823695314889 0.0014354577104919702 0.011058236953148889
8.96748901798321E7 0.0014458702859709695 0.011222025379314028 0.9985541297140291 -0.011222025379314028 0.9985541297140291 -0.011222025379314028 0.0014458702859709695 0.011222025379314028
9.1028210151304E7 0.0014565277346528021 0.011388177971741175 0.998543472265347 -0.011388177971741173 0.998543472265347 -0.011388177971741173 0.0014565277346528021 0.011388177971741175
9.240195362083109E7 0.0014674343435362857 0.011556727529985105 0.9985325656564639 -0.011556727529985107 0.9985325656564639 -0.011556727529985107 0.0014674343435362857 0.011556727529985105
9.379642880766791E7 0.0014785944230154297 0.011727707323487256 0.9985214055769847 -0.011727707323487256 0.9985214055769847 -0.011727707323487256 0.0014785944230154297 0.011727707323487256
9.521194858253023E7 0.0014900123062756535 0.01190115110168925 0.9985099876937245 -0.01190115110168925 0.9985099876937245 -0.01190115110168925 0.0014900123062756535 0.01190115110168925
9.664883053779216E7 0.001501692348829604 0.012077093104485544 0.9984983076511702 -0.012077093104485546 0.9984983076511702 -0.012077093104485546 0.001501692348829604 0.012077093104485544
9.810739705874248E7 0.0015136389282100744 0.012255568073018978 0.99848636107179 -0.012255568073018978 0.99848636107179 -0.012255568073018978 0.0015136389282100744 0.012255568073018978
9.958797539591652E7 0.0015258564438381487 0.012436611260822161 0.998474143556162 -0.012436611260822161 0.998474143556162 -0.012436611260822161 0.0015258564438381487 0.012436611260822161
1.0109089773851961E8 0.001538349317085326 0.01262025844530665 0.9984616506829148 -0.01262025844530665 0.9984616506829148 -0.01262025844530665 0.001538349317085326 0.01262025844530665
1.0261650128895843E8 0.0015511219915489132 0.012806545939600747 0.9984488780084512 -0.012806545939600747 0.9984488780084512 -0.012806545939600747 0.0015511219915489132 0.012806545939600747
1.0416512833849736E8 0.001564178933560461 0.012995510604735624 0.9984358210664394 -0.012995510604735621 0.9984358210664394 -0.012995510604735621 0.001564178933560461 0.012995510604735624
1.0573712634405641E8 0.001577524632947443 0.013187189862178383 0.9984224753670526 -0.013187189862178386 0.9984224753670526 -0.013187189862178386 0.001577524632947443 0.013187189862178383
1.0733284800616828E8 0.0015911636040687098 0.013381621706709361 0.9984088363959313 -0.013381621706709361 0.9984088363959313 -0.013381621706709361 0.0015911636040687098 0.013381621706709361
1.0895265134811176E8 0.0016051003871444744 0.013578844719639542 0.9983948996128555 -0.013578844719639542 0.9983948996128555 -0.013578844719639542 0.0016051003871444744 0.013578844719639542
1.1059689979623953E8 0.0016193395499017663 0.013778898082362856 0.9983806604500983 -0.013778898082362856 0.9983806604500983 -0.013778898082362856 0.0016193395499017663 0.013778898082362856
1.1226596226151802E8 0.0016338856895563407 0.01398182159023656 0.9983661143104439 -0.01398182159023656 0.9983661143104439 -0.01398182159023656 0.0016338856895563407 0.01398182159023656
1.1396021322229806E8 0.0016487434351519525 0.014187655666781455 0.9983512565648481 -0.014187655666781455 0.9983512565648481 -0.014187655666781455 0.0016487434351519525 0.014187655666781455
1.1568003280833441E8 0.0016639174502777571 0.014396441378192404 0.9983360825497223 -0.014396441378192406 0.9983360825497223 -0.014396441378192406 0.0016639174502777571 0.014396441378192404
1.1742580688607343E8 0.001679412436184311 0.01460822044814796 0.9983205875638157 -0.01460822044814796 0.9983205875638157 -0.01460822044814796 0.001679412436184311 0.01460822044814796
1.1919792714522783E8 0.0016952331353182238 0.014823035272906522 0.9983047668646816 -0.014823035272906522 0.9983047668646816 -0.014823035272906522 0.0016952331353182238 0.014823035272906522
1.2099679118665792E8 0.0017113843352949938 0.015040928936675031 0.9982886156647048 -0.015040928936675028 0.9982886156647048 -0.015040928936675028 0.0017113843352949938 0.015040928936675031
1.2282280261157903E8 0.0017278708733288952 0.015261945227234628 0.9982721291266711 -0.015261945227234628 0.9982721291266711 -0.015261945227234628 0.0017278708733288952 0.015261945227234628
1.2467637111211549E8 0.0017446976411379597 0.015486128651806371 0.9982553023588621 -0.01548612865180637 0.9982553023588621 -0.01548612865180637 0.0017446976411379597 0.015486128651806371
1.265579125632208E8 0.001761869590341223 0.01571352445313865 0.9982381304096589 -0.01571352445313865 0.9982381304096589 -0.01571352445313865 0.001761869590341223 0.01571352445313865
1.284678491159853E8 0.0017793917383643217 0.01594417862579679 0.9982206082616357 -0.01594417862579679 0.9982206082616357 -0.01594417862579679 0.0017793917383643217 0.01594417862579679
1.3040660929235186E8 0.0017972691748683158 0.01617813793263368 0.9982027308251318 -0.01617813793263368 0.9982027308251318 -0.01617813793263368 0.0017972691748683158 0.01617813793263368
1.3237462808126101E8 0.0018155070687153841 0.01641544992141964 0.9981844929312846 -0.01641544992141964 0.9981844929312846 -0.01641544992141964 0.0018155070687153841 0.01641544992141964
1.3437234703624701E8 0.0018341106754835388 0.016656162941608085 0.9981658893245164 -0.016656162941608085 0.9981658893245164 -0.016656162941608085 0.0018341106754835388 0.016656162941608085
1.364002143745067E8 0.001853085345540994 0.016900326161212963 0.998146914654459 -0.016900326161212963 0.998146914654459 -0.016900326161212963 0.001853085345540994 0.016900326161212963
1.3845868507746372E8 0.0018724365326892073 0.01714798958377292 0.9981275634673108 -0.01714798958377292 0.9981275634673108 -0.01714798958377292 0.0018724365326892073 0.01714798958377292
1.405482209928499E8 0.0018921698033818263 0.01739920406537637 0.9981078301966181 -0.017399204065376365 0.9981078301966181 -0.017399204065376365 0.0018921698033818263 0.01739920406537637
1.426692909383278E8 0.0019122908465249876 0.017654021331721198 0.9980877091534751 -0.017654021331721198 0.9980877091534751 -0.017654021331721198 0.0019122908465249876 0.017654021331721198
1.4482237080667645E8 0.001932805483862493 0.017912493995182254 0.9980671945161373 -0.017912493995182254 0.9980671945161373 -0.017912493995182254 0.001932805483862493 0.017912493995182254
1.4700794367256513E8 0.0019537196809474374 0.01817467557185954 0.9980462803190524 -0.01817467557185954 0.9980462803190524 -0.01817467557185954 0.0019537196809474374 0.01817467557185954
1.492264999009378E8 0.001975039558699864 0.01844062049857996 0.9980249604413 -0.018440620498579956 0.9980249604413 -0.018440620498579956 0.001975039558699864 0.01844062049857996
1.5147853725703382E8 0.0019967714055479807 0.01871038414982552 0.9980032285944521 -0.018710384149825524 0.9980032285944521 -0.018710384149825524 0.0019967714055479807 0.01871038414982552
1.5376456101806876E8 0.0020189216901484106 0.018984022854561088 0.9979810783098514 -0.018984022854561088 0.9979810783098514 -0.018984022854561088 0.0020189216901484106 0.018984022854561088
1.5608508408660066E8 0.002041497074678925 0.0192615939129353 0.9979585029253212 -0.019261593912935304 0.9979585029253212 -0.019261593912935304 0.002041497074678925 0.0192615939129353
1.5844062710560706E8 0.0020645044286950434 0.01954315561282872 0.997935495571305 -0.01954315561282872 0.997935495571305 -0.01954315561282872 0.0020645044286950434 0.01954315561282872
1.6083171857529896E8 0.002087950843539949 0.019828767246224552 0.9979120491564601 -0.01982876724622455 0.9979120491564601 -0.01982876724622455 0.002087950843539949 0.019828767246224552
1.632588949716973E8 0.0021118436472951432 0.020118489125377465 0.9978881563527049 -0.020118489125377465 0.9978881563527049 -0.020118489125377465 0.0021118436472951432 0.020118489125377465
1.6572270086699936E8 0.002136190420257505 0.020412382598758164 0.9978638095797424 -0.020412382598758164 0.9978638095797424 -0.020412382598758164 0.002136190420257505 0.020412382598758164
1.6822368905176118E8 0.002160999010926554 0.020710510066751897 0.9978390009890736 -0.020710510066751897 0.9978390009890736 -0.020710510066751897 0.002160999010926554 0.020710510066751897
1.7076242065892437E8 0.0021862775524841343 0.021012934997091292 0.9978137224475158 -0.021012934997091292 0.9978137224475158 -0.021012934997091292 0.0021862775524841343 0.021012934997091292
1.7333946528971428E8 0.002212034479747124 0.02131972194000504 0.9977879655202528 -0.02131972194000504 0.9977879655202528 -0.02131972194000504 0.002212034479747124 0.02131972194000504
1.7595540114143828E8 0.0022382785465724364 0.021630936543066113 0.9977617214534275 -0.021630936543066113 0.9977617214534275 -0.021630936543066113 0.0022382785465724364 0.021630936543066113
1.786108151372127E8 0.0022650188436923336 0.021946645565725342 0.9977349811563077 -0.021946645565725342 0.9977349811563077 -0.021946645565725342 0.0022650188436923336 0.021946645565725342
1.8130630305764765E8 0.0022922648169569544 0.022266916893517646 0.9977077351830431 -0.022266916893517646 0.9977077351830431 -0.022266916893517646 0.0022922648169569544 0.022266916893517646
1.840424696745189E8 0.0023200262859601464 0.022591819551931243 0.9976799737140398 -0.022591819551931246 0.9976799737140398 -0.022591819551931246 0.0023200262859601464 0.022591819551931243
1.8681992888645732E8 0.0023483134630239376 0.02292142371993185 0.9976516865369761 -0.02292142371993185 0.9976516865369761 -0.02292142371993185 0.0023483134630239376 0.02292142371993185
1.8963930385668582E8 0.0023771369725165328 0.02325580074313662 0.9976228630274835 -0.023255800743136615 0.9976228630274835 -0.023255800743136615 0.0023771369725165328 0.02325580074313662
1.92501227152835E8 0.002406507870478413 0.023595023146634784 0.9975934921295216 -0.02359502314663478 0.9975934921295216 -0.02359502314663478 0.002406507870478413 0.023595023146634784
1.9540634088886917E8 0.002436437664531045 0.023939164647454728 0.997563562335469 -0.023939164647454728 0.997563562335469 -0.023939164647454728 0.002436437664531045 0.023939164647454728
1.983552968691535E8 0.002466938334042905 0.024288300166679353 0.997533061665957 -0.02428830016667935 0.997533061665957 -0.02428830016667935 0.002466938334042905 0.024288300166679353
2.0134875673469606E8 0.0024980223505278306 0.024642505841214548 0.9975019776494722 -0.02464250584121455 0.9975019776494722 -0.02464250584121455 0.0024980223505278306 0.024642505841214548
2.0438739211159652E8 0.002529702698251313 0.025001859035217552 0.9974702973017489 -0.025001859035217552 0.9974702973017489 -0.025001859035217552 0.002529702698251313 0.025001859035217552
2.074718847617352E8 0.00256199289502121 0.02536643835119496 0.9974380071049789 -0.025366438351194957 0.9974380071049789 -0.025366438351194957 0.00256199289502121 0.02536643835119496
2.106029267357361E8 0.002594907013140263 0.025736323640782047 0.9974050929868598 -0.02573632364078204 0.9974050929868598 -0.02573632364078204 0.002594907013140263 0.025736323640782047
2.1378122052823865E8 0.002628459700499129 0.026111596015217703 0.997371540299501 -0.02611159601521771 0.997371540299501 -0.02611159601521771 0.002628459700499129 0.026111596015217703
2.1700747923551247E8 0.002662666201789968 0.02649233785553144 0.9973373337982101 -0.026492337855531435 0.9973373337982101 -0.026492337855531435 0.002662666201789968 0.02649233785553144
2.2028242671545094E8 0.002697542379822281 0.026878632822460717 0.9973024576201779 -0.026878632822460717 0.9973024576201779 -0.026878632822460717 0.002697542379822281 0.026878632822460717
2.23606797749979E8 0.0027331047369244413 0.027270565866119457 0.9972668952630755 -0.02727056586611945 0.9972668952630755 -0.02727056586611945 0.0027331047369244413 0.027270565866119457
2.2698133820991236E8 0.0027693704364163147 0.027668223235439736 0.9972306295635838 -0.027668223235439736 0.9972306295635838 -0.027668223235439736 0.0027693704364163147 0.027668223235439736
2.3040680522230446E8 0.0028063573241404187 0.02807169248741079 0.9971936426758594 -0.028071692487410784 0.9971936426758594 -0.028071692487410784 0.0028063573241404187 0.02807169248741079
2.338839673403185E8 0.002844083950041342 0.028481062496140925 0.9971559160499587 -0.028481062496140925 0.9971559160499587 -0.028481062496140925 0.002844083950041342 0.028481062496140925
2.37413604715664E8 0.0028825695897854355 0.02889642346176911 0.9971174304102146 -0.028896423461769107 0.9971174304102146 -0.028896423461769107 0.0028825695897854355 0.02889642346176911
