!Murata Part Number: LQP15MN9N1B02
!These Parameters are Measured in Series Mode Connection
!       o--[Z]--o
!Port1              Port2
!       o-------o
!
!Freq. Start=50[MHz] Stop=20[GHz], 401[Steps]
# Hz S RI R 50
!Freq.(Hz) S11(Real) S11(Imag) S21(Real) S21(Imag) S12(Real) S12(Imag) S22(Real) S22(Imag)
5.0E7 0.010579962153431235 0.027325023457528783 0.9894200378465687 -0.027325023457528783 0.9894200378465687 -0.027325023457528783 0.010579962153431235 0.027325023457528783
5.0754570186123446E7 0.010607343910040975 0.027735888867185938 0.9893926560899591 -0.027735888867185938 0.9893926560899591 -0.027735888867185938 0.010607343910040975 0.027735888867185938
5.152052789556263E7 0.010635549618030114 0.028152898785133877 0.98936445038197 -0.028152898785133877 0.98936445038197 -0.028152898785133877 0.010635549618030114 0.028152898785133877
5.229804498202928E7 0.010664604030866245 0.02857614327205651 0.9893353959691337 -0.028576143272056504 0.9893353959691337 -0.028576143272056504 0.010664604030866245 0.02857614327205651
5.308729589274893E7 0.010694532630945375 0.029005713628977834 0.9893054673690547 -0.029005713628977838 0.9893054673690547 -0.029005713628977838 0.010694532630945375 0.029005713628977834
5.388845770760058E7 0.010725361650449416 0.02944170241085481 0.9892746383495505 -0.02944170241085481 0.9892746383495505 -0.02944170241085481 0.010725361650449416 0.02944170241085481
5.470171017884717E7 0.010757118092761494 0.02988420344015698 0.9892428819072385 -0.02988420344015698 0.9892428819072385 -0.02988420344015698 0.010757118092761494 0.02988420344015698
5.5527235771465644E7 0.010789829754451823 0.030333311820424553 0.9892101702455481 -0.03033331182042456 0.9892101702455481 -0.03033331182042456 0.010789829754451823 0.030333311820424553
5.6365219704085544E7 0.010823525247846685 0.030789123949795535 0.9891764747521533 -0.030789123949795535 0.9891764747521533 -0.030789123949795535 0.010823525247846685 0.030789123949795535
5.721584999054556E7 0.010858234024193449 0.03125173753449252 0.9891417659758065 -0.03125173753449252 0.9891417659758065 -0.03125173753449252 0.010858234024193449 0.03125173753449252
5.807931748207712E7 0.010893986397434689 0.0317212516022592 0.9891060136025653 -0.0317212516022592 0.9891060136025653 -0.0317212516022592 0.010893986397434689 0.0317212516022592
5.8955815910124585E7 0.010930813568604512 0.03219776651573611 0.9890691864313955 -0.03219776651573611 0.9890691864313955 -0.03219776651573611 0.010930813568604512 0.03219776651573611
5.984554192981184E7 0.010968747650860389 0.03268138398576495 0.9890312523491396 -0.03268138398576495 0.9890312523491396 -0.03268138398576495 0.010968747650860389 0.03268138398576495
6.074869516406457E7 0.011007821695163839 0.03317220708460967 0.9889921783048361 -0.033172207084609676 0.9889921783048361 -0.033172207084609676 0.011007821695163839 0.03317220708460967
6.166547824839868E7 0.011048069716623586 0.03367034025908315 0.9889519302833765 -0.03367034025908316 0.9889519302833765 -0.03367034025908316 0.011048069716623586 0.03367034025908315
6.2596096876384385E7 0.011089526721514713 0.03417588934356644 0.9889104732784855 -0.03417588934356644 0.9889104732784855 -0.03417588934356644 0.011089526721514713 0.03417588934356644
6.354075984579668E7 0.011132228734987584 0.03468896157290833 0.9888677712650125 -0.034688961572908336 0.9888677712650125 -0.034688961572908336 0.011132228734987584 0.03468896157290833
6.449967910546205E7 0.0111762128294802 0.035209665595191356 0.9888237871705198 -0.03520966559519135 0.9888237871705198 -0.03520966559519135 0.0111762128294802 0.035209665595191356
6.547306980281226E7 0.011221517153848008 0.03573811148435076 0.988778482846152 -0.03573811148435076 0.988778482846152 -0.03573811148435076 0.011221517153848008 0.03573811148435076
6.646115033215589E7 0.011268180963224976 0.03627441075263167 0.9887318190367751 -0.03627441075263167 0.9887318190367751 -0.03627441075263167 0.011268180963224976 0.03627441075263167
6.746414238367817E7 0.011316244649629834 0.03681867636286961 0.9886837553503702 -0.03681867636286961 0.9886837553503702 -0.03681867636286961 0.011316244649629834 0.03681867636286961
6.848227099318038E7 0.011365749773331584 0.03737102274057875 0.9886342502266686 -0.03737102274057875 0.9886342502266686 -0.03737102274057875 0.011365749773331584 0.03737102274057875
6.951576459256999E7 0.011416739094988165 0.037931565785831754 0.9885832609050119 -0.037931565785831754 0.9885832609050119 -0.037931565785831754 0.011416739094988165 0.037931565785831754
7.056485506111258E7 0.011469256608572308 0.038500422884914495 0.9885307433914277 -0.038500422884914495 0.9885307433914277 -0.038500422884914495 0.011469256608572308 0.038500422884914495
7.162977777745734E7 0.011523347575098554 0.03907771292173833 0.9884766524249015 -0.03907771292173834 0.9884766524249015 -0.03907771292173834 0.011523347575098554 0.03907771292173833
7.271077167244768E7 0.011579058557165338 0.039663556288991986 0.9884209414428345 -0.03966355628899199 0.9884209414428345 -0.03966355628899199 0.011579058557165338 0.039663556288991986
7.380807928272885E7 0.011636437454326033 0.04025807489901451 0.9883635625456739 -0.04025807489901451 0.9883635625456739 -0.04025807489901451 0.011636437454326033 0.04025807489901451
7.492194680516452E7 0.011695533539302801 0.040861392194370266 0.9883044664606973 -0.040861392194370266 0.9883044664606973 -0.040861392194370266 0.011695533539302801 0.040861392194370266
7.60526241520746E7 0.01175639749505696 0.04147363315810623 0.9882436025049431 -0.041473633158106225 0.9882436025049431 -0.041473633158106225 0.01175639749505696 0.04147363315810623
7.720036500730675E7 0.011819081452729412 0.04209492432367095 0.9881809185472707 -0.04209492432367095 0.9881809185472707 -0.04209492432367095 0.011819081452729412 0.04209492432367095
7.836542688315398E7 0.011883639030464771 0.04272539378447466 0.9881163609695354 -0.04272539378447466 0.9881163609695354 -0.04272539378447466 0.011883639030464771 0.04272539378447466
7.954807117813127E7 0.011950125373132383 0.04336517120306862 0.9880498746268676 -0.04336517120306861 0.9880498746268676 -0.04336517120306861 0.011950125373132383 0.04336517120306862
8.074856323562416E7 0.012018597192957559 0.04401438781992145 0.9879814028070425 -0.04401438781992146 0.9879814028070425 -0.04401438781992146 0.012018597192957559 0.04401438781992145
8.196717240342227E7 0.012089112811075867 0.04467317646176997 0.9879108871889241 -0.04467317646176997 0.9879108871889241 -0.04467317646176997 0.012089112811075867 0.04467317646176997
8.320417209415154E7 0.01216173220002345 0.04534167154952073 0.9878382677999765 -0.04534167154952073 0.9878382677999765 -0.04534167154952073 0.01216173220002345 0.04534167154952073
8.445983984661816E7 0.012236517027175752 0.046020009105678404 0.9877634829728242 -0.046020009105678404 0.9877634829728242 -0.046020009105678404 0.012236517027175752 0.046020009105678404
8.573445738807854E7 0.012313530699147139 0.04670832676127648 0.9876864693008526 -0.046708326761276474 0.9876864693008526 -0.046708326761276474 0.012313530699147139 0.04670832676127648
8.702831069744885E7 0.012392838407163351 0.047406763762284844 0.9876071615928367 -0.047406763762284844 0.9876071615928367 -0.047406763762284844 0.012392838407163351 0.047406763762284844
8.834169006946853E7 0.01247450717341861 0.0481154609754685 0.9875254928265813 -0.0481154609754685 0.9875254928265813 -0.0481154609754685 0.01247450717341861 0.0481154609754685
8.96748901798321E7 0.012558605898428835 0.04883456089367131 0.9874413941015713 -0.04883456089367131 0.9874413941015713 -0.04883456089367131 0.012558605898428835 0.04883456089367131
9.1028210151304E7 0.012645205409392195 0.04956420764049757 0.9873547945906079 -0.04956420764049757 0.9873547945906079 -0.04956420764049757 0.012645205409392195 0.04956420764049757
9.240195362083109E7 0.01273437850956766 0.05030454697436416 0.9872656214904322 -0.05030454697436416 0.9872656214904322 -0.05030454697436416 0.01273437850956766 0.05030454697436416
9.379642880766791E7 0.012826200028682226 0.05105572629189545 0.9871737999713178 -0.05105572629189545 0.9871737999713178 -0.05105572629189545 0.012826200028682226 0.05105572629189545
9.521194858253023E7 0.012920746874376665 0.05181789463063198 0.9870792531256233 -0.05181789463063198 0.9870792531256233 -0.05181789463063198 0.012920746874376665 0.05181789463063198
9.664883053779216E7 0.013018098084699862 0.05259120267102524 0.9869819019153002 -0.052591202671025246 0.9869819019153002 -0.052591202671025246 0.013018098084699862 0.05259120267102524
9.810739705874248E7 0.013118334881660717 0.05337580273768777 0.9868816651183394 -0.053375802737687786 0.9868816651183394 -0.053375802737687786 0.013118334881660717 0.05337580273768777
9.958797539591652E7 0.013221540725846923 0.05417184879987022 0.9867784592741531 -0.05417184879987022 0.9867784592741531 -0.05417184879987022 0.013221540725846923 0.05417184879987022
1.0109089773851961E8 0.013327801372118935 0.05497949647113441 0.986672198627881 -0.05497949647113441 0.986672198627881 -0.05497949647113441 0.013327801372118935 0.05497949647113441
1.0261650128895843E8 0.013437204926387392 0.05579890300819247 0.9865627950736126 -0.05579890300819247 0.9865627950736126 -0.05579890300819247 0.013437204926387392 0.05579890300819247
1.0416512833849736E8 0.01354984190348185 0.056630227308881335 0.9864501580965181 -0.056630227308881335 0.9864501580965181 -0.056630227308881335 0.01354984190348185 0.056630227308881335
1.0573712634405641E8 0.013665805286118113 0.057473629909241444 0.986334194713882 -0.057473629909241444 0.986334194713882 -0.057473629909241444 0.013665805286118113 0.057473629909241444
1.0733284800616828E8 0.013785190584971197 0.05832927297966873 0.9862148094150288 -0.05832927297966874 0.9862148094150288 -0.05832927297966874 0.013785190584971197 0.05832927297966873
1.0895265134811176E8 0.01390809589986076 0.05919732032010868 0.9860919041001391 -0.05919732032010868 0.9860919041001391 -0.05919732032010868 0.01390809589986076 0.05919732032010868
1.1059689979623953E8 0.014034621982055072 0.060077937354260445 0.9859653780179449 -0.060077937354260445 0.9859653780179449 -0.060077937354260445 0.014034621982055072 0.060077937354260445
1.1226596226151802E8 0.014164872297699839 0.06097129112276033 0.9858351277023002 -0.060971291122760334 0.9858351277023002 -0.060971291122760334 0.014164872297699839 0.06097129112276033
1.1396021322229806E8 0.014298953092377449 0.06187755027531253 0.9857010469076225 -0.06187755027531254 0.9857010469076225 -0.06187755027531254 0.014298953092377449 0.06187755027531253
1.1568003280833441E8 0.014436973456802317 0.06279688506173588 0.9855630265431977 -0.06279688506173588 0.9855630265431977 -0.06279688506173588 0.014436973456802317 0.06279688506173588
1.1742580688607343E8 0.014579045393657487 0.06372946732189458 0.9854209546063426 -0.06372946732189458 0.9854209546063426 -0.06372946732189458 0.014579045393657487 0.06372946732189458
1.1919792714522783E8 0.014725283885578037 0.06467547047448283 0.9852747161144219 -0.06467547047448283 0.9852747161144219 -0.06467547047448283 0.014725283885578037 0.06467547047448283
1.2099679118665792E8 0.014875806964286179 0.06563506950463072 0.9851241930357137 -0.06563506950463072 0.9851241930357137 -0.06563506950463072 0.014875806964286179 0.06563506950463072
1.2282280261157903E8 0.015030735780883271 0.06660844095030113 0.9849692642191167 -0.06660844095030113 0.9849692642191167 -0.06660844095030113 0.015030735780883271 0.06660844095030113
1.2467637111211549E8 0.01519019467730433 0.06759576288744745 0.9848098053226958 -0.06759576288744745 0.9848098053226958 -0.06759576288744745 0.01519019467730433 0.06759576288744745
1.265579125632208E8 0.015354311258940049 0.0685972149139002 0.98464568874106 -0.0685972149139002 0.98464568874106 -0.0685972149139002 0.015354311258940049 0.0685972149139002
1.284678491159853E8 0.015523216468432549 0.06961297813195413 0.9844767835315674 -0.06961297813195415 0.9844767835315674 -0.06961297813195415 0.015523216468432549 0.06961297813195413
1.3040660929235186E8 0.015697044660650705 0.07064323512962495 0.9843029553393493 -0.07064323512962495 0.9843029553393493 -0.07064323512962495 0.015697044660650705 0.07064323512962495
1.3237462808126101E8 0.015875933678852164 0.07168816996054696 0.9841240663211479 -0.07168816996054696 0.9841240663211479 -0.07168816996054696 0.015875933678852164 0.07168816996054696
1.3437234703624701E8 0.016060024932038966 0.07274796812248198 0.9839399750679612 -0.07274796812248198 0.9839399750679612 -0.07274796812248198 0.016060024932038966 0.07274796812248198
1.364002143745067E8 0.016249463473515448 0.07382281653441185 0.9837505365264846 -0.07382281653441185 0.9837505365264846 -0.07382281653441185 0.016249463473515448 0.07382281653441185
1.3845868507746372E8 0.016444398080657577 0.07491290351218621 0.9835556019193425 -0.07491290351218621 0.9835556019193425 -0.07491290351218621 0.016444398080657577 0.07491290351218621
1.405482209928499E8 0.016644981335903877 0.07601841874269723 0.9833550186640962 -0.07601841874269723 0.9833550186640962 -0.07601841874269723 0.016644981335903877 0.07601841874269723
1.426692909383278E8 0.016851369708980074 0.07713955325655507 0.9831486302910201 -0.07713955325655505 0.9831486302910201 -0.07713955325655505 0.016851369708980074 0.07713955325655507
1.4482237080667645E8 0.017063723640370478 0.07827649939923613 0.9829362763596295 -0.07827649939923613 0.9829362763596295 -0.07827649939923613 0.017063723640370478 0.07827649939923613
1.4700794367256513E8 0.017282207626051475 0.07942945080067854 0.9827177923739486 -0.07942945080067854 0.9827177923739486 -0.07942945080067854 0.017282207626051475 0.07942945080067854
1.492264999009378E8 0.01750699030350399 0.08059860234329705 0.9824930096964959 -0.08059860234329705 0.9824930096964959 -0.08059860234329705 0.01750699030350399 0.08059860234329705
1.5147853725703382E8 0.01773824453902447 0.08178415012839275 0.9822617554609756 -0.08178415012839275 0.9822617554609756 -0.08178415012839275 0.01773824453902447 0.08178415012839275
1.5376456101806876E8 0.017976147516356122 0.08298629144092978 0.9820238524836438 -0.08298629144092978 0.9820238524836438 -0.08298629144092978 0.017976147516356122 0.08298629144092978
1.5608508408660066E8 0.01822088082666506 0.08420522471265428 0.981779119173335 -0.08420522471265426 0.981779119173335 -0.08420522471265426 0.01822088082666506 0.08420522471265428
1.5844062710560706E8 0.018472630559888754 0.08544114948352657 0.9815273694401114 -0.08544114948352657 0.9815273694401114 -0.08544114948352657 0.018472630559888754 0.08544114948352657
1.6083171857529896E8 0.018731587397488106 0.08669426636144288 0.981268412602512 -0.08669426636144288 0.981268412602512 -0.08669426636144288 0.018731587397488106 0.08669426636144288
1.632588949716973E8 0.01899794670663709 0.08796477698021471 0.9810020532933631 -0.08796477698021471 0.9810020532933631 -0.08796477698021471 0.01899794670663709 0.08796477698021471
1.6572270086699936E8 0.01927190863588876 0.08925288395578078 0.9807280913641114 -0.08925288395578078 0.9807280913641114 -0.08925288395578078 0.01927190863588876 0.08925288395578078
1.6822368905176118E8 0.0195536782123598 0.09055879084061853 0.9804463217876402 -0.09055879084061853 0.9804463217876402 -0.09055879084061853 0.0195536782123598 0.09055879084061853
1.7076242065892437E8 0.019843465440480722 0.09188270207632553 0.9801565345595192 -0.09188270207632553 0.9801565345595192 -0.09188270207632553 0.019843465440480722 0.09188270207632553
1.7333946528971428E8 0.020141485402363223 0.09322482294433562 0.9798585145976365 -0.09322482294433562 0.9798585145976365 -0.09322482294433562 0.020141485402363223 0.09322482294433562
1.7595540114143828E8 0.020447958359841496 0.09458535951473467 0.9795520416401587 -0.09458535951473468 0.9795520416401587 -0.09458535951473468 0.020447958359841496 0.09458535951473467
1.786108151372127E8 0.02076310985824933 0.09596451859313622 0.9792368901417509 -0.09596451859313622 0.9792368901417509 -0.09596451859313622 0.02076310985824933 0.09596451859313622
1.8130630305764765E8 0.021087170832000606 0.09736250766557536 0.9789128291679994 -0.09736250766557536 0.9789128291679994 -0.09736250766557536 0.021087170832000606 0.09736250766557536
1.840424696745189E8 0.02142037771204617 0.09877953484137368 0.9785796222879537 -0.09877953484137367 0.9785796222879537 -0.09877953484137367 0.02142037771204617 0.09877953484137368
1.8681992888645732E8 0.021762972535286678 0.10021580879392467 0.9782370274647133 -0.10021580879392467 0.9782370274647133 -0.10021580879392467 0.021762972535286678 0.10021580879392467
1.8963930385668582E8 0.02211520305602651 0.10167153869934356 0.9778847969439735 -0.10167153869934355 0.9778847969439735 -0.10167153869934355 0.02211520305602651 0.10167153869934356
1.92501227152835E8 0.022477322859560635 0.10314693417291866 0.9775226771404394 -0.10314693417291866 0.9775226771404394 -0.10314693417291866 0.022477322859560635 0.10314693417291866
1.9540634088886917E8 0.02284959147799279 0.10464220520329652 0.9771504085220071 -0.10464220520329652 0.9771504085220071 -0.10464220520329652 0.02284959147799279 0.10464220520329652
1.983552968691535E8 0.02323227450838936 0.10615756208432253 0.9767677254916107 -0.10615756208432253 0.9767677254916107 -0.10615756208432253 0.02323227450838936 0.10615756208432253
2.0134875673469606E8 0.0236256437333805 0.10769321534445334 0.9763743562666195 -0.10769321534445334 0.9763743562666195 -0.10769321534445334 0.0236256437333805 0.10769321534445334
2.0438739211159652E8 0.02402997724432633 0.10924937567364608 0.9759700227556736 -0.1092493756736461 0.9759700227556736 -0.1092493756736461 0.02402997724432633 0.10924937567364608
2.074718847617352E8 0.024445559567172162 0.11082625384761918 0.9755544404328278 -0.11082625384761918 0.9755544404328278 -0.11082625384761918 0.024445559567172162 0.11082625384761918
2.106029267357361E8 0.024872681791123417 0.11242406064936836 0.9751273182088764 -0.11242406064936836 0.9751273182088764 -0.11242406064936836 0.024872681791123417 0.11242406064936836
2.1378122052823865E8 0.025311641700276707 0.11404300678780971 0.9746883582997233 -0.1140430067878097 0.9746883582997233 -0.1140430067878097 0.025311641700276707 0.11404300678780971
2.1700747923551247E8 0.025762743908348984 0.11568330281340568 0.974237256091651 -0.11568330281340568 0.974237256091651 -0.11568330281340568 0.025762743908348984 0.11568330281340568
2.2028242671545094E8 0.026226299996652044 0.11734515903061751 0.973773700003348 -0.11734515903061749 0.973773700003348 -0.11734515903061749 0.026226299996652044 0.11734515903061751
2.23606797749979E8 0.026702628655464536 0.11902878540700985 0.9732973713445356 -0.11902878540700985 0.9732973713445356 -0.11902878540700985 0.026702628655464536 0.11902878540700985
2.2698133820991236E8 0.02719205582895729 0.12073439147881715 0.9728079441710428 -0.12073439147881715 0.9728079441710428 -0.12073439147881715 0.02719205582895729 0.12073439147881715
2.3040680522230446E8 0.02769491486383119 0.12246218625276152 0.9723050851361688 -0.12246218625276152 0.9723050851361688 -0.12246218625276152 0.02769491486383119 0.12246218625276152
2.338839673403185E8 0.02821154666182905 0.12421237810389295 0.971788453338171 -0.12421237810389295 0.971788453338171 -0.12421237810389295 0.02821154666182905 0.12421237810389295
2.37413604715664E8 0.028742299836284627 0.1259851746692018 0.9712577001637153 -0.1259851746692018 0.9712577001637153 -0.1259851746692018 0.028742299836284627 0.1259851746692018
2.4099650927363476E8 0.029287530872871528 0.12778078273672974 0.9707124691271284 -0.12778078273672974 0.9707124691271284 -0.12778078273672974 0.029287530872871528 0.12778078273672974
2.446334848907889E8 0.02984760429471406 0.12959940812988324 0.9701523957052861 -0.12959940812988324 0.9701523957052861 -0.12959940812988324 0.02984760429471406 0.12959940812988324
