!Murata Part Number: LQP15MN3N6W02
!These Parameters are Measured in Series Mode Connection
!       o--[Z]--o
!Port1              Port2
!       o-------o
!
!Freq. Start=50[MHz] Stop=20[GHz], 401[Steps]
# Hz S RI R 50
!Freq.(Hz) S11(Real) S11(Imag) S21(Real) S21(Imag) S12(Real) S12(Imag) S22(Real) S22(Imag)
5.0E7 0.0024801662887900208 0.010793125036892897 0.99751983371121 -0.010793125036892897 0.99751983371121 -0.010793125036892897 0.0024801662887900208 0.010793125036892897
5.0754570186123446E7 0.0024910635982476285 0.010953014448232384 0.9975089364017523 -0.010953014448232384 0.9975089364017523 -0.010953014448232384 0.0024910635982476285 0.010953014448232384
5.152052789556263E7 0.0025022288341664885 0.011115205758793264 0.9974977711658335 -0.011115205758793264 0.9974977711658335 -0.011115205758793264 0.0025022288341664885 0.011115205758793264
5.229804498202928E7 0.0025136671118636054 0.011279730290532244 0.9974863328881364 -0.011279730290532246 0.9974863328881364 -0.011279730290532246 0.0025136671118636054 0.011279730290532244
5.308729589274893E7 0.0025253835810753003 0.011446619778001538 0.9974746164189247 -0.011446619778001536 0.9974746164189247 -0.011446619778001536 0.0025253835810753003 0.011446619778001538
5.388845770760058E7 0.002537383423981441 0.011615906376448513 0.9974626165760185 -0.011615906376448513 0.9974626165760185 -0.011615906376448513 0.002537383423981441 0.011615906376448513
5.470171017884717E7 0.002549671853234986 0.011787622670262607 0.997450328146765 -0.011787622670262607 0.997450328146765 -0.011787622670262607 0.002549671853234986 0.011787622670262607
5.5527235771465644E7 0.002562254110010474 0.011961801681781565 0.9974377458899897 -0.011961801681781565 0.9974377458899897 -0.011961801681781565 0.002562254110010474 0.011961801681781565
5.6365219704085544E7 0.0025751354620861294 0.012138476880469096 0.9974248645379137 -0.012138476880469094 0.9974248645379137 -0.012138476880469094 0.0025751354620861294 0.012138476880469096
5.721584999054556E7 0.0025883212019754544 0.012317682192475353 0.9974116787980245 -0.012317682192475353 0.9974116787980245 -0.012317682192475353 0.0025883212019754544 0.012317682192475353
5.807931748207712E7 0.0026018166451252356 0.012499452010591246 0.9973981833548748 -0.012499452010591244 0.9973981833548748 -0.012499452010591244 0.0026018166451252356 0.012499452010591246
5.8955815910124585E7 0.002615627128198046 0.01268382120460702 0.9973843728718019 -0.012683821204607018 0.9973843728718019 -0.012683821204607018 0.002615627128198046 0.01268382120460702
5.984554192981184E7 0.002629758007458484 0.012870825132084785 0.9973702419925415 -0.012870825132084785 0.9973702419925415 -0.012870825132084785 0.002629758007458484 0.012870825132084785
6.074869516406457E7 0.002644214657283417 0.013060499649553841 0.9973557853427165 -0.013060499649553841 0.9973557853427165 -0.013060499649553841 0.002644214657283417 0.013060499649553841
6.166547824839868E7 0.0026590024688176615 0.013252881124136888 0.9973409975311824 -0.013252881124136888 0.9973409975311824 -0.013252881124136888 0.0026590024688176615 0.013252881124136888
6.2596096876384385E7 0.0026741268487975767 0.013448006445614067 0.9973258731512025 -0.013448006445614067 0.9973258731512025 -0.013448006445614067 0.0026741268487975767 0.013448006445614067
6.354075984579668E7 0.0026895932185660183 0.013645913038930861 0.9973104067814339 -0.013645913038930861 0.9973104067814339 -0.013645913038930861 0.0026895932185660183 0.013645913038930861
6.449967910546205E7 0.002705407013303145 0.013846638877154392 0.997294592986697 -0.013846638877154392 0.997294592986697 -0.013846638877154392 0.002705407013303145 0.013846638877154392
6.547306980281226E7 0.002721573681498398 0.014050222494881612 0.9972784263185015 -0.014050222494881612 0.9972784263185015 -0.014050222494881612 0.002721573681498398 0.014050222494881612
6.646115033215589E7 0.002738098684689922 0.014256703002101558 0.9972619013153101 -0.014256703002101554 0.9972619013153101 -0.014256703002101554 0.002738098684689922 0.014256703002101558
6.746414238367817E7 0.002754987497498336 0.014466120098511805 0.9972450125025019 -0.014466120098511805 0.9972450125025019 -0.014466120098511805 0.002754987497498336 0.014466120098511805
6.848227099318038E7 0.0027722456079825332 0.014678514088288347 0.9972277543920176 -0.014678514088288347 0.9972277543920176 -0.014678514088288347 0.0027722456079825332 0.014678514088288347
6.951576459256999E7 0.002789878518345734 0.014893925895306057 0.9972101214816542 -0.014893925895306056 0.9972101214816542 -0.014893925895306056 0.002789878518345734 0.014893925895306057
7.056485506111258E7 0.0028078917460204324 0.015112397078804993 0.9971921082539796 -0.015112397078804993 0.9971921082539796 -0.015112397078804993 0.0028078917460204324 0.015112397078804993
7.162977777745734E7 0.0028262908251613043 0.015333969849496476 0.9971737091748389 -0.015333969849496476 0.9971737091748389 -0.015333969849496476 0.0028262908251613043 0.015333969849496476
7.271077167244768E7 0.002845081308575246 0.015558687086100307 0.9971549186914247 -0.015558687086100304 0.9971549186914247 -0.015558687086100304 0.002845081308575246 0.015558687086100307
7.380807928272885E7 0.0028642687701179235 0.015786592352303182 0.9971357312298822 -0.015786592352303182 0.9971357312298822 -0.015786592352303182 0.0028642687701179235 0.015786592352303182
7.492194680516452E7 0.002883858807585928 0.01601772991412566 0.997116141192414 -0.01601772991412566 0.997116141192414 -0.01601772991412566 0.002883858807585928 0.01601772991412566
7.60526241520746E7 0.0029038570461336405 0.016252144757683648 0.9970961429538664 -0.016252144757683648 0.9970961429538664 -0.016252144757683648 0.0029038570461336405 0.016252144757683648
7.720036500730675E7 0.0029242691422433063 0.016489882607327876 0.9970757308577567 -0.016489882607327876 0.9970757308577567 -0.016489882607327876 0.0029242691422433063 0.016489882607327876
7.836542688315398E7 0.0029451007882763244 0.01673098994414273 0.9970548992117236 -0.01673098994414273 0.9970548992117236 -0.01673098994414273 0.0029451007882763244 0.01673098994414273
7.954807117813127E7 0.0029663577176330612 0.016975514024784154 0.9970336422823671 -0.016975514024784154 0.9970336422823671 -0.016975514024784154 0.0029663577176330612 0.016975514024784154
8.074856323562416E7 0.0029880457105474394 0.01722350290063364 0.9970119542894526 -0.017223502900633635 0.9970119542894526 -0.017223502900633635 0.0029880457105474394 0.01722350290063364
8.196717240342227E7 0.003010170600541615 0.017475005437243948 0.9969898293994581 -0.017475005437243948 0.9969898293994581 -0.017475005437243948 0.003010170600541615 0.017475005437243948
8.320417209415154E7 0.003032738281564624 0.01773007133404989 0.9969672617184354 -0.01773007133404989 0.9969672617184354 -0.01773007133404989 0.003032738281564624 0.01773007133404989
8.445983984661816E7 0.003055754715837476 0.01798875114431542 0.9969442452841627 -0.017988751144315425 0.9969442452841627 -0.017988751144315425 0.003055754715837476 0.01798875114431542
8.573445738807854E7 0.0030792259424255635 0.018251096295287168 0.9969207740575745 -0.018251096295287168 0.9969207740575745 -0.018251096295287168 0.0030792259424255635 0.018251096295287168
8.702831069744885E7 0.003103158086557376 0.018517159108522096 0.9968968419134426 -0.018517159108522096 0.9968968419134426 -0.018517159108522096 0.003103158086557376 0.018517159108522096
8.834169006946853E7 0.0031275573697065752 0.018786992820355917 0.9968724426302935 -0.018786992820355917 0.9968724426302935 -0.018786992820355917 0.0031275573697065752 0.018786992820355917
8.96748901798321E7 0.0031524301204523537 0.019060651602477306 0.9968475698795477 -0.019060651602477306 0.9968475698795477 -0.019060651602477306 0.0031524301204523537 0.019060651602477306
9.1028210151304E7 0.0031777827861306823 0.019338190582571628 0.9968222172138693 -0.019338190582571628 0.9968222172138693 -0.019338190582571628 0.0031777827861306823 0.019338190582571628
9.240195362083109E7 0.003203621945286723 0.019619665864997037 0.9967963780547134 -0.019619665864997037 0.9967963780547134 -0.019619665864997037 0.003203621945286723 0.019619665864997037
9.379642880766791E7 0.0032299543209360574 0.019905134551454658 0.9967700456790639 -0.019905134551454658 0.9967700456790639 -0.019905134551454658 0.0032299543209360574 0.019905134551454658
9.521194858253023E7 0.003256786794639871 0.020194654761614198 0.9967432132053601 -0.020194654761614198 0.9967432132053601 -0.020194654761614198 0.003256786794639871 0.020194654761614198
9.664883053779216E7 0.003284126421396399 0.02048828565365551 0.9967158735786037 -0.020488285653655507 0.9967158735786037 -0.020488285653655507 0.003284126421396399 0.02048828565365551
9.810739705874248E7 0.0033119804453482803 0.020786087444686758 0.9966880195546517 -0.020786087444686758 0.9966880195546517 -0.020786087444686758 0.0033119804453482803 0.020786087444686758
9.958797539591652E7 0.003340356316302578 0.021088121430999626 0.9966596436836975 -0.021088121430999623 0.9966596436836975 -0.021088121430999623 0.003340356316302578 0.021088121430999626
1.0109089773851961E8 0.0033692617070574357 0.021394450008122356 0.9966307382929424 -0.021394450008122356 0.9966307382929424 -0.021394450008122356 0.0033692617070574357 0.021394450008122356
1.0261650128895843E8 0.003398704531526466 0.021705136690631892 0.9966012954684736 -0.021705136690631892 0.9966012954684736 -0.021705136690631892 0.003398704531526466 0.021705136690631892
1.0416512833849736E8 0.003428692963649202 0.022020246131687137 0.996571307036351 -0.022020246131687137 0.996571307036351 -0.022020246131687137 0.003428692963649202 0.022020246131687137
1.0573712634405641E8 0.003459235457073181 0.022339844142246473 0.9965407645429267 -0.022339844142246476 0.9965407645429267 -0.022339844142246476 0.003459235457073181 0.022339844142246473
1.0733284800616828E8 0.003490340765590528 0.022663997709933742 0.9965096592344095 -0.022663997709933742 0.9965096592344095 -0.022663997709933742 0.003490340765590528 0.022663997709933742
1.0895265134811176E8 0.0035220179643093317 0.022992775017518556 0.9964779820356907 -0.022992775017518556 0.9964779820356907 -0.022992775017518556 0.0035220179643093317 0.022992775017518556
1.1059689979623953E8 0.0035542764715377306 0.023326245460978598 0.9964457235284625 -0.023326245460978598 0.9964457235284625 -0.023326245460978598 0.0035542764715377306 0.023326245460978598
1.1226596226151802E8 0.003587126071356162 0.02366447966711327 0.9964128739286439 -0.02366447966711327 0.9964128739286439 -0.02366447966711327 0.003587126071356162 0.02366447966711327
1.1396021322229806E8 0.0036205769368512692 0.024007549510680615 0.9963794230631488 -0.024007549510680615 0.9963794230631488 -0.024007549510680615 0.0036205769368512692 0.024007549510680615
1.1568003280833441E8 0.003654639653982859 0.024355528131031392 0.9963453603460172 -0.024355528131031392 0.9963453603460172 -0.024355528131031392 0.003654639653982859 0.024355528131031392
1.1742580688607343E8 0.003689325246053677 0.024708489948217147 0.9963106747539463 -0.024708489948217147 0.9963106747539463 -0.024708489948217147 0.003689325246053677 0.024708489948217147
1.1919792714522783E8 0.003724645198750198 0.025066510678551607 0.9962753548012498 -0.025066510678551607 0.9962753548012498 -0.025066510678551607 0.003724645198750198 0.025066510678551607
1.2099679118665792E8 0.0037606114857213846 0.025429667349607606 0.9962393885142786 -0.025429667349607603 0.9962393885142786 -0.025429667349607603 0.0037606114857213846 0.025429667349607606
1.2282280261157903E8 0.0037972365946613257 0.025798038314634657 0.9962027634053386 -0.025798038314634657 0.9962027634053386 -0.025798038314634657 0.0037972365946613257 0.025798038314634657
1.2467637111211549E8 0.0038345335538609833 0.02617170326638576 0.996165466446139 -0.02617170326638576 0.996165466446139 -0.02617170326638576 0.0038345335538609833 0.02617170326638576
1.265579125632208E8 0.003872515959193747 0.026550743250344493 0.9961274840408063 -0.026550743250344493 0.9961274840408063 -0.026550743250344493 0.003872515959193747 0.026550743250344493
1.284678491159853E8 0.003911198001499329 0.026935240677347167 0.9960888019985008 -0.026935240677347167 0.9960888019985008 -0.026935240677347167 0.003911198001499329 0.026935240677347167
1.3040660929235186E8 0.003950594494330649 0.02732527933559783 0.9960494055056694 -0.02732527933559783 0.9960494055056694 -0.02732527933559783 0.003950594494330649 0.02732527933559783
1.3237462808126101E8 0.0039907209020286945 0.027720944402076904 0.9960092790979711 -0.027720944402076904 0.9960092790979711 -0.027720944402076904 0.0039907209020286945 0.027720944402076904
1.3437234703624701E8 0.0040315933680910715 0.02812232245334774 0.9959684066319089 -0.028122322453347736 0.9959684066319089 -0.028122322453347736 0.0040315933680910715 0.02812232245334774
1.364002143745067E8 0.004073228743800767 0.02852950147576787 0.9959267712561992 -0.02852950147576787 0.9959267712561992 -0.02852950147576787 0.004073228743800767 0.02852950147576787
1.3845868507746372E8 0.004115644617083039 0.02894257087511557 0.995884355382917 -0.02894257087511557 0.995884355382917 -0.02894257087511557 0.004115644617083039 0.02894257087511557
1.405482209928499E8 0.004158859341559598 0.029361621485644158 0.9958411406584404 -0.02936162148564416 0.9958411406584404 -0.02936162148564416 0.004158859341559598 0.029361621485644158
1.426692909383278E8 0.004202892065771094 0.029786745578580024 0.995797107934229 -0.029786745578580024 0.995797107934229 -0.029786745578580024 0.004202892065771094 0.029786745578580024
1.4482237080667645E8 0.004247762762540743 0.03021803687008244 0.9957522372374591 -0.030218036870082433 0.9957522372374591 -0.030218036870082433 0.004247762762540743 0.03021803687008244
1.4700794367256513E8 0.004293492258454227 0.03065559052868606 0.9957065077415457 -0.03065559052868606 0.9957065077415457 -0.03065559052868606 0.004293492258454227 0.03065559052868606
1.492264999009378E8 0.004340102263432994 0.03109950318224836 0.995659897736567 -0.03109950318224836 0.995659897736567 -0.03109950318224836 0.004340102263432994 0.03109950318224836
1.5147853725703382E8 0.0043876154003810106 0.03154987292442724 0.9956123845996189 -0.03154987292442724 0.9956123845996189 -0.03154987292442724 0.0043876154003810106 0.03154987292442724
1.5376456101806876E8 0.0044360552348872775 0.032006799320715255 0.9955639447651129 -0.03200679932071526 0.9955639447651129 -0.03200679932071526 0.0044360552348872775 0.032006799320715255
1.5608508408660066E8 0.004485446304969382 0.032470383414058085 0.9955145536950307 -0.03247038341405809 0.9955145536950307 -0.03247038341405809 0.004485446304969382 0.032470383414058085
1.5844062710560706E8 0.004535814150846164 0.03294072773008706 0.9954641858491539 -0.032940727730087056 0.9954641858491539 -0.032940727730087056 0.004535814150846164 0.03294072773008706
1.6083171857529896E8 0.004587185344730515 0.0334179362819958 0.9954128146552694 -0.0334179362819958 0.9954128146552694 -0.0334179362819958 0.004587185344730515 0.0334179362819958
1.632588949716973E8 0.004639587520636271 0.033902114575092054 0.9953604124793637 -0.033902114575092054 0.9953604124793637 -0.033902114575092054 0.004639587520636271 0.033902114575092054
1.6572270086699936E8 0.0046930494041962575 0.03439336961105666 0.9953069505958038 -0.03439336961105666 0.9953069505958038 -0.03439336961105666 0.0046930494041962575 0.03439336961105666
1.6822368905176118E8 0.004747600842491479 0.03489180989194124 0.9952523991575085 -0.03489180989194124 0.9952523991575085 -0.03489180989194124 0.004747600842491479 0.03489180989194124
1.7076242065892437E8 0.0048032728338944725 0.03539754542393705 0.9951967271661056 -0.035397545423937055 0.9951967271661056 -0.035397545423937055 0.0048032728338944725 0.03539754542393705
1.7333946528971428E8 0.004860097557932872 0.03591068772094656 0.995139902442067 -0.03591068772094656 0.995139902442067 -0.03591068772094656 0.004860097557932872 0.03591068772094656
1.7595540114143828E8 0.004918108405182014 0.03643134980798961 0.9950818915948181 -0.036431349807989614 0.9950818915948181 -0.036431349807989614 0.004918108405182014 0.03643134980798961
1.786108151372127E8 0.004977340007198315 0.03695964622447456 0.9950226599928018 -0.03695964622447456 0.9950226599928018 -0.03695964622447456 0.004977340007198315 0.03695964622447456
1.8130630305764765E8 0.005037828266507925 0.03749569302736537 0.994962171733492 -0.03749569302736537 0.994962171733492 -0.03749569302736537 0.005037828266507925 0.03749569302736537
1.840424696745189E8 0.005099610386667658 0.03803960779427294 0.9949003896133325 -0.03803960779427294 0.9949003896133325 -0.03803960779427294 0.005099610386667658 0.03803960779427294
1.8681992888645732E8 0.005162724902417899 0.03859150962649964 0.9948372750975822 -0.03859150962649965 0.9948372750975822 -0.03859150962649965 0.005162724902417899 0.03859150962649964
1.8963930385668582E8 0.005227211709949304 0.03915151915206334 0.9947727882900506 -0.03915151915206334 0.9947727882900506 -0.03915151915206334 0.005227211709949304 0.03915151915206334
1.92501227152835E8 0.00529311209730768 0.039719758528726695 0.9947068879026925 -0.039719758528726695 0.9947068879026925 -0.039719758528726695 0.00529311209730768 0.039719758528726695
1.9540634088886917E8 0.00536046877496315 0.04029635144705561 0.9946395312250367 -0.04029635144705561 0.9946395312250367 -0.04029635144705561 0.00536046877496315 0.04029635144705561
1.983552968691535E8 0.0054293259065720115 0.04088142313352951 0.9945706740934279 -0.0408814231335295 0.9945706740934279 -0.0408814231335295 0.0054293259065720115 0.04088142313352951
2.0134875673469606E8 0.005499729139961171 0.04147510035372377 0.9945002708600389 -0.04147510035372377 0.9945002708600389 -0.04147510035372377 0.005499729139961171 0.04147510035372377
2.0438739211159652E8 0.005571725638366956 0.0420775114155843 0.9944282743616332 -0.04207751141558431 0.9944282743616332 -0.04207751141558431 0.005571725638366956 0.0420775114155843
2.074718847617352E8 0.005645364111961361 0.04268878617281064 0.9943546358880386 -0.04268878617281064 0.9943546358880386 -0.04268878617281064 0.005645364111961361 0.04268878617281064
2.106029267357361E8 0.005720694849700276 0.0433090560283642 0.9942793051502997 -0.0433090560283642 0.9942793051502997 -0.0433090560283642 0.005720694849700276 0.0433090560283642
2.1378122052823865E8 0.005797769751529419 0.04393845393811497 0.9942022302484707 -0.04393845393811497 0.9942022302484707 -0.04393845393811497 0.005797769751529419 0.04393845393811497
2.1700747923551247E8 0.005876642360984763 0.044577114414639615 0.9941233576390153 -0.044577114414639615 0.9941233576390153 -0.044577114414639615 0.005876642360984763 0.044577114414639615
2.2028242671545094E8 0.0059573678982251495 0.045225173531180676 0.9940426321017749 -0.045225173531180676 0.9940426321017749 -0.045225173531180676 0.0059573678982251495 0.045225173531180676
2.23606797749979E8 0.006040003293535774 0.045882768925776876 0.9939599967064641 -0.045882768925776876 0.9939599967064641 -0.045882768925776876 0.006040003293535774 0.045882768925776876
2.2698133820991236E8 0.0061246072213417685 0.046550039805571146 0.9938753927786582 -0.046550039805571146 0.9938753927786582 -0.046550039805571146 0.0061246072213417685 0.046550039805571146
2.3040680522230446E8 0.006211240134771991 0.04722712695130288 0.993788759865228 -0.04722712695130288 0.993788759865228 -0.04722712695130288 0.006211240134771991 0.04722712695130288
2.338839673403185E8 0.006299964300813523 0.04791417272198846 0.9937000356991866 -0.04791417272198845 0.9937000356991866 -0.04791417272198845 0.006299964300813523 0.04791417272198846
2.37413604715664E8 0.0063908438360980565 0.04861132105979383 0.993609156163902 -0.04861132105979383 0.993609156163902 -0.04861132105979383 0.0063908438360980565 0.04861132105979383
