!Murata Part Number: LQP15MN1N5W02
!These Parameters are Measured in Series Mode Connection
!       o--[Z]--o
!Port1              Port2
!       o-------o
!
!Freq. Start=50[MHz] Stop=20[GHz], 401[Steps]
# Hz S RI R 50
!Freq.(Hz) S11(Real) S11(Imag) S21(Real) S21(Imag) S12(Real) S12(Imag) S22(Real) S22(Imag)
5.0E7 7.454568911170745E-4 0.003650524947462684 0.9992545431088828 -0.003650524947462684 0.9992545431088828 -0.003650524947462684 7.454568911170745E-4 0.003650524947462684
5.0754570186123446E7 7.46863030333051E-4 0.003705436927085362 0.999253136969667 -0.003705436927085362 0.999253136969667 -0.003705436927085362 7.46863030333051E-4 0.003705436927085362
5.152052789556263E7 7.483100026821959E-4 0.0037611697121653193 0.9992516899973177 -0.0037611697121653193 0.9992516899973177 -0.0037611697121653193 7.483100026821959E-4 0.0037611697121653193
5.229804498202928E7 7.497989369650374E-4 0.003817735353827243 0.9992502010630351 -0.003817735353827243 0.9992502010630351 -0.003817735353827243 7.497989369650374E-4 0.003817735353827243
5.308729589274893E7 7.513309898822537E-4 0.003875146071583626 0.9992486690101179 -0.003875146071583626 0.9992486690101179 -0.003875146071583626 7.513309898822537E-4 0.003875146071583626
5.388845770760058E7 7.529073465344443E-4 0.003933414255396033 0.9992470926534656 -0.003933414255396032 0.9992470926534656 -0.003933414255396032 7.529073465344443E-4 0.003933414255396033
5.470171017884717E7 7.545292209197128E-4 0.003992552467754964 0.9992454707790802 -0.003992552467754964 0.9992454707790802 -0.003992552467754964 7.545292209197128E-4 0.003992552467754964
5.5527235771465644E7 7.561978564282478E-4 0.004052573445778602 0.9992438021435717 -0.004052573445778602 0.9992438021435717 -0.004052573445778602 7.561978564282478E-4 0.004052573445778602
5.6365219704085544E7 7.579145263330676E-4 0.00411349010333081 0.9992420854736669 -0.004113490103330809 0.9992420854736669 -0.004113490103330809 7.579145263330676E-4 0.00411349010333081
5.721584999054556E7 7.596805342760521E-4 0.004175315533158793 0.9992403194657242 -0.004175315533158793 0.9992403194657242 -0.004175315533158793 7.596805342760521E-4 0.004175315533158793
5.807931748207712E7 7.614972147483138E-4 0.004238063009050829 0.9992385027852514 -0.004238063009050829 0.9992385027852514 -0.004238063009050829 7.614972147483138E-4 0.004238063009050829
5.8955815910124585E7 7.633659335639549E-4 0.004301745988014611 0.9992366340664359 -0.004301745988014612 0.9992366340664359 -0.004301745988014612 7.633659335639549E-4 0.004301745988014611
5.984554192981184E7 7.652880883261874E-4 0.004366378112476733 0.9992347119116738 -0.004366378112476733 0.9992347119116738 -0.004366378112476733 7.652880883261874E-4 0.004366378112476733
6.074869516406457E7 7.672651088847543E-4 0.0044319732125039325 0.9992327348911151 -0.0044319732125039325 0.9992327348911151 -0.0044319732125039325 7.672651088847543E-4 0.0044319732125039325
6.166547824839868E7 7.692984577835546E-4 0.004498545308046802 0.9992307015422166 -0.004498545308046802 0.9992307015422166 -0.004498545308046802 7.692984577835546E-4 0.004498545308046802
6.2596096876384385E7 7.713896306973282E-4 0.0045661086112066766 0.9992286103693026 -0.004566108611206676 0.9992286103693026 -0.004566108611206676 7.713896306973282E-4 0.0045661086112066766
6.354075984579668E7 7.735401568562054E-4 0.0046346775285265865 0.9992264598431438 -0.0046346775285265865 0.9992264598431438 -0.0046346775285265865 7.735401568562054E-4 0.0046346775285265865
6.449967910546205E7 7.757515994569058E-4 0.004704266663307125 0.9992242484005429 -0.004704266663307125 0.9992242484005429 -0.004704266663307125 7.757515994569058E-4 0.004704266663307125
6.547306980281226E7 7.780255560593161E-4 0.004774890817948295 0.9992219744439406 -0.004774890817948295 0.9992219744439406 -0.004774890817948295 7.780255560593161E-4 0.004774890817948295
6.646115033215589E7 7.803636589671451E-4 0.004846564996318374 0.999219636341033 -0.004846564996318374 0.999219636341033 -0.004846564996318374 7.803636589671451E-4 0.004846564996318374
6.746414238367817E7 7.827675755913194E-4 0.004919304406151028 0.9992172324244089 -0.004919304406151028 0.9992172324244089 -0.004919304406151028 7.827675755913194E-4 0.004919304406151028
6.848227099318038E7 7.8523900879476E-4 0.004993124461471963 0.9992147609912052 -0.004993124461471964 0.9992147609912052 -0.004993124461471964 7.8523900879476E-4 0.004993124461471963
6.951576459256999E7 7.877796972171336E-4 0.005068040785056525 0.999212220302783 -0.005068040785056525 0.999212220302783 -0.005068040785056525 7.877796972171336E-4 0.005068040785056525
7.056485506111258E7 7.903914155781653E-4 0.005144069210919768 0.9992096085844219 -0.005144069210919768 0.9992096085844219 -0.005144069210919768 7.903914155781653E-4 0.005144069210919768
7.162977777745734E7 7.930759749580754E-4 0.005221225786840669 0.999206924025042 -0.0052212257868406685 0.999206924025042 -0.0052212257868406685 7.930759749580754E-4 0.005221225786840669
7.271077167244768E7 7.958352230536807E-4 0.005299526776922273 0.9992041647769462 -0.005299526776922273 0.9992041647769462 -0.005299526776922273 7.958352230536807E-4 0.005299526776922273
7.380807928272885E7 7.986710444086985E-4 0.005378988664189677 0.9992013289555912 -0.005378988664189676 0.9992013289555912 -0.005378988664189676 7.986710444086985E-4 0.005378988664189677
7.492194680516452E7 8.015853606167849E-4 0.005459628153227937 0.9991984146393833 -0.0054596281532279375 0.9991984146393833 -0.0054596281532279375 8.015853606167849E-4 0.005459628153227937
7.60526241520746E7 8.04580130495843E-4 0.005541462172862138 0.9991954198695041 -0.005541462172862139 0.9991954198695041 -0.005541462172862139 8.04580130495843E-4 0.005541462172862138
7.720036500730675E7 8.076573502321463E-4 0.005624507878881998 0.999192342649768 -0.005624507878881998 0.999192342649768 -0.005624507878881998 8.076573502321463E-4 0.005624507878881998
7.836542688315398E7 8.10819053492846E-4 0.005708782656813546 0.9991891809465072 -0.005708782656813545 0.9991891809465072 -0.005708782656813545 8.10819053492846E-4 0.005708782656813546
7.954807117813127E7 8.140673115054471E-4 0.0057943041247406225 0.9991859326884945 -0.005794304124740623 0.9991859326884945 -0.005794304124740623 8.140673115054471E-4 0.0057943041247406225
8.074856323562416E7 8.174042331028907E-4 0.005881090136179081 0.999182595766897 -0.005881090136179081 0.999182595766897 -0.005881090136179081 8.174042331028907E-4 0.005881090136179081
8.196717240342227E7 8.208319647329191E-4 0.005969158783006796 0.9991791680352671 -0.005969158783006796 0.9991791680352671 -0.005969158783006796 8.208319647329191E-4 0.005969158783006796
8.320417209415154E7 8.243526904304626E-4 0.006058528398452755 0.9991756473095694 -0.006058528398452755 0.9991756473095694 -0.006058528398452755 8.243526904304626E-4 0.006058528398452755
8.445983984661816E7 8.27968631751853E-4 0.006149217560148667 0.9991720313682483 -0.006149217560148667 0.9991720313682483 -0.006149217560148667 8.27968631751853E-4 0.006149217560148667
8.573445738807854E7 8.316820476697654E-4 0.006241245093246834 0.9991683179523302 -0.006241245093246834 0.9991683179523302 -0.006241245093246834 8.316820476697654E-4 0.006241245093246834
8.702831069744885E7 8.354952344278853E-4 0.006334630073608105 0.9991645047655721 -0.006334630073608105 0.9991645047655721 -0.006334630073608105 8.354952344278853E-4 0.006334630073608105
8.834169006946853E7 8.394105253543916E-4 0.00642939183106399 0.9991605894746458 -0.00642939183106399 0.9991605894746458 -0.00642939183106399 8.394105253543916E-4 0.00642939183106399
8.96748901798321E7 8.434302906335207E-4 0.006525549952757306 0.9991565697093665 -0.006525549952757304 0.9991565697093665 -0.006525549952757304 8.434302906335207E-4 0.006525549952757306
9.1028210151304E7 8.475569370345751E-4 0.006623124286565786 0.9991524430629652 -0.006623124286565787 0.9991524430629652 -0.006623124286565787 8.475569370345751E-4 0.006623124286565786
9.240195362083109E7 8.517929075979333E-4 0.006722134944613414 0.999148207092402 -0.006722134944613412 0.999148207092402 -0.006722134944613412 8.517929075979333E-4 0.006722134944613414
9.379642880766791E7 8.561406812777945E-4 0.006822602306874394 0.999143859318722 -0.006822602306874394 0.999143859318722 -0.006822602306874394 8.561406812777945E-4 0.006822602306874394
9.521194858253023E7 8.606027725415922E-4 0.006924547024874953 0.9991393972274584 -0.006924547024874953 0.9991393972274584 -0.006924547024874953 8.606027725415922E-4 0.006924547024874953
9.664883053779216E7 8.651817309262271E-4 0.007027990025498298 0.9991348182690737 -0.007027990025498298 0.9991348182690737 -0.007027990025498298 8.651817309262271E-4 0.007027990025498298
9.810739705874248E7 8.69880140551524E-4 0.007132952514898283 0.9991301198594483 -0.007132952514898283 0.9991301198594483 -0.007132952514898283 8.69880140551524E-4 0.007132952514898283
9.958797539591652E7 8.747006195915677E-4 0.007239455982527575 0.9991252993804085 -0.007239455982527575 0.9991252993804085 -0.007239455982527575 8.747006195915677E-4 0.007239455982527575
1.0109089773851961E8 8.796458197048784E-4 0.007347522205286292 0.9991203541802953 -0.007347522205286294 0.9991203541802953 -0.007347522205286294 8.796458197048784E-4 0.007347522205286292
1.0261650128895843E8 8.847184254246632E-4 0.007457173251797206 0.9991152815745753 -0.007457173251797207 0.9991152815745753 -0.007457173251797207 8.847184254246632E-4 0.007457173251797206
1.0416512833849736E8 8.899211535107528E-4 0.007568431486813872 0.9991100788464895 -0.0075684314868138735 0.9991100788464895 -0.0075684314868138735 8.899211535107528E-4 0.007568431486813872
1.0573712634405641E8 8.952567522651398E-4 0.007681319575768106 0.999104743247735 -0.007681319575768106 0.999104743247735 -0.007681319575768106 8.952567522651398E-4 0.007681319575768106
1.0733284800616828E8 9.00728000813456E-4 0.00779586048946352 0.9990992719991865 -0.007795860489463521 0.9990992719991865 -0.007795860489463521 9.00728000813456E-4 0.00779586048946352
1.0895265134811176E8 9.06337708355091E-4 0.007912077508921748 0.9990936622916449 -0.007912077508921748 0.9990936622916449 -0.007912077508921748 9.06337708355091E-4 0.007912077508921748
1.1059689979623953E8 9.120887133850888E-4 0.008029994230388313 0.999087911286615 -0.008029994230388311 0.999087911286615 -0.008029994230388311 9.120887133850888E-4 0.008029994230388313
1.1226596226151802E8 9.179838828914105E-4 0.00814963457050502 0.9990820161171085 -0.00814963457050502 0.9990820161171085 -0.00814963457050502 9.179838828914105E-4 0.00814963457050502
1.1396021322229806E8 9.240261115316035E-4 0.008271022771655938 0.9990759738884684 -0.008271022771655938 0.9990759738884684 -0.008271022771655938 9.240261115316035E-4 0.008271022771655938
1.1568003280833441E8 9.302183207933975E-4 0.00839418340749392 0.9990697816792066 -0.00839418340749392 0.9990697816792066 -0.00839418340749392 9.302183207933975E-4 0.00839418340749392
1.1742580688607343E8 9.365634581442853E-4 0.00851914138865482 0.9990634365418556 -0.00851914138865482 0.9990634365418556 -0.00851914138865482 9.365634581442853E-4 0.00851914138865482
1.1919792714522783E8 9.430644961756165E-4 0.00864592196866633 0.9990569355038244 -0.00864592196866633 0.9990569355038244 -0.00864592196866633 9.430644961756165E-4 0.00864592196866633
1.2099679118665792E8 9.49724431747318E-4 0.008774550750058467 0.9990502755682528 -0.008774550750058467 0.9990502755682528 -0.008774550750058467 9.49724431747318E-4 0.008774550750058467
1.2282280261157903E8 9.56546285139879E-4 0.008905053690682514 0.9990434537148601 -0.008905053690682514 0.9990434537148601 -0.008905053690682514 9.56546285139879E-4 0.008905053690682514
1.2467637111211549E8 9.635330992208144E-4 0.009037457110245218 0.9990364669007792 -0.009037457110245216 0.9990364669007792 -0.009037457110245216 9.635330992208144E-4 0.009037457110245218
1.265579125632208E8 9.70687938633389E-4 0.00917178769706471 0.9990293120613666 -0.00917178769706471 0.9990293120613666 -0.00917178769706471 9.70687938633389E-4 0.00917178769706471
1.284678491159853E8 9.780138890159605E-4 0.009308072515054522 0.999021986110984 -0.009308072515054522 0.999021986110984 -0.009308072515054522 9.780138890159605E-4 0.009308072515054522
1.3040660929235186E8 9.855140562609003E-4 0.009446339010941766 0.9990144859437392 -0.009446339010941766 0.9990144859437392 -0.009446339010941766 9.855140562609003E-4 0.009446339010941766
1.3237462808126101E8 9.931915658226039E-4 0.009586615021725184 0.9990068084341773 -0.009586615021725182 0.9990068084341773 -0.009586615021725182 9.931915658226039E-4 0.009586615021725184
1.3437234703624701E8 0.0010010495620847155 0.009728928782378486 0.9989989504379153 -0.009728928782378486 0.9989989504379153 -0.009728928782378486 0.0010010495620847155 0.009728928782378486
1.364002143745067E8 0.001009091207797223 0.009873308933803875 0.9989909087922025 -0.009873308933803875 0.9989909087922025 -0.009873308933803875 0.001009091207797223 0.009873308933803875
1.3845868507746372E8 0.0010173196835946772 0.010019784531040358 0.9989826803164051 -0.010019784531040358 0.9989826803164051 -0.010019784531040358 0.0010173196835946772 0.010019784531040358
1.405482209928499E8 0.0010257381876072993 0.010168385051730655 0.9989742618123928 -0.010168385051730655 0.9989742618123928 -0.010168385051730655 0.0010257381876072993 0.010168385051730655
1.426692909383278E8 0.001034349935177267 0.010319140404850269 0.9989656500648226 -0.010319140404850267 0.9989656500648226 -0.010319140404850267 0.001034349935177267 0.010319140404850269
1.4482237080667645E8 0.0010431581586929745 0.01047208093970139 0.9989568418413071 -0.01047208093970139 0.9989568418413071 -0.01047208093970139 0.0010431581586929745 0.01047208093970139
1.4700794367256513E8 0.001052166107554496 0.01062723745517373 0.9989478338924455 -0.01062723745517373 0.9989478338924455 -0.01062723745517373 0.001052166107554496 0.01062723745517373
1.492264999009378E8 0.0010613770482839218 0.01078464120927366 0.9989386229517161 -0.01078464120927366 0.9989386229517161 -0.01078464120927366 0.0010613770482839218 0.01078464120927366
1.5147853725703382E8 0.0010707942647946098 0.010944323928922256 0.9989292057352053 -0.010944323928922254 0.9989292057352053 -0.010944323928922254 0.0010707942647946098 0.010944323928922256
1.5376456101806876E8 0.0010804210588337146 0.011106317820021954 0.9989195789411663 -0.011106317820021952 0.9989195789411663 -0.011106317820021952 0.0010804210588337146 0.011106317820021954
1.5608508408660066E8 0.0010902607506126402 0.011270655577790707 0.9989097392493873 -0.011270655577790707 0.9989097392493873 -0.011270655577790707 0.0010902607506126402 0.011270655577790707
1.5844062710560706E8 0.0011003166796402777 0.011437370397361651 0.9988996833203597 -0.01143737039736165 0.9988996833203597 -0.01143737039736165 0.0011003166796402777 0.011437370397361651
1.6083171857529896E8 0.0011105922057740266 0.011606495984645205 0.998889407794226 -0.011606495984645205 0.998889407794226 -0.011606495984645205 0.0011105922057740266 0.011606495984645205
1.632588949716973E8 0.001121090710503687 0.011778066567449709 0.9988789092894963 -0.011778066567449709 0.9988789092894963 -0.011778066567449709 0.001121090710503687 0.011778066567449709
1.6572270086699936E8 0.0011318155984833213 0.011952116906855607 0.9988681844015168 -0.011952116906855605 0.9988681844015168 -0.011952116906855605 0.0011318155984833213 0.011952116906855607
1.6822368905176118E8 0.001142770299326077 0.012128682308837034 0.998857229700674 -0.012128682308837034 0.998857229700674 -0.012128682308837034 0.001142770299326077 0.012128682308837034
1.7076242065892437E8 0.0011539582696768527 0.012307798636123994 0.9988460417303231 -0.012307798636123994 0.9988460417303231 -0.012307798636123994 0.0011539582696768527 0.012307798636123994
1.7333946528971428E8 0.0011653829955773842 0.012489502320296676 0.9988346170044228 -0.012489502320296678 0.9988346170044228 -0.012489502320296678 0.0011653829955773842 0.012489502320296676
1.7595540114143828E8 0.0011770479951380502 0.012673830374103003 0.9988229520048617 -0.012673830374103003 0.9988229520048617 -0.012673830374103003 0.0011770479951380502 0.012673830374103003
1.786108151372127E8 0.0011889568215302103 0.012860820403989007 0.9988110431784697 -0.012860820403989007 0.9988110431784697 -0.012860820403989007 0.0011889568215302103 0.012860820403989007
1.8130630305764765E8 0.001201113066312424 0.013050510622830842 0.9987988869336877 -0.013050510622830842 0.9987988869336877 -0.013050510622830842 0.001201113066312424 0.013050510622830842
1.840424696745189E8 0.0012135203631032203 0.013242939862856082 0.9987864796368967 -0.013242939862856082 0.9987864796368967 -0.013242939862856082 0.0012135203631032203 0.013242939862856082
1.8681992888645732E8 0.0012261823916124316 0.013438147588741149 0.9987738176083876 -0.013438147588741149 0.9987738176083876 -0.013438147588741149 0.0012261823916124316 0.013438147588741149
1.8963930385668582E8 0.00123910288204226 0.013636173910870571 0.9987608971179576 -0.013636173910870571 0.9987608971179576 -0.013636173910870571 0.00123910288204226 0.013636173910870571
1.92501227152835E8 0.0012522856198683599 0.013837059598743049 0.9987477143801315 -0.01383705959874305 0.9987477143801315 -0.01383705959874305 0.0012522856198683599 0.013837059598743049
1.9540634088886917E8 0.0012657344510102451 0.014040846094508494 0.9987342655489897 -0.014040846094508494 0.9987342655489897 -0.014040846094508494 0.0012657344510102451 0.014040846094508494
1.983552968691535E8 0.0012794532873992277 0.014247575526619285 0.9987205467126008 -0.014247575526619285 0.9987205467126008 -0.014247575526619285 0.0012794532873992277 0.014247575526619285
2.0134875673469606E8 0.0012934461129509832 0.014457290723578584 0.9987065538870491 -0.014457290723578587 0.9987065538870491 -0.014457290723578587 0.0012934461129509832 0.014457290723578584
2.0438739211159652E8 0.0013077169899485743 0.01467003522776773 0.9986922830100513 -0.014670035227767733 0.9986922830100513 -0.014670035227767733 0.0013077169899485743 0.01467003522776773
2.074718847617352E8 0.001322270065840502 0.014885853309334488 0.9986777299341594 -0.014885853309334486 0.9986777299341594 -0.014885853309334486 0.001322270065840502 0.014885853309334488
2.106029267357361E8 0.0013371095804569836 0.015104789980123297 0.9986628904195431 -0.015104789980123297 0.9986628904195431 -0.015104789980123297 0.0013371095804569836 0.015104789980123297
2.1378122052823865E8 0.0013522398736462572 0.015326891007628674 0.9986477601263537 -0.015326891007628678 0.9986477601263537 -0.015326891007628678 0.0013522398736462572 0.015326891007628674
2.1700747923551247E8 0.0013676653933313006 0.015552202928952711 0.9986323346066688 -0.015552202928952711 0.9986323346066688 -0.015552202928952711 0.0013676653933313006 0.015552202928952711
2.2028242671545094E8 0.0013833907039858299 0.015780773064747365 0.9986166092960141 -0.015780773064747365 0.9986166092960141 -0.015780773064747365 0.0013833907039858299 0.015780773064747365
2.23606797749979E8 0.0013994204955270065 0.01601264953312283 0.998600579504473 -0.01601264953312283 0.998600579504473 -0.01601264953312283 0.0013994204955270065 0.01601264953312283
2.2698133820991236E8 0.0014157595926207677 0.016247881263503156 0.998584240407379 -0.016247881263503156 0.998584240407379 -0.016247881263503156 0.0014157595926207677 0.016247881263503156
2.3040680522230446E8 0.0014324129643941848 0.01648651801041072 0.9985675870356058 -0.01648651801041072 0.9985675870356058 -0.01648651801041072 0.0014324129643941848 0.01648651801041072
2.338839673403185E8 0.0014493857345478434 0.016728610367161934 0.9985506142654521 -0.016728610367161934 0.9985506142654521 -0.016728610367161934 0.0014493857345478434 0.016728610367161934
2.37413604715664E8 0.0014666831918597502 0.01697420977945705 0.9985333168081404 -0.01697420977945705 0.9985333168081404 -0.01697420977945705 0.0014666831918597502 0.01697420977945705
