!Murata Part Number: LQP15MN1N4W02
!These Parameters are Measured in Series Mode Connection
!       o--[Z]--o
!Port1              Port2
!       o-------o
!
!Freq. Start=50[MHz] Stop=20[GHz], 401[Steps]
# Hz S RI R 50
!Freq.(Hz) S11(Real) S11(Imag) S21(Real) S21(Imag) S12(Real) S12(Imag) S22(Real) S22(Imag)
5.0E7 4.6960777587494657E-4 0.003345597252943563 0.9995303922241251 -0.003345597252943563 0.9995303922241251 -0.003345597252943563 4.6960777587494657E-4 0.003345597252943563
5.0754570186123446E7 4.7080610580634675E-4 0.0033959346467475077 0.9995291938941936 -0.0033959346467475077 0.9995291938941936 -0.0033959346467475077 4.7080610580634675E-4 0.0033959346467475077
5.152052789556263E7 4.720392446712754E-4 0.0034470250032342404 0.9995279607553288 -0.0034470250032342404 0.9995279607553288 -0.0034470250032342404 4.720392446712754E-4 0.0034470250032342404
5.229804498202928E7 4.7330815534146157E-4 0.0034988794003995034 0.9995266918446585 -0.0034988794003995034 0.9995266918446585 -0.0034988794003995034 4.7330815534146157E-4 0.0034988794003995034
5.308729589274893E7 4.7461382452252044E-4 0.0035515090719673913 0.9995253861754774 -0.0035515090719673913 0.9995253861754774 -0.0035515090719673913 4.7461382452252044E-4 0.0035515090719673913
5.388845770760058E7 4.759572631829579E-4 0.0036049254093321113 0.999524042736817 -0.0036049254093321113 0.999524042736817 -0.0036049254093321113 4.759572631829579E-4 0.0036049254093321113
5.470171017884717E7 4.773395069814427E-4 0.003659139963518344 0.9995226604930186 -0.003659139963518344 0.9995226604930186 -0.003659139963518344 4.773395069814427E-4 0.003659139963518344
5.5527235771465644E7 4.7876161669166704E-4 0.0037141644471605207 0.9995212383833083 -0.0037141644471605203 0.9995212383833083 -0.0037141644471605203 4.7876161669166704E-4 0.0037141644471605207
5.6365219704085544E7 4.8022467862408533E-4 0.0037700107365013264 0.9995197753213758 -0.0037700107365013272 0.9995197753213758 -0.0037700107365013272 4.8022467862408533E-4 0.0037700107365013264
5.721584999054556E7 4.81729805043779E-4 0.0038266908734098585 0.9995182701949564 -0.003826690873409859 0.9995182701949564 -0.003826690873409859 4.81729805043779E-4 0.0038266908734098585
5.807931748207712E7 4.8327813458366037E-4 0.0038842170674197765 0.9995167218654163 -0.0038842170674197765 0.9995167218654163 -0.0038842170674197765 4.8327813458366037E-4 0.0038842170674197765
5.8955815910124585E7 4.848708326521911E-4 0.003942601697788003 0.999515129167348 -0.003942601697788003 0.999515129167348 -0.003942601697788003 4.848708326521911E-4 0.003942601697788003
5.984554192981184E7 4.8650909183475403E-4 0.0040018573155744174 0.9995134909081651 -0.0040018573155744174 0.9995134909081651 -0.0040018573155744174 4.8650909183475403E-4 0.0040018573155744174
6.074869516406457E7 4.881941322877756E-4 0.004061996645743137 0.9995118058677123 -0.004061996645743137 0.9995118058677123 -0.004061996645743137 4.881941322877756E-4 0.004061996645743137
6.166547824839868E7 4.899272021246657E-4 0.004123032589285998 0.9995100727978752 -0.004123032589285998 0.9995100727978752 -0.004123032589285998 4.899272021246657E-4 0.004123032589285998
6.2596096876384385E7 4.917095777926021E-4 0.004184978225368937 0.9995082904222075 -0.004184978225368937 0.9995082904222075 -0.004184978225368937 4.917095777926021E-4 0.004184978225368937
6.354075984579668E7 4.93542564439144E-4 0.004247846813501989 0.999506457435561 -0.00424784681350199 0.999506457435561 -0.00424784681350199 4.93542564439144E-4 0.004247846813501989
6.449967910546205E7 4.954274962676423E-4 0.004311651795733763 0.9995045725037323 -0.004311651795733763 0.9995045725037323 -0.004311651795733763 4.954274962676423E-4 0.004311651795733763
6.547306980281226E7 4.973657368803566E-4 0.004376406798871236 0.9995026342631198 -0.004376406798871237 0.9995026342631198 -0.004376406798871237 4.973657368803566E-4 0.004376406798871236
6.646115033215589E7 4.993586796081842E-4 0.004442125636725905 0.9995006413203918 -0.004442125636725905 0.9995006413203918 -0.004442125636725905 4.993586796081842E-4 0.004442125636725905
6.746414238367817E7 5.014077478258506E-4 0.004508822312387293 0.9994985922521743 -0.004508822312387293 0.9994985922521743 -0.004508822312387293 5.014077478258506E-4 0.004508822312387293
6.848227099318038E7 5.035143952514044E-4 0.004576511020524997 0.9994964856047486 -0.004576511020524997 0.9994964856047486 -0.004576511020524997 5.035143952514044E-4 0.004576511020524997
6.951576459256999E7 5.056801062288216E-4 0.0046452061497205205 0.9994943198937712 -0.0046452061497205205 0.9994943198937712 -0.0046452061497205205 5.056801062288216E-4 0.0046452061497205205
7.056485506111258E7 5.079063959925104E-4 0.004714922284830218 0.9994920936040076 -0.004714922284830218 0.9994920936040076 -0.004714922284830218 5.079063959925104E-4 0.004714922284830218
7.162977777745734E7 5.101948109124844E-4 0.004785674209380835 0.9994898051890874 -0.004785674209380834 0.9994898051890874 -0.004785674209380834 5.101948109124844E-4 0.004785674209380835
7.271077167244768E7 5.125469287189644E-4 0.004857476907999192 0.9994874530712812 -0.004857476907999192 0.9994874530712812 -0.004857476907999192 5.125469287189644E-4 0.004857476907999192
7.380807928272885E7 5.149643587051514E-4 0.0049303455688777045 0.9994850356412948 -0.0049303455688777045 0.9994850356412948 -0.0049303455688777045 5.149643587051514E-4 0.0049303455688777045
7.492194680516452E7 5.174487419069195E-4 0.005004295586277553 0.9994825512580932 -0.005004295586277553 0.9994825512580932 -0.005004295586277553 5.174487419069195E-4 0.005004295586277553
7.60526241520746E7 5.200017512581697E-4 0.005079342563071459 0.9994799982487418 -0.005079342563071459 0.9994799982487418 -0.005079342563071459 5.200017512581697E-4 0.005079342563071459
7.720036500730675E7 5.226250917205989E-4 0.005155502313328105 0.9994773749082793 -0.005155502313328105 0.9994773749082793 -0.005155502313328105 5.226250917205989E-4 0.005155502313328105
7.836542688315398E7 5.253205003866531E-4 0.005232790864940492 0.9994746794996134 -0.005232790864940492 0.9994746794996134 -0.005232790864940492 5.253205003866531E-4 0.005232790864940492
7.954807117813127E7 5.280897465544534E-4 0.005311224462300538 0.9994719102534457 -0.005311224462300538 0.9994719102534457 -0.005311224462300538 5.280897465544534E-4 0.005311224462300538
8.074856323562416E7 5.309346317735147E-4 0.0053908195690224574 0.9994690653682263 -0.0053908195690224574 0.9994690653682263 -0.0053908195690224574 5.309346317735147E-4 0.0053908195690224574
8.196717240342227E7 5.338569898601245E-4 0.0054715928707176524 0.99946614301014 -0.0054715928707176524 0.99946614301014 -0.0054715928707176524 5.338569898601245E-4 0.0054715928707176524
8.320417209415154E7 5.368586868812789E-4 0.005553561277823884 0.9994631413131188 -0.005553561277823883 0.9994631413131188 -0.005553561277823883 5.368586868812789E-4 0.005553561277823884
8.445983984661816E7 5.399416211061587E-4 0.005636741928491807 0.9994600583788938 -0.0056367419284918075 0.9994600583788938 -0.0056367419284918075 5.399416211061587E-4 0.005636741928491807
8.573445738807854E7 5.431077229241794E-4 0.005721152191532022 0.9994568922770761 -0.005721152191532023 0.9994568922770761 -0.005721152191532023 5.431077229241794E-4 0.005721152191532022
8.702831069744885E7 5.46358954728737E-4 0.005806809669426011 0.9994536410452713 -0.005806809669426011 0.9994536410452713 -0.005806809669426011 5.46358954728737E-4 0.005806809669426011
8.834169006946853E7 5.496973107658718E-4 0.005893732201404499 0.999450302689234 -0.005893732201404499 0.999450302689234 -0.005893732201404499 5.496973107658718E-4 0.005893732201404499
8.96748901798321E7 5.531248169471804E-4 0.005981937866596994 0.9994468751830528 -0.005981937866596994 0.9994468751830528 -0.005981937866596994 5.531248169471804E-4 0.005981937866596994
9.1028210151304E7 5.566435306264169E-4 0.006071444987256378 0.9994433564693735 -0.006071444987256378 0.9994433564693735 -0.006071444987256378 5.566435306264169E-4 0.006071444987256378
9.240195362083109E7 5.602555403393864E-4 0.006162272132062663 0.9994397444596607 -0.006162272132062663 0.9994397444596607 -0.006162272132062663 5.602555403393864E-4 0.006162272132062663
9.379642880766791E7 5.639629655068613E-4 0.006254438119510192 0.9994360370344932 -0.006254438119510193 0.9994360370344932 -0.006254438119510193 5.639629655068613E-4 0.006254438119510192
9.521194858253023E7 5.677679561004439E-4 0.006347962021382738 0.9994322320438994 -0.006347962021382738 0.9994322320438994 -0.006347962021382738 5.677679561004439E-4 0.006347962021382738
9.664883053779216E7 5.716726922714713E-4 0.006442863166321198 0.9994283273077287 -0.006442863166321199 0.9994283273077287 -0.006442863166321199 5.716726922714713E-4 0.006442863166321198
9.810739705874248E7 5.756793839432667E-4 0.006539161143488588 0.9994243206160566 -0.006539161143488588 0.9994243206160566 -0.006539161143488588 5.756793839432667E-4 0.006539161143488588
9.958797539591652E7 5.79790270367274E-4 0.0066368758063374955 0.999420209729633 -0.0066368758063374955 0.999420209729633 -0.0066368758063374955 5.79790270367274E-4 0.0066368758063374955
1.0109089773851961E8 5.84007619643842E-4 0.006736027276485039 0.999415992380356 -0.006736027276485039 0.999415992380356 -0.006736027276485039 5.84007619643842E-4 0.006736027276485039
1.0261650128895843E8 5.883337282086901E-4 0.006836635947700725 0.9994116662717913 -0.006836635947700725 0.9994116662717913 -0.006836635947700725 5.883337282086901E-4 0.006836635947700725
1.0416512833849736E8 5.92770920286377E-4 0.0069387224900126655 0.9994072290797137 -0.0069387224900126655 0.9994072290797137 -0.0069387224900126655 5.92770920286377E-4 0.0069387224900126655
1.0573712634405641E8 5.973215473123735E-4 0.007042307853937784 0.9994026784526875 -0.007042307853937782 0.9994026784526875 -0.007042307853937782 5.973215473123735E-4 0.007042307853937784
1.0733284800616828E8 6.019879873256886E-4 0.007147413274841759 0.9993980120126743 -0.0071474132748417605 0.9993980120126743 -0.0071474132748417605 6.019879873256886E-4 0.007147413274841759
1.0895265134811176E8 6.067726443343113E-4 0.007254060277434616 0.9993932273556656 -0.0072540602774346175 0.9993932273556656 -0.0072540602774346175 6.067726443343113E-4 0.007254060277434616
1.1059689979623953E8 6.11677947656108E-4 0.007362270680407873 0.9993883220523437 -0.007362270680407873 0.9993883220523437 -0.007362270680407873 6.11677947656108E-4 0.007362270680407873
1.1226596226151802E8 6.167063512381814E-4 0.007472066601219325 0.9993832936487618 -0.007472066601219325 0.9993832936487618 -0.007472066601219325 6.167063512381814E-4 0.007472066601219325
1.1396021322229806E8 6.218603329581057E-4 0.007583470461031598 0.999378139667042 -0.007583470461031598 0.999378139667042 -0.007583470461031598 6.218603329581057E-4 0.007583470461031598
1.1568003280833441E8 6.27142393910856E-4 0.007696504989810567 0.9993728576060892 -0.007696504989810567 0.9993728576060892 -0.007696504989810567 6.27142393910856E-4 0.007696504989810567
1.1742580688607343E8 6.32555057685692E-4 0.0078111932315898585 0.9993674449423143 -0.007811193231589858 0.9993674449423143 -0.007811193231589858 6.32555057685692E-4 0.0078111932315898585
1.1919792714522783E8 6.381008696376906E-4 0.007927558549907544 0.9993618991303622 -0.007927558549907544 0.9993618991303622 -0.007927558549907544 6.381008696376906E-4 0.007927558549907544
1.2099679118665792E8 6.437823961590988E-4 0.008045624633421131 0.9993562176038411 -0.008045624633421133 0.9993562176038411 -0.008045624633421133 6.437823961590988E-4 0.008045624633421131
1.2282280261157903E8 6.49602223956137E-4 0.008165415501706892 0.9993503977760441 -0.008165415501706892 0.9993503977760441 -0.008165415501706892 6.49602223956137E-4 0.008165415501706892
1.2467637111211549E8 6.555629593373857E-4 0.008286955511249482 0.9993444370406627 -0.008286955511249484 0.9993444370406627 -0.008286955511249484 6.555629593373857E-4 0.008286955511249482
1.265579125632208E8 6.6166722752036E-4 0.008410269361627549 0.9993383327724797 -0.008410269361627547 0.9993383327724797 -0.008410269361627547 6.6166722752036E-4 0.008410269361627549
1.284678491159853E8 6.679176719633973E-4 0.008535382101901001 0.9993320823280367 -0.008535382101901003 0.9993320823280367 -0.008535382101901003 6.679176719633973E-4 0.008535382101901001
1.3040660929235186E8 6.743169537304734E-4 0.008662319137205292 0.9993256830462693 -0.008662319137205292 0.9993256830462693 -0.008662319137205292 6.743169537304734E-4 0.008662319137205292
1.3237462808126101E8 6.808677508970744E-4 0.008791106235557834 0.9993191322491031 -0.008791106235557834 0.9993191322491031 -0.008791106235557834 6.808677508970744E-4 0.008791106235557834
1.3437234703624701E8 6.875727580057453E-4 0.008921769534881352 0.9993124272419943 -0.008921769534881352 0.9993124272419943 -0.008921769534881352 6.875727580057453E-4 0.008921769534881352
1.364002143745067E8 6.944346855804349E-4 0.009054335550248632 0.9993055653144195 -0.009054335550248632 0.9993055653144195 -0.009054335550248632 6.944346855804349E-4 0.009054335550248632
1.3845868507746372E8 7.014562597092543E-4 0.00918883118135281 0.9992985437402907 -0.00918883118135281 0.9992985437402907 -0.00918883118135281 7.014562597092543E-4 0.00918883118135281
1.405482209928499E8 7.086402217057069E-4 0.009325283720206731 0.9992913597782943 -0.009325283720206731 0.9992913597782943 -0.009325283720206731 7.086402217057069E-4 0.009325283720206731
1.426692909383278E8 7.159893278589458E-4 0.009463720859074643 0.9992840106721411 -0.009463720859074643 0.9992840106721411 -0.009463720859074643 7.159893278589458E-4 0.009463720859074643
1.4482237080667645E8 7.235063492839959E-4 0.009604170698638732 0.9992764936507158 -0.009604170698638732 0.9992764936507158 -0.009604170698638732 7.235063492839959E-4 0.009604170698638732
1.4700794367256513E8 7.311940718833387E-4 0.009746661756402732 0.9992688059281166 -0.009746661756402732 0.9992688059281166 -0.009746661756402732 7.311940718833387E-4 0.009746661756402732
1.492264999009378E8 7.390552964315759E-4 0.00989122297533382 0.9992609447035683 -0.00989122297533382 0.9992609447035683 -0.00989122297533382 7.390552964315759E-4 0.00989122297533382
1.5147853725703382E8 7.470928387952735E-4 0.010037883732743811 0.9992529071612049 -0.010037883732743811 0.9992529071612049 -0.010037883732743811 7.470928387952735E-4 0.010037883732743811
1.5376456101806876E8 7.553095303003479E-4 0.010186673849409458 0.9992446904696997 -0.010186673849409458 0.9992446904696997 -0.010186673849409458 7.553095303003479E-4 0.010186673849409458
1.5608508408660066E8 7.637082182596378E-4 0.010337623598931488 0.9992362917817403 -0.010337623598931487 0.9992362917817403 -0.010337623598931487 7.637082182596378E-4 0.010337623598931488
1.5844062710560706E8 7.722917666734831E-4 0.010490763717330627 0.9992277082333264 -0.010490763717330626 0.9992277082333264 -0.010490763717330626 7.722917666734831E-4 0.010490763717330627
1.6083171857529896E8 7.810630571162937E-4 0.010646125412878576 0.9992189369428837 -0.010646125412878576 0.9992189369428837 -0.010646125412878576 7.810630571162937E-4 0.010646125412878576
1.632588949716973E8 7.90024989822168E-4 0.010803740376160687 0.9992099750101779 -0.010803740376160687 0.9992099750101779 -0.010803740376160687 7.90024989822168E-4 0.010803740376160687
1.6572270086699936E8 7.991804849826553E-4 0.010963640790366446 0.9992008195150175 -0.010963640790366446 0.9992008195150175 -0.010963640790366446 7.991804849826553E-4 0.010963640790366446
1.6822368905176118E8 8.085324842697037E-4 0.011125859341802869 0.9991914675157303 -0.011125859341802869 0.9991914675157303 -0.011125859341802869 8.085324842697037E-4 0.011125859341802869
1.7076242065892437E8 8.180839525967174E-4 0.011290429230625018 0.9991819160474031 -0.011290429230625018 0.9991819160474031 -0.011290429230625018 8.180839525967174E-4 0.011290429230625018
1.7333946528971428E8 8.278378801304782E-4 0.01145738418177702 0.9991721621198696 -0.01145738418177702 0.9991721621198696 -0.01145738418177702 8.278378801304782E-4 0.01145738418177702
1.7595540114143828E8 8.377972845663838E-4 0.011626758456135932 0.9991622027154337 -0.011626758456135932 0.9991622027154337 -0.011626758456135932 8.377972845663838E-4 0.011626758456135932
1.786108151372127E8 8.479652136791514E-4 0.011798586861849954 0.9991520347863208 -0.011798586861849954 0.9991520347863208 -0.011798586861849954 8.479652136791514E-4 0.011798586861849954
1.8130630305764765E8 8.583447481606787E-4 0.01197290476586169 0.9991416552518393 -0.01197290476586169 0.9991416552518393 -0.01197290476586169 8.583447481606787E-4 0.01197290476586169
1.840424696745189E8 8.68939004756254E-4 0.012149748105605939 0.9991310609952436 -0.012149748105605939 0.9991310609952436 -0.012149748105605939 8.68939004756254E-4 0.012149748105605939
1.8681992888645732E8 8.797511397097262E-4 0.01232915340087115 0.9991202488602903 -0.01232915340087115 0.9991202488602903 -0.01232915340087115 8.797511397097262E-4 0.01232915340087115
1.8963930385668582E8 8.907843525275733E-4 0.0125111577658124 0.9991092156474725 -0.0125111577658124 0.9991092156474725 -0.0125111577658124 8.907843525275733E-4 0.0125111577658124
1.92501227152835E8 9.020418900710312E-4 0.012695798921103146 0.9990979581099289 -0.012695798921103148 0.9990979581099289 -0.012695798921103148 9.020418900710312E-4 0.012695798921103146
1.9540634088886917E8 9.135270509846744E-4 0.012883115206212492 0.9990864729490153 -0.012883115206212492 0.9990864729490153 -0.012883115206212492 9.135270509846744E-4 0.012883115206212492
1.983552968691535E8 9.252431904688617E-4 0.013073145591793537 0.999074756809531 -0.013073145591793536 0.999074756809531 -0.013073145591793536 9.252431904688617E-4 0.013073145591793537
2.0134875673469606E8 9.371937254025679E-4 0.013265929692168409 0.9990628062745974 -0.013265929692168409 0.9990628062745974 -0.013265929692168409 9.371937254025679E-4 0.013265929692168409
2.0438739211159652E8 9.493821398220094E-4 0.013461507777894444 0.9990506178601781 -0.013461507777894444 0.9990506178601781 -0.013461507777894444 9.493821398220094E-4 0.013461507777894444
2.074718847617352E8 9.618119907594392E-4 0.013659920788396058 0.9990381880092406 -0.013659920788396058 0.9990381880092406 -0.013659920788396058 9.618119907594392E-4 0.013659920788396058
2.106029267357361E8 9.744869144452824E-4 0.013861210344646073 0.9990255130855548 -0.013861210344646074 0.9990255130855548 -0.013861210344646074 9.744869144452824E-4 0.013861210344646073
2.1378122052823865E8 9.874106328756336E-4 0.01406541876188042 0.9990125893671242 -0.01406541876188042 0.9990125893671242 -0.01406541876188042 9.874106328756336E-4 0.01406541876188042
2.1700747923551247E8 0.0010005869607458576 0.014272589062329527 0.9989994130392543 -0.014272589062329527 0.9989994130392543 -0.014272589062329527 0.0010005869607458576 0.014272589062329527
2.2028242671545094E8 0.001014019812749821 0.014482764987950135 0.9989859801872502 -0.014482764987950135 0.9989859801872502 -0.014482764987950135 0.001014019812749821 0.014482764987950135
2.23606797749979E8 0.0010277132112429632 0.014695991013140971 0.9989722867887568 -0.014695991013140971 0.9989722867887568 -0.014695991013140971 0.0010277132112429632 0.014695991013140971
2.2698133820991236E8 0.001041671294266145 0.014912312357426117 0.998958328705734 -0.01491231235742612 0.998958328705734 -0.01491231235742612 0.001041671294266145 0.014912312357426117
2.3040680522230446E8 0.0010558983239259132 0.01513177499809001 0.9989441016760742 -0.01513177499809001 0.9989441016760742 -0.01513177499809001 0.0010558983239259132 0.01513177499809001
2.338839673403185E8 0.0010703986951255756 0.015354425682748757 0.9989296013048744 -0.015354425682748757 0.9989296013048744 -0.015354425682748757 0.0010703986951255756 0.015354425682748757
2.37413604715664E8 0.00108517694464017 0.015580311941842524 0.9989148230553597 -0.015580311941842524 0.9989148230553597 -0.015580311941842524 0.00108517694464017 0.015580311941842524
