!Murata Part Number: LQP15MN3N5W02
!These Parameters are Measured in Series Mode Connection
!       o--[Z]--o
!Port1              Port2
!       o-------o
!
!Freq. Start=50[MHz] Stop=20[GHz], 401[Steps]
# Hz S RI R 50
!Freq.(Hz) S11(Real) S11(Imag) S21(Real) S21(Imag) S12(Real) S12(Imag) S22(Real) S22(Imag)
5.0E7 0.002448145612592434 0.010402144586398194 0.9975518543874075 -0.010402144586398194 0.9975518543874075 -0.010402144586398194 0.002448145612592434 0.010402144586398194
5.0754570186123446E7 0.0024581691089682785 0.010556384375876054 0.9975418308910317 -0.010556384375876054 0.9975418308910317 -0.010556384375876054 0.0024581691089682785 0.010556384375876054
5.152052789556263E7 0.0024684393100615214 0.0107128500249913 0.9975315606899384 -0.010712850024991298 0.9975315606899384 -0.010712850024991298 0.0024684393100615214 0.0107128500249913
5.229804498202928E7 0.0024789609375419097 0.010871571987141167 0.9975210390624578 -0.010871571987141167 0.9975210390624578 -0.010871571987141167 0.0024789609375419097 0.010871571987141167
5.308729589274893E7 0.0024897387452811116 0.011032581119874166 0.9975102612547189 -0.011032581119874166 0.9975102612547189 -0.011032581119874166 0.0024897387452811116 0.011032581119874166
5.388845770760058E7 0.002500777517529808 0.011195908692701036 0.9974992224824701 -0.011195908692701035 0.9974992224824701 -0.011195908692701035 0.002500777517529808 0.011195908692701036
5.470171017884717E7 0.0025120820670975898 0.011361586395231233 0.9974879179329023 -0.011361586395231235 0.9974879179329023 -0.011361586395231235 0.0025120820670975898 0.011361586395231233
5.5527235771465644E7 0.002523657233548094 0.011529646345646362 0.9974763427664519 -0.011529646345646362 0.9974763427664519 -0.011529646345646362 0.002523657233548094 0.011529646345646362
5.6365219704085544E7 0.0025355078814227835 0.011700121099521902 0.9974644921185772 -0.011700121099521902 0.9974644921185772 -0.011700121099521902 0.0025355078814227835 0.011700121099521902
5.721584999054556E7 0.0025476388985078177 0.011873043659007999 0.997452361101492 -0.011873043659007997 0.997452361101492 -0.011873043659007997 0.0025476388985078177 0.011873043659007999
5.807931748207712E7 0.0025600551941595217 0.012048447482379848 0.9974399448058404 -0.012048447482379846 0.9974399448058404 -0.012048447482379846 0.0025600551941595217 0.012048447482379848
5.8955815910124585E7 0.0025727616977049934 0.01222636649396748 0.9974272383022951 -0.012226366493967482 0.9974272383022951 -0.012226366493967482 0.0025727616977049934 0.01222636649396748
5.984554192981184E7 0.002585763356935435 0.012406835094474307 0.9974142366430647 -0.012406835094474307 0.9974142366430647 -0.012406835094474307 0.002585763356935435 0.012406835094474307
6.074869516406457E7 0.002599065136710812 0.012589888171692858 0.9974009348632892 -0.01258988817169286 0.9974009348632892 -0.01258988817169286 0.002599065136710812 0.012589888171692858
6.166547824839868E7 0.002612672017695496 0.012775561111625653 0.9973873279823043 -0.012775561111625653 0.9973873279823043 -0.012775561111625653 0.002612672017695496 0.012775561111625653
6.2596096876384385E7 0.0026265889952454898 0.012963889810017866 0.9973734110047546 -0.012963889810017866 0.9973734110047546 -0.012963889810017866 0.0026265889952454898 0.012963889810017866
6.354075984579668E7 0.002640821078468799 0.0131549106843078 0.9973591789215311 -0.0131549106843078 0.9973591789215311 -0.0131549106843078 0.002640821078468799 0.0131549106843078
6.449967910546205E7 0.0026553732894814713 0.01334866068599991 0.9973446267105185 -0.01334866068599991 0.9973446267105185 -0.01334866068599991 0.0026553732894814713 0.01334866068599991
6.547306980281226E7 0.002670250662882586 0.013545177313463927 0.9973297493371175 -0.013545177313463927 0.9973297493371175 -0.013545177313463927 0.002670250662882586 0.013545177313463927
6.646115033215589E7 0.0026854582454723906 0.0137444986251625 0.9973145417545277 -0.0137444986251625 0.9973145417545277 -0.0137444986251625 0.0026854582454723906 0.0137444986251625
6.746414238367817E7 0.0027010010962383994 0.013946663253308239 0.9972989989037615 -0.013946663253308235 0.9972989989037615 -0.013946663253308235 0.0027010010962383994 0.013946663253308239
6.848227099318038E7 0.0027168842866349832 0.014151710417949688 0.9972831157133651 -0.014151710417949688 0.9972831157133651 -0.014151710417949688 0.0027168842866349832 0.014151710417949688
6.951576459256999E7 0.002733112901182497 0.014359679941484262 0.9972668870988176 -0.014359679941484264 0.9972668870988176 -0.014359679941484264 0.002733112901182497 0.014359679941484262
7.056485506111258E7 0.0027496920384124804 0.014570612263594405 0.9972503079615875 -0.014570612263594405 0.9972503079615875 -0.014570612263594405 0.0027496920384124804 0.014570612263594405
7.162977777745734E7 0.0027666268121857465 0.014784548456601718 0.9972333731878142 -0.014784548456601715 0.9972333731878142 -0.014784548456601715 0.0027666268121857465 0.014784548456601718
7.271077167244768E7 0.0027839223534104635 0.015001530241231954 0.9972160776465896 -0.015001530241231954 0.9972160776465896 -0.015001530241231954 0.0027839223534104635 0.015001530241231954
7.380807928272885E7 0.002801583812187416 0.015221600002782042 0.9971984161878125 -0.015221600002782042 0.9971984161878125 -0.015221600002782042 0.002801583812187416 0.015221600002782042
7.492194680516452E7 0.0028196163604095143 0.015444800807678285 0.9971803836395905 -0.015444800807678285 0.9971803836395905 -0.015444800807678285 0.0028196163604095143 0.015444800807678285
7.60526241520746E7 0.0028380251948425896 0.015671176420413296 0.9971619748051574 -0.015671176420413296 0.9971619748051574 -0.015671176420413296 0.0028380251948425896 0.015671176420413296
7.720036500730675E7 0.0028568155407140135 0.01590077132084698 0.9971431844592861 -0.015900771320846982 0.9971431844592861 -0.015900771320846982 0.0028568155407140135 0.01590077132084698
7.836542688315398E7 0.002875992655835303 0.016133630721855263 0.9971240073441647 -0.016133630721855263 0.9971240073441647 -0.016133630721855263 0.002875992655835303 0.016133630721855263
7.954807117813127E7 0.002895561835284178 0.016369800587308088 0.9971044381647157 -0.016369800587308088 0.9971044381647157 -0.016369800587308088 0.002895561835284178 0.016369800587308088
8.074856323562416E7 0.0029155284166707124 0.016609327650356453 0.9970844715833291 -0.01660932765035645 0.9970844715833291 -0.01660932765035645 0.0029155284166707124 0.016609327650356453
8.196717240342227E7 0.0029358977860112715 0.01685225943200642 0.9970641022139886 -0.01685225943200642 0.9970641022139886 -0.01685225943200642 0.0029358977860112715 0.01685225943200642
8.320417209415154E7 0.0029566753842327803 0.01709864425995617 0.9970433246157672 -0.01709864425995617 0.9970433246157672 -0.01709864425995617 0.0029566753842327803 0.01709864425995617
8.445983984661816E7 0.002977866714328474 0.017348531287670207 0.9970221332856716 -0.017348531287670207 0.9970221332856716 -0.017348531287670207 0.002977866714328474 0.017348531287670207
8.573445738807854E7 0.0029994773491849383 0.017601970513663655 0.9970005226508152 -0.017601970513663658 0.9970005226508152 -0.017601970513663658 0.0029994773491849383 0.017601970513663655
8.702831069744885E7 0.003021512940098521 0.017859012800967536 0.9969784870599013 -0.017859012800967536 0.9969784870599013 -0.017859012800967536 0.003021512940098521 0.017859012800967536
8.834169006946853E7 0.003043979225997403 0.01811970989674463 0.9969560207740026 -0.01811970989674463 0.9969560207740026 -0.01811970989674463 0.003043979225997403 0.01811970989674463
8.96748901798321E7 0.0030668820433837527 0.01838411445202428 0.9969331179566162 -0.01838411445202428 0.9969331179566162 -0.01838411445202428 0.0030668820433837527 0.01838411445202428
9.1028210151304E7 0.0030902273370082335 0.018652280041523202 0.9969097726629917 -0.018652280041523202 0.9969097726629917 -0.018652280041523202 0.0030902273370082335 0.018652280041523202
9.240195362083109E7 0.0031140211712870364 0.018924261183518445 0.996885978828713 -0.01892426118351844 0.996885978828713 -0.01892426118351844 0.0031140211712870364 0.018924261183518445
9.379642880766791E7 0.0031382697424691963 0.01920011335973757 0.9968617302575309 -0.01920011335973757 0.9968617302575309 -0.01920011335973757 0.0031382697424691963 0.01920011335973757
9.521194858253023E7 0.0031629793915596946 0.019479893035230973 0.9968370206084401 -0.019479893035230976 0.9968370206084401 -0.019479893035230976 0.0031629793915596946 0.019479893035230973
9.664883053779216E7 0.003188156618001181 0.019763657678190102 0.9968118433819987 -0.019763657678190102 0.9968118433819987 -0.019763657678190102 0.003188156618001181 0.019763657678190102
9.810739705874248E7 0.0032138080941148377 0.020051465779675728 0.996786191905885 -0.020051465779675728 0.996786191905885 -0.020051465779675728 0.0032138080941148377 0.020051465779675728
9.958797539591652E7 0.0032399406802981075 0.020343376873220097 0.9967600593197018 -0.020343376873220097 0.9967600593197018 -0.020343376873220097 0.0032399406802981075 0.020343376873220097
1.0109089773851961E8 0.003266561440974579 0.020639451554266983 0.9967334385590253 -0.020639451554266986 0.9967334385590253 -0.020639451554266986 0.003266561440974579 0.020639451554266983
1.0261650128895843E8 0.0032936776612885773 0.020939751499414162 0.9967063223387115 -0.02093975149941416 0.9967063223387115 -0.02093975149941416 0.0032936776612885773 0.020939751499414162
1.0416512833849736E8 0.003321296864534541 0.021244339485423556 0.9966787031354656 -0.021244339485423556 0.9966787031354656 -0.021244339485423556 0.003321296864534541 0.021244339485423556
1.0573712634405641E8 0.003349426830308655 0.021553279407965073 0.9966505731696913 -0.021553279407965073 0.9966505731696913 -0.021553279407965073 0.003349426830308655 0.021553279407965073
1.0733284800616828E8 0.003378075613367745 0.021866636300061387 0.9966219243866324 -0.021866636300061387 0.9966219243866324 -0.021866636300061387 0.003378075613367745 0.021866636300061387
1.0895265134811176E8 0.0034072515631780667 0.022184476350202133 0.996592748436822 -0.022184476350202136 0.996592748436822 -0.022184476350202136 0.0034072515631780667 0.022184476350202133
1.1059689979623953E8 0.0034369633441343733 0.02250686692009791 0.9965630366558658 -0.02250686692009791 0.9965630366558658 -0.02250686692009791 0.0034369633441343733 0.02250686692009791
1.1226596226151802E8 0.0034672199564274183 0.022833876562045708 0.9965327800435725 -0.022833876562045708 0.9965327800435725 -0.022833876562045708 0.0034672199564274183 0.022833876562045708
1.1396021322229806E8 0.0034980307575361823 0.023165575035880053 0.9965019692424638 -0.023165575035880057 0.9965019692424638 -0.023165575035880057 0.0034980307575361823 0.023165575035880053
1.1568003280833441E8 0.0035294054843191774 0.02350203332548562 0.9964705945156809 -0.02350203332548562 0.9964705945156809 -0.02350203332548562 0.0035294054843191774 0.02350203332548562
1.1742580688607343E8 0.0035613542756776626 0.023843323654850073 0.9964386457243223 -0.02384332365485007 0.9964386457243223 -0.02384332365485007 0.0035613542756776626 0.023843323654850073
1.1919792714522783E8 0.003593887695762111 0.024189519503637985 0.9964061123042378 -0.024189519503637985 0.9964061123042378 -0.024189519503637985 0.003593887695762111 0.024189519503637985
1.2099679118665792E8 0.003627016757692129 0.024540695622269303 0.9963729832423076 -0.024540695622269303 0.9963729832423076 -0.024540695622269303 0.003627016757692129 0.024540695622269303
1.2282280261157903E8 0.00366075294775903 0.02489692804648888 0.9963392470522411 -0.024896928046488884 0.9963392470522411 -0.024896928046488884 0.00366075294775903 0.02489692804648888
1.2467637111211549E8 0.0036951082500795993 0.025258294111416082 0.9963048917499203 -0.025258294111416082 0.9963048917499203 -0.025258294111416082 0.0036951082500795993 0.025258294111416082
1.265579125632208E8 0.003730095171669137 0.02562487246506672 0.996269904828331 -0.02562487246506672 0.996269904828331 -0.02562487246506672 0.003730095171669137 0.02562487246506672
1.284678491159853E8 0.003765726767901549 0.025996743081341967 0.9962342732320985 -0.025996743081341967 0.9962342732320985 -0.025996743081341967 0.003765726767901549 0.025996743081341967
1.3040660929235186E8 0.0038020166683245503 0.02637398727248264 0.9961979833316755 -0.02637398727248264 0.9961979833316755 -0.02637398727248264 0.0038020166683245503 0.02637398727248264
1.3237462808126101E8 0.0038389791027981647 0.026756687700989348 0.9961610208972017 -0.026756687700989355 0.9961610208972017 -0.026756687700989355 0.0038389791027981647 0.026756687700989348
1.3437234703624701E8 0.003876628927925413 0.027144928391012634 0.9961233710720747 -0.027144928391012634 0.9961233710720747 -0.027144928391012634 0.003876628927925413 0.027144928391012634
1.364002143745067E8 0.003914981653744899 0.027538794739219424 0.9960850183462552 -0.027538794739219424 0.9960850183462552 -0.027538794739219424 0.003914981653744899 0.027538794739219424
1.3845868507746372E8 0.00395405347065616 0.027938373525145714 0.9960459465293439 -0.027938373525145714 0.9960459465293439 -0.027938373525145714 0.00395405347065616 0.027938373525145714
1.405482209928499E8 0.003993861276549834 0.028343752921047006 0.9960061387234502 -0.028343752921047006 0.9960061387234502 -0.028343752921047006 0.003993861276549834 0.028343752921047006
1.426692909383278E8 0.004034422704116552 0.028755022501261787 0.9959655772958834 -0.028755022501261787 0.9959655772958834 -0.028755022501261787 0.004034422704116552 0.028755022501261787
1.4482237080667645E8 0.004075756148309858 0.02917227325110445 0.9959242438516901 -0.02917227325110444 0.9959242438516901 -0.02917227325110444 0.004075756148309858 0.02917227325110445
1.4700794367256513E8 0.00411788079394089 0.029595597575307664 0.9958821192060591 -0.029595597575307664 0.9958821192060591 -0.029595597575307664 0.00411788079394089 0.029595597575307664
1.492264999009378E8 0.004160816643384257 0.030025089306034806 0.9958391833566157 -0.030025089306034806 0.9958391833566157 -0.030025089306034806 0.004160816643384257 0.030025089306034806
1.5147853725703382E8 0.004204584544377319 0.030460843710486362 0.9957954154556226 -0.030460843710486362 0.9957954154556226 -0.030460843710486362 0.004204584544377319 0.030460843710486362
1.5376456101806876E8 0.004249206217897177 0.030902957498124706 0.9957507937821028 -0.030902957498124706 0.9957507937821028 -0.030902957498124706 0.004249206217897177 0.030902957498124706
1.5608508408660066E8 0.004294704286102483 0.031351528827543856 0.9957052957138977 -0.031351528827543856 0.9957052957138977 -0.031351528827543856 0.004294704286102483 0.031351528827543856
1.5844062710560706E8 0.004341102300329794 0.03180665731301153 0.9956588976996703 -0.03180665731301153 0.9956588976996703 -0.03180665731301153 0.004341102300329794 0.03180665731301153
1.6083171857529896E8 0.0043884247691369956 0.03226844403071245 0.9956115752308631 -0.03226844403071245 0.9956115752308631 -0.03226844403071245 0.0043884247691369956 0.03226844403071245
1.632588949716973E8 0.004436697186389045 0.0327369915247217 0.9955633028136109 -0.0327369915247217 0.9955633028136109 -0.0327369915247217 0.004436697186389045 0.0327369915247217
1.6572270086699936E8 0.004485946059384256 0.03321240381273848 0.9955140539406158 -0.03321240381273849 0.9955140539406158 -0.03321240381273849 0.004485946059384256 0.03321240381273848
1.6822368905176118E8 0.004536198937022159 0.03369478639161024 0.9954638010629778 -0.03369478639161024 0.9954638010629778 -0.03369478639161024 0.004536198937022159 0.03369478639161024
1.7076242065892437E8 0.004587484438016732 0.03418424624267738 0.9954125155619833 -0.03418424624267738 0.9954125155619833 -0.03418424624267738 0.004587484438016732 0.03418424624267738
1.7333946528971428E8 0.0046398322791618325 0.03468089183696896 0.9953601677208379 -0.03468089183696896 0.9953601677208379 -0.03468089183696896 0.0046398322791618325 0.03468089183696896
1.7595540114143828E8 0.004693273303658194 0.03518483314027904 0.9953067266963418 -0.03518483314027904 0.9953067266963418 -0.03518483314027904 0.004693273303658194 0.03518483314027904
1.786108151372127E8 0.004747839509514212 0.03569618161815299 0.9952521604904856 -0.03569618161815298 0.9952521604904856 -0.03569618161815298 0.004747839509514212 0.03569618161815299
1.8130630305764765E8 0.004803564078035407 0.03621505024081265 0.9951964359219646 -0.03621505024081265 0.9951964359219646 -0.03621505024081265 0.004803564078035407 0.03621505024081265
1.840424696745189E8 0.0048604814024197475 0.036741553488047626 0.9951395185975802 -0.036741553488047626 0.9951395185975802 -0.036741553488047626 0.0048604814024197475 0.036741553488047626
1.8681992888645732E8 0.004918627116478844 0.03727580735410006 0.9950813728835213 -0.03727580735410006 0.9950813728835213 -0.03727580735410006 0.004918627116478844 0.03727580735410006
1.8963930385668582E8 0.004978038123506872 0.03781792935256782 0.9950219618764933 -0.03781792935256783 0.9950219618764933 -0.03781792935256783 0.004978038123506872 0.03781792935256782
1.92501227152835E8 0.005038752625321682 0.03836803852135079 0.9949612473746783 -0.03836803852135078 0.9949612473746783 -0.03836803852135078 0.005038752625321682 0.03836803852135079
1.9540634088886917E8 0.005100810151504364 0.03892625542766319 0.9948991898484957 -0.03892625542766319 0.9948991898484957 -0.03892625542766319 0.005100810151504364 0.03892625542766319
1.983552968691535E8 0.005164251588865481 0.0394927021731329 0.9948357484111345 -0.0394927021731329 0.9948357484111345 -0.0394927021731329 0.005164251588865481 0.0394927021731329
2.0134875673469606E8 0.005229119211168101 0.04006750239900812 0.9947708807888319 -0.04006750239900812 0.9947708807888319 -0.04006750239900812 0.005229119211168101 0.04006750239900812
2.0438739211159652E8 0.005295456709139224 0.040650781291489343 0.9947045432908609 -0.040650781291489343 0.9947045432908609 -0.040650781291489343 0.005295456709139224 0.040650781291489343
2.074718847617352E8 0.005363309220802849 0.0412426655872032 0.9946366907791971 -0.04124266558720321 0.9946366907791971 -0.04124266558720321 0.005363309220802849 0.0412426655872032
2.106029267357361E8 0.0054327233621692065 0.04184328357883349 0.9945672766378307 -0.04184328357883349 0.9945672766378307 -0.04184328357883349 0.0054327233621692065 0.04184328357883349
2.1378122052823865E8 0.005503747258315942 0.042452765120921894 0.9944962527416839 -0.04245276512092189 0.9944962527416839 -0.04245276512092189 0.005503747258315942 0.042452765120921894
2.1700747923551247E8 0.005576430574898276 0.04307124163585091 0.9944235694251018 -0.04307124163585091 0.9944235694251018 -0.04307124163585091 0.005576430574898276 0.04307124163585091
2.2028242671545094E8 0.0056508245501258846 0.043698846120018064 0.9943491754498741 -0.04369884612001807 0.9943491754498741 -0.04369884612001807 0.0056508245501258846 0.043698846120018064
2.23606797749979E8 0.005726982027245573 0.04433571315021052 0.9942730179727546 -0.04433571315021052 0.9942730179727546 -0.04433571315021052 0.005726982027245573 0.04433571315021052
2.2698133820991236E8 0.005804957487569162 0.04498197889018609 0.9941950425124308 -0.0449819788901861 0.9941950425124308 -0.0449819788901861 0.005804957487569162 0.04498197889018609
2.3040680522230446E8 0.005884807084087118 0.04563778109746666 0.9941151929159127 -0.04563778109746666 0.9941151929159127 -0.04563778109746666 0.005884807084087118 0.04563778109746666
2.338839673403185E8 0.0059665886757088935 0.046303259130347246 0.994033411324291 -0.046303259130347246 0.994033411324291 -0.046303259130347246 0.0059665886757088935 0.046303259130347246
2.37413604715664E8 0.006050361862171605 0.046978553955123604 0.9939496381378284 -0.046978553955123604 0.9939496381378284 -0.046978553955123604 0.006050361862171605 0.046978553955123604
