!Murata Part Number: LQP15MN1N6B02
!These Parameters are Measured in Series Mode Connection
!       o--[Z]--o
!Port1              Port2
!       o-------o
!
!Freq. Start=50[MHz] Stop=20[GHz], 401[Steps]
# Hz S RI R 50
!Freq.(Hz) S11(Real) S11(Imag) S21(Real) S21(Imag) S12(Real) S12(Imag) S22(Real) S22(Imag)
5.0E7 0.001249207677840777 0.003978577433308424 0.9987507923221592 -0.0039785774333084235 0.9987507923221592 -0.0039785774333084235 0.001249207677840777 0.003978577433308424
5.0754570186123446E7 0.0012508285440406667 0.004038407075704723 0.9987491714559593 -0.004038407075704723 0.9987491714559593 -0.004038407075704723 0.0012508285440406667 0.004038407075704723
5.152052789556263E7 0.0012524963173556809 0.004099130322523205 0.9987475036826443 -0.0040991303225232055 0.9987475036826443 -0.0040991303225232055 0.0012524963173556809 0.004099130322523205
5.229804498202928E7 0.0012542122852952332 0.0041607602662538335 0.9987457877147048 -0.0041607602662538335 0.9987457877147048 -0.0041607602662538335 0.0012542122852952332 0.0041607602662538335
5.308729589274893E7 0.0012559777666789917 0.00422331018141249 0.9987440222333209 -0.004223310181412491 0.9987440222333209 -0.004223310181412491 0.0012559777666789917 0.00422331018141249
5.388845770760058E7 0.0012577941121691618 0.004286793526750527 0.998742205887831 -0.004286793526750528 0.998742205887831 -0.004286793526750528 0.0012577941121691618 0.004286793526750527
5.470171017884717E7 0.0012596627047985023 0.004351223947484924 0.9987403372952015 -0.004351223947484923 0.9987403372952015 -0.004351223947484923 0.0012596627047985023 0.004351223947484924
5.5527235771465644E7 0.001261584960493157 0.00441661527754955 0.9987384150395069 -0.00441661527754955 0.9987384150395069 -0.00441661527754955 0.001261584960493157 0.00441661527754955
5.6365219704085544E7 0.0012635623285892784 0.004482981541868002 0.9987364376714106 -0.004482981541868002 0.9987364376714106 -0.004482981541868002 0.0012635623285892784 0.004482981541868002
5.721584999054556E7 0.0012655962923424345 0.004550336958648659 0.9987344037076576 -0.004550336958648658 0.9987344037076576 -0.004550336958648658 0.0012655962923424345 0.004550336958648659
5.807931748207712E7 0.0012676883694287156 0.004618695941702564 0.9987323116305714 -0.004618695941702565 0.9987323116305714 -0.004618695941702565 0.0012676883694287156 0.004618695941702564
5.8955815910124585E7 0.001269840112436413 0.004688073102784885 0.9987301598875636 -0.004688073102784885 0.9987301598875636 -0.004688073102784885 0.001269840112436413 0.004688073102784885
5.984554192981184E7 0.0012720531093471108 0.004758483253960727 0.9987279468906528 -0.004758483253960727 0.9987279468906528 -0.004758483253960727 0.0012720531093471108 0.004758483253960727
6.074869516406457E7 0.0012743289840049853 0.004829941409996186 0.998725671015995 -0.004829941409996186 0.998725671015995 -0.004829941409996186 0.0012743289840049853 0.004829941409996186
6.166547824839868E7 0.0012766693965730617 0.004902462790775608 0.9987233306034269 -0.004902462790775608 0.9987233306034269 -0.004902462790775608 0.0012766693965730617 0.004902462790775608
6.2596096876384385E7 0.0012790760439751374 0.004976062823746067 0.9987209239560249 -0.004976062823746068 0.9987209239560249 -0.004976062823746068 0.0012790760439751374 0.004976062823746067
6.354075984579668E7 0.0012815506603220683 0.005050757146390296 0.9987184493396778 -0.005050757146390296 0.9987184493396778 -0.005050757146390296 0.0012815506603220683 0.005050757146390296
6.449967910546205E7 0.0012840950173210327 0.005126561608729225 0.9987159049826787 -0.005126561608729225 0.9987159049826787 -0.005126561608729225 0.0012840950173210327 0.005126561608729225
6.547306980281226E7 0.0012867109246664117 0.005203492275855576 0.9987132890753335 -0.005203492275855576 0.9987132890753335 -0.005203492275855576 0.0012867109246664117 0.005203492275855576
6.646115033215589E7 0.0012894002304108534 0.005281565430499944 0.9987105997695892 -0.005281565430499944 0.9987105997695892 -0.005281565430499944 0.0012894002304108534 0.005281565430499944
6.746414238367817E7 0.001292164821315092 0.0053607975756310095 0.9987078351786849 -0.0053607975756310095 0.9987078351786849 -0.0053607975756310095 0.001292164821315092 0.0053607975756310095
6.848227099318038E7 0.001295006623175059 0.005441205437091591 0.9987049933768252 -0.005441205437091591 0.9987049933768252 -0.005441205437091591 0.001295006623175059 0.005441205437091591
6.951576459256999E7 0.0012979276011248096 0.005522805966272425 0.9987020723988752 -0.005522805966272425 0.9987020723988752 -0.005522805966272425 0.0012979276011248096 0.005522805966272425
7.056485506111258E7 0.0013009297599138048 0.005605616342825719 0.9986990702400861 -0.005605616342825719 0.9986990702400861 -0.005605616342825719 0.0013009297599138048 0.005605616342825719
7.162977777745734E7 0.0013040151441570359 0.005689653977420599 0.9986959848558431 -0.005689653977420599 0.9986959848558431 -0.005689653977420599 0.0013040151441570359 0.005689653977420599
7.271077167244768E7 0.00130718583855655 0.005774936514542841 0.9986928141614434 -0.005774936514542842 0.9986928141614434 -0.005774936514542842 0.00130718583855655 0.005774936514542841
7.380807928272885E7 0.0013104439680928853 0.005861481835341349 0.9986895560319071 -0.005861481835341349 0.9986895560319071 -0.005861481835341349 0.0013104439680928853 0.005861481835341349
7.492194680516452E7 0.0013137916981850028 0.0059493080605240835 0.998686208301815 -0.0059493080605240835 0.998686208301815 -0.0059493080605240835 0.0013137916981850028 0.0059493080605240835
7.60526241520746E7 0.0013172312348172749 0.006038433553306236 0.9986827687651827 -0.006038433553306237 0.9986827687651827 -0.006038433553306237 0.0013172312348172749 0.006038433553306236
7.720036500730675E7 0.0013207648246321975 0.006128876922413781 0.9986792351753677 -0.006128876922413781 0.9986792351753677 -0.006128876922413781 0.0013207648246321975 0.006128876922413781
7.836542688315398E7 0.0013243947549874896 0.006220657025145547 0.9986756052450124 -0.006220657025145546 0.9986756052450124 -0.006220657025145546 0.0013243947549874896 0.006220657025145547
7.954807117813127E7 0.0013281233539763422 0.006313792970497285 0.9986718766460235 -0.006313792970497285 0.9986718766460235 -0.006313792970497285 0.0013281233539763422 0.006313792970497285
8.074856323562416E7 0.0013319529904096423 0.006408304122351384 0.9986680470095903 -0.006408304122351384 0.9986680470095903 -0.006408304122351384 0.0013319529904096423 0.006408304122351384
8.196717240342227E7 0.0013358860737590981 0.006504210102736004 0.9986641139262408 -0.006504210102736005 0.9986641139262408 -0.006504210102736005 0.0013358860737590981 0.006504210102736004
8.320417209415154E7 0.0013399250540602943 0.006601530795157801 0.9986600749459396 -0.006601530795157801 0.9986600749459396 -0.006601530795157801 0.0013399250540602943 0.006601530795157801
8.445983984661816E7 0.0013440724217748236 0.00670028634801238 0.9986559275782253 -0.00670028634801238 0.9986559275782253 -0.00670028634801238 0.0013440724217748236 0.00670028634801238
8.573445738807854E7 0.0013483307076107922 0.006800497178077105 0.9986516692923894 -0.006800497178077105 0.9986516692923894 -0.006800497178077105 0.0013483307076107922 0.006800497178077105
8.702831069744885E7 0.0013527024823011447 0.006902183974090867 0.9986472975176989 -0.006902183974090869 0.9986472975176989 -0.006902183974090869 0.0013527024823011447 0.006902183974090867
8.834169006946853E7 0.0013571903563394283 0.007005367700425837 0.9986428096436606 -0.007005367700425839 0.9986428096436606 -0.007005367700425839 0.0013571903563394283 0.007005367700425837
8.96748901798321E7 0.0013617969796728168 0.007110069600856273 0.9986382030203272 -0.007110069600856275 0.9986382030203272 -0.007110069600856275 0.0013617969796728168 0.007110069600856273
9.1028210151304E7 0.0013665250413524308 0.007216311202429874 0.9986334749586476 -0.0072163112024298745 0.9986334749586476 -0.0072163112024298745 0.0013665250413524308 0.007216311202429874
9.240195362083109E7 0.0013713772691412156 0.00732411431944717 0.9986286227308587 -0.00732411431944717 0.9986286227308587 -0.00732411431944717 0.0013713772691412156 0.00732411431944717
9.379642880766791E7 0.00137635642907991 0.007433501057554838 0.9986236435709203 -0.007433501057554838 0.9986236435709203 -0.007433501057554838 0.00137635642907991 0.007433501057554838
9.521194858253023E7 0.0013814653250119023 0.007544493817958877 0.998618534674988 -0.007544493817958878 0.998618534674988 -0.007544493817958878 0.0013814653250119023 0.007544493817958877
9.664883053779216E7 0.0013867067980681002 0.007657115301764006 0.9986132932019318 -0.007657115301764005 0.9986132932019318 -0.007657115301764005 0.0013867067980681002 0.007657115301764006
9.810739705874248E7 0.0013920837261132337 0.007771388514445508 0.9986079162738867 -0.007771388514445508 0.9986079162738867 -0.007771388514445508 0.0013920837261132337 0.007771388514445508
9.958797539591652E7 0.0013975990231553847 0.007887336770460253 0.9986024009768446 -0.007887336770460253 0.9986024009768446 -0.007887336770460253 0.0013975990231553847 0.007887336770460253
1.0109089773851961E8 0.0014032556387209055 0.008004983698003596 0.9985967443612792 -0.008004983698003596 0.9985967443612792 -0.008004983698003596 0.0014032556387209055 0.008004983698003596
1.0261650128895843E8 0.0014090565571972826 0.00812435324391905 0.9985909434428026 -0.00812435324391905 0.9985909434428026 -0.00812435324391905 0.0014090565571972826 0.00812435324391905
1.0416512833849736E8 0.001415004797146921 0.008245469678767768 0.9985849952028529 -0.008245469678767768 0.9985849952028529 -0.008245469678767768 0.001415004797146921 0.008245469678767768
1.0573712634405641E8 0.001421103410595289 0.008368357602064983 0.9985788965894048 -0.008368357602064985 0.9985788965894048 -0.008368357602064985 0.001421103410595289 0.008368357602064983
1.0733284800616828E8 0.0014273554822973027 0.00849304194769065 0.9985726445177026 -0.00849304194769065 0.9985726445177026 -0.00849304194769065 0.0014273554822973027 0.00849304194769065
1.0895265134811176E8 0.0014337641289863504 0.008619547989481545 0.9985662358710138 -0.008619547989481545 0.9985662358710138 -0.008619547989481545 0.0014337641289863504 0.008619547989481545
1.1059689979623953E8 0.0014403324986108426 0.008747901347012175 0.9985596675013891 -0.008747901347012173 0.9985596675013891 -0.008747901347012173 0.0014403324986108426 0.008747901347012175
1.1226596226151802E8 0.0014470637695637293 0.008878127991571816 0.9985529362304364 -0.008878127991571817 0.9985529362304364 -0.008878127991571817 0.0014470637695637293 0.008878127991571816
1.1396021322229806E8 0.0014539611499109668 0.009010254252344996 0.998546038850089 -0.009010254252344998 0.998546038850089 -0.009010254252344998 0.0014539611499109668 0.009010254252344996
1.1568003280833441E8 0.0014610278766254738 0.009144306822802614 0.9985389721233746 -0.009144306822802614 0.9985389721233746 -0.009144306822802614 0.0014610278766254738 0.009144306822802614
1.1742580688607343E8 0.0014682672148337227 0.00928031276731083 0.9985317327851663 -0.009280312767310828 0.9985317327851663 -0.009280312767310828 0.0014682672148337227 0.00928031276731083
1.1919792714522783E8 0.0014756824570826962 0.009418299527964745 0.9985243175429173 -0.009418299527964745 0.9985243175429173 -0.009418299527964745 0.0014756824570826962 0.009418299527964745
1.2099679118665792E8 0.0014832769226355324 0.0095582949316536 0.9985167230773644 -0.0095582949316536 0.9985167230773644 -0.0095582949316536 0.0014832769226355324 0.0095582949316536
1.2282280261157903E8 0.001491053956804814 0.009700327197364042 0.9985089460431953 -0.009700327197364042 0.9985089460431953 -0.009700327197364042 0.001491053956804814 0.009700327197364042
1.2467637111211549E8 0.0014990169303330631 0.009844424943727762 0.9985009830696668 -0.00984442494372776 0.9985009830696668 -0.00984442494372776 0.0014990169303330631 0.009844424943727762
1.265579125632208E8 0.0015071692388306244 0.009990617196819408 0.9984928307611692 -0.009990617196819407 0.9984928307611692 -0.009990617196819407 0.0015071692388306244 0.009990617196819408
1.284678491159853E8 0.0015155143022817033 0.010138933398210247 0.9984844856977183 -0.010138933398210247 0.9984844856977183 -0.010138933398210247 0.0015155143022817033 0.010138933398210247
1.3040660929235186E8 0.0015240555646299828 0.01028940341328279 0.99847594443537 -0.01028940341328279 0.99847594443537 -0.01028940341328279 0.0015240555646299828 0.01028940341328279
1.3237462808126101E8 0.001532796493455774 0.01044205753981088 0.998467203506544 -0.010442057539810878 0.998467203506544 -0.010442057539810878 0.001532796493455774 0.01044205753981088
1.3437234703624701E8 0.0015417405797572602 0.010596926516809293 0.9984582594202427 -0.010596926516809293 0.9984582594202427 -0.010596926516809293 0.0015417405797572602 0.010596926516809293
1.364002143745067E8 0.0015508913378489376 0.010754041533656328 0.998449108662151 -0.010754041533656328 0.998449108662151 -0.010754041533656328 0.0015508913378489376 0.010754041533656328
1.3845868507746372E8 0.0015602523053908723 0.010913434239492158 0.998439747694609 -0.010913434239492158 0.998439747694609 -0.010913434239492158 0.0015602523053908723 0.010913434239492158
1.405482209928499E8 0.0015698270435628799 0.011075136752894931 0.9984301729564372 -0.011075136752894931 0.9984301729564372 -0.011075136752894931 0.0015698270435628799 0.011075136752894931
1.426692909383278E8 0.0015796191373981731 0.01123918167183596 0.9984203808626019 -0.011239181671835958 0.9984203808626019 -0.011239181671835958 0.0015796191373981731 0.01123918167183596
1.4482237080667645E8 0.0015896321962914572 0.011405602083914435 0.9984103678037085 -0.011405602083914435 0.9984103678037085 -0.011405602083914435 0.0015896321962914572 0.011405602083914435
1.4700794367256513E8 0.0015998698546967525 0.011574431576871264 0.9984001301453033 -0.011574431576871264 0.9984001301453033 -0.011574431576871264 0.0015998698546967525 0.011574431576871264
1.492264999009378E8 0.001610335773030557 0.01174570424938059 0.9983896642269694 -0.01174570424938059 0.9983896642269694 -0.01174570424938059 0.001610335773030557 0.01174570424938059
1.5147853725703382E8 0.00162103363879619 0.011919454722116833 0.9983789663612039 -0.011919454722116833 0.9983789663612039 -0.011919454722116833 0.00162103363879619 0.011919454722116833
1.5376456101806876E8 0.0016319671679452924 0.01209571814909379 0.9983680328320547 -0.01209571814909379 0.9983680328320547 -0.01209571814909379 0.0016319671679452924 0.01209571814909379
1.5608508408660066E8 0.001643140106492593 0.012274530229271536 0.9983568598935074 -0.012274530229271536 0.9983568598935074 -0.012274530229271536 0.001643140106492593 0.012274530229271536
1.5844062710560706E8 0.0016545562324000152 0.012455927218425585 0.9983454437676 -0.012455927218425585 0.9983454437676 -0.012455927218425585 0.0016545562324000152 0.012455927218425585
1.6083171857529896E8 0.0016662193577461771 0.012639945941271937 0.9983337806422538 -0.012639945941271939 0.9983337806422538 -0.012639945941271939 0.0016662193577461771 0.012639945941271937
1.632588949716973E8 0.0016781333311971336 0.012826623803840158 0.9983218666688028 -0.012826623803840158 0.9983218666688028 -0.012826623803840158 0.0016781333311971336 0.012826623803840158
1.6572270086699936E8 0.0016903020407939833 0.013015998806085961 0.9983096979592061 -0.013015998806085963 0.9983096979592061 -0.013015998806085963 0.0016903020407939833 0.013015998806085961
1.6822368905176118E8 0.0017027294170726297 0.013208109554733189 0.9982972705829275 -0.013208109554733189 0.9982972705829275 -0.013208109554733189 0.0017027294170726297 0.013208109554733189
1.7076242065892437E8 0.0017154194365305237 0.013402995276334402 0.9982845805634696 -0.013402995276334402 0.9982845805634696 -0.013402995276334402 0.0017154194365305237 0.013402995276334402
1.7333946528971428E8 0.0017283761254546764 0.01360069583053778 0.9982716238745453 -0.01360069583053778 0.9982716238745453 -0.01360069583053778 0.0017283761254546764 0.01360069583053778
1.7595540114143828E8 0.0017416035641246205 0.01380125172354727 0.9982583964358753 -0.01380125172354727 0.9982583964358753 -0.01380125172354727 0.0017416035641246205 0.01380125172354727
1.786108151372127E8 0.0017551058914032354 0.014004704121761764 0.9982448941085966 -0.014004704121761764 0.9982448941085966 -0.014004704121761764 0.0017551058914032354 0.014004704121761764
1.8130630305764765E8 0.0017688873097275318 0.014211094865578037 0.9982311126902724 -0.014211094865578037 0.9982311126902724 -0.014211094865578037 0.0017688873097275318 0.014211094865578037
1.840424696745189E8 0.0017829520905105528 0.01442046648334132 0.9982170479094895 -0.014420466483341316 0.9982170479094895 -0.014420466483341316 0.0017829520905105528 0.01442046648334132
1.8681992888645732E8 0.0017973045799645213 0.014632862205426454 0.9982026954200354 -0.014632862205426454 0.9982026954200354 -0.014632862205426454 0.0017973045799645213 0.014632862205426454
1.8963930385668582E8 0.0018119492053542882 0.014848325978431835 0.9981880507946457 -0.014848325978431831 0.9981880507946457 -0.014848325978431831 0.0018119492053542882 0.014848325978431835
1.92501227152835E8 0.0018268904816888703 0.015066902479467466 0.9981731095183111 -0.015066902479467466 0.9981731095183111 -0.015066902479467466 0.0018268904816888703 0.015066902479467466
1.9540634088886917E8 0.001842133018857667 0.015288637130518075 0.9981578669811424 -0.015288637130518073 0.9981578669811424 -0.015288637130518073 0.001842133018857667 0.015288637130518075
1.983552968691535E8 0.001857681529216553 0.015513576112861438 0.9981423184707834 -0.015513576112861438 0.9981423184707834 -0.015513576112861438 0.001857681529216553 0.015513576112861438
2.0134875673469606E8 0.0018735408356276605 0.015741766381521884 0.9981264591643725 -0.015741766381521884 0.9981264591643725 -0.015741766381521884 0.0018735408356276605 0.015741766381521884
2.0438739211159652E8 0.0018897158799551822 0.015973255679738427 0.9981102841200449 -0.015973255679738424 0.9981102841200449 -0.015973255679738424 0.0018897158799551822 0.015973255679738427
2.074718847617352E8 0.001906211732018076 0.016208092553427048 0.9980937882679821 -0.016208092553427048 0.9980937882679821 -0.016208092553427048 0.001906211732018076 0.016208092553427048
2.106029267357361E8 0.0019230335989989357 0.0164463263656163 0.9980769664010011 -0.0164463263656163 0.9980769664010011 -0.0164463263656163 0.0019230335989989357 0.0164463263656163
2.1378122052823865E8 0.0019401868353068332 0.01668800731083582 0.998059813164693 -0.01668800731083582 0.998059813164693 -0.01668800731083582 0.0019401868353068332 0.01668800731083582
2.1700747923551247E8 0.0019576769528902986 0.016933186429437284 0.9980423230471097 -0.016933186429437284 0.9980423230471097 -0.016933186429437284 0.0019576769528902986 0.016933186429437284
2.2028242671545094E8 0.0019755096319950985 0.017181915621827883 0.9980244903680049 -0.017181915621827883 0.9980244903680049 -0.017181915621827883 0.0019755096319950985 0.017181915621827883
2.23606797749979E8 0.001993690732359893 0.017434247662596797 0.99800630926764 -0.017434247662596797 0.99800630926764 -0.017434247662596797 0.001993690732359893 0.017434247662596797
2.2698133820991236E8 0.002012226304841419 0.017690236214515976 0.9979877736951587 -0.017690236214515976 0.9979877736951587 -0.017690236214515976 0.002012226304841419 0.017690236214515976
2.3040680522230446E8 0.002031122603459264 0.017949935842396975 0.9979688773965408 -0.01794993584239698 0.9979688773965408 -0.01794993584239698 0.002031122603459264 0.017949935842396975
2.338839673403185E8 0.0020503860978490396 0.01821340202678694 0.9979496139021509 -0.01821340202678694 0.9979496139021509 -0.01821340202678694 0.0020503860978490396 0.01821340202678694
