!Murata Part Number: LQP15MN3N7W02
!These Parameters are Measured in Series Mode Connection
!       o--[Z]--o
!Port1              Port2
!       o-------o
!
!Freq. Start=50[MHz] Stop=20[GHz], 401[Steps]
# Hz S RI R 50
!Freq.(Hz) S11(Real) S11(Imag) S21(Real) S21(Imag) S12(Real) S12(Imag) S22(Real) S22(Imag)
5.0E7 0.0025011991106854443 0.011093355144468268 0.9974988008893144 -0.011093355144468268 0.9974988008893144 -0.011093355144468268 0.0025011991106854443 0.011093355144468268
5.0754570186123446E7 0.0025126213517776973 0.01125756704603853 0.9974873786482223 -0.01125756704603853 0.9974873786482223 -0.01125756704603853 0.0025126213517776973 0.01125756704603853
5.152052789556263E7 0.002524321960773069 0.011424139505191831 0.997475678039227 -0.011424139505191833 0.997475678039227 -0.011424139505191833 0.002524321960773069 0.011424139505191831
5.229804498202928E7 0.0025363061461509493 0.01159310460063295 0.9974636938538491 -0.01159310460063295 0.9974636938538491 -0.01159310460063295 0.0025363061461509493 0.01159310460063295
5.308729589274893E7 0.0025485791476865098 0.011764494837590074 0.9974514208523134 -0.011764494837590074 0.9974514208523134 -0.011764494837590074 0.0025485791476865098 0.011764494837590074
5.388845770760058E7 0.0025611462344629584 0.011938343156504317 0.997438853765537 -0.011938343156504317 0.997438853765537 -0.011938343156504317 0.0025611462344629584 0.011938343156504317
5.470171017884717E7 0.0025740127029112323 0.012114682942088244 0.9974259872970889 -0.012114682942088244 0.9974259872970889 -0.012114682942088244 0.0025740127029112323 0.012114682942088244
5.5527235771465644E7 0.0025871838748926517 0.01229354803276523 0.9974128161251073 -0.01229354803276523 0.9974128161251073 -0.01229354803276523 0.0025871838748926517 0.01229354803276523
5.6365219704085544E7 0.0026006650958411673 0.012474972730500983 0.997399334904159 -0.012474972730500983 0.997399334904159 -0.012474972730500983 0.0026006650958411673 0.012474972730500983
5.721584999054556E7 0.0026144617329829645 0.012658991811037868 0.9973855382670169 -0.012658991811037868 0.9973855382670169 -0.012658991811037868 0.0026144617329829645 0.012658991811037868
5.807931748207712E7 0.002628579173652333 0.012845640534542173 0.9973714208263478 -0.012845640534542173 0.9973714208263478 -0.012845640534542173 0.002628579173652333 0.012845640534542173
5.8955815910124585E7 0.00264302282372383 0.01303495465667353 0.9973569771762759 -0.013034954656673533 0.9973569771762759 -0.013034954656673533 0.00264302282372383 0.01303495465667353
5.984554192981184E7 0.002657798106181915 0.013226970440085157 0.9973422018938182 -0.01322697044008516 0.9973422018938182 -0.01322697044008516 0.002657798106181915 0.013226970440085157
6.074869516406457E7 0.0026729104598501915 0.013421724666362003 0.9973270895401499 -0.013421724666362005 0.9973270895401499 -0.013421724666362005 0.0026729104598501915 0.013421724666362003
6.166547824839868E7 0.0026883653383036293 0.013619254648403635 0.9973116346616964 -0.013619254648403634 0.9973116346616964 -0.013619254648403634 0.0026883653383036293 0.013619254648403635
6.2596096876384385E7 0.0027041682089879392 0.013819598243256811 0.9972958317910119 -0.013819598243256811 0.9972958317910119 -0.013819598243256811 0.0027041682089879392 0.013819598243256811
6.354075984579668E7 0.0027203245525713815 0.014022793865401862 0.9972796754474285 -0.014022793865401862 0.9972796754474285 -0.014022793865401862 0.0027203245525713815 0.014022793865401862
6.449967910546205E7 0.002736839862555027 0.01422888050049531 0.9972631601374449 -0.01422888050049531 0.9972631601374449 -0.01422888050049531 0.002736839862555027 0.01422888050049531
6.547306980281226E7 0.002753719645168437 0.014437897719570058 0.9972462803548316 -0.014437897719570058 0.9972462803548316 -0.014437897719570058 0.002753719645168437 0.014437897719570058
6.646115033215589E7 0.002770969419578308 0.014649885693692532 0.9972290305804218 -0.014649885693692535 0.9972290305804218 -0.014649885693692535 0.002770969419578308 0.014649885693692532
6.746414238367817E7 0.00278859471843834 0.01486488520907465 0.9972114052815616 -0.01486488520907465 0.9972114052815616 -0.01486488520907465 0.00278859471843834 0.01486488520907465
6.848227099318038E7 0.0028066010888090523 0.015082937682636799 0.997193398911191 -0.015082937682636799 0.997193398911191 -0.015082937682636799 0.0028066010888090523 0.015082937682636799
6.951576459256999E7 0.002824994093476678 0.015304085178016093 0.9971750059065232 -0.015304085178016093 0.9971750059065232 -0.015304085178016093 0.002824994093476678 0.015304085178016093
7.056485506111258E7 0.0028437793127005636 0.015528370422012371 0.9971562206872994 -0.015528370422012374 0.9971562206872994 -0.015528370422012374 0.0028437793127005636 0.015528370422012371
7.162977777745734E7 0.002862962346418516 0.015755836821462123 0.9971370376535815 -0.015755836821462123 0.9971370376535815 -0.015755836821462123 0.002862962346418516 0.015755836821462123
7.271077167244768E7 0.002882548816939693 0.015986528480529078 0.9971174511830604 -0.01598652848052908 0.9971174511830604 -0.01598652848052908 0.002882548816939693 0.015986528480529078
7.380807928272885E7 0.0029025443721542995 0.016220490218397568 0.9970974556278457 -0.016220490218397565 0.9970974556278457 -0.016220490218397565 0.0029025443721542995 0.016220490218397568
7.492194680516452E7 0.002922954689289085 0.016457767587352973 0.997077045310711 -0.016457767587352973 0.997077045310711 -0.016457767587352973 0.002922954689289085 0.016457767587352973
7.60526241520746E7 0.0029437854792371174 0.016698406891231476 0.9970562145207629 -0.016698406891231476 0.9970562145207629 -0.016698406891231476 0.0029437854792371174 0.016698406891231476
7.720036500730675E7 0.002965042491489665 0.01694245520421914 0.9970349575085101 -0.016942455204219137 0.9970349575085101 -0.016942455204219137 0.002965042491489665 0.01694245520421914
7.836542688315398E7 0.002986731519697035 0.017189960389978224 0.997013268480303 -0.017189960389978224 0.997013268480303 -0.017189960389978224 0.002986731519697035 0.017189960389978224
7.954807117813127E7 0.003008858407884345 0.017440971121076825 0.9969911415921155 -0.017440971121076825 0.9969911415921155 -0.017440971121076825 0.003008858407884345 0.017440971121076825
8.074856323562416E7 0.0030314290573468126 0.017695536898695526 0.9969685709426533 -0.017695536898695526 0.9969685709426533 -0.017695536898695526 0.0030314290573468126 0.017695536898695526
8.196717240342227E7 0.003054449434247878 0.017953708072583265 0.9969455505657522 -0.017953708072583265 0.9969455505657522 -0.017953708072583265 0.003054449434247878 0.017953708072583265
8.320417209415154E7 0.0030779255779417756 0.018215535861232465 0.9969220744220582 -0.018215535861232465 0.9969220744220582 -0.018215535861232465 0.0030779255779417756 0.018215535861232465
8.445983984661816E7 0.003101863610040483 0.01848107237224168 0.9968981363899596 -0.01848107237224168 0.9968981363899596 -0.01848107237224168 0.003101863610040483 0.01848107237224168
8.573445738807854E7 0.0031262697442430236 0.018750370622832805 0.9968737302557569 -0.018750370622832805 0.9968737302557569 -0.018750370622832805 0.0031262697442430236 0.018750370622832805
8.702831069744885E7 0.0031511502969429994 0.01902348456048785 0.996848849703057 -0.01902348456048785 0.996848849703057 -0.01902348456048785 0.0031511502969429994 0.01902348456048785
8.834169006946853E7 0.003176511698627993 0.019300469083669395 0.9968234883013719 -0.01930046908366939 0.9968234883013719 -0.01930046908366939 0.003176511698627993 0.019300469083669395
8.96748901798321E7 0.0032023605060820834 0.019581380062587347 0.9967976394939179 -0.019581380062587347 0.9967976394939179 -0.019581380062587347 0.0032023605060820834 0.019581380062587347
9.1028210151304E7 0.003228703415400291 0.019866274359974102 0.9967712965845997 -0.019866274359974102 0.9967712965845997 -0.019866274359974102 0.003228703415400291 0.019866274359974102
9.240195362083109E7 0.003255547275821007 0.020155209851828778 0.9967444527241791 -0.020155209851828778 0.9967444527241791 -0.020155209851828778 0.003255547275821007 0.020155209851828778
9.379642880766791E7 0.0032828991043799246 0.020448245448091353 0.99671710089562 -0.020448245448091353 0.99671710089562 -0.020448245448091353 0.0032828991043799246 0.020448245448091353
9.521194858253023E7 0.003310766101386093 0.020745441113206697 0.9966892338986139 -0.020745441113206697 0.9966892338986139 -0.020745441113206697 0.003310766101386093 0.020745441113206697
9.664883053779216E7 0.0033391556667179286 0.021046857886538747 0.996660844333282 -0.021046857886538747 0.996660844333282 -0.021046857886538747 0.0033391556667179286 0.021046857886538747
9.810739705874248E7 0.003368075416934185 0.021352557902594844 0.9966319245830658 -0.021352557902594844 0.9966319245830658 -0.021352557902594844 0.003368075416934185 0.021352557902594844
9.958797539591652E7 0.0033975332031919627 0.0216626044110212 0.9966024667968079 -0.0216626044110212 0.9966024667968079 -0.0216626044110212 0.0033975332031919627 0.0216626044110212
1.0109089773851961E8 0.0034275371299610675 0.021977061796330664 0.9965724628700391 -0.021977061796330667 0.9965724628700391 -0.021977061796330667 0.0034275371299610675 0.021977061796330664
1.0261650128895843E8 0.003458095574521131 0.02229599559732504 0.996541904425479 -0.02229599559732504 0.996541904425479 -0.02229599559732504 0.003458095574521131 0.02229599559732504
1.0416512833849736E8 0.003489217207225241 0.02261947252617543 0.9965107827927746 -0.02261947252617543 0.9965107827927746 -0.02261947252617543 0.003489217207225241 0.02261947252617543
1.0573712634405641E8 0.0035209110125111708 0.022947560487125554 0.9964790889874887 -0.022947560487125554 0.9964790889874887 -0.022947560487125554 0.0035209110125111708 0.022947560487125554
1.0733284800616828E8 0.0035531863106387125 0.02328032859478441 0.9964468136893613 -0.023280328594784405 0.9964468136893613 -0.023280328594784405 0.0035531863106387125 0.02328032859478441
1.0895265134811176E8 0.003586052780129285 0.023617847191976796 0.9964139472198708 -0.023617847191976796 0.9964139472198708 -0.023617847191976796 0.003586052780129285 0.023617847191976796
1.1059689979623953E8 0.0036195204808817196 0.02396018786712222 0.9963804795191182 -0.02396018786712222 0.9963804795191182 -0.02396018786712222 0.0036195204808817196 0.02396018786712222
1.1226596226151802E8 0.0036535998779361114 0.024307423471115187 0.9963464001220639 -0.024307423471115187 0.9963464001220639 -0.024307423471115187 0.0036535998779361114 0.024307423471115187
1.1396021322229806E8 0.003688301865855709 0.02465962813368193 0.9963116981341442 -0.02465962813368193 0.9963116981341442 -0.02465962813368193 0.003688301865855709 0.02465962813368193
1.1568003280833441E8 0.003723637793695296 0.025016877279192076 0.9962763622063047 -0.025016877279192076 0.9962763622063047 -0.025016877279192076 0.003723637793695296 0.025016877279192076
1.1742580688607343E8 0.003759619490523047 0.025379247641905824 0.996240380509477 -0.025379247641905828 0.996240380509477 -0.025379247641905828 0.003759619490523047 0.025379247641905824
1.1919792714522783E8 0.0037962592914617403 0.02574681728064066 0.9962037407085381 -0.025746817280640658 0.9962037407085381 -0.025746817280640658 0.0037962592914617403 0.02574681728064066
1.2099679118665792E8 0.003833570064214371 0.026119665592844517 0.9961664299357855 -0.026119665592844517 0.9961664299357855 -0.026119665592844517 0.003833570064214371 0.026119665592844517
1.2282280261157903E8 0.0038715652360385724 0.026497873328065434 0.9961284347639614 -0.026497873328065434 0.9961284347639614 -0.026497873328065434 0.0038715652360385724 0.026497873328065434
1.2467637111211549E8 0.00391025882113397 0.02688152260081095 0.996089741178866 -0.02688152260081095 0.996089741178866 -0.02688152260081095 0.00391025882113397 0.02688152260081095
1.265579125632208E8 0.0039496654484066016 0.02727069690279386 0.9960503345515934 -0.02727069690279386 0.9960503345515934 -0.02727069690279386 0.0039496654484066016 0.02727069690279386
1.284678491159853E8 0.003989800389574707 0.02766548111456376 0.9960101996104251 -0.02766548111456376 0.9960101996104251 -0.02766548111456376 0.003989800389574707 0.02766548111456376
1.3040660929235186E8 0.004030679587580855 0.02806596151652758 0.995969320412419 -0.02806596151652758 0.995969320412419 -0.02806596151652758 0.004030679587580855 0.02806596151652758
1.3237462808126101E8 0.0040723196852761046 0.028472225799364866 0.9959276803147239 -0.028472225799364866 0.9959276803147239 -0.028472225799364866 0.0040723196852761046 0.028472225799364866
1.3437234703624701E8 0.004114738054343091 0.028884363073846963 0.9958852619456569 -0.028884363073846966 0.9958852619456569 -0.028884363073846966 0.004114738054343091 0.028884363073846963
1.364002143745067E8 0.004157952824426167 0.02930246388007209 0.9958420471755737 -0.02930246388007209 0.9958420471755737 -0.02930246388007209 0.004157952824426167 0.02930246388007209
1.3845868507746372E8 0.004201982912438504 0.02972662019613113 0.9957980170875614 -0.029726620196131138 0.9957980170875614 -0.029726620196131138 0.004201982912438504 0.02972662019613113
1.405482209928499E8 0.004246848052017745 0.03015692544622152 0.9957531519479822 -0.03015692544622152 0.9957531519479822 -0.03015692544622152 0.004246848052017745 0.03015692544622152
1.426692909383278E8 0.004292568823104002 0.03059347450822922 0.9957074311768961 -0.030593474508229215 0.9957074311768961 -0.030593474508229215 0.004292568823104002 0.03059347450822922
1.4482237080667645E8 0.004339166681616115 0.031036363720800937 0.9956608333183838 -0.03103636372080093 0.9956608333183838 -0.03103636372080093 0.004339166681616115 0.031036363720800937
1.4700794367256513E8 0.004386663989204766 0.031485690889931195 0.9956133360107953 -0.031485690889931195 0.9956133360107953 -0.031485690889931195 0.004386663989204766 0.031485690889931195
1.492264999009378E8 0.0044350840430632905 0.031941555295089935 0.9955649159569365 -0.03194155529508993 0.9955649159569365 -0.03194155529508993 0.0044350840430632905 0.031941555295089935
1.5147853725703382E8 0.004484451105780149 0.03240405769491889 0.9955155488942199 -0.03240405769491889 0.9955155488942199 -0.03240405769491889 0.004484451105780149 0.03240405769491889
1.5376456101806876E8 0.004534790435219609 0.03287330033252593 0.9954652095647804 -0.03287330033252593 0.9954652095647804 -0.03287330033252593 0.004534790435219609 0.03287330033252593
1.5608508408660066E8 0.004586128314420168 0.03334938694040744 0.9954138716855797 -0.03334938694040744 0.9954138716855797 -0.03334938694040744 0.004586128314420168 0.03334938694040744
1.5844062710560706E8 0.004638492081503362 0.03383242274503042 0.9953615079184965 -0.03383242274503042 0.9953615079184965 -0.03383242274503042 0.004638492081503362 0.03383242274503042
1.6083171857529896E8 0.004691910159588464 0.034322514471106 0.9953080898404116 -0.034322514471106 0.9953080898404116 -0.034322514471106 0.004691910159588464 0.034322514471106
1.632588949716973E8 0.004746412086711778 0.034819770345586816 0.9952535879132881 -0.034819770345586816 0.9952535879132881 -0.034819770345586816 0.004746412086711778 0.034819770345586816
1.6572270086699936E8 0.0048020285457521595 0.03532430010142089 0.9951979714542478 -0.03532430010142088 0.9951979714542478 -0.03532430010142088 0.0048020285457521595 0.03532430010142089
1.6822368905176118E8 0.004858791394367532 0.03583621498109442 0.9951412086056324 -0.035836214981094426 0.9951412086056324 -0.035836214981094426 0.004858791394367532 0.03583621498109442
1.7076242065892437E8 0.004916733694949928 0.03635562773999567 0.9950832663050501 -0.03635562773999568 0.9950832663050501 -0.03635562773999568 0.004916733694949928 0.03635562773999567
1.7333946528971428E8 0.004975889744609772 0.0368826526496319 0.9950241102553902 -0.03688265264963189 0.9950241102553902 -0.03688265264963189 0.004975889744609772 0.0368826526496319
1.7595540114143828E8 0.005036295105202621 0.03741740550073016 0.9949637048947975 -0.03741740550073016 0.9949637048947975 -0.03741740550073016 0.005036295105202621 0.03741740550073016
1.786108151372127E8 0.00509798663341452 0.03796000360625239 0.9949020133665852 -0.03796000360625238 0.9949020133665852 -0.03796000360625238 0.00509798663341452 0.03796000360625239
1.8130630305764765E8 0.005161002510924586 0.038510565804353726 0.9948389974890754 -0.038510565804353726 0.9948389974890754 -0.038510565804353726 0.005161002510924586 0.038510565804353726
1.840424696745189E8 0.005225382274665985 0.03906921246131226 0.9947746177253339 -0.03906921246131226 0.9947746177253339 -0.03906921246131226 0.005225382274665985 0.03906921246131226
1.8681992888645732E8 0.005291166847208716 0.039636065474456625 0.9947088331527912 -0.039636065474456625 0.9947088331527912 -0.039636065474456625 0.005291166847208716 0.039636065474456625
1.8963930385668582E8 0.005358398567289875 0.04021124827511696 0.9946416014327101 -0.040211248275116955 0.9946416014327101 -0.040211248275116955 0.005358398567289875 0.04021124827511696
1.92501227152835E8 0.005427121220519112 0.04079488583162256 0.994572878779481 -0.04079488583162256 0.994572878779481 -0.04079488583162256 0.005427121220519112 0.04079488583162256
1.9540634088886917E8 0.0054973800702887805 0.04138710465236872 0.9945026199297113 -0.04138710465236872 0.9945026199297113 -0.04138710465236872 0.0054973800702887805 0.04138710465236872
1.983552968691535E8 0.005569221888920206 0.04198803278897287 0.9944307781110796 -0.04198803278897287 0.9944307781110796 -0.04198803278897287 0.005569221888920206 0.04198803278897287
2.0134875673469606E8 0.005642694989078884 0.04259779983953893 0.994357305010921 -0.04259779983953893 0.994357305010921 -0.04259779983953893 0.005642694989078884 0.04259779983953893
2.0438739211159652E8 0.005717849255493045 0.043216536952046816 0.9942821507445069 -0.04321653695204681 0.9942821507445069 -0.04321653695204681 0.005717849255493045 0.043216536952046816
2.074718847617352E8 0.005794736177011158 0.0438443768278822 0.9942052638229886 -0.0438443768278822 0.9942052638229886 -0.0438443768278822 0.005794736177011158 0.0438443768278822
2.106029267357361E8 0.0058734088790353585 0.04448145372552074 0.9941265911209648 -0.04448145372552073 0.9941265911209648 -0.04448145372552073 0.0058734088790353585 0.04448145372552074
2.1378122052823865E8 0.005953922156368487 0.04512790346437758 0.9940460778436316 -0.045127903464377575 0.9940460778436316 -0.045127903464377575 0.005953922156368487 0.04512790346437758
2.1700747923551247E8 0.006036332506513751 0.04578386342883355 0.9939636674934863 -0.04578386342883355 0.9939636674934863 -0.04578386342883355 0.006036332506513751 0.04578386342883355
2.2028242671545094E8 0.006120698163466527 0.04644947257244573 0.9938793018365335 -0.04644947257244573 0.9938793018365335 -0.04644947257244573 0.006120698163466527 0.04644947257244573
2.23606797749979E8 0.006207079132038805 0.047124871422350056 0.9937929208679613 -0.047124871422350056 0.9937929208679613 -0.047124871422350056 0.006207079132038805 0.047124871422350056
2.2698133820991236E8 0.006295537222757301 0.0478102020838616 0.9937044627772428 -0.0478102020838616 0.9937044627772428 -0.0478102020838616 0.006295537222757301 0.0478102020838616
2.3040680522230446E8 0.006386136087376948 0.048505608245276575 0.993613863912623 -0.04850560824527657 0.993613863912623 -0.04850560824527657 0.006386136087376948 0.048505608245276575
2.338839673403185E8 0.0064789412550520595 0.0492112351828793 0.9935210587449481 -0.049211235182879294 0.9935210587449481 -0.049211235182879294 0.0064789412550520595 0.0492112351828793
2.37413604715664E8 0.006574020169207949 0.049927229766155934 0.9934259798307921 -0.049927229766155934 0.9934259798307921 -0.049927229766155934 0.006574020169207949 0.049927229766155934
2.4099650927363476E8 0.0066714422251563975 0.050653740463215774 0.9933285577748437 -0.050653740463215774 0.9933285577748437 -0.050653740463215774 0.0066714422251563975 0.050653740463215774
