!Murata Part Number: LQP15MN2N9W02
!These Parameters are Measured in Series Mode Connection
!       o--[Z]--o
!Port1              Port2
!       o-------o
!
!Freq. Start=50[MHz] Stop=20[GHz], 401[Steps]
# Hz S RI R 50
!Freq.(Hz) S11(Real) S11(Imag) S21(Real) S21(Imag) S12(Real) S12(Imag) S22(Real) S22(Imag)
5.0E7 0.002280240973285322 0.008259731083338336 0.9977197590267148 -0.008259731083338336 0.9977197590267148 -0.008259731083338336 0.002280240973285322 0.008259731083338336
5.0754570186123446E7 0.0022870551992507804 0.008382481442616194 0.9977129448007493 -0.008382481442616194 0.9977129448007493 -0.008382481442616194 0.0022870551992507804 0.008382481442616194
5.152052789556263E7 0.002294036410025151 0.008507013605221608 0.997705963589975 -0.008507013605221608 0.997705963589975 -0.008507013605221608 0.002294036410025151 0.008507013605221608
5.229804498202928E7 0.0023011877521219443 0.00863335227695493 0.9976988122478782 -0.00863335227695493 0.9976988122478782 -0.00863335227695493 0.0023011877521219443 0.00863335227695493
5.308729589274893E7 0.002308512389900355 0.00876152249757739 0.9976914876100998 -0.00876152249757739 0.9976914876100998 -0.00876152249757739 0.002308512389900355 0.00876152249757739
5.388845770760058E7 0.002316013504113737 0.008891549647036655 0.9976839864958862 -0.008891549647036655 0.9976839864958862 -0.008891549647036655 0.002316013504113737 0.008891549647036655
5.470171017884717E7 0.002323694290451689 0.009023459451932858 0.9976763057095485 -0.00902345945193286 0.9976763057095485 -0.00902345945193286 0.002323694290451689 0.009023459451932858
5.5527235771465644E7 0.002331557958084104 0.009157277992233545 0.9976684420419158 -0.009157277992233545 0.9976684420419158 -0.009157277992233545 0.002331557958084104 0.009157277992233545
5.6365219704085544E7 0.002339607728216229 0.009293031708246042 0.9976603922717838 -0.009293031708246042 0.9976603922717838 -0.009293031708246042 0.002339607728216229 0.009293031708246042
5.721584999054556E7 0.002347846832664499 0.009430747407855227 0.9976521531673354 -0.009430747407855227 0.9976521531673354 -0.009430747407855227 0.002347846832664499 0.009430747407855227
5.807931748207712E7 0.002356278512463692 0.009570452274034698 0.9976437214875363 -0.0095704522740347 0.9976437214875363 -0.0095704522740347 0.002356278512463692 0.009570452274034698
5.8955815910124585E7 0.002364906016516605 0.0097121738726387 0.9976350939834834 -0.0097121738726387 0.9976350939834834 -0.0097121738726387 0.002364906016516605 0.0097121738726387
5.984554192981184E7 0.0023737326002982746 0.009855940160482028 0.9976262673997016 -0.009855940160482026 0.9976262673997016 -0.009855940160482026 0.0023737326002982746 0.009855940160482028
6.074869516406457E7 0.002382761524627449 0.010001779493714459 0.9976172384753725 -0.010001779493714459 0.9976172384753725 -0.010001779493714459 0.002382761524627449 0.010001779493714459
6.166547824839868E7 0.00239199605451875 0.010149720636495912 0.9976080039454813 -0.010149720636495912 0.9976080039454813 -0.010149720636495912 0.00239199605451875 0.010149720636495912
6.2596096876384385E7 0.0024014394581296857 0.010299792769977733 0.9975985605418703 -0.010299792769977733 0.9975985605418703 -0.010299792769977733 0.0024014394581296857 0.010299792769977733
6.354075984579668E7 0.0024110950058173286 0.010452025501595071 0.9975889049941826 -0.010452025501595071 0.9975889049941826 -0.010452025501595071 0.0024110950058173286 0.010452025501595071
6.449967910546205E7 0.0024209659693201803 0.010606448874674384 0.9975790340306798 -0.010606448874674384 0.9975790340306798 -0.010606448874674384 0.0024209659693201803 0.010606448874674384
6.547306980281226E7 0.0024310556210813115 0.010763093378359442 0.9975689443789186 -0.010763093378359442 0.9975689443789186 -0.010763093378359442 0.0024310556210813115 0.010763093378359442
6.646115033215589E7 0.002441367233729493 0.010921989957858294 0.9975586327662703 -0.010921989957858294 0.9975586327662703 -0.010921989957858294 0.002441367233729493 0.010921989957858294
6.746414238367817E7 0.0024519040797355584 0.011083170025012714 0.9975480959202646 -0.011083170025012716 0.9975480959202646 -0.011083170025012716 0.0024519040797355584 0.011083170025012714
6.848227099318038E7 0.0024626694312616954 0.011246665469190672 0.9975373305687384 -0.011246665469190672 0.9975373305687384 -0.011246665469190672 0.0024626694312616954 0.011246665469190672
6.951576459256999E7 0.0024736665602218375 0.01141250866850141 0.9975263334397781 -0.01141250866850141 0.9975263334397781 -0.01141250866850141 0.0024736665602218375 0.01141250866850141
7.056485506111258E7 0.00248489873857161 0.01158073250133137 0.9975151012614284 -0.01158073250133137 0.9975151012614284 -0.01158073250133137 0.00248489873857161 0.01158073250133137
7.162977777745734E7 0.002496369238846648 0.011751370358198338 0.9975036307611533 -0.01175137035819834 0.9975036307611533 -0.01175137035819834 0.002496369238846648 0.011751370358198338
7.271077167244768E7 0.0025080813349682043 0.011924456153919785 0.997491918665032 -0.011924456153919783 0.997491918665032 -0.011924456153919783 0.0025080813349682043 0.011924456153919785
7.380807928272885E7 0.0025200383033351743 0.012100024340090174 0.997479961696665 -0.012100024340090176 0.997479961696665 -0.012100024340090176 0.0025200383033351743 0.012100024340090174
7.492194680516452E7 0.002532243424221592 0.012278109917860738 0.9974677565757785 -0.012278109917860738 0.9974677565757785 -0.012278109917860738 0.002532243424221592 0.012278109917860738
7.60526241520746E7 0.002544699983498636 0.012458748451013914 0.9974553000165012 -0.012458748451013914 0.9974553000165012 -0.012458748451013914 0.002544699983498636 0.012458748451013914
7.720036500730675E7 0.0025574112746999623 0.012641976079323302 0.9974425887253001 -0.012641976079323302 0.9974425887253001 -0.012641976079323302 0.0025574112746999623 0.012641976079323302
7.836542688315398E7 0.002570380601448879 0.01282782953218864 0.9974296193985511 -0.01282782953218864 0.9974296193985511 -0.01282782953218864 0.002570380601448879 0.01282782953218864
7.954807117813127E7 0.0025836112802654983 0.013016346142533927 0.9974163887197344 -0.013016346142533927 0.9974163887197344 -0.013016346142533927 0.0025836112802654983 0.013016346142533927
8.074856323562416E7 0.00259710664377147 0.013207563860955647 0.9974028933562287 -0.013207563860955647 0.9974028933562287 -0.013207563860955647 0.00259710664377147 0.013207563860955647
8.196717240342227E7 0.0026108700443092333 0.013401521270106409 0.9973891299556908 -0.013401521270106409 0.9973891299556908 -0.013401521270106409 0.0026108700443092333 0.013401521270106409
8.320417209415154E7 0.0026249048579920086 0.013598257599298426 0.9973750951420081 -0.013598257599298426 0.9973750951420081 -0.013598257599298426 0.0026249048579920086 0.013598257599298426
8.445983984661816E7 0.0026392144891998347 0.013797812739309658 0.9973607855108001 -0.013797812739309658 0.9973607855108001 -0.013797812739309658 0.0026392144891998347 0.013797812739309658
8.573445738807854E7 0.0026538023755360196 0.014000227257374492 0.9973461976244641 -0.01400022725737449 0.9973461976244641 -0.01400022725737449 0.0026538023755360196 0.014000227257374492
8.702831069744885E7 0.0026686719932572044 0.014205542412339558 0.9973313280067427 -0.014205542412339558 0.9973313280067427 -0.014205542412339558 0.0026686719932572044 0.014205542412339558
8.834169006946853E7 0.0026838268631890643 0.014413800169964294 0.9973161731368111 -0.014413800169964294 0.9973161731368111 -0.014413800169964294 0.0026838268631890643 0.014413800169964294
8.96748901798321E7 0.0026992705571383616 0.014625043218344892 0.9973007294428616 -0.014625043218344892 0.9973007294428616 -0.014625043218344892 0.0026992705571383616 0.014625043218344892
9.1028210151304E7 0.0027150067048106116 0.014839314983439406 0.9972849932951895 -0.014839314983439406 0.9972849932951895 -0.014839314983439406 0.0027150067048106116 0.014839314983439406
9.240195362083109E7 0.002731039001241124 0.015056659644670957 0.997268960998759 -0.015056659644670957 0.997268960998759 -0.015056659644670957 0.002731039001241124 0.015056659644670957
9.379642880766791E7 0.002747371214745639 0.015277122150585557 0.9972526287852544 -0.01527712215058556 0.9972526287852544 -0.01527712215058556 0.002747371214745639 0.015277122150585557
9.521194858253023E7 0.00276400719539499 0.015500748234540134 0.9972359928046051 -0.015500748234540134 0.9972359928046051 -0.015500748234540134 0.00276400719539499 0.015500748234540134
9.664883053779216E7 0.0027809508840166883 0.01572758443039663 0.9972190491159832 -0.01572758443039663 0.9972190491159832 -0.01572758443039663 0.0027809508840166883 0.01572758443039663
9.810739705874248E7 0.0027982063217243344 0.015957678088197088 0.9972017936782755 -0.015957678088197088 0.9972017936782755 -0.015957678088197088 0.0027982063217243344 0.015957678088197088
9.958797539591652E7 0.002815777659974134 0.01619107738979515 0.9971842223400258 -0.01619107738979515 0.9971842223400258 -0.01619107738979515 0.002815777659974134 0.01619107738979515
1.0109089773851961E8 0.002833669171145855 0.016427831364419162 0.997166330828854 -0.01642783136441916 0.997166330828854 -0.01642783136441916 0.002833669171145855 0.016427831364419162
1.0261650128895843E8 0.00285188525964376 0.016667989904142498 0.9971481147403564 -0.0166679899041425 0.9971481147403564 -0.0166679899041425 0.00285188525964376 0.016667989904142498
1.0416512833849736E8 0.0028704304735111953 0.016911603779236967 0.9971295695264888 -0.016911603779236964 0.9971295695264888 -0.016911603779236964 0.0028704304735111953 0.016911603779236967
1.0573712634405641E8 0.002889309516550779 0.01715872465338596 0.9971106904834492 -0.017158724653385957 0.9971106904834492 -0.017158724653385957 0.002889309516550779 0.01715872465338596
1.0733284800616828E8 0.002908527260940235 0.017409405098734496 0.99709147273906 -0.017409405098734496 0.99709147273906 -0.017409405098734496 0.002908527260940235 0.017409405098734496
1.0895265134811176E8 0.0029280887603323454 0.017663698610754553 0.9970719112396675 -0.017663698610754553 0.9970719112396675 -0.017663698610754553 0.0029280887603323454 0.017663698610754553
1.1059689979623953E8 0.002947999263425763 0.017921659622904724 0.9970520007365741 -0.01792165962290472 0.9970520007365741 -0.01792165962290472 0.002947999263425763 0.017921659622904724
1.1226596226151802E8 0.0029682642279919196 0.01818334352106491 0.997031735772008 -0.01818334352106491 0.997031735772008 -0.01818334352106491 0.0029682642279919196 0.01818334352106491
1.1396021322229806E8 0.002988889335341767 0.01844880665772777 0.9970111106646581 -0.01844880665772777 0.9970111106646581 -0.01844880665772777 0.002988889335341767 0.01844880665772777
1.1568003280833441E8 0.003009880505214842 0.01871810636593033 0.9969901194947851 -0.018718106365930326 0.9969901194947851 -0.018718106365930326 0.003009880505214842 0.01871810636593033
1.1742580688607343E8 0.003031243911071842 0.01899130097291078 0.996968756088928 -0.018991300972910775 0.996968756088928 -0.018991300972910775 0.003031243911071842 0.01899130097291078
1.1919792714522783E8 0.0030529859957709156 0.019268449813477168 0.9969470140042291 -0.019268449813477164 0.9969470140042291 -0.019268449813477164 0.0030529859957709156 0.019268449813477168
1.2099679118665792E8 0.0030751134876069305 0.019549613243076514 0.9969248865123931 -0.019549613243076514 0.9969248865123931 -0.019549613243076514 0.0030751134876069305 0.019549613243076514
1.2282280261157903E8 0.0030976334166922625 0.01983485265055499 0.9969023665833076 -0.01983485265055499 0.9969023665833076 -0.01983485265055499 0.0030976334166922625 0.01983485265055499
1.2467637111211549E8 0.003120553131657057 0.020124230470601603 0.9968794468683428 -0.020124230470601603 0.9968794468683428 -0.020124230470601603 0.003120553131657057 0.020124230470601603
1.265579125632208E8 0.0031438803166465366 0.020417810195869808 0.9968561196833535 -0.020417810195869808 0.9968561196833535 -0.020417810195869808 0.0031438803166465366 0.020417810195869808
1.284678491159853E8 0.00316762300859274 0.02071565638877406 0.9968323769914075 -0.020715656388774064 0.9968323769914075 -0.020715656388774064 0.00316762300859274 0.02071565638877406
1.3040660929235186E8 0.0031917896147380244 0.021017834692959706 0.9968082103852619 -0.021017834692959703 0.9968082103852619 -0.021017834692959703 0.0031917896147380244 0.021017834692959706
1.3237462808126101E8 0.0032163889303878502 0.021324411844447295 0.9967836110696123 -0.021324411844447295 0.9967836110696123 -0.021324411844447295 0.0032163889303878502 0.021324411844447295
1.3437234703624701E8 0.003241430156870718 0.021635455682454247 0.9967585698431294 -0.021635455682454247 0.9967585698431294 -0.021635455682454247 0.003241430156870718 0.021635455682454247
1.364002143745067E8 0.003266922919683687 0.021951035159898945 0.9967330770803163 -0.02195103515989895 0.9967330770803163 -0.02195103515989895 0.003266922919683687 0.021951035159898945
1.3845868507746372E8 0.003292877286802588 0.0222712203535943 0.9967071227131975 -0.0222712203535943 0.9967071227131975 -0.0222712203535943 0.003292877286802588 0.0222712203535943
1.405482209928499E8 0.0033193037871369403 0.022596082474139648 0.9966806962128629 -0.022596082474139648 0.9966806962128629 -0.022596082474139648 0.0033193037871369403 0.022596082474139648
1.426692909383278E8 0.0033462134291107337 0.022925693875522266 0.9966537865708891 -0.022925693875522266 0.9966537865708891 -0.022925693875522266 0.0033462134291107337 0.022925693875522266
1.4482237080667645E8 0.003373617719351268 0.023260128064440545 0.9966263822806486 -0.023260128064440545 0.9966263822806486 -0.023260128064440545 0.003373617719351268 0.023260128064440545
1.4700794367256513E8 0.003401528681469829 0.023599459709363734 0.99659847131853 -0.023599459709363734 0.99659847131853 -0.023599459709363734 0.003401528681469829 0.023599459709363734
1.492264999009378E8 0.0034299588749193 0.023943764649343627 0.9965700411250806 -0.023943764649343623 0.9965700411250806 -0.023943764649343623 0.0034299588749193 0.023943764649343627
1.5147853725703382E8 0.003458921413915513 0.024293119902595653 0.9965410785860846 -0.024293119902595653 0.9965410785860846 -0.024293119902595653 0.003458921413915513 0.024293119902595653
1.5376456101806876E8 0.0034884299864108913 0.024647603674867964 0.9965115700135891 -0.024647603674867964 0.9965115700135891 -0.024647603674867964 0.0034884299864108913 0.024647603674867964
1.5608508408660066E8 0.003518498873110649 0.025007295367617755 0.9964815011268894 -0.025007295367617755 0.9964815011268894 -0.025007295367617755 0.003518498873110649 0.025007295367617755
1.5844062710560706E8 0.0035491429665238565 0.025372275586015843 0.9964508570334762 -0.025372275586015843 0.9964508570334762 -0.025372275586015843 0.0035491429665238565 0.025372275586015843
1.6083171857529896E8 0.0035803777900435068 0.02574262614680051 0.9964196222099564 -0.025742626146800517 0.9964196222099564 -0.025742626146800517 0.0035803777900435068 0.02574262614680051
1.632588949716973E8 0.003612219517051813 0.026118430086002863 0.9963877804829482 -0.026118430086002863 0.9963877804829482 -0.026118430086002863 0.003612219517051813 0.026118430086002863
1.6572270086699936E8 0.0036446849900489513 0.026499771666565912 0.996355315009951 -0.026499771666565905 0.996355315009951 -0.026499771666565905 0.0036446849900489513 0.026499771666565912
1.6822368905176118E8 0.0036777917398055256 0.026886736385880374 0.9963222082601944 -0.026886736385880367 0.9963222082601944 -0.026886736385880367 0.0036777917398055256 0.026886736385880374
1.7076242065892437E8 0.0037115580045410904 0.027279410983259925 0.9962884419954587 -0.027279410983259925 0.9962884419954587 -0.027279410983259925 0.0037115580045410904 0.027279410983259925
1.7333946528971428E8 0.003746002749133081 0.02767788344737903 0.996253997250867 -0.02767788344737903 0.996253997250867 -0.02767788344737903 0.003746002749133081 0.02767788344737903
1.7595540114143828E8 0.0037811456843625424 0.028082243023695778 0.9962188543156374 -0.028082243023695778 0.9962188543156374 -0.028082243023695778 0.0037811456843625424 0.028082243023695778
1.786108151372127E8 0.003817007286204911 0.02849258022188246 0.9961829927137951 -0.02849258022188246 0.9961829927137951 -0.02849258022188246 0.003817007286204911 0.02849258022188246
1.8130630305764765E8 0.0038536088151761754 0.02890898682328577 0.9961463911848237 -0.02890898682328577 0.9961463911848237 -0.02890898682328577 0.0038536088151761754 0.02890898682328577
1.840424696745189E8 0.0038909723357464054 0.02933155588843802 0.9961090276642534 -0.02933155588843802 0.9961090276642534 -0.02933155588843802 0.0038909723357464054 0.02933155588843802
1.8681992888645732E8 0.003929120735834574 0.029760381764640267 0.9960708792641654 -0.02976038176464026 0.9960708792641654 -0.02976038176464026 0.003929120735834574 0.029760381764640267
1.8963930385668582E8 0.003968077746400108 0.030195560093637098 0.9960319222535997 -0.030195560093637098 0.9960319222535997 -0.030195560093637098 0.003968077746400108 0.030195560093637098
1.92501227152835E8 0.004007867961148406 0.030637187819402566 0.9959921320388515 -0.030637187819402566 0.9959921320388515 -0.030637187819402566 0.004007867961148406 0.030637187819402566
1.9540634088886917E8 0.004048516856368867 0.03108536319605488 0.9959514831436311 -0.03108536319605488 0.9959514831436311 -0.03108536319605488 0.004048516856368867 0.03108536319605488
1.983552968691535E8 0.004090050810925504 0.031540185795917344 0.9959099491890746 -0.031540185795917344 0.9959099491890746 -0.031540185795917344 0.004090050810925504 0.031540185795917344
2.0134875673469606E8 0.004132497126421517 0.0320017565177416 0.9958675028735785 -0.0320017565177416 0.9958675028735785 -0.0320017565177416 0.004132497126421517 0.0320017565177416
2.0438739211159652E8 0.004175884047560267 0.03247017759510754 0.9958241159524398 -0.032470177595107536 0.9958241159524398 -0.032470177595107536 0.004175884047560267 0.03247017759510754
2.074718847617352E8 0.004220240782726421 0.032945552605014396 0.9957797592172737 -0.032945552605014396 0.9957797592172737 -0.032945552605014396 0.004220240782726421 0.032945552605014396
2.106029267357361E8 0.004265597524811767 0.03342798647667467 0.9957344024751882 -0.03342798647667467 0.9957344024751882 -0.03342798647667467 0.004265597524811767 0.03342798647667467
2.1378122052823865E8 0.004311985472311337 0.033917585500523 0.9956880145276886 -0.033917585500523 0.9956880145276886 -0.033917585500523 0.004311985472311337 0.033917585500523
2.1700747923551247E8 0.004359436850716079 0.03441445733744952 0.995640563149284 -0.03441445733744952 0.995640563149284 -0.03441445733744952 0.004359436850716079 0.03441445733744952
2.2028242671545094E8 0.004407984934229167 0.03491871102826702 0.9955920150657708 -0.034918711028267026 0.9955920150657708 -0.034918711028267026 0.004407984934229167 0.03491871102826702
2.23606797749979E8 0.00445766406783361 0.03543045700341956 0.9955423359321665 -0.03543045700341957 0.9955423359321665 -0.03543045700341957 0.00445766406783361 0.03543045700341956
2.2698133820991236E8 0.004508509689739309 0.03594980709293917 0.9954914903102606 -0.035949807092939164 0.9954914903102606 -0.035949807092939164 0.004508509689739309 0.03594980709293917
2.3040680522230446E8 0.004560558354238317 0.03647687453665635 0.9954394416457615 -0.036476874536656344 0.9954394416457615 -0.036476874536656344 0.004560558354238317 0.03647687453665635
2.338839673403185E8 0.004613847754997307 0.037011773994668644 0.9953861522450027 -0.037011773994668644 0.9953861522450027 -0.037011773994668644 0.004613847754997307 0.037011773994668644
2.37413604715664E8 0.00466841674881679 0.03755462155807112 0.9953315832511832 -0.03755462155807112 0.9953315832511832 -0.03755462155807112 0.00466841674881679 0.03755462155807112
