!Murata Part Number: LQP15MN1N2W02
!These Parameters are Measured in Series Mode Connection
!       o--[Z]--o
!Port1              Port2
!       o-------o
!
!Freq. Start=50[MHz] Stop=20[GHz], 401[Steps]
# Hz S RI R 50
!Freq.(Hz) S11(Real) S11(Imag) S21(Real) S21(Imag) S12(Real) S12(Imag) S22(Real) S22(Imag)
5.0E7 2.0563730479033874E-4 0.002657243608611603 0.9997943626952097 -0.002657243608611603 0.9997943626952097 -0.002657243608611603 2.0563730479033874E-4 0.002657243608611603
5.0754570186123446E7 2.064035128315134E-4 0.0026972487519102356 0.9997935964871685 -0.002697248751910235 0.9997935964871685 -0.002697248751910235 2.064035128315134E-4 0.0026972487519102356
5.152052789556263E7 2.0719199726650423E-4 0.0027378533871942516 0.9997928080027335 -0.002737853387194252 0.9997928080027335 -0.002737853387194252 2.0719199726650423E-4 0.0027378533871942516
5.229804498202928E7 2.0800337544216727E-4 0.0027790663807501477 0.999791996624558 -0.0027790663807501477 0.999791996624558 -0.0027790663807501477 2.0800337544216727E-4 0.0027790663807501477
5.308729589274893E7 2.0883828005261034E-4 0.002820896725386271 0.9997911617199471 -0.002820896725386271 0.9997911617199471 -0.002820896725386271 2.0883828005261034E-4 0.002820896725386271
5.388845770760058E7 2.096973594193477E-4 0.0028633535420810635 0.9997903026405806 -0.002863353542081063 0.9997903026405806 -0.002863353542081063 2.096973594193477E-4 0.0028633535420810635
5.470171017884717E7 2.1058127777060857E-4 0.002906446081649206 0.9997894187222294 -0.002906446081649206 0.9997894187222294 -0.002906446081649206 2.1058127777060857E-4 0.002906446081649206
5.5527235771465644E7 2.1149071551937232E-4 0.0029501837264259635 0.9997885092844807 -0.002950183726425964 0.9997885092844807 -0.002950183726425964 2.1149071551937232E-4 0.0029501837264259635
5.6365219704085544E7 2.1242636953968118E-4 0.002994575991969999 0.9997875736304602 -0.002994575991969999 0.9997875736304602 -0.002994575991969999 2.1242636953968118E-4 0.002994575991969999
5.721584999054556E7 2.133889534407602E-4 0.0030396325287850075 0.9997866110465591 -0.0030396325287850075 0.9997866110465591 -0.0030396325287850075 2.133889534407602E-4 0.0030396325287850075
5.807931748207712E7 2.1437919783844298E-4 0.0030853631240604857 0.9997856208021614 -0.0030853631240604857 0.9997856208021614 -0.0030853631240604857 2.1437919783844298E-4 0.0030853631240604857
5.8955815910124585E7 2.153978506233865E-4 0.0031317777034320453 0.9997846021493765 -0.0031317777034320453 0.9997846021493765 -0.0031317777034320453 2.153978506233865E-4 0.0031317777034320453
5.984554192981184E7 2.1644567722552653E-4 0.003178886332761672 0.9997835543227745 -0.003178886332761672 0.9997835543227745 -0.003178886332761672 2.1644567722552653E-4 0.003178886332761672
6.074869516406457E7 2.1752346087420272E-4 0.0032266992199383344 0.9997824765391259 -0.003226699219938334 0.9997824765391259 -0.003226699219938334 2.1752346087420272E-4 0.0032266992199383344
6.166547824839868E7 2.1863200285336256E-4 0.003275226716699505 0.9997813679971466 -0.003275226716699505 0.9997813679971466 -0.003275226716699505 2.1863200285336256E-4 0.003275226716699505
6.2596096876384385E7 2.1977212275122064E-4 0.0033244793204740253 0.9997802278772489 -0.0033244793204740253 0.9997802278772489 -0.0033244793204740253 2.1977212275122064E-4 0.0033244793204740253
6.354075984579668E7 2.2094465870373386E-4 0.0033744676762469277 0.9997790553412963 -0.0033744676762469277 0.9997790553412963 -0.0033744676762469277 2.2094465870373386E-4 0.0033744676762469277
6.449967910546205E7 2.221504676312273E-4 0.003425202578446815 0.9997778495323688 -0.003425202578446815 0.9997778495323688 -0.003425202578446815 2.221504676312273E-4 0.003425202578446815
6.547306980281226E7 2.2339042546748027E-4 0.0034766949728564246 0.9997766095745326 -0.003476694972856425 0.9997766095745326 -0.003476694972856425 2.2339042546748027E-4 0.0034766949728564246
6.646115033215589E7 2.246654273805674E-4 0.0035289559585471434 0.9997753345726195 -0.003528955958547144 0.9997753345726195 -0.003528955958547144 2.246654273805674E-4 0.0035289559585471434
6.746414238367817E7 2.2597638798472038E-4 0.003581996789838158 0.9997740236120152 -0.003581996789838159 0.9997740236120152 -0.003581996789838159 2.2597638798472038E-4 0.003581996789838158
6.848227099318038E7 2.27324241542466E-4 0.003635828878281125 0.9997726757584576 -0.003635828878281125 0.9997726757584576 -0.003635828878281125 2.27324241542466E-4 0.003635828878281125
6.951576459256999E7 2.2870994215627125E-4 0.0036904637946712036 0.9997712900578435 -0.0036904637946712036 0.9997712900578435 -0.0036904637946712036 2.2870994215627125E-4 0.0036904637946712036
7.056485506111258E7 2.301344639489176E-4 0.0037459132710854328 0.9997698655360513 -0.0037459132710854328 0.9997698655360513 -0.0037459132710854328 2.301344639489176E-4 0.0037459132710854328
7.162977777745734E7 2.3159880123180458E-4 0.003802189202949424 0.9997684011987681 -0.003802189202949424 0.9997684011987681 -0.003802189202949424 2.3159880123180458E-4 0.003802189202949424
7.271077167244768E7 2.3310396866038435E-4 0.0038593036511335188 0.9997668960313395 -0.0038593036511335188 0.9997668960313395 -0.0038593036511335188 2.3310396866038435E-4 0.0038593036511335188
7.380807928272885E7 2.3465100137590452E-4 0.003917268844079513 0.999765348998624 -0.003917268844079513 0.999765348998624 -0.003917268844079513 2.3465100137590452E-4 0.003917268844079513
7.492194680516452E7 2.362409551326482E-4 0.003976097179959242 0.9997637590448673 -0.003976097179959242 0.9997637590448673 -0.003976097179959242 2.362409551326482E-4 0.003976097179959242
7.60526241520746E7 2.3787490640984695E-4 0.004035801228866358 0.9997621250935902 -0.004035801228866358 0.9997621250935902 -0.004035801228866358 2.3787490640984695E-4 0.004035801228866358
7.720036500730675E7 2.395539525074471E-4 0.004096393735042676 0.9997604460474926 -0.004096393735042676 0.9997604460474926 -0.004096393735042676 2.395539525074471E-4 0.004096393735042676
7.836542688315398E7 2.4127921162492137E-4 0.0041578876191406535 0.999758720788375 -0.0041578876191406535 0.999758720788375 -0.0041578876191406535 2.4127921162492137E-4 0.0041578876191406535
7.954807117813127E7 2.430518229223217E-4 0.004220295980523587 0.9997569481770777 -0.004220295980523587 0.9997569481770777 -0.004220295980523587 2.430518229223217E-4 0.004220295980523587
8.074856323562416E7 2.4487294656279026E-4 0.004283632099605228 0.9997551270534373 -0.004283632099605228 0.9997551270534373 -0.004283632099605228 2.4487294656279026E-4 0.004283632099605228
8.196717240342227E7 2.467437637357649E-4 0.0043479094402306415 0.9997532562362642 -0.0043479094402306415 0.9997532562362642 -0.0043479094402306415 2.467437637357649E-4 0.0043479094402306415
8.320417209415154E7 2.486654766601429E-4 0.004413141652100231 0.9997513345233399 -0.004413141652100231 0.9997513345233399 -0.004413141652100231 2.486654766601429E-4 0.004413141652100231
8.445983984661816E7 2.506393085667039E-4 0.004479342573238934 0.9997493606914333 -0.004479342573238934 0.9997493606914333 -0.004479342573238934 2.506393085667039E-4 0.004479342573238934
8.573445738807854E7 2.526665036591271E-4 0.004546526232512748 0.999747333496341 -0.004546526232512748 0.999747333496341 -0.004546526232512748 2.526665036591271E-4 0.004546526232512748
8.702831069744885E7 2.547483270529958E-4 0.004614706852194846 0.9997452516729468 -0.0046147068521948465 0.9997452516729468 -0.0046147068521948465 2.547483270529958E-4 0.004614706852194846
8.834169006946853E7 2.5688606469222934E-4 0.004683898850583638 0.9997431139353079 -0.004683898850583638 0.9997431139353079 -0.004683898850583638 2.5688606469222934E-4 0.004683898850583638
8.96748901798321E7 2.590810232424514E-4 0.004754116844675272 0.9997409189767575 -0.004754116844675272 0.9997409189767575 -0.004754116844675272 2.590810232424514E-4 0.004754116844675272
9.1028210151304E7 2.6133452996088063E-4 0.004825375652893229 0.9997386654700392 -0.004825375652893229 0.9997386654700392 -0.004825375652893229 2.6133452996088063E-4 0.004825375652893229
9.240195362083109E7 2.636479325424025E-4 0.0048976902978776805 0.9997363520674576 -0.0048976902978776805 0.9997363520674576 -0.0048976902978776805 2.636479325424025E-4 0.0048976902978776805
9.379642880766791E7 2.660225989415876E-4 0.004971076009337542 0.9997339774010585 -0.004971076009337542 0.9997339774010585 -0.004971076009337542 2.660225989415876E-4 0.004971076009337542
9.521194858253023E7 2.684599171705106E-4 0.005045548226968137 0.9997315400828295 -0.005045548226968137 0.9997315400828295 -0.005045548226968137 2.684599171705106E-4 0.005045548226968137
9.664883053779216E7 2.7096129507235133E-4 0.0051211226034376545 0.9997290387049275 -0.0051211226034376545 0.9997290387049275 -0.0051211226034376545 2.7096129507235133E-4 0.0051211226034376545
9.810739705874248E7 2.735281600708742E-4 0.005197815007445536 0.9997264718399291 -0.005197815007445536 0.9997264718399291 -0.005197815007445536 2.735281600708742E-4 0.005197815007445536
9.958797539591652E7 2.7616195889602267E-4 0.005275641526856207 0.9997238380411038 -0.005275641526856208 0.9997238380411038 -0.005275641526856208 2.7616195889602267E-4 0.005275641526856207
1.0109089773851961E8 2.788641572860208E-4 0.005354618471911604 0.9997211358427138 -0.005354618471911604 0.9997211358427138 -0.005354618471911604 2.788641572860208E-4 0.005354618471911604
1.0261650128895843E8 2.816362396665195E-4 0.005434762378526023 0.9997183637603334 -0.005434762378526022 0.9997183637603334 -0.005434762378526022 2.816362396665195E-4 0.005434762378526023
1.0416512833849736E8 2.8447970880751564E-4 0.005516090011667015 0.9997155202911924 -0.005516090011667015 0.9997155202911924 -0.005516090011667015 2.8447970880751564E-4 0.005516090011667015
1.0573712634405641E8 2.873960854589465E-4 0.005598618368826103 0.9997126039145411 -0.005598618368826102 0.9997126039145411 -0.005598618368826102 2.873960854589465E-4 0.005598618368826103
1.0733284800616828E8 2.9038690796606416E-4 0.005682364683583146 0.9997096130920339 -0.005682364683583146 0.9997096130920339 -0.005682364683583146 2.9038690796606416E-4 0.005682364683583146
1.0895265134811176E8 2.93453731865909E-4 0.005767346429268359 0.999706546268134 -0.005767346429268358 0.999706546268134 -0.005767346429268358 2.93453731865909E-4 0.005767346429268359
1.1059689979623953E8 2.9659812946642166E-4 0.005853581322725998 0.9997034018705337 -0.005853581322725999 0.9997034018705337 -0.005853581322725999 2.9659812946642166E-4 0.005853581322725998
1.1226596226151802E8 2.998216894099713E-4 0.00594108732818379 0.99970017831059 -0.00594108732818379 0.99970017831059 -0.00594108732818379 2.998216894099713E-4 0.00594108732818379
1.1396021322229806E8 3.0312601622332804E-4 0.006029882661232291 0.9996968739837768 -0.0060298826612322914 0.9996968739837768 -0.0060298826612322914 3.0312601622332804E-4 0.006029882661232291
1.1568003280833441E8 3.0651272985636403E-4 0.006119985792918289 0.9996934872701437 -0.00611998579291829 0.9996934872701437 -0.00611998579291829 3.0651272985636403E-4 0.006119985792918289
1.1742580688607343E8 3.0998346521204906E-4 0.0062114154539565595 0.999690016534788 -0.0062114154539565595 0.999690016534788 -0.0062114154539565595 3.0998346521204906E-4 0.0062114154539565595
1.1919792714522783E8 3.1353987167057697E-4 0.006304190639064091 0.9996864601283293 -0.006304190639064092 0.9996864601283293 -0.006304190639064092 3.1353987167057697E-4 0.006304190639064091
1.2099679118665792E8 3.1718361261076183E-4 0.006398330611421026 0.9996828163873894 -0.006398330611421026 0.9996828163873894 -0.006398330611421026 3.1718361261076183E-4 0.006398330611421026
1.2282280261157903E8 3.2091636493214E-4 0.006493854907262496 0.9996790836350679 -0.006493854907262496 0.9996790836350679 -0.006493854907262496 3.2091636493214E-4 0.006493854907262496
1.2467637111211549E8 3.2473981858152455E-4 0.006590783340605466 0.9996752601814183 -0.006590783340605466 0.9996752601814183 -0.006590783340605466 3.2473981858152455E-4 0.006590783340605466
1.265579125632208E8 3.2865567608807275E-4 0.006689136008114625 0.9996713443239119 -0.006689136008114625 0.9996713443239119 -0.006689136008114625 3.2865567608807275E-4 0.006689136008114625
1.284678491159853E8 3.326656521112506E-4 0.006788933294111268 0.9996673343478888 -0.006788933294111268 0.9996673343478888 -0.006788933294111268 3.326656521112506E-4 0.006788933294111268
1.3040660929235186E8 3.3677147300640074E-4 0.006890195875729044 0.9996632285269936 -0.006890195875729046 0.9996632285269936 -0.006890195875729046 3.3677147300640074E-4 0.006890195875729044
1.3237462808126101E8 3.409748764129453E-4 0.006992944728220202 0.9996590251235871 -0.006992944728220202 0.9996590251235871 -0.006992944728220202 3.409748764129453E-4 0.006992944728220202
1.3437234703624701E8 3.452776108705842E-4 0.007097201130415901 0.9996547223891296 -0.007097201130415901 0.9996547223891296 -0.007097201130415901 3.452776108705842E-4 0.007097201130415901
1.364002143745067E8 3.496814354691625E-4 0.0072029866703437855 0.9996503185645309 -0.0072029866703437855 0.9996503185645309 -0.0072029866703437855 3.496814354691625E-4 0.0072029866703437855
1.3845868507746372E8 3.5418811953821723E-4 0.007310323251006106 0.9996458118804616 -0.007310323251006106 0.9996458118804616 -0.007310323251006106 3.5418811953821723E-4 0.007310323251006106
1.405482209928499E8 3.5879944238249785E-4 0.007419233096320973 0.9996412005576175 -0.007419233096320973 0.9996412005576175 -0.007419233096320973 3.5879944238249785E-4 0.007419233096320973
1.426692909383278E8 3.6351719307008466E-4 0.007529738757229472 0.99963648280693 -0.007529738757229472 0.99963648280693 -0.007529738757229472 3.6351719307008466E-4 0.007529738757229472
1.4482237080667645E8 3.6834317027998996E-4 0.007641863117970736 0.99963165682972 -0.007641863117970738 0.99963165682972 -0.007641863117970738 3.6834317027998996E-4 0.007641863117970736
1.4700794367256513E8 3.7327918221642464E-4 0.007755629402526938 0.9996267208177836 -0.007755629402526938 0.9996267208177836 -0.007755629402526938 3.7327918221642464E-4 0.007755629402526938
1.492264999009378E8 3.783270465971444E-4 0.007871061181239614 0.9996216729534027 -0.007871061181239614 0.9996216729534027 -0.007871061181239614 3.783270465971444E-4 0.007871061181239614
1.5147853725703382E8 3.8348859072354107E-4 0.0079881823775985 0.9996165114092765 -0.0079881823775985 0.9996165114092765 -0.0079881823775985 3.8348859072354107E-4 0.0079881823775985
1.5376456101806876E8 3.8876565164033984E-4 0.008107017275203474 0.9996112343483595 -0.008107017275203474 0.9996112343483595 -0.008107017275203474 3.8876565164033984E-4 0.008107017275203474
1.5608508408660066E8 3.9416007639295284E-4 0.008227590524899882 0.9996058399236072 -0.008227590524899882 0.9996058399236072 -0.008227590524899882 3.9416007639295284E-4 0.008227590524899882
1.5844062710560706E8 3.9967372239068174E-4 0.00834992715208687 0.9996003262776093 -0.00834992715208687 0.9996003262776093 -0.00834992715208687 3.9967372239068174E-4 0.00834992715208687
1.6083171857529896E8 4.0530845788408693E-4 0.008474052564198089 0.9995946915421159 -0.008474052564198089 0.9995946915421159 -0.008474052564198089 4.0530845788408693E-4 0.008474052564198089
1.632588949716973E8 4.110661625649113E-4 0.00859999255835332 0.999588933837435 -0.008599992558353317 0.999588933837435 -0.008599992558353317 4.110661625649113E-4 0.00859999255835332
1.6572270086699936E8 4.1694872829699795E-4 0.008727773329179315 0.9995830512717031 -0.008727773329179315 0.9995830512717031 -0.008727773329179315 4.1694872829699795E-4 0.008727773329179315
1.6822368905176118E8 4.2295805998662165E-4 0.008857421476797288 0.9995770419400133 -0.008857421476797288 0.9995770419400133 -0.008857421476797288 4.2295805998662165E-4 0.008857421476797288
1.7076242065892437E8 4.290960766006378E-4 0.008988964014974324 0.9995709039233993 -0.008988964014974324 0.9995709039233993 -0.008988964014974324 4.290960766006378E-4 0.008988964014974324
1.7333946528971428E8 4.353647123407167E-4 0.009122428379434852 0.9995646352876592 -0.009122428379434852 0.9995646352876592 -0.009122428379434852 4.353647123407167E-4 0.009122428379434852
1.7595540114143828E8 4.4176591798183263E-4 0.009257842436328363 0.9995582340820183 -0.009257842436328363 0.9995582340820183 -0.009257842436328363 4.4176591798183263E-4 0.009257842436328363
1.786108151372127E8 4.483016623829529E-4 0.009395234490848432 0.999551698337617 -0.009395234490848432 0.999551698337617 -0.009395234490848432 4.483016623829529E-4 0.009395234490848432
1.8130630305764765E8 4.549739341776459E-4 0.009534633295997925 0.9995450260658224 -0.009534633295997927 0.9995450260658224 -0.009534633295997927 4.549739341776459E-4 0.009534633295997925
1.840424696745189E8 4.6178474365202106E-4 0.009676068061494436 0.9995382152563481 -0.009676068061494436 0.9995382152563481 -0.009676068061494436 4.6178474365202106E-4 0.009676068061494436
1.8681992888645732E8 4.6873612481707175E-4 0.009819568462809626 0.9995312638751829 -0.009819568462809628 0.9995312638751829 -0.009819568462809628 4.6873612481707175E-4 0.009819568462809626
1.8963930385668582E8 4.7583013768208156E-4 0.009965164650335505 0.9995241698623177 -0.009965164650335503 0.9995241698623177 -0.009965164650335503 4.7583013768208156E-4 0.009965164650335505
1.92501227152835E8 4.8306887073531563E-4 0.010112887258670255 0.9995169311292645 -0.010112887258670255 0.9995169311292645 -0.010112887258670255 4.8306887073531563E-4 0.010112887258670255
1.9540634088886917E8 4.90454443637693E-4 0.010262767416015684 0.9995095455563623 -0.010262767416015683 0.9995095455563623 -0.010262767416015683 4.90454443637693E-4 0.010262767416015684
1.983552968691535E8 4.979890101346024E-4 0.010414836753677935 0.9995020109898654 -0.010414836753677933 0.9995020109898654 -0.010414836753677933 4.979890101346024E-4 0.010414836753677935
2.0134875673469606E8 5.05674761190411E-4 0.010569127415662766 0.9994943252388097 -0.010569127415662766 0.9994943252388097 -0.010569127415662766 5.05674761190411E-4 0.010569127415662766
2.0438739211159652E8 5.135139283495749E-4 0.010725672068356298 0.9994864860716505 -0.010725672068356298 0.9994864860716505 -0.010725672068356298 5.135139283495749E-4 0.010725672068356298
2.074718847617352E8 5.215087873275801E-4 0.010884503910281859 0.9994784912126726 -0.010884503910281859 0.9994784912126726 -0.010884503910281859 5.215087873275801E-4 0.010884503910281859
2.106029267357361E8 5.296616618342036E-4 0.011045656681923198 0.9994703383381657 -0.011045656681923198 0.9994703383381657 -0.011045656681923198 5.296616618342036E-4 0.011045656681923198
2.1378122052823865E8 5.379749276308626E-4 0.011209164675604464 0.999462025072369 -0.011209164675604464 0.999462025072369 -0.011209164675604464 5.379749276308626E-4 0.011209164675604464
2.1700747923551247E8 5.464510168230017E-4 0.01137506274541678 0.9994535489831768 -0.01137506274541678 0.9994535489831768 -0.01137506274541678 5.464510168230017E-4 0.01137506274541678
2.2028242671545094E8 5.550924223877017E-4 0.011543386317181688 0.9994449075776123 -0.011543386317181688 0.9994449075776123 -0.011543386317181688 5.550924223877017E-4 0.011543386317181688
2.23606797749979E8 5.63901702935847E-4 0.01171417139844126 0.999436098297064 -0.01171417139844126 0.999436098297064 -0.01171417139844126 5.63901702935847E-4 0.01171417139844126
2.2698133820991236E8 5.728814877073932E-4 0.011887454588465275 0.9994271185122926 -0.011887454588465277 0.9994271185122926 -0.011887454588465277 5.728814877073932E-4 0.011887454588465275
2.3040680522230446E8 5.820344817974179E-4 0.012063273088265589 0.9994179655182027 -0.012063273088265589 0.9994179655182027 -0.012063273088265589 5.820344817974179E-4 0.012063273088265589
2.338839673403185E8 5.913634716098439E-4 0.012241664710608325 0.9994086365283901 -0.012241664710608325 0.9994086365283901 -0.012241664710608325 5.913634716098439E-4 0.012241664710608325
