!Murata Part Number: LQP15MN1N0W02
!These Parameters are Measured in Series Mode Connection
!       o--[Z]--o
!Port1              Port2
!       o-------o
!
!Freq. Start=50[MHz] Stop=20[GHz], 401[Steps]
# Hz S RI R 50
!Freq.(Hz) S11(Real) S11(Imag) S21(Real) S21(Imag) S12(Real) S12(Imag) S22(Real) S22(Imag)
5.0E7 1.1411769647482953E-4 0.0019917650834508018 0.9998858823035253 -0.0019917650834508018 0.9998858823035253 -0.0019917650834508018 1.1411769647482953E-4 0.0019917650834508018
5.0754570186123446E7 1.1453953249151544E-4 0.0020217730622793355 0.9998854604675085 -0.0020217730622793355 0.9998854604675085 -0.0020217730622793355 1.1453953249151544E-4 0.0020217730622793355
5.152052789556263E7 1.149736810666026E-4 0.002052231670348609 0.9998850263189334 -0.002052231670348609 0.9998850263189334 -0.002052231670348609 1.149736810666026E-4 0.002052231670348609
5.229804498202928E7 1.1542048622717548E-4 0.002083147612397236 0.999884579513773 -0.0020831476123972354 0.999884579513773 -0.0020831476123972354 1.1542048622717548E-4 0.002083147612397236
5.308729589274893E7 1.1588030071465676E-4 0.002114527690438628 0.9998841196992853 -0.002114527690438628 0.9998841196992853 -0.002114527690438628 1.1588030071465676E-4 0.002114527690438628
5.388845770760058E7 1.1635348615340761E-4 0.002146378805085215 0.9998836465138468 -0.002146378805085215 0.9998836465138468 -0.002146378805085215 1.1635348615340761E-4 0.002146378805085215
5.470171017884717E7 1.1684041321950131E-4 0.00217870795688851 0.9998831595867806 -0.00217870795688851 0.9998831595867806 -0.00217870795688851 1.1684041321950131E-4 0.00217870795688851
5.5527235771465644E7 1.1734146180945453E-4 0.0022115222476952615 0.9998826585381905 -0.0022115222476952615 0.9998826585381905 -0.0022115222476952615 1.1734146180945453E-4 0.0022115222476952615
5.6365219704085544E7 1.1785702120868571E-4 0.0022448288820199162 0.9998821429787913 -0.0022448288820199162 0.9998821429787913 -0.0022448288820199162 1.1785702120868571E-4 0.0022448288820199162
5.721584999054556E7 1.183874902594563E-4 0.002278635168433611 0.9998816125097406 -0.002278635168433611 0.9998816125097406 -0.002278635168433611 1.183874902594563E-4 0.002278635168433611
5.807931748207712E7 1.1893327752803845E-4 0.0023129485209699686 0.9998810667224718 -0.002312948520969969 0.9998810667224718 -0.002312948520969969 1.1893327752803845E-4 0.0023129485209699686
5.8955815910124585E7 1.1949480147083506E-4 0.0023477764605479533 0.9998805051985291 -0.002347776460547953 0.9998805051985291 -0.002347776460547953 1.1949480147083506E-4 0.0023477764605479533
5.984554192981184E7 1.2007249059916577E-4 0.002383126616412069 0.9998799275094008 -0.002383126616412069 0.9998799275094008 -0.002383126616412069 1.2007249059916577E-4 0.002383126616412069
6.074869516406457E7 1.2066678364241749E-4 0.0024190067275902073 0.9998793332163576 -0.0024190067275902073 0.9998793332163576 -0.0024190067275902073 1.2066678364241749E-4 0.0024190067275902073
6.166547824839868E7 1.2127812970924111E-4 0.0024554246443694553 0.9998787218702909 -0.0024554246443694553 0.9998787218702909 -0.0024554246443694553 1.2127812970924111E-4 0.0024554246443694553
6.2596096876384385E7 1.2190698844646366E-4 0.002492388329790209 0.9998780930115535 -0.002492388329790209 0.9998780930115535 -0.002492388329790209 1.2190698844646366E-4 0.002492388329790209
6.354075984579668E7 1.2255383019536855E-4 0.002529905861158971 0.9998774461698046 -0.002529905861158971 0.9998774461698046 -0.002529905861158971 1.2255383019536855E-4 0.002529905861158971
6.449967910546205E7 1.2321913614498088E-4 0.0025679854315801822 0.9998767808638549 -0.002567985431580182 0.9998767808638549 -0.002567985431580182 1.2321913614498088E-4 0.0025679854315801822
6.547306980281226E7 1.2390339848198102E-4 0.0026066353515075322 0.9998760966015182 -0.0026066353515075322 0.9998760966015182 -0.0026066353515075322 1.2390339848198102E-4 0.0026066353515075322
6.646115033215589E7 1.2460712053685477E-4 0.0026458640503151712 0.9998753928794633 -0.0026458640503151712 0.9998753928794633 -0.0026458640503151712 1.2460712053685477E-4 0.0026458640503151712
6.746414238367817E7 1.2533081692587357E-4 0.002685680077889304 0.9998746691830742 -0.002685680077889304 0.9998746691830742 -0.002685680077889304 1.2533081692587357E-4 0.002685680077889304
6.848227099318038E7 1.2607501368848363E-4 0.0027260921062406346 0.9998739249863116 -0.0027260921062406346 0.9998739249863116 -0.0027260921062406346 1.2607501368848363E-4 0.0027260921062406346
6.951576459256999E7 1.2684024841967136E-4 0.0027671089311382424 0.9998731597515804 -0.0027671089311382424 0.9998731597515804 -0.0027671089311382424 1.2684024841967136E-4 0.0027671089311382424
7.056485506111258E7 1.2762707039685634E-4 0.0028087394737654064 0.9998723729296032 -0.0028087394737654064 0.9998723729296032 -0.0028087394737654064 1.2762707039685634E-4 0.0028087394737654064
7.162977777745734E7 1.284360407008551E-4 0.0028509927823980124 0.9998715639592992 -0.0028509927823980124 0.9998715639592992 -0.0028509927823980124 1.284360407008551E-4 0.0028509927823980124
7.271077167244768E7 1.2926773233044338E-4 0.0028938780341061805 0.9998707322676695 -0.0028938780341061805 0.9998707322676695 -0.0028938780341061805 1.2926773233044338E-4 0.0028938780341061805
7.380807928272885E7 1.3012273031003804E-4 0.0029374045364797875 0.99986987726969 -0.002937404536479787 0.99986987726969 -0.002937404536479787 1.3012273031003804E-4 0.0029374045364797875
7.492194680516452E7 1.310016317900091E-4 0.0029815817293786235 0.9998689983682101 -0.0029815817293786235 0.9998689983682101 -0.0029815817293786235 1.310016317900091E-4 0.0029815817293786235
7.60526241520746E7 1.319050461391254E-4 0.0030264191867079627 0.9998680949538609 -0.0030264191867079627 0.9998680949538609 -0.0030264191867079627 1.319050461391254E-4 0.0030264191867079627
7.720036500730675E7 1.3283359502863087E-4 0.003071926618220348 0.9998671664049714 -0.003071926618220348 0.9998671664049714 -0.003071926618220348 1.3283359502863087E-4 0.003071926618220348
7.836542688315398E7 1.3378791250744616E-4 0.003118113871344496 0.9998662120874924 -0.0031181138713444957 0.9998662120874924 -0.0031181138713444957 1.3378791250744616E-4 0.003118113871344496
7.954807117813127E7 1.3476864506798726E-4 0.003164990933042237 0.9998652313549321 -0.003164990933042237 0.9998652313549321 -0.003164990933042237 1.3476864506798726E-4 0.003164990933042237
8.074856323562416E7 1.3577645170209117E-4 0.003212567931694458 0.9998642235482978 -0.003212567931694458 0.9998642235482978 -0.003212567931694458 1.3577645170209117E-4 0.003212567931694458
8.196717240342227E7 1.368120039465467E-4 0.0032608551390171324 0.9998631879960536 -0.0032608551390171324 0.9998631879960536 -0.0032608551390171324 1.368120039465467E-4 0.0032608551390171324
8.320417209415154E7 1.3787598591772805E-4 0.003309862972008498 0.9998621240140824 -0.003309862972008498 0.9998621240140824 -0.003309862972008498 1.3787598591772805E-4 0.003309862972008498
8.445983984661816E7 1.3896909433484147E-4 0.0033596019949285855 0.9998610309056651 -0.0033596019949285864 0.9998610309056651 -0.0033596019949285864 1.3896909433484147E-4 0.0033596019949285855
8.573445738807854E7 1.4009203853130586E-4 0.0034100829213123056 0.9998599079614686 -0.0034100829213123056 0.9998599079614686 -0.0034100829213123056 1.4009203853130586E-4 0.0034100829213123056
8.702831069744885E7 1.4124554045380367E-4 0.003461316616017418 0.9998587544595462 -0.003461316616017418 0.9998587544595462 -0.003461316616017418 1.4124554045380367E-4 0.003461316616017418
8.834169006946853E7 1.4243033464855762E-4 0.003513314097308736 0.9998575696653516 -0.0035133140973087366 0.9998575696653516 -0.0035133140973087366 1.4243033464855762E-4 0.003513314097308736
8.96748901798321E7 1.4364716823441224E-4 0.0035660865389800216 0.9998563528317658 -0.0035660865389800216 0.9998563528317658 -0.0035660865389800216 1.4364716823441224E-4 0.0035660865389800216
9.1028210151304E7 1.4489680086232949E-4 0.0036196452725150863 0.9998551031991377 -0.0036196452725150863 0.9998551031991377 -0.0036196452725150863 1.4489680086232949E-4 0.0036196452725150863
9.240195362083109E7 1.4618000466093525E-4 0.0036740017892896914 0.999853819995339 -0.0036740017892896914 0.999853819995339 -0.0036740017892896914 1.4618000466093525E-4 0.0036740017892896914
9.379642880766791E7 1.47497564167798E-4 0.0037291677428159266 0.9998525024358321 -0.0037291677428159266 0.9998525024358321 -0.0037291677428159266 1.47497564167798E-4 0.0037291677428159266
9.521194858253023E7 1.4885027624615818E-4 0.003785154951030776 0.999851149723754 -0.003785154951030777 0.999851149723754 -0.003785154951030777 1.4885027624615818E-4 0.003785154951030776
9.664883053779216E7 1.5023894998688106E-4 0.003841975398630778 0.999849761050013 -0.003841975398630778 0.999849761050013 -0.003841975398630778 1.5023894998688106E-4 0.003841975398630778
9.810739705874248E7 1.5166440659545682E-4 0.0038996412394546043 0.9998483355934047 -0.0038996412394546043 0.9998483355934047 -0.0038996412394546043 1.5166440659545682E-4 0.0038996412394546043
9.958797539591652E7 1.5312747926393526E-4 0.003958164798915599 0.9998468725207361 -0.003958164798915599 0.9998468725207361 -0.003958164798915599 1.5312747926393526E-4 0.003958164798915599
1.0109089773851961E8 1.5462901302775025E-4 0.004017558576486326 0.9998453709869722 -0.004017558576486326 0.9998453709869722 -0.004017558576486326 1.5462901302775025E-4 0.004017558576486326
1.0261650128895843E8 1.5616986460746372E-4 0.004077835248237276 0.9998438301353925 -0.004077835248237276 0.9998438301353925 -0.004077835248237276 1.5616986460746372E-4 0.004077835248237276
1.0416512833849736E8 1.5775090223554134E-4 0.004139007669431971 0.9998422490977644 -0.004139007669431971 0.9998422490977644 -0.004139007669431971 1.5775090223554134E-4 0.004139007669431971
1.0573712634405641E8 1.593730054683607E-4 0.004201088877180736 0.9998406269945315 -0.0042010888771807356 0.9998406269945315 -0.0042010888771807356 1.593730054683607E-4 0.004201088877180736
1.0733284800616828E8 1.6103706498375289E-4 0.004264092093155572 0.9998389629350162 -0.0042640920931555715 0.9998389629350162 -0.0042640920931555715 1.6103706498375289E-4 0.004264092093155572
1.0895265134811176E8 1.627439823644782E-4 0.004328030726368516 0.9998372560176355 -0.004328030726368516 0.9998372560176355 -0.004328030726368516 1.627439823644782E-4 0.004328030726368516
1.1059689979623953E8 1.6449466986815454E-4 0.004392918376016063 0.9998355053301317 -0.004392918376016064 0.9998355053301317 -0.004392918376016064 1.6449466986815454E-4 0.004392918376016063
1.1226596226151802E8 1.6629005018427713E-4 0.004458768834392208 0.9998337099498158 -0.004458768834392208 0.9998337099498158 -0.004458768834392208 1.6629005018427713E-4 0.004458768834392208
1.1396021322229806E8 1.681310561790922E-4 0.004525596089872743 0.999831868943821 -0.004525596089872743 0.999831868943821 -0.004525596089872743 1.681310561790922E-4 0.004525596089872743
1.1568003280833441E8 1.7001863062923289E-4 0.004593414329973536 0.9998299813693708 -0.004593414329973536 0.9998299813693708 -0.004593414329973536 1.7001863062923289E-4 0.004593414329973536
1.1742580688607343E8 1.7195372594516336E-4 0.004662237944485529 0.9998280462740547 -0.004662237944485529 0.9998280462740547 -0.004662237944485529 1.7195372594516336E-4 0.004662237944485529
1.1919792714522783E8 1.739373038856333E-4 0.0047320815286892295 0.9998260626961144 -0.0047320815286892295 0.9998260626961144 -0.0047320815286892295 1.739373038856333E-4 0.0047320815286892295
1.2099679118665792E8 1.759703352645063E-4 0.004802959886651532 0.9998240296647355 -0.004802959886651532 0.9998240296647355 -0.004802959886651532 1.759703352645063E-4 0.004802959886651532
1.2282280261157903E8 1.7805379965149252E-4 0.0048748880346077324 0.9998219462003486 -0.0048748880346077324 0.9998219462003486 -0.0048748880346077324 1.7805379965149252E-4 0.0048748880346077324
1.2467637111211549E8 1.8018868506849178E-4 0.004947881204431573 0.9998198113149316 -0.004947881204431573 0.9998198113149316 -0.004947881204431573 1.8018868506849178E-4 0.004947881204431573
1.265579125632208E8 1.8237598768343358E-4 0.005021954847196187 0.9998176240123167 -0.005021954847196187 0.9998176240123167 -0.005021954847196187 1.8237598768343358E-4 0.005021954847196187
1.284678491159853E8 1.8461671150369404E-4 0.005097124636828846 0.9998153832884963 -0.005097124636828847 0.9998153832884963 -0.005097124636828847 1.8461671150369404E-4 0.005097124636828846
1.3040660929235186E8 1.86911868071354E-4 0.005173406473862285 0.9998130881319285 -0.005173406473862284 0.9998130881319285 -0.005173406473862284 1.86911868071354E-4 0.005173406473862285
1.3237462808126101E8 1.8926247616277213E-4 0.005250816489285484 0.9998107375238371 -0.005250816489285483 0.9998107375238371 -0.005250816489285483 1.8926247616277213E-4 0.005250816489285484
1.3437234703624701E8 1.9166956149513687E-4 0.005329371048496622 0.9998083304385048 -0.005329371048496622 0.9998083304385048 -0.005329371048496622 1.9166956149513687E-4 0.005329371048496622
1.364002143745067E8 1.9413415644287902E-4 0.005409086755360939 0.9998058658435571 -0.00540908675536094 0.9998058658435571 -0.00540908675536094 1.9413415644287902E-4 0.005409086755360939
1.3845868507746372E8 1.9665729976702282E-4 0.005489980456376113 0.9998033427002331 -0.005489980456376113 0.9998033427002331 -0.005489980456376113 1.9665729976702282E-4 0.005489980456376113
1.405482209928499E8 1.9924003636076935E-4 0.0055720692449477 0.9998007599636392 -0.0055720692449477 0.9998007599636392 -0.0055720692449477 1.9924003636076935E-4 0.0055720692449477
1.426692909383278E8 2.018834170148086E-4 0.005655370465777072 0.9997981165829851 -0.005655370465777072 0.9997981165829851 -0.005655370465777072 2.018834170148086E-4 0.005655370465777072
1.4482237080667645E8 2.045884982060655E-4 0.005739901719364113 0.999795411501794 -0.005739901719364113 0.999795411501794 -0.005739901719364113 2.045884982060655E-4 0.005739901719364113
1.4700794367256513E8 2.0735634191378725E-4 0.005825680866626894 0.9997926436580864 -0.005825680866626894 0.9997926436580864 -0.005825680866626894 2.0735634191378725E-4 0.005825680866626894
1.492264999009378E8 2.1018801546707393E-4 0.005912726033640245 0.9997898119845331 -0.005912726033640245 0.9997898119845331 -0.005912726033640245 2.1018801546707393E-4 0.005912726033640245
1.5147853725703382E8 2.1308459142815205E-4 0.006001055616495106 0.9997869154085716 -0.006001055616495105 0.9997869154085716 -0.006001055616495105 2.1308459142815205E-4 0.006001055616495106
1.5376456101806876E8 2.1604714751586554E-4 0.006090688286280211 0.9997839528524841 -0.006090688286280211 0.9997839528524841 -0.006090688286280211 2.1604714751586554E-4 0.006090688286280211
1.5608508408660066E8 2.1907676657404018E-4 0.006181642994187532 0.9997809232334259 -0.006181642994187532 0.9997809232334259 -0.006181642994187532 2.1907676657404018E-4 0.006181642994187532
1.5844062710560706E8 2.221745365895325E-4 0.006273938976742647 0.9997778254634107 -0.006273938976742647 0.9997778254634107 -0.006273938976742647 2.221745365895325E-4 0.006273938976742647
1.6083171857529896E8 2.2534155076492447E-4 0.006367595761160895 0.9997746584492351 -0.006367595761160895 0.9997746584492351 -0.006367595761160895 2.2534155076492447E-4 0.006367595761160895
1.632588949716973E8 2.2857890765095882E-4 0.006462633170830002 0.9997714210923492 -0.006462633170830002 0.9997714210923492 -0.006462633170830002 2.2857890765095882E-4 0.006462633170830002
1.6572270086699936E8 2.3188771134392103E-4 0.006559071330919521 0.9997681122886561 -0.006559071330919519 0.9997681122886561 -0.006559071330919519 2.3188771134392103E-4 0.006559071330919521
1.6822368905176118E8 2.3526907175327118E-4 0.006656930674117072 0.9997647309282468 -0.006656930674117072 0.9997647309282468 -0.006656930674117072 2.3526907175327118E-4 0.006656930674117072
1.7076242065892437E8 2.3872410494490308E-4 0.0067562319464912 0.9997612758950551 -0.0067562319464911985 0.9997612758950551 -0.0067562319464911985 2.3872410494490308E-4 0.0067562319464912
1.7333946528971428E8 2.422539335654588E-4 0.006856996213480186 0.9997577460664345 -0.006856996213480187 0.9997577460664345 -0.006856996213480187 2.422539335654588E-4 0.006856996213480186
1.7595540114143828E8 2.458596873531502E-4 0.006959244866005933 0.9997541403126469 -0.006959244866005933 0.9997541403126469 -0.006959244866005933 2.458596873531502E-4 0.006959244866005933
1.786108151372127E8 2.495425037405424E-4 0.007062999626711553 0.9997504574962593 -0.007062999626711552 0.9997504574962593 -0.007062999626711552 2.495425037405424E-4 0.007062999626711553
1.8130630305764765E8 2.5330352855472535E-4 0.007168282556321167 0.9997466964714455 -0.007168282556321167 0.9997466964714455 -0.007168282556321167 2.5330352855472535E-4 0.007168282556321167
1.840424696745189E8 2.571439168202357E-4 0.0072751160601197415 0.9997428560831797 -0.007275116060119742 0.9997428560831797 -0.007275116060119742 2.571439168202357E-4 0.0072751160601197415
1.8681992888645732E8 2.6106483367001543E-4 0.007383522894550769 0.9997389351663297 -0.007383522894550768 0.9997389351663297 -0.007383522894550768 2.6106483367001543E-4 0.007383522894550769
1.8963930385668582E8 2.6506745536956125E-4 0.007493526173928965 0.9997349325446304 -0.007493526173928965 0.9997349325446304 -0.007493526173928965 2.6506745536956125E-4 0.007493526173928965
1.92501227152835E8 2.6915297045927776E-4 0.007605149377264962 0.9997308470295408 -0.007605149377264963 0.9997308470295408 -0.007605149377264963 2.6915297045927776E-4 0.007605149377264962
1.9540634088886917E8 2.7332258101985776E-4 0.007718416355198573 0.9997266774189799 -0.007718416355198573 0.9997266774189799 -0.007718416355198573 2.7332258101985776E-4 0.007718416355198573
1.983552968691535E8 2.775775040653018E-4 0.00783335133703688 0.9997224224959348 -0.00783335133703688 0.9997224224959348 -0.00783335133703688 2.775775040653018E-4 0.00783335133703688
2.0134875673469606E8 2.819189730679322E-4 0.007949978937892998 0.9997180810269319 -0.007949978937892998 0.9997180810269319 -0.007949978937892998 2.819189730679322E-4 0.007949978937892998
2.0438739211159652E8 2.863482396194909E-4 0.008068324165921214 0.9997136517603805 -0.008068324165921214 0.9997136517603805 -0.008068324165921214 2.863482396194909E-4 0.008068324165921214
2.074718847617352E8 2.908665752320833E-4 0.008188412429643759 0.9997091334247679 -0.008188412429643759 0.9997091334247679 -0.008188412429643759 2.908665752320833E-4 0.008188412429643759
2.106029267357361E8 2.9547527328239873E-4 0.008310269545364218 0.9997045247267177 -0.00831026954536422 0.9997045247267177 -0.00831026954536422 2.9547527328239873E-4 0.008310269545364218
2.1378122052823865E8 3.0017565110226945E-4 0.008433921744662513 0.9996998243488979 -0.008433921744662511 0.9996998243488979 -0.008433921744662511 3.0017565110226945E-4 0.008433921744662513
2.1700747923551247E8 3.049690522182271E-4 0.008559395681965912 0.9996950309477818 -0.008559395681965912 0.9996950309477818 -0.008559395681965912 3.049690522182271E-4 0.008559395681965912
2.2028242671545094E8 3.098568487423025E-4 0.008686718442190572 0.9996901431512577 -0.008686718442190572 0.9996901431512577 -0.008686718442190572 3.098568487423025E-4 0.008686718442190572
2.23606797749979E8 3.1484044391586944E-4 0.008815917548447837 0.9996851595560841 -0.008815917548447837 0.9996851595560841 -0.008815917548447837 3.1484044391586944E-4 0.008815917548447837
2.2698133820991236E8 3.1992127480787494E-4 0.008947020969809483 0.9996800787251923 -0.008947020969809483 0.9996800787251923 -0.008947020969809483 3.1992127480787494E-4 0.008947020969809483
2.3040680522230446E8 3.2510081516832053E-4 0.009080057129125968 0.9996748991848315 -0.009080057129125966 0.9996748991848315 -0.009080057129125966 3.2510081516832053E-4 0.009080057129125968
