!Murata Part Number: LQP15MN3N8W02
!These Parameters are Measured in Series Mode Connection
!       o--[Z]--o
!Port1              Port2
!       o-------o
!
!Freq. Start=50[MHz] Stop=20[GHz], 401[Steps]
# Hz S RI R 50
!Freq.(Hz) S11(Real) S11(Imag) S21(Real) S21(Imag) S12(Real) S12(Imag) S22(Real) S22(Imag)
5.0E7 0.0025223089262134692 0.011422254451863189 0.9974776910737866 -0.01142225445186319 0.9974776910737866 -0.01142225445186319 0.0025223089262134692 0.011422254451863189
5.0754570186123446E7 0.0025342089395145348 0.01159118713933477 0.9974657910604855 -0.01159118713933477 0.9974657910604855 -0.01159118713933477 0.0025342089395145348 0.01159118713933477
5.152052789556263E7 0.0025463943862343045 0.011762545148478009 0.9974536056137656 -0.011762545148478009 0.9974536056137656 -0.011762545148478009 0.0025463943862343045 0.011762545148478009
5.229804498202928E7 0.0025588704224581435 0.0119363614934159 0.997441129577542 -0.0119363614934159 0.997441129577542 -0.0119363614934159 0.0025588704224581435 0.0119363614934159
5.308729589274893E7 0.0025716422299122796 0.012112669638011187 0.9974283577700879 -0.012112669638011189 0.9974283577700879 -0.012112669638011189 0.0025716422299122796 0.012112669638011187
5.388845770760058E7 0.0025847150141932638 0.012291503505538827 0.9974152849858068 -0.012291503505538827 0.9974152849858068 -0.012291503505538827 0.0025847150141932638 0.012291503505538827
5.470171017884717E7 0.0025980940030726337 0.012472897488750922 0.9974019059969275 -0.012472897488750922 0.9974019059969275 -0.012472897488750922 0.0025980940030726337 0.012472897488750922
5.5527235771465644E7 0.002611784444895103 0.012656886460343953 0.9973882155551049 -0.012656886460343953 0.9973882155551049 -0.012656886460343953 0.002611784444895103 0.012656886460343953
5.6365219704085544E7 0.0026257916070896834 0.01284350578383745 0.9973742083929105 -0.01284350578383745 0.9973742083929105 -0.01284350578383745 0.0026257916070896834 0.01284350578383745
5.721584999054556E7 0.002640120774814185 0.013032791324872317 0.9973598792251858 -0.013032791324872315 0.9973598792251858 -0.013032791324872315 0.002640120774814185 0.013032791324872317
5.807931748207712E7 0.0026547772497546485 0.013224779462936214 0.9973452227502454 -0.013224779462936214 0.9973452227502454 -0.013224779462936214 0.0026547772497546485 0.013224779462936214
5.8955815910124585E7 0.0026697663491022255 0.013419507103522271 0.9973302336508978 -0.013419507103522271 0.9973302336508978 -0.013419507103522271 0.0026697663491022255 0.013419507103522271
5.984554192981184E7 0.0026850934047310416 0.013617011690726367 0.997314906595269 -0.013617011690726367 0.997314906595269 -0.013617011690726367 0.0026850934047310416 0.013617011690726367
6.074869516406457E7 0.0027007637626014465 0.013817331220286829 0.9972992362373985 -0.013817331220286829 0.9972992362373985 -0.013817331220286829 0.0027007637626014465 0.013817331220286829
6.166547824839868E7 0.0027167827824139765 0.014020504253069365 0.9972832172175862 -0.014020504253069364 0.9972832172175862 -0.014020504253069364 0.0027167827824139765 0.014020504253069365
6.2596096876384385E7 0.0027331558375400743 0.014226569928998246 0.9972668441624599 -0.014226569928998246 0.9972668441624599 -0.014226569928998246 0.0027331558375400743 0.014226569928998246
6.354075984579668E7 0.0027498883152563703 0.014435567981433592 0.9972501116847436 -0.014435567981433592 0.9972501116847436 -0.014435567981433592 0.0027498883152563703 0.014435567981433592
6.449967910546205E7 0.0027669856173098725 0.014647538751992685 0.9972330143826901 -0.014647538751992685 0.9972330143826901 -0.014647538751992685 0.0027669856173098725 0.014647538751992685
6.547306980281226E7 0.002784453160842002 0.014862523205811889 0.9972155468391581 -0.014862523205811889 0.9972155468391581 -0.014862523205811889 0.002784453160842002 0.014862523205811889
6.646115033215589E7 0.0028022963796997015 0.015080562947243605 0.9971977036203004 -0.015080562947243605 0.9971977036203004 -0.015080562947243605 0.0028022963796997015 0.015080562947243605
6.746414238367817E7 0.002820520726162199 0.015301700235981203 0.9971794792738378 -0.015301700235981203 0.9971794792738378 -0.015301700235981203 0.002820520726162199 0.015301700235981203
6.848227099318038E7 0.002839131673112083 0.015525978003602696 0.9971608683268879 -0.015525978003602696 0.9971608683268879 -0.015525978003602696 0.002839131673112083 0.015525978003602696
6.951576459256999E7 0.0028581347166793665 0.015753439870522207 0.9971418652833207 -0.015753439870522207 0.9971418652833207 -0.015753439870522207 0.0028581347166793665 0.015753439870522207
7.056485506111258E7 0.0028775353793870535 0.01598413016333603 0.9971224646206129 -0.01598413016333603 0.9971224646206129 -0.01598413016333603 0.0028775353793870535 0.01598413016333603
7.162977777745734E7 0.002897339213826387 0.01621809393254834 0.9971026607861736 -0.01621809393254834 0.9971026607861736 -0.01621809393254834 0.002897339213826387 0.01621809393254834
7.271077167244768E7 0.0029175518068895075 0.016455376970659318 0.9970824481931103 -0.016455376970659318 0.9970824481931103 -0.016455376970659318 0.0029175518068895075 0.016455376970659318
7.380807928272885E7 0.002938178784586598 0.016696025830596713 0.9970618212154134 -0.016696025830596713 0.9970618212154134 -0.016696025830596713 0.002938178784586598 0.016696025830596713
7.492194680516452E7 0.0029592258174737027 0.01694008784446935 0.9970407741825263 -0.01694008784446935 0.9970407741825263 -0.01694008784446935 0.0029592258174737027 0.01694008784446935
7.60526241520746E7 0.0029806986267165675 0.01718761114261989 0.9970193013732834 -0.01718761114261989 0.9970193013732834 -0.01718761114261989 0.0029806986267165675 0.01718761114261989
7.720036500730675E7 0.0030026029908144726 0.017438644672951285 0.9969973970091855 -0.017438644672951285 0.9969973970091855 -0.017438644672951285 0.0030026029908144726 0.017438644672951285
7.836542688315398E7 0.0030249447530068595 0.017693238220500257 0.996975055246993 -0.017693238220500257 0.996975055246993 -0.017693238220500257 0.0030249447530068595 0.017693238220500257
7.954807117813127E7 0.0030477298293839165 0.017951442427228865 0.9969522701706162 -0.01795144242722887 0.9969522701706162 -0.01795144242722887 0.0030477298293839165 0.017951442427228865
8.074856323562416E7 0.0030709642177206464 0.018213308812003764 0.9969290357822794 -0.018213308812003767 0.9969290357822794 -0.018213308812003767 0.0030709642177206464 0.018213308812003764
8.196717240342227E7 0.0030946540070520734 0.018478889790730986 0.9969053459929479 -0.01847888979073099 0.9969053459929479 -0.01847888979073099 0.0030946540070520734 0.018478889790730986
8.320417209415154E7 0.0031188053880052565 0.01874823869661299 0.9968811946119949 -0.01874823869661299 0.9968811946119949 -0.01874823869661299 0.0031188053880052565 0.01874823869661299
8.445983984661816E7 0.003143424663901543 0.019021409800492738 0.9968565753360985 -0.019021409800492738 0.9968565753360985 -0.019021409800492738 0.003143424663901543 0.019021409800492738
8.573445738807854E7 0.0031685182626403252 0.01929845833124939 0.9968314817373596 -0.019298458331249393 0.9968314817373596 -0.019298458331249393 0.0031685182626403252 0.01929845833124939
8.702831069744885E7 0.003194092749373043 0.019579440496208276 0.9968059072506271 -0.019579440496208276 0.9968059072506271 -0.019579440496208276 0.003194092749373043 0.019579440496208276
8.834169006946853E7 0.0032201548399737193 0.01986441350152776 0.9967798451600264 -0.01986441350152776 0.9967798451600264 -0.01986441350152776 0.0032201548399737193 0.01986441350152776
8.96748901798321E7 0.003246711415309671 0.020153435572524726 0.9967532885846903 -0.020153435572524723 0.9967532885846903 -0.020153435572524723 0.003246711415309671 0.020153435572524726
9.1028210151304E7 0.003273769536313403 0.020446565973900224 0.9967262304636866 -0.020446565973900224 0.9967262304636866 -0.020446565973900224 0.003273769536313403 0.020446565973900224
9.240195362083109E7 0.003301336459853912 0.020743865029826544 0.9966986635401462 -0.020743865029826544 0.9966986635401462 -0.020743865029826544 0.003301336459853912 0.020743865029826544
9.379642880766791E7 0.003329419655402908 0.02104539414385741 0.9966705803445971 -0.02104539414385741 0.9966705803445971 -0.02104539414385741 0.003329419655402908 0.02104539414385741
9.521194858253023E7 0.0033580268224886966 0.02135121581862307 0.9966419731775111 -0.02135121581862307 0.9966419731775111 -0.02135121581862307 0.0033580268224886966 0.02135121581862307
9.664883053779216E7 0.0033871659089276885 0.021661393675272974 0.9966128340910723 -0.021661393675272974 0.9966128340910723 -0.021661393675272974 0.0033871659089276885 0.021661393675272974
9.810739705874248E7 0.003416845129820791 0.021975992472629234 0.9965831548701791 -0.021975992472629234 0.9965831548701791 -0.021975992472629234 0.003416845129820791 0.021975992472629234
9.958797539591652E7 0.0034470729872993627 0.02229507812601567 0.9965529270127007 -0.022295078126015673 0.9965529270127007 -0.022295078126015673 0.0034470729872993627 0.02229507812601567
1.0109089773851961E8 0.0034778582910027322 0.02261871772572812 0.9965221417089972 -0.02261871772572812 0.9965221417089972 -0.02261871772572812 0.0034778582910027322 0.02261871772572812
1.0261650128895843E8 0.0035092101792669303 0.02294697955511364 0.9964907898207331 -0.02294697955511364 0.9964907898207331 -0.02294697955511364 0.0035092101792669303 0.02294697955511364
1.0416512833849736E8 0.003541138141001924 0.02327993310822776 0.9964588618589981 -0.023279933108227763 0.9964588618589981 -0.023279933108227763 0.003541138141001924 0.02327993310822776
1.0573712634405641E8 0.0035736520382325027 0.023617649107041398 0.9964263479617674 -0.023617649107041394 0.9964263479617674 -0.023617649107041394 0.0035736520382325027 0.023617649107041398
1.0733284800616828E8 0.0036067621292759588 0.023960199518170737 0.9963932378707242 -0.023960199518170737 0.9963932378707242 -0.023960199518170737 0.0036067621292759588 0.023960199518170737
1.0895265134811176E8 0.00364047909252791 0.024307657569106106 0.9963595209074722 -0.024307657569106106 0.9963595209074722 -0.024307657569106106 0.00364047909252791 0.024307657569106106
1.1059689979623953E8 0.0036748140508261326 0.024660097763918674 0.996325185949174 -0.024660097763918674 0.996325185949174 -0.024660097763918674 0.0036748140508261326 0.024660097763918674
1.1226596226151802E8 0.0037097785963607615 0.025017595898425934 0.9962902214036393 -0.025017595898425934 0.9962902214036393 -0.025017595898425934 0.0037097785963607615 0.025017595898425934
1.1396021322229806E8 0.003745384816098304 0.025380229074800337 0.9962546151839017 -0.025380229074800337 0.9962546151839017 -0.025380229074800337 0.003745384816098304 0.025380229074800337
1.1568003280833441E8 0.003781645317685915 0.025748075715608082 0.9962183546823141 -0.025748075715608082 0.9962183546823141 -0.025748075715608082 0.003781645317685915 0.025748075715608082
1.1742580688607343E8 0.0038185732558019526 0.026121215577268233 0.9961814267441982 -0.026121215577268233 0.9961814267441982 -0.026121215577268233 0.0038185732558019526 0.026121215577268233
1.1919792714522783E8 0.003856182358918366 0.02649972976292532 0.9961438176410816 -0.02649972976292532 0.9961438176410816 -0.02649972976292532 0.003856182358918366 0.02649972976292532
1.2099679118665792E8 0.003894486956440623 0.02688370073473173 0.9961055130435594 -0.026883700734731734 0.9961055130435594 -0.026883700734731734 0.003894486956440623 0.02688370073473173
1.2282280261157903E8 0.003933502006190967 0.027273212325539194 0.996066497993809 -0.027273212325539187 0.996066497993809 -0.027273212325539187 0.003933502006190967 0.027273212325539194
1.2467637111211549E8 0.003973243122201469 0.027668349750002038 0.9960267568777986 -0.027668349750002045 0.9960267568777986 -0.027668349750002045 0.003973243122201469 0.027668349750002038
1.265579125632208E8 0.004013726602783994 0.02806919961509741 0.9959862733972161 -0.02806919961509741 0.9959862733972161 -0.02806919961509741 0.004013726602783994 0.02806919961509741
1.284678491159853E8 0.004054969458845385 0.02847584993007087 0.9959450305411546 -0.028475849930070875 0.9959450305411546 -0.028475849930070875 0.004054969458845385 0.02847584993007087
1.3040660929235186E8 0.004096989442417434 0.02888839011581898 0.9959030105575826 -0.02888839011581898 0.9959030105575826 -0.02888839011581898 0.004096989442417434 0.02888839011581898
1.3237462808126101E8 0.004139805075372721 0.029306911013722084 0.9958601949246274 -0.029306911013722077 0.9958601949246274 -0.029306911013722077 0.004139805075372721 0.029306911013722084
1.3437234703624701E8 0.004183435678299298 0.029731504893944466 0.9958165643217007 -0.02973150489394446 0.9958165643217007 -0.02973150489394446 0.004183435678299298 0.029731504893944466
1.364002143745067E8 0.004227901399509062 0.030162265463220247 0.9957720986004909 -0.030162265463220247 0.9957720986004909 -0.030162265463220247 0.004227901399509062 0.030162265463220247
1.3845868507746372E8 0.004273223244156997 0.030599287872146455 0.9957267767558431 -0.030599287872146462 0.9957267767558431 -0.030599287872146462 0.004273223244156997 0.030599287872146455
1.405482209928499E8 0.004319423103450641 0.03104266872200577 0.9956805768965494 -0.03104266872200577 0.9956805768965494 -0.03104266872200577 0.004319423103450641 0.03104266872200577
1.426692909383278E8 0.004366523783931868 0.03149250607114447 0.9956334762160681 -0.03149250607114447 0.9956334762160681 -0.03149250607114447 0.004366523783931868 0.03149250607114447
1.4482237080667645E8 0.0044145490368155205 0.03194889944093143 0.9955854509631845 -0.031948899440931426 0.9955854509631845 -0.031948899440931426 0.0044145490368155205 0.03194889944093143
1.4700794367256513E8 0.004463523587372322 0.032411949821326204 0.9955364764126277 -0.032411949821326204 0.9955364764126277 -0.032411949821326204 0.004463523587372322 0.032411949821326204
1.492264999009378E8 0.0045134731643462185 0.03288175967608471 0.9954865268356538 -0.03288175967608471 0.9954865268356538 -0.03288175967608471 0.0045134731643462185 0.03288175967608471
1.5147853725703382E8 0.00456442452939931 0.033358432947632626 0.9954355754706007 -0.033358432947632626 0.9954355754706007 -0.033358432947632626 0.00456442452939931 0.033358432947632626
1.5376456101806876E8 0.0046164055065803615 0.033842075061636334 0.9953835944934196 -0.033842075061636334 0.9953835944934196 -0.033842075061636334 0.0046164055065803615 0.033842075061636334
1.5608508408660066E8 0.004669445011815862 0.03433279293130232 0.9953305549881842 -0.03433279293130232 0.9953305549881842 -0.03433279293130232 0.004669445011815862 0.03433279293130232
1.5844062710560706E8 0.004723573082425553 0.03483069496143571 0.9952764269175745 -0.03483069496143571 0.9952764269175745 -0.03483069496143571 0.004723573082425553 0.03483069496143571
1.6083171857529896E8 0.004778820906667228 0.035335891052288695 0.995221179093333 -0.0353358910522887 0.995221179093333 -0.0353358910522887 0.004778820906667228 0.035335891052288695
1.632588949716973E8 0.004835220853318452 0.03584849260322927 0.9951647791466814 -0.03584849260322926 0.9951647791466814 -0.03584849260322926 0.004835220853318452 0.03584849260322927
1.6572270086699936E8 0.004892806501305671 0.03636861251625998 0.9951071934986944 -0.03636861251625998 0.9951071934986944 -0.03636861251625998 0.004892806501305671 0.03636861251625998
1.6822368905176118E8 0.0049516126693938045 0.03689636519941609 0.9950483873306062 -0.03689636519941609 0.9950483873306062 -0.03689636519941609 0.0049516126693938045 0.03689636519941609
1.7076242065892437E8 0.005011675445952112 0.037431866570071345 0.9949883245540478 -0.037431866570071345 0.9949883245540478 -0.037431866570071345 0.005011675445952112 0.037431866570071345
1.7333946528971428E8 0.005073032218814499 0.037975234058178466 0.9949269677811856 -0.037975234058178466 0.9949269677811856 -0.037975234058178466 0.005073032218814499 0.037975234058178466
1.7595540114143828E8 0.005135721705254874 0.0385265866094706 0.9948642782947452 -0.0385265866094706 0.9948642782947452 -0.0385265866094706 0.005135721705254874 0.0385265866094706
1.786108151372127E8 0.005199783982100299 0.039086044688648236 0.9948002160178997 -0.039086044688648236 0.9948002160178997 -0.039086044688648236 0.005199783982100299 0.039086044688648236
1.8130630305764765E8 0.005265260516006841 0.03965373028257497 0.9947347394839933 -0.03965373028257497 0.9947347394839933 -0.03965373028257497 0.005265260516006841 0.03965373028257497
1.840424696745189E8 0.005332194193924872 0.04022976690350378 0.9946678058060751 -0.04022976690350378 0.9946678058060751 -0.04022976690350378 0.005332194193924872 0.04022976690350378
1.8681992888645732E8 0.005400629353782388 0.040814279592353835 0.9945993706462176 -0.04081427959235384 0.9945993706462176 -0.04081427959235384 0.005400629353782388 0.040814279592353835
1.8963930385668582E8 0.0054706118154165435 0.04140739492205656 0.9945293881845833 -0.04140739492205656 0.9945293881845833 -0.04140739492205656 0.0054706118154165435 0.04140739492205656
1.92501227152835E8 0.005542188911785028 0.04200924100098725 0.994457811088215 -0.04200924100098724 0.994457811088215 -0.04200924100098724 0.005542188911785028 0.04200924100098725
1.9540634088886917E8 0.005615409520490245 0.042619947476497576 0.9943845904795097 -0.042619947476497576 0.9943845904795097 -0.042619947476497576 0.005615409520490245 0.042619947476497576
1.983552968691535E8 0.005690324095650482 0.04323964553856216 0.9943096759043495 -0.04323964553856215 0.9943096759043495 -0.04323964553856215 0.005690324095650482 0.04323964553856216
2.0134875673469606E8 0.005766984700153183 0.04386846792355063 0.9942330152998469 -0.04386846792355063 0.9942330152998469 -0.04386846792355063 0.005766984700153183 0.04386846792355063
2.0438739211159652E8 0.0058454450383264855 0.044506548918135325 0.9941545549616735 -0.044506548918135325 0.9941545549616735 -0.044506548918135325 0.0058454450383264855 0.044506548918135325
2.074718847617352E8 0.005925760489065847 0.04515402436334247 0.9940742395109342 -0.04515402436334247 0.9940742395109342 -0.04515402436334247 0.005925760489065847 0.04515402436334247
2.106029267357361E8 0.0060079881394533435 0.045811031658753804 0.9939920118605465 -0.045811031658753804 0.9939920118605465 -0.045811031658753804 0.0060079881394533435 0.045811031658753804
2.1378122052823865E8 0.006092186818907779 0.046477709766863516 0.9939078131810921 -0.046477709766863516 0.9939078131810921 -0.046477709766863516 0.006092186818907779 0.046477709766863516
2.1700747923551247E8 0.006178417133904273 0.04715419921759444 0.9938215828660958 -0.04715419921759444 0.9938215828660958 -0.04715419921759444 0.006178417133904273 0.04715419921759444
2.2028242671545094E8 0.006266741503302364 0.04784064211297537 0.9937332584966977 -0.04784064211297537 0.9937332584966977 -0.04784064211297537 0.006266741503302364 0.04784064211297537
2.23606797749979E8 0.006357224194322164 0.048537182131981105 0.9936427758056778 -0.0485371821319811 0.9936427758056778 -0.0485371821319811 0.006357224194322164 0.048537182131981105
2.2698133820991236E8 0.0064499313592083305 0.049243964535534784 0.9935500686407915 -0.049243964535534784 0.9935500686407915 -0.049243964535534784 0.0064499313592083305 0.049243964535534784
2.3040680522230446E8 0.006544931072621993 0.04996113617167128 0.993455068927378 -0.04996113617167128 0.993455068927378 -0.04996113617167128 0.006544931072621993 0.04996113617167128
2.338839673403185E8 0.006642293369801182 0.050688845480859855 0.9933577066301988 -0.050688845480859855 0.9933577066301988 -0.050688845480859855 0.006642293369801182 0.050688845480859855
2.37413604715664E8 0.0067420902855304735 0.05142724250148295 0.9932579097144695 -0.05142724250148295 0.9932579097144695 -0.05142724250148295 0.0067420902855304735 0.05142724250148295
