!Murata Part Number: LQW04CA90NK00
!These Parameters are Measured in Series Mode Connection
!       o--[Z]--o
!Port1              Port2
!       o-------o
!
!Freq. Start=10[MHz] Stop=20[GHz], 401[Steps]
# Hz S RI R 50
!Freq.(Hz) S11(Real) S11(Imag) S21(Real) S21(Imag) S12(Real) S12(Imag) S22(Real) S22(Imag)
1.0E7 0.00914133935204162 0.061531838024417564 0.9908586606479582 -0.061531838024417564 0.9908586606479582 -0.061531838024417564 0.00914133935204162 0.061531838024417564
1.0191839480455115E7 0.009333610628522343 0.0626529425383904 0.9906663893714776 -0.0626529425383904 0.9906663893714776 -0.0626529425383904 0.009333610628522343 0.0626529425383904
1.0387359199536363E7 0.0095317301142913 0.06379487055586547 0.9904682698857087 -0.06379487055586547 0.9904682698857087 -0.06379487055586547 0.0095317301142913 0.06379487055586547
1.0586629758750336E7 0.009735935741404496 0.06495800329558757 0.9902640642585955 -0.06495800329558757 0.9902640642585955 -0.06495800329558757 0.009735935741404496 0.06495800329558757
1.0789723114019271E7 0.00994647514557882 0.06614272626611432 0.990053524854421 -0.06614272626611434 0.990053524854421 -0.06614272626611434 0.00994647514557882 0.06614272626611432
1.0996712601664074E7 0.010163605944200006 0.067349429177899 0.9898363940558002 -0.067349429177899 0.9898363940558002 -0.067349429177899 0.010163605944200006 0.067349429177899
1.1207672964885822E7 0.010387596022006864 0.06857850584979121 0.9896124039779933 -0.06857850584979121 0.9896124039779933 -0.06857850584979121 0.010387596022006864 0.06857850584979121
1.1422680380755277E7 0.010618723824855177 0.06983035410942978 0.9893812761751448 -0.06983035410942977 0.9893812761751448 -0.06983035410942977 0.010618723824855177 0.06983035410942978
1.1641812487720173E7 0.01085727866194825 0.0711053756869513 0.9891427213380518 -0.0711053756869513 0.9891427213380518 -0.0711053756869513 0.01085727866194825 0.0711053756869513
1.1865148413640184E7 0.011103561016902049 0.07240397610139127 0.988896438983098 -0.07240397610139127 0.988896438983098 -0.07240397610139127 0.011103561016902049 0.07240397610139127
1.2092768804359745E7 0.011357882867990929 0.07372656453910646 0.988642117132009 -0.07372656453910645 0.988642117132009 -0.07372656453910645 0.011357882867990929 0.07372656453910646
1.2324755852828966E7 0.011620568017895343 0.07507355372349964 0.9883794319821045 -0.07507355372349962 0.9883794319821045 -0.07507355372349962 0.011620568017895343 0.07507355372349964
1.2561193328783253E7 0.011891952433245872 0.07644535977528227 0.988108047566754 -0.07644535977528227 0.988108047566754 -0.07644535977528227 0.011891952433245872 0.07644535977528227
1.280216660899226E7 0.01217238459422815 0.07784240206246353 0.9878276154057717 -0.07784240206246354 0.9878276154057717 -0.07784240206246354 0.01217238459422815 0.07784240206246353
1.3047762708089152E7 0.012462225854481163 0.07926510303920939 0.9875377741455188 -0.07926510303920939 0.9875377741455188 -0.07926510303920939 0.012462225854481163 0.07926510303920939
1.3298070309991302E7 0.012761850811486841 0.08071388807267063 0.987238149188513 -0.08071388807267063 0.987238149188513 -0.08071388807267063 0.012761850811486841 0.08071388807267063
1.3553179799923737E7 0.013071647687611779 0.08218918525683369 0.9869283523123882 -0.08218918525683369 0.9869283523123882 -0.08218918525683369 0.013071647687611779 0.08218918525683369
1.3813183297056952E7 0.013392018721922302 0.0836914252124045 0.9866079812780776 -0.0836914252124045 0.9866079812780776 -0.0836914252124045 0.013392018721922302 0.0836914252124045
1.4078174687770821E7 0.013723380572852502 0.08522104087169285 0.9862766194271475 -0.08522104087169285 0.9862766194271475 -0.08522104087169285 0.013723380572852502 0.08522104087169285
1.4348249659556655E7 0.01406616473175951 0.0867784672474195 0.9859338352682406 -0.08677846724741949 0.9859338352682406 -0.08677846724741949 0.01406616473175951 0.0867784672474195
1.4623505735569622E7 0.014420817947353826 0.08836414118432838 0.9855791820526463 -0.08836414118432838 0.9855791820526463 -0.08836414118432838 0.014420817947353826 0.08836414118432838
1.490404230984403E7 0.014787802660941577 0.08997850109244093 0.9852121973390583 -0.08997850109244093 0.9852121973390583 -0.08997850109244093 0.014787802660941577 0.08997850109244093
1.5189960683184188E7 0.015167597452363195 0.09162198666074968 0.9848324025476368 -0.09162198666074968 0.9848324025476368 -0.09162198666074968 0.015167597452363195 0.09162198666074968
1.548136409974376E7 0.015560697496456229 0.09329503855010485 0.9844393025035436 -0.09329503855010485 0.9844393025035436 -0.09329503855010485 0.015560697496456229 0.09329503855010485
1.5778357784306893E7 0.01596761502981067 0.09499809806400694 0.9840323849701893 -0.09499809806400694 0.9840323849701893 -0.09499809806400694 0.01596761502981067 0.09499809806400694
1.608104898028453E7 0.01638887982752218 0.0967316067959773 0.9836111201724778 -0.0967316067959773 0.9836111201724778 -0.0967316067959773 0.01638887982752218 0.0967316067959773
1.638954698843964E7 0.016825039689581392 0.09849600625213747 0.9831749603104187 -0.09849600625213747 0.9831749603104187 -0.09849600625213747 0.016825039689581392 0.09849600625213747
1.6703963206355339E7 0.01727666093646664 0.10029173744758814 0.9827233390635333 -0.10029173744758814 0.9827233390635333 -0.10029173744758814 0.01727666093646664 0.10029173744758814
1.7024411168660197E7 0.017744328913432365 0.10211924047513982 0.9822556710865679 -0.10211924047513982 0.9822556710865679 -0.10211924047513982 0.017744328913432365 0.10211924047513982
1.7351006588025205E7 0.01822864850290518 0.10397895404490747 0.9817713514970948 -0.10397895404490748 0.9817713514970948 -0.10397895404490748 0.01822864850290518 0.10397895404490747
1.768386739694721E7 0.018730244644315018 0.10587131499324454 0.981269755355685 -0.10587131499324456 0.981269755355685 -0.10587131499324456 0.018730244644315018 0.10587131499324454
1.8023113790333964E7 0.01924976286059887 0.1077967577594562 0.9807502371394011 -0.1077967577594562 0.9807502371394011 -0.1077967577594562 0.01924976286059887 0.1077967577594562
1.836886826890608E7 0.019787869790518504 0.10975571382869434 0.9802121302094814 -0.10975571382869434 0.9802121302094814 -0.10975571382869434 0.019787869790518504 0.10975571382869434
1.872125568343162E7 0.02034525372583282 0.11174861113940726 0.9796547462741673 -0.11174861113940726 0.9796547462741673 -0.11174861113940726 0.02034525372583282 0.11174861113940726
1.9080403279809315E7 0.02092262515225724 0.11377587345368353 0.9790773748477428 -0.11377587345368353 0.9790773748477428 -0.11377587345368353 0.02092262515225724 0.11377587345368353
1.9446440745016586E7 0.02152071729302865 0.11583791968880286 0.9784792827069712 -0.11583791968880286 0.9784792827069712 -0.11583791968880286 0.02152071729302865 0.11583791968880286
1.9819500253939107E7 0.022140286653773242 0.11793516320828067 0.9778597133462268 -0.11793516320828067 0.9778597133462268 -0.11793516320828067 0.022140286653773242 0.11793516320828067
2.0199716517098684E7 0.022782113567246215 0.12006801107067273 0.9772178864327539 -0.12006801107067273 0.9772178864327539 -0.12006801107067273 0.022782113567246215 0.12006801107067273
2.0587226829296768E7 0.02344700273637721 0.1222368632343889 0.976552997263623 -0.1222368632343889 0.976552997263623 -0.1222368632343889 0.02344700273637721 0.1222368632343889
2.0982171119191162E7 0.024135783773910742 0.12444211171675075 0.9758642162260892 -0.12444211171675075 0.9758642162260892 -0.12444211171675075 0.024135783773910742 0.12444211171675075
2.138469199982376E7 0.024849311736780524 0.12668413970552383 0.9751506882632196 -0.12668413970552383 0.9751506882632196 -0.12668413970552383 0.024849311736780524 0.12668413970552383
2.1794934820117645E7 0.02558846765319588 0.12896332062115182 0.9744115323468043 -0.12896332062115182 0.9744115323468043 -0.12896332062115182 0.02558846765319588 0.12896332062115182
2.22130477173621E7 0.026354159040250687 0.1312800171279285 0.9736458409597495 -0.1312800171279285 0.9736458409597495 -0.1312800171279285 0.026354159040250687 0.1312800171279285
2.263918167070445E7 0.027147320409687724 0.13363458009235593 0.9728526795903122 -0.13363458009235593 0.9728526795903122 -0.13363458009235593 0.027147320409687724 0.13363458009235593
2.307349055566814E7 0.027968913759266262 0.13602734748696274 0.9720310862407339 -0.13602734748696277 0.9720310862407339 -0.13602734748696277 0.027968913759266262 0.13602734748696274
2.3516131199716687E7 0.028819929046985156 0.13845864323788737 0.9711800709530146 -0.13845864323788737 0.9711800709530146 -0.13845864323788737 0.028819929046985156 0.13845864323788737
2.396726343888349E7 0.029701384645211167 0.14092877601457823 0.9702986153547887 -0.1409287760145782 0.9702986153547887 -0.1409287760145782 0.029701384645211167 0.14092877601457823
2.4427050175488118E7 0.030614327771548915 0.14343803796001714 0.969385672228451 -0.14343803796001714 0.969385672228451 -0.14343803796001714 0.030614327771548915 0.14343803796001714
2.4895657436959792E7 0.03155983489306864 0.14598670335994499 0.9684401651069313 -0.14598670335994499 0.9684401651069313 -0.14598670335994499 0.03155983489306864 0.14598670335994499
2.5373254435789287E7 0.03253901210027833 0.14857502724965216 0.9674609878997217 -0.14857502724965213 0.9674609878997217 -0.14857502724965213 0.03253901210027833 0.14857502724965216
2.586001363063102E7 0.033552995446988844 0.15120324395699916 0.9664470045530112 -0.15120324395699913 0.9664470045530112 -0.15120324395699913 0.033552995446988844 0.15120324395699916
2.635611078857727E7 0.03460295125197649 0.1538715655804522 0.9653970487480235 -0.15387156558045223 0.9653970487480235 -0.15387156558045223 0.03460295125197649 0.1538715655804522
2.6861725048627086E7 0.0356900763580943 0.15658018040105692 0.9643099236419057 -0.15658018040105692 0.9643099236419057 -0.15658018040105692 0.0356900763580943 0.15658018040105692
2.737703898637277E7 0.0368155983442259 0.15932925122743324 0.9631844016557742 -0.15932925122743324 0.9631844016557742 -0.15932925122743324 0.0368155983442259 0.15932925122743324
2.7902238679927293E7 0.03798077568521145 0.16211891367305895 0.9620192243147886 -0.16211891367305895 0.9620192243147886 -0.16211891367305895 0.03798077568521145 0.16211891367305895
2.843751377711649E7 0.03918689785460733 0.16494927436531331 0.9608131021453927 -0.16494927436531331 0.9608131021453927 -0.16494927436531331 0.03918689785460733 0.16494927436531331
2.898305756396021E7 0.040435285364870004 0.16782040908598816 0.9595647146351299 -0.16782040908598816 0.9595647146351299 -0.16782040908598816 0.040435285364870004 0.16782040908598816
2.95390670344673E7 0.041727289739282386 0.17073236084323323 0.9582727102607176 -0.17073236084323326 0.9582727102607176 -0.17073236084323326 0.041727289739282386 0.17073236084323323
3.0105742961769406E7 0.04306429340966751 0.17368513787519443 0.9569357065903326 -0.17368513787519443 0.9569357065903326 -0.17368513787519443 0.04306429340966751 0.17368513787519443
3.068328997061952E7 0.04444770953366507 0.1766787115859252 0.9555522904663348 -0.1766787115859252 0.9555522904663348 -0.1766787115859252 0.04444770953366507 0.1766787115859252
3.1271916611281253E7 0.045878981725079496 0.17971301441450876 0.9541210182749205 -0.17971301441450876 0.9541210182749205 -0.17971301441450876 0.045878981725079496 0.17971301441450876
3.187183543483565E7 0.04735958369054868 0.18278793763871598 0.9526404163094513 -0.18278793763871598 0.9526404163094513 -0.18278793763871598 0.04735958369054868 0.18278793763871598
3.2483263069932636E7 0.04889101876553421 0.18590332911495755 0.9511089812344656 -0.18590332911495755 0.9511089812344656 -0.18590332911495755 0.04889101876553421 0.18590332911495755
3.310642030101491E7 0.05047481934239428 0.18905899095674747 0.9495251806576056 -0.18905899095674747 0.9495251806576056 -0.18905899095674747 0.05047481934239428 0.18905899095674747
3.3741532148042455E7 0.052112546183081705 0.19225467715440692 0.9478874538169184 -0.19225467715440692 0.9478874538169184 -0.19225467715440692 0.052112546183081705 0.19225467715440692
3.438882794774647E7 0.05380578760880646 0.19549009113928015 0.9461942123911934 -0.19549009113928018 0.9461942123911934 -0.19549009113928018 0.05380578760880646 0.19549009113928015
3.504854143644208E7 0.055556158558825786 0.1987648832963252 0.9444438414411743 -0.1987648832963252 0.9444438414411743 -0.1987648832963252 0.055556158558825786 0.1987648832963252
3.572091083442975E7 0.057365299510374446 0.2020786484295705 0.9426347004896256 -0.2020786484295705 0.9426347004896256 -0.2020786484295705 0.057365299510374446 0.2020786484295705
3.640617893201581E7 0.05923487525163257 0.20543092318560838 0.9407651247483674 -0.20543092318560838 0.9407651247483674 -0.20543092318560838 0.05923487525163257 0.20543092318560838
3.7104593177183196E7 0.06116657349955031 0.20882118344100914 0.9388334265004498 -0.20882118344100914 0.9388334265004498 -0.20882118344100914 0.06116657349955031 0.20882118344100914
3.781640576494413E7 0.06316210335431376 0.21224884166030544 0.9368378966456863 -0.21224884166030544 0.9368378966456863 -0.21224884166030544 0.06316210335431376 0.21224884166030544
3.85418737284068E7 0.06522319358225212 0.21571324423199803 0.9347768064177479 -0.21571324423199809 0.9347768064177479 -0.21571324423199809 0.06522319358225212 0.21571324423199803
3.928125903158923E7 0.0673515907190575 0.2192136687908816 0.9326484092809423 -0.2192136687908816 0.9326484092809423 -0.2192136687908816 0.0673515907190575 0.2192136687908816
4.003482866401353E7 0.06954905698532032 0.22274932153587126 0.9304509430146795 -0.22274932153587132 0.9304509430146795 -0.22274932153587132 0.06954905698532032 0.22274932153587126
4.080285473711493E7 0.0718173680065869 0.22631933455343645 0.9281826319934131 -0.22631933455343645 0.9281826319934131 -0.22631933455343645 0.0718173680065869 0.22631933455343645
4.158561458250031E7 0.07415831033042054 0.22992276315769816 0.9258416896695796 -0.2299227631576982 0.9258416896695796 -0.2299227631576982 0.07415831033042054 0.22992276315769816
4.2383390852091655E7 0.07657367873331007 0.23355858325923687 0.92342632126669 -0.23355858325923687 0.92342632126669 -0.23355858325923687 0.07657367873331007 0.23355858325923687
4.319647162019081E7 0.07906527331071746 0.23722568877566289 0.9209347266892826 -0.23722568877566289 0.9209347266892826 -0.23722568877566289 0.07906527331071746 0.23722568877566289
4.402515048750197E7 0.08163489634410295 0.240922889098031 0.9183651036558971 -0.240922889098031 0.9183651036558971 -0.240922889098031 0.08163489634410295 0.240922889098031
4.486972668715004E7 0.08428434893941791 0.24464890662822203 0.9157156510605823 -0.244648906628222 0.9157156510605823 -0.244648906628222 0.08428434893941791 0.24464890662822203
4.573050519273264E7 0.087015427432315 0.24840237440345556 0.912984572567685 -0.24840237440345556 0.912984572567685 -0.24840237440345556 0.087015427432315 0.24840237440345556
4.6607796828445025E7 0.08982991955620456 0.252181833825139 0.9101700804437954 -0.252181833825139 0.9101700804437954 -0.252181833825139 0.08982991955620456 0.252181833825139
4.750191838131767E7 0.09272960037028816 0.25598573251027845 0.9072703996297118 -0.2559857325102784 0.9072703996297118 -0.2559857325102784 0.09272960037028816 0.25598573251027845
4.8413192715607E7 0.09571622794582985 0.25981242228467627 0.9042837720541702 -0.2598124222846762 0.9042837720541702 -0.2598124222846762 0.09571622794582985 0.25981242228467627
4.934194888938056E7 0.09879153881018912 0.2636601573380909 0.9012084611898108 -0.2636601573380909 0.9012084611898108 -0.2636601573380909 0.09879153881018912 0.2636601573380909
5.0288522273338735E7 0.10195724314954432 0.2675270925624468 0.8980427568504556 -0.2675270925624468 0.8980427568504556 -0.2675270925624468 0.10195724314954432 0.2675270925624468
5.125325467191602E7 0.1052150197727701 0.2714112820950037 0.89478498022723 -0.27141128209500376 0.89478498022723 -0.27141128209500376 0.1052150197727701 0.2714112820950037
5.223649444670544E7 0.10856651084062151 0.2753106780891584 0.8914334891593786 -0.2753106780891584 0.8914334891593786 -0.2753106780891584 0.10856651084062151 0.2753106780891584
5.32385966422507E7 0.11201331636619412 0.27922312973618474 0.8879866836338058 -0.27922312973618474 0.8879866836338058 -0.27922312973618474 0.11201331636619412 0.27922312973618474
5.425992311425159E7 0.11555698849459671 0.2831463825617588 0.8844430115054034 -0.2831463825617588 0.8844430115054034 -0.2831463825617588 0.11555698849459671 0.2831463825617588
5.530084266022885E7 0.11919902557186689 0.28707807802149293 0.8808009744281331 -0.2870780780214929 0.8808009744281331 -0.2870780780214929 0.11919902557186689 0.28707807802149293
5.63617311526957E7 0.12294086601538634 0.2910157534199376 0.8770591339846137 -0.2910157534199376 0.8770591339846137 -0.2910157534199376 0.12294086601538634 0.2910157534199376
5.744297167488412E7 0.12678388200039958 0.2949568421775568 0.8732161179996004 -0.2949568421775568 0.8732161179996004 -0.2949568421775568 0.12678388200039958 0.2949568421775568
5.8544954659074895E7 0.13072937297969298 0.2988986744700331 0.869270627020307 -0.29889867447003304 0.869270627020307 -0.29889867447003304 0.13072937297969298 0.2988986744700331
5.9668078027581416E7 0.13477855905604424 0.3028384782638881 0.8652214409439559 -0.3028384782638881 0.8652214409439559 -0.3028384782638881 0.13477855905604424 0.3028384782638881
6.0812747336438075E7 0.13893257422967883 0.3067733807717953 0.8610674257703212 -0.3067733807717953 0.8610674257703212 -0.3067733807717953 0.13893257422967883 0.3067733807717953
6.197937592184514E7 0.1431924595456578 0.3107004103500903 0.8568075404543422 -0.3107004103500903 0.8568075404543422 -0.3107004103500903 0.1431924595456578 0.3107004103500903
6.3168385049423054E7 0.14755915616884732 0.31461649885984055 0.8524408438311528 -0.31461649885984055 0.8524408438311528 -0.31461649885984055 0.14755915616884732 0.31461649885984055
6.438020406633007E7 0.15203349841684885 0.3185184845113943 0.8479665015831511 -0.3185184845113943 0.8479665015831511 -0.3185184845113943 0.15203349841684885 0.3185184845113943
6.561527055629799E7 0.1566162067839878 0.3224031152105842 0.8433837932160122 -0.32240311521058423 0.8433837932160122 -0.32240311521058423 0.1566162067839878 0.3224031152105842
6.6874030497642204E7 0.16130788099211363 0.32626705242268905 0.8386921190078863 -0.3262670524226891 0.8386921190078863 -0.3262670524226891 0.16130788099211363 0.32626705242268905
6.815693842430294E7 0.16610899310654773 0.33010687556787055 0.8338910068934521 -0.33010687556787055 0.8338910068934521 -0.33010687556787055 0.16610899310654773 0.33010687556787055
6.946445758997591E7 0.17101988075795682 0.3339190869590627 0.8289801192420431 -0.3339190869590627 0.8289801192420431 -0.3339190869590627 0.17101988075795682 0.3339190869590627
7.079706013539167E7 0.1760407405132233 0.3377001172902404 0.8239592594867765 -0.3377001172902404 0.8239592594867765 -0.3377001172902404 0.1760407405132233 0.3377001172902404
7.215522725880398E7 0.18117162144045776 0.34144633167959226 0.8188283785595423 -0.34144633167959226 0.8188283785595423 -0.34144633167959226 0.18117162144045776 0.34144633167959226
7.353944938974898E7 0.18641241891513136 0.34515403626841035 0.8135875810848687 -0.34515403626841035 0.8135875810848687 -0.34515403626841035 0.18641241891513136 0.34515403626841035
7.495022636613746E7 0.19176286871583928 0.3488194853724896 0.8082371312841606 -0.3488194853724896 0.8082371312841606 -0.3488194853724896 0.19176286871583928 0.3488194853724896
7.638806761474478E7 0.19722254145940274 0.35243888917851296 0.8027774585405972 -0.35243888917851296 0.8027774585405972 -0.35243888917851296 0.19722254145940274 0.35243888917851296
7.785349233516307E7 0.202790837425831 0.356008421973331 0.797209162574169 -0.356008421973331 0.797209162574169 -0.356008421973331 0.202790837425831 0.356008421973331
