!Murata Part Number: LQW18AN4N2B8Z
!These Parameters are Measured in Series Mode Connection
!       o--[Z]--o
!Port1              Port2
!       o-------o
!
!Freq. Start=50[MHz] Stop=20[GHz], 401[Steps]
# Hz S RI R 50
!Freq.(Hz) S11(Real) S11(Imag) S21(Real) S21(Imag) S12(Real) S12(Imag) S22(Real) S22(Imag)
5.0E7 5.696500522508519E-4 0.01233046950621622 0.9994303499477493 -0.01233046950621622 0.9994303499477493 -0.01233046950621622 5.696500522508519E-4 0.01233046950621622
5.0754570186123446E7 5.781914466120925E-4 0.012513976023894103 0.9994218085533879 -0.012513976023894103 0.9994218085533879 -0.012513976023894103 5.781914466120925E-4 0.012513976023894103
5.152052789556263E7 5.869209750180908E-4 0.012700186168923842 0.9994130790249819 -0.012700186168923842 0.9994130790249819 -0.012700186168923842 5.869209750180908E-4 0.012700186168923842
5.229804498202928E7 5.958422814531203E-4 0.012889140058272477 0.9994041577185468 -0.012889140058272477 0.9994041577185468 -0.012889140058272477 5.958422814531203E-4 0.012889140058272477
5.308729589274893E7 6.049591062721529E-4 0.013080878451131815 0.9993950408937278 -0.013080878451131815 0.9993950408937278 -0.013080878451131815 6.049591062721529E-4 0.013080878451131815
5.388845770760058E7 6.142752916409303E-4 0.013275442759953517 0.9993857247083593 -0.013275442759953517 0.9993857247083593 -0.013275442759953517 6.142752916409303E-4 0.013275442759953517
5.470171017884717E7 6.237947872423698E-4 0.013472875061543448 0.9993762052127577 -0.013472875061543448 0.9993762052127577 -0.013472875061543448 6.237947872423698E-4 0.013472875061543448
5.5527235771465644E7 6.335216562508812E-4 0.013673218108205982 0.9993664783437489 -0.013673218108205985 0.9993664783437489 -0.013673218108205985 6.335216562508812E-4 0.013673218108205982
5.6365219704085544E7 6.434600815754785E-4 0.01387651533892896 0.9993565399184245 -0.01387651533892896 0.9993565399184245 -0.01387651533892896 6.434600815754785E-4 0.01387651533892896
5.721584999054556E7 6.536143723718988E-4 0.01408281089060009 0.9993463856276281 -0.014082810890600086 0.9993463856276281 -0.014082810890600086 6.536143723718988E-4 0.01408281089060009
5.807931748207712E7 6.639889708232505E-4 0.014292149609245743 0.9993360110291768 -0.014292149609245743 0.9993360110291768 -0.014292149609245743 6.639889708232505E-4 0.014292149609245743
5.8955815910124585E7 6.74588459188041E-4 0.014504577061283283 0.999325411540812 -0.01450457706128328 0.999325411540812 -0.01450457706128328 6.74588459188041E-4 0.014504577061283283
5.984554192981184E7 6.854175671137701E-4 0.014720139544778181 0.9993145824328864 -0.014720139544778185 0.9993145824328864 -0.014720139544778185 6.854175671137701E-4 0.014720139544778181
6.074869516406457E7 6.96481179213639E-4 0.014938884100697734 0.9993035188207864 -0.014938884100697734 0.9993035188207864 -0.014938884100697734 6.96481179213639E-4 0.014938884100697734
6.166547824839868E7 7.077843429033152E-4 0.015160858524153433 0.9992922156570966 -0.01516085852415343 0.9992922156570966 -0.01516085852415343 7.077843429033152E-4 0.015160858524153433
6.2596096876384385E7 7.193322764941078E-4 0.015386111375624482 0.9992806677235059 -0.01538611137562448 0.9992806677235059 -0.01538611137562448 7.193322764941078E-4 0.015386111375624482
6.354075984579668E7 7.311303775383717E-4 0.015614691992155543 0.9992688696224616 -0.015614691992155542 0.9992688696224616 -0.015614691992155542 7.311303775383717E-4 0.015614691992155543
6.449967910546205E7 7.431842314224702E-4 0.015846650498522297 0.9992568157685775 -0.015846650498522297 0.9992568157685775 -0.015846650498522297 7.431842314224702E-4 0.015846650498522297
6.547306980281226E7 7.554996202021674E-4 0.016082037818358954 0.9992445003797978 -0.016082037818358954 0.9992445003797978 -0.016082037818358954 7.554996202021674E-4 0.016082037818358954
6.646115033215589E7 7.68082531674951E-4 0.01632090568524267 0.999231917468325 -0.01632090568524267 0.999231917468325 -0.01632090568524267 7.68082531674951E-4 0.01632090568524267
6.746414238367817E7 7.809391686834523E-4 0.016563306653730382 0.9992190608313165 -0.01656330665373038 0.9992190608313165 -0.01656330665373038 7.809391686834523E-4 0.016563306653730382
6.848227099318038E7 7.940759586438557E-4 0.016809294110344285 0.9992059240413562 -0.016809294110344285 0.9992059240413562 -0.016809294110344285 7.940759586438557E-4 0.016809294110344285
6.951576459256999E7 8.074995632930146E-4 0.017058922284503064 0.9991925004367072 -0.017058922284503064 0.9991925004367072 -0.017058922284503064 8.074995632930146E-4 0.017058922284503064
7.056485506111258E7 8.212168886478592E-4 0.01731224625939672 0.9991787831113522 -0.01731224625939672 0.9991787831113522 -0.01731224625939672 8.212168886478592E-4 0.01731224625939672
7.162977777745734E7 8.35235095170617E-4 0.017569321982803525 0.9991647649048295 -0.017569321982803525 0.9991647649048295 -0.017569321982803525 8.35235095170617E-4 0.017569321982803525
7.271077167244768E7 8.495616081334061E-4 0.017830206277848565 0.9991504383918665 -0.017830206277848565 0.9991504383918665 -0.017830206277848565 8.495616081334061E-4 0.017830206277848565
7.380807928272885E7 8.642041281758669E-4 0.018094956853704186 0.9991357958718242 -0.018094956853704186 0.9991357958718242 -0.018094956853704186 8.642041281758669E-4 0.018094956853704186
7.492194680516452E7 8.791706420496316E-4 0.01836363231623322 0.9991208293579504 -0.018363632316233225 0.9991208293579504 -0.018363632316233225 8.791706420496316E-4 0.01836363231623322
7.60526241520746E7 8.944694335437353E-4 0.018636292178577017 0.9991055305664561 -0.018636292178577017 0.9991055305664561 -0.018636292178577017 8.944694335437353E-4 0.018636292178577017
7.720036500730675E7 9.101090945853392E-4 0.018912996871690672 0.9990898909054147 -0.018912996871690672 0.9990898909054147 -0.018912996871690672 9.101090945853392E-4 0.018912996871690672
7.836542688315398E7 9.260985365105654E-4 0.019193807754828977 0.9990739014634894 -0.01919380775482898 0.9990739014634894 -0.01919380775482898 9.260985365105654E-4 0.019193807754828977
7.954807117813127E7 9.42447001500687E-4 0.019478787125987128 0.9990575529984994 -0.01947878712598713 0.9990575529984994 -0.01947878712598713 9.42447001500687E-4 0.019478787125987128
8.074856323562416E7 9.591640741794248E-4 0.01976799823230072 0.9990408359258207 -0.01976799823230072 0.9990408359258207 -0.01976799823230072 9.591640741794248E-4 0.01976799823230072
8.196717240342227E7 9.762596933677279E-4 0.020061505280410744 0.9990237403066323 -0.02006150528041074 0.9990237403066323 -0.02006150528041074 9.762596933677279E-4 0.020061505280410744
8.320417209415154E7 9.937441639930062E-4 0.02035937344679931 0.9990062558360069 -0.02035937344679931 0.9990062558360069 -0.02035937344679931 9.937441639930062E-4 0.02035937344679931
8.445983984661816E7 0.001011628169150501 0.0206616688881026 0.9989883718308494 -0.0206616688881026 0.9989883718308494 -0.0206616688881026 0.001011628169150501 0.0206616688881026
8.573445738807854E7 0.0010299227823152178 0.02096845875140819 0.9989700772176848 -0.02096845875140819 0.9989700772176848 -0.02096845875140819 0.0010299227823152178 0.02096845875140819
8.702831069744885E7 0.0010486394797035912 0.021279811184543865 0.9989513605202963 -0.021279811184543865 0.9989513605202963 -0.021279811184543865 0.0010486394797035912 0.021279811184543865
8.834169006946853E7 0.0010677901527848923 0.02159579534636591 0.9989322098472149 -0.02159579534636591 0.9989322098472149 -0.02159579534636591 0.0010677901527848923 0.02159579534636591
8.96748901798321E7 0.0010873871209431992 0.021916481417054677 0.9989126128790569 -0.021916481417054677 0.9989126128790569 -0.021916481417054677 0.0010873871209431992 0.021916481417054677
9.1028210151304E7 0.0011074431442916277 0.022241940608425985 0.9988925568557083 -0.022241940608425985 0.9988925568557083 -0.022241940608425985 0.0011074431442916277 0.022241940608425985
9.240195362083109E7 0.0011279714366413554 0.022572245174266335 0.9988720285633585 -0.02257224517426633 0.9988720285633585 -0.02257224517426633 0.0011279714366413554 0.022572245174266335
9.379642880766791E7 0.0011489856786288954 0.022907468420700815 0.998851014321371 -0.022907468420700818 0.998851014321371 -0.022907468420700818 0.0011489856786288954 0.022907468420700815
9.521194858253023E7 0.0011705000310059117 0.023247684716602043 0.9988294999689941 -0.023247684716602043 0.9988294999689941 -0.023247684716602043 0.0011705000310059117 0.023247684716602043
9.664883053779216E7 0.0011925291480967787 0.023592969504048582 0.9988074708519031 -0.023592969504048582 0.9988074708519031 -0.023592969504048582 0.0011925291480967787 0.023592969504048582
9.810739705874248E7 0.0012150881914299303 0.023943399308841404 0.99878491180857 -0.023943399308841404 0.99878491180857 -0.023943399308841404 0.0012150881914299303 0.023943399308841404
9.958797539591652E7 0.0012381928435499074 0.02429905175108634 0.99876180715645 -0.02429905175108634 0.99876180715645 -0.02429905175108634 0.0012381928435499074 0.02429905175108634
1.0109089773851961E8 0.0012618593220178511 0.02466000555585084 0.9987381406779821 -0.02466000555585084 0.9987381406779821 -0.02466000555585084 0.0012618593220178511 0.02466000555585084
1.0261650128895843E8 0.001286104393608977 0.025026340563902516 0.9987138956063911 -0.025026340563902516 0.9987138956063911 -0.025026340563902516 0.001286104393608977 0.025026340563902516
1.0416512833849736E8 0.0013109453887163725 0.025398137742537064 0.9986890546112838 -0.02539813774253706 0.9986890546112838 -0.02539813774253706 0.0013109453887163725 0.025398137742537064
1.0573712634405641E8 0.00133640021597119 0.025775479196502513 0.9986635997840289 -0.02577547919650252 0.9986635997840289 -0.02577547919650252 0.00133640021597119 0.025775479196502513
1.0733284800616828E8 0.001362487377090029 0.026158448179026596 0.99863751262291 -0.02615844817902659 0.99863751262291 -0.02615844817902659 0.001362487377090029 0.026158448179026596
1.0895265134811176E8 0.0013892259819609763 0.02654712910295317 0.9986107740180391 -0.026547129102953173 0.9986107740180391 -0.026547129102953173 0.0013892259819609763 0.02654712910295317
1.1059689979623953E8 0.0014166357639804376 0.026941607551994016 0.9985833642360197 -0.02694160755199402 0.9985833642360197 -0.02694160755199402 0.0014166357639804376 0.026941607551994016
1.1226596226151802E8 0.0014447370956534333 0.02734197029210049 0.9985552629043465 -0.02734197029210049 0.9985552629043465 -0.02734197029210049 0.0014447370956534333 0.02734197029210049
1.1396021322229806E8 0.001473551004470679 0.027748305282960604 0.9985264489955292 -0.027748305282960604 0.9985264489955292 -0.027748305282960604 0.001473551004470679 0.027748305282960604
1.1568003280833441E8 0.0015030991890761956 0.02816070168962512 0.9984969008109239 -0.028160701689625114 0.9984969008109239 -0.028160701689625114 0.0015030991890761956 0.02816070168962512
1.1742580688607343E8 0.0015334040357397446 0.02857924989426665 0.9984665959642604 -0.02857924989426665 0.9984665959642604 -0.02857924989426665 0.0015334040357397446 0.02857924989426665
1.1919792714522783E8 0.0015644886351487998 0.029004041508075014 0.9984355113648513 -0.029004041508075014 0.9984355113648513 -0.029004041508075014 0.0015644886351487998 0.029004041508075014
1.2099679118665792E8 0.0015963767995351436 0.029435169383291132 0.998403623200465 -0.029435169383291132 0.998403623200465 -0.029435169383291132 0.0015963767995351436 0.029435169383291132
1.2282280261157903E8 0.001629093080151569 0.029872727625381772 0.9983709069198485 -0.029872727625381772 0.9983709069198485 -0.029872727625381772 0.001629093080151569 0.029872727625381772
1.2467637111211549E8 0.0016626627851145071 0.0303168116053567 0.9983373372148857 -0.030316811605356705 0.9983373372148857 -0.030316811605356705 0.0016626627851145071 0.0303168116053567
1.265579125632208E8 0.0016971119976286596 0.030767517972229073 0.9983028880023714 -0.030767517972229073 0.9983028880023714 -0.030767517972229073 0.0016971119976286596 0.030767517972229073
1.284678491159853E8 0.0017324675946100215 0.031224944665619776 0.99826753240539 -0.031224944665619776 0.99826753240539 -0.031224944665619776 0.0017324675946100215 0.031224944665619776
1.3040660929235186E8 0.0017687572657239137 0.031689190928505646 0.9982312427342758 -0.031689190928505646 0.9982312427342758 -0.031689190928505646 0.0017687572657239137 0.031689190928505646
1.3237462808126101E8 0.001806009532854873 0.03216035732011126 0.9981939904671451 -0.03216035732011126 0.9981939904671451 -0.03216035732011126 0.001806009532854873 0.03216035732011126
1.3437234703624701E8 0.0018442537700254333 0.03263854572894317 0.9981557462299745 -0.03263854572894317 0.9981557462299745 -0.03263854572894317 0.0018442537700254333 0.03263854572894317
1.364002143745067E8 0.00188352022378107 0.03312385938596569 0.998116479776219 -0.03312385938596568 0.998116479776219 -0.03312385938596568 0.00188352022378107 0.03312385938596569
1.3845868507746372E8 0.001923840034058739 0.033616402877916396 0.9980761599659413 -0.033616402877916396 0.9980761599659413 -0.033616402877916396 0.001923840034058739 0.033616402877916396
1.405482209928499E8 0.0019652452555565937 0.034116282160759286 0.9980347547444436 -0.034116282160759286 0.9980347547444436 -0.034116282160759286 0.0019652452555565937 0.034116282160759286
1.426692909383278E8 0.0020077688796227154 0.03462360457327323 0.9979922311203773 -0.03462360457327323 0.9979922311203773 -0.03462360457327323 0.0020077688796227154 0.03462360457327323
1.4482237080667645E8 0.0020514448566808447 0.03513847885077359 0.9979485551433194 -0.03513847885077359 0.9979485551433194 -0.03513847885077359 0.0020514448566808447 0.03513847885077359
1.4700794367256513E8 0.0020963081192112588 0.03566101513896339 0.9979036918807886 -0.035661015138963394 0.9979036918807886 -0.035661015138963394 0.0020963081192112588 0.03566101513896339
1.492264999009378E8 0.002142394605305266 0.036191325007911716 0.9978576053946949 -0.036191325007911716 0.9978576053946949 -0.036191325007911716 0.002142394605305266 0.036191325007911716
1.5147853725703382E8 0.002189741282811892 0.03672952146615549 0.9978102587171881 -0.03672952146615549 0.9978102587171881 -0.03672952146615549 0.002189741282811892 0.03672952146615549
1.5376456101806876E8 0.00223838617409571 0.03727571897492162 0.9977616138259042 -0.03727571897492162 0.9977616138259042 -0.03727571897492162 0.00223838617409571 0.03727571897492162
1.5608508408660066E8 0.002288368381424995 0.03783003346246576 0.997711631618575 -0.03783003346246576 0.997711631618575 -0.03783003346246576 0.002288368381424995 0.03783003346246576
1.5844062710560706E8 0.0023397281130097224 0.03839258233852394 0.9976602718869902 -0.038392582338523946 0.9976602718869902 -0.038392582338523946 0.0023397281130097224 0.03839258233852394
1.6083171857529896E8 0.0023925067097093303 0.038963484508873686 0.9976074932902909 -0.03896348450887369 0.9976074932902909 -0.03896348450887369 0.0023925067097093303 0.038963484508873686
1.632588949716973E8 0.0024467466724305592 0.0395428603900004 0.9975532533275694 -0.0395428603900004 0.9975532533275694 -0.0395428603900004 0.0024467466724305592 0.0395428603900004
1.6572270086699936E8 0.002502491690236168 0.0401308319238656 0.9974975083097638 -0.0401308319238656 0.9974975083097638 -0.0401308319238656 0.002502491690236168 0.0401308319238656
1.6822368905176118E8 0.002559786669185828 0.04072752259277282 0.9974402133308142 -0.04072752259277282 0.9974402133308142 -0.04072752259277282 0.002559786669185828 0.04072752259277282
1.7076242065892437E8 0.0026186777619311334 0.04133305743432753 0.9973813222380687 -0.04133305743432753 0.9973813222380687 -0.04133305743432753 0.0026186777619311334 0.04133305743432753
1.7333946528971428E8 0.0026792123980872657 0.04194756305648724 0.9973207876019128 -0.041947563056487246 0.9973207876019128 -0.041947563056487246 0.0026792123980872657 0.04194756305648724
1.7595540114143828E8 0.002741439315404629 0.04257116765269774 0.9972585606845953 -0.04257116765269774 0.9972585606845953 -0.04257116765269774 0.002741439315404629 0.04257116765269774
1.786108151372127E8 0.0028054085917645333 0.0432040010171119 0.9971945914082354 -0.0432040010171119 0.9971945914082354 -0.0432040010171119 0.0028054085917645333 0.0432040010171119
1.8130630305764765E8 0.0028711716780239174 0.04384619455988702 0.997128828321976 -0.04384619455988702 0.997128828321976 -0.04384619455988702 0.0028711716780239174 0.04384619455988702
1.840424696745189E8 0.002938781431735032 0.044497881322556845 0.9970612185682649 -0.044497881322556845 0.9970612185682649 -0.044497881322556845 0.002938781431735032 0.044497881322556845
1.8681992888645732E8 0.003008292151767095 0.045159195993474385 0.996991707848233 -0.045159195993474385 0.996991707848233 -0.045159195993474385 0.003008292151767095 0.045159195993474385
1.8963930385668582E8 0.003079759613858059 0.045830274923321576 0.9969202403861418 -0.04583027492332157 0.9969202403861418 -0.04583027492332157 0.003079759613858059 0.045830274923321576
1.92501227152835E8 0.003153241107125848 0.04651125614068162 0.996846758892874 -0.04651125614068162 0.996846758892874 -0.04651125614068162 0.003153241107125848 0.04651125614068162
1.9540634088886917E8 0.0032287954715697945 0.047202279367669873 0.9967712045284302 -0.047202279367669873 0.9967712045284302 -0.047202279367669873 0.0032287954715697945 0.047202279367669873
1.983552968691535E8 0.0033064831365944083 0.04790348603561861 0.9966935168634058 -0.04790348603561861 0.9966935168634058 -0.04790348603561861 0.0033064831365944083 0.04790348603561861
2.0134875673469606E8 0.003386366160589169 0.04861501930081132 0.9966136338394109 -0.04861501930081132 0.9966136338394109 -0.04861501930081132 0.003386366160589169 0.04861501930081132
2.0438739211159652E8 0.003468508271599659 0.04933702406026118 0.9965314917284004 -0.04933702406026118 0.9965314917284004 -0.04933702406026118 0.003468508271599659 0.04933702406026118
2.074718847617352E8 0.0035529749091271125 0.050069646967528456 0.9964470250908729 -0.050069646967528456 0.9964470250908729 -0.050069646967528456 0.0035529749091271125 0.050069646967528456
2.106029267357361E8 0.003639833267095247 0.05081303644857055 0.9963601667329046 -0.05081303644857054 0.9963601667329046 -0.05081303644857054 0.003639833267095247 0.05081303644857055
2.1378122052823865E8 0.003729152338025351 0.051567342717618855 0.9962708476619746 -0.05156734271761887 0.9962708476619746 -0.05156734271761887 0.003729152338025351 0.051567342717618855
2.1700747923551247E8 0.0038210029584624054 0.05233271779307411 0.9961789970415376 -0.05233271779307409 0.9961789970415376 -0.05233271779307409 0.0038210029584624054 0.05233271779307411
2.2028242671545094E8 0.0039154578556974615 0.05310931551341293 0.9960845421443024 -0.05310931551341293 0.9960845421443024 -0.05310931551341293 0.0039154578556974615 0.05310931551341293
2.23606797749979E8 0.004012591695833507 0.05389729155309612 0.9959874083041664 -0.05389729155309612 0.9959874083041664 -0.05389729155309612 0.004012591695833507 0.05389729155309612
2.2698133820991236E8 0.004112481133244613 0.05469680343846848 0.9958875188667553 -0.05469680343846848 0.9958875188667553 -0.05469680343846848 0.004112481133244613 0.05469680343846848
2.3040680522230446E8 0.004215204861480395 0.055508010563638466 0.9957847951385197 -0.05550801056363846 0.9957847951385197 -0.05550801056363846 0.004215204861480395 0.055508010563638466
2.338839673403185E8 0.004320843665670564 0.056331074206324765 0.9956791563343294 -0.056331074206324765 0.9956791563343294 -0.056331074206324765 0.004320843665670564 0.056331074206324765
2.37413604715664E8 0.0044294804764867975 0.05716615754365531 0.9955705195235132 -0.05716615754365531 0.9955705195235132 -0.05716615754365531 0.0044294804764867975 0.05716615754365531
2.4099650927363476E8 0.004541200425721903 0.058013425667901596 0.995458799574278 -0.05801342566790158 0.995458799574278 -0.05801342566790158 0.004541200425721903 0.058013425667901596
