!Murata Part Number: GCM32ED70E227ME36
!These Parameters are Measured in Series Mode Connection
!       o--ll--o
!Port1            Port2
!       o------o
!Operation Temp=25[degC], DC Bias Voltage=0[V]
!Freq. Start=100[Hz] Stop=6[GHz], 401[Steps]
!Data Generated on Feb 1, 2024
# Hz S RI R 50
!Freq.(Hz) S11(Real) S11(Imag) S21(Real) S21(Imag) S12(Real) S12(Imag) S22(Real) S22(Imag)
100.0 0.01008594602025378 -0.09484210953204801 0.9899140539797459 0.09484210953204801 0.9899140539797459 0.09484210953204801 0.01008594602025378 -0.09484210953204801
104.57921513303334 0.009291040505924518 -0.09079549854903711 0.9907089594940754 0.09079549854903711 0.9907089594940754 0.09079549854903711 0.009291040505924518 -0.09079549854903711
109.3681223784127 0.008560500446472748 -0.08691626824862361 0.9914394995535274 0.08691626824862361 0.9914394995535274 0.08691626824862361 0.008560500446472748 -0.08691626824862361
114.3763239890794 0.007889077990268526 -0.08319816247750313 0.9921109220097314 0.08319816247750313 0.9921109220097314 0.08319816247750313 0.007889077990268526 -0.08319816247750313
119.61386192579457 0.007271944281594965 -0.07963507398527558 0.9927280557184052 0.07963507398527558 0.9927280557184052 0.07963507398527558 0.007271944281594965 -0.07963507398527558
125.09123799230618 0.006704657444851334 -0.07622105214278223 0.9932953425551487 0.07622105214278223 0.9932953425551487 0.07622105214278223 0.006704657444851334 -0.07622105214278223
130.8194348925486 0.006183132907196988 -0.07295030859897698 0.9938168670928033 0.07295030859897698 0.9938168670928033 0.07295030859897698 0.006183132907196988 -0.07295030859897698
136.8099382520969 0.005703615938123231 -0.06981722121667888 0.9942963840618768 0.06981722121667888 0.9942963840618768 0.06981722121667888 0.005703615938123231 -0.06981722121667888
143.0747596480305 0.005262656268763127 -0.06681633658145343 0.994737343731237 0.06681633658145343 0.994737343731237 0.06681633658145343 0.005262656268763127 -0.06681633658145343
149.6264606933842 0.004857084644384588 -0.06394237133430382 0.9951429153556155 0.06394237133430382 0.9951429153556155 0.06394237133430382 0.004857084644384588 -0.06394237133430382
156.47817822447783 0.004483991159761287 -0.06119021253839239 0.9955160088402387 0.06119021253839239 0.9955160088402387 0.06119021253839239 0.004483991159761287 -0.06119021253839239
163.643650641628 0.004140705228229988 -0.058554917253096486 0.9958592947717698 0.058554917253096486 0.9958592947717698 0.058554917253096486 0.004140705228229988 -0.058554917253096486
171.13724545605763 0.003824777040448166 -0.05603171145568378 0.9961752229595516 0.05603171145568378 0.9961752229595516 0.05603171145568378 0.003824777040448166 -0.05603171145568378
178.97398809823787 0.003533960377377616 -0.05361598842200266 0.9964660396226224 0.05361598842200266 0.9964660396226224 0.05361598842200266 0.003533960377377616 -0.05361598842200266
187.1695920454257 0.003266196653053724 -0.05130330665295248 0.9967338033469463 0.05130330665295248 0.9967338033469463 0.05130330665295248 0.003266196653053724 -0.05130330665295248
195.74049032880657 0.00301960007548326 -0.04908938741316231 0.9969803999245166 0.04908938741316231 0.9969803999245166 0.04908938741316231 0.00301960007548326 -0.04908938741316231
204.70386848341695 0.002792443827788982 -0.04697011193218079 0.9972075561722109 0.04697011193218079 0.9972075561722109 0.04697011193218079 0.002792443827788982 -0.04697011193218079
214.0776990069143 0.0025831471857617415 -0.04494151830638863 0.9974168528142382 0.04494151830638863 0.9974168528142382 0.04494151830638863 0.0025831471857617415 -0.04494151830638863
223.88077739628844 0.002390263501610704 -0.04299979813148516 0.9976097364983892 0.04299979813148516 0.9976097364983892 0.04299979813148516 0.002390263501610704 -0.04299979813148516
234.132759834772 0.0022124689963117297 -0.04114129289037212 0.9977875310036883 0.04114129289037212 0.9977875310036883 0.04114129289037212 0.0022124689963117297 -0.04114129289037212
244.85420260451448 0.0020485523140316235 -0.039362490119044885 0.9979514476859683 0.039362490119044885 0.9979514476859683 0.039362490119044885 0.0020485523140316235 -0.039362490119044885
256.06660330404856 0.001897404801266584 -0.037660019373116436 0.9981025951987333 0.037660019373116436 0.9981025951987333 0.037660019373116436 0.001897404801266584 -0.037660019373116436
267.792443953192 0.001758011480339327 -0.03603064801919169 0.9982419885196608 0.03603064801919169 0.9982419885196608 0.03603064801919169 0.001758011480339327 -0.03603064801919169
280.0552360718164 0.0016294426916758794 -0.03447127687782169 0.998370557308324 0.03447127687782169 0.998370557308324 0.03447127687782169 0.0016294426916758794 -0.03447127687782169
292.87956782286926 0.0015108463819166647 -0.03297893574756565 0.9984891536180833 0.03297893574756565 0.9984891536180833 0.03297893574756565 0.0015108463819166647 -0.03297893574756565
306.2911533141767 0.0014014410156415436 -0.03155077884221906 0.9985985589843586 0.03155077884221906 0.9985985589843586 0.03155077884221906 0.0014014410156415436 -0.03155077884221906
320.3168841578819 0.0013005090876572834 -0.030184080175081073 0.9986994909123426 0.030184080175081073 0.9986994909123426 0.030184080175081073 0.0013005090876572834 -0.030184080175081073
334.9848833909005 0.0012073912108396738 -0.02887622892492675 0.9987926087891603 0.02887622892492675 0.9987926087891603 0.02887622892492675 0.0012073912108396738 -0.02887622892492675
350.32456186451077 0.0011214807519049777 -0.027624724817957216 0.9988785192480949 0.027624724817957216 0.9988785192480949 0.027624724817957216 0.0011214807519049777 -0.027624724817957216
366.36667721614316 0.0010422189846583591 -0.02642717355840706 0.9989577810153417 0.02642717355840706 0.9989577810153417 0.02642717355840706 0.0010422189846583591 -0.02642717355840706
383.1433955416162 9.690907276300977E-4 -0.025281282337799416 0.9990309092723699 0.025281282337799416 0.9990309092723699 0.025281282337799416 9.690907276300977E-4 -0.025281282337799416
400.68835589147574 9.016204308824586E-4 -0.024184855449257893 0.9990983795691175 0.024184855449257893 0.9990983795691175 0.024184855449257893 9.016204308824586E-4 -0.024184855449257893
419.03673772076064 8.393686753712972E-4 -0.02313579002907324 0.9991606313246287 0.02313579002907324 0.9991606313246287 0.02313579002907324 8.393686753712972E-4 -0.02313579002907324
438.225331427439 7.819290476947944E-4 -0.02213207194317149 0.9992180709523052 0.02213207194317149 0.9992180709523052 0.02213207194317149 7.819290476947944E-4 -0.02213207194317149
458.2926121209498 7.289253533791619E-4 -0.021171771831519054 0.9992710746466208 0.021171771831519054 0.9992710746466208 0.021171771831519054 7.289253533791619E-4 -0.021171771831519054
479.2788167687661 6.800091329795478E-4 -0.020253041319080477 0.9993199908670205 0.020253041319080477 0.9993199908670205 0.020253041319080477 6.800091329795478E-4 -0.020253041319080477
501.22602487566456 6.34857447095284E-4 -0.019374109397915402 0.9993651425529049 0.019374109397915402 0.9993651425529049 0.019374109397915402 6.34857447095284E-4 -0.019374109397915402
524.1782428574726 5.93170898755662E-4 -0.018533278981506217 0.9994068291012445 0.018533278981506217 0.9994068291012445 0.018533278981506217 5.93170898755662E-4 -0.018533278981506217
548.1814922784702 5.546718643520123E-4 -0.017728923629528125 0.9994453281356482 0.017728923629528125 0.9994453281356482 0.017728923629528125 5.546718643520123E-4 -0.017728923629528125
573.2839021293739 5.191029072013938E-4 -0.0169594844390378 0.9994808970927987 0.0169594844390378 0.9994808970927987 0.0169594844390378 5.191029072013938E-4 -0.0169594844390378
599.5358053309263 4.862253507685681E-4 -0.016223467096445527 0.9995137746492315 0.016223467096445527 0.9995137746492315 0.016223467096445527 4.862253507685681E-4 -0.016223467096445527
626.9898396565933 4.558179914121314E-4 -0.015519439083592925 0.9995441820085881 0.015519439083592925 0.9995441820085881 0.015519439083592925 4.558179914121314E-4 -0.015519439083592925
655.7010532767296 4.276759331528294E-4 -0.0148460270307042 0.9995723240668469 0.0148460270307042 0.9995723240668469 0.0148460270307042 4.276759331528294E-4 -0.0148460270307042
685.7270151358366 4.016095293133591E-4 -0.01420191420881649 0.9995983904706867 0.01420191420881649 0.9995983904706867 0.01420191420881649 4.016095293133591E-4 -0.01420191420881649
717.1279303842347 3.774434179056675E-4 -0.013585838154422816 0.9996225565820943 0.013585838154422816 0.9996225565820943 0.013585838154422816 3.774434179056675E-4 -0.013585838154422816
749.9667610955984 3.550156393280277E-4 -0.012996588419378867 0.9996449843606721 0.012996588419378867 0.9996449843606721 0.012996588419378867 3.550156393280277E-4 -0.012996588419378867
784.3093525124082 3.341768262883002E-4 -0.012433004439538273 0.9996658231737117 0.012433004439538273 0.9996658231737117 0.012433004439538273 3.341768262883002E-4 -0.012433004439538273
820.2245650724522 3.1478945692048934E-4 -0.011893973516007756 0.9996852105430797 0.011893973516007756 0.9996852105430797 0.011893973516007756 3.1478945692048934E-4 -0.011893973516007756
857.7844124811068 2.9672716285391367E-4 -0.011378428903285534 0.9997032728371462 0.011378428903285534 0.9997032728371462 0.011378428903285534 2.9672716285391367E-4 -0.011378428903285534
897.0642061062428 2.798740845851141E-4 -0.010885347998811884 0.9997201259154148 0.010885347998811884 0.9997201259154148 0.010885347998811884 2.798740845851141E-4 -0.010885347998811884
938.1427059852851 2.6412426695702937E-4 -0.010413750628586873 0.999735875733043 0.010413750628586873 0.999735875733043 0.010413750628586873 2.6412426695702937E-4 -0.010413750628586873
981.102278747212 2.4938108793652055E-4 -0.009962697423483127 0.9997506189120635 0.009962697423483127 0.9997506189120635 0.009962697423483127 2.4938108793652055E-4 -0.009962697423483127
1026.0290627661395 2.3555671426744884E-4 -0.009531288280706495 0.9997644432857328 0.009531288280706495 0.9997644432857328 0.009531288280706495 2.3555671426744884E-4 -0.009531288280706495
1073.0131408776467 2.2257157802366923E-4 -0.0091186609045599 0.9997774284219764 0.0091186609045599 0.9997774284219764 0.0091186609045599 2.2257157802366923E-4 -0.0091186609045599
1122.1487210041523 2.1035386864495066E-4 -0.008723989420286574 0.9997896461313551 0.008723989420286574 0.9997896461313551 0.008723989420286574 2.1035386864495066E-4 -0.008723989420286574
1173.5343250515148 1.988390357438202E-4 -0.008346483054364594 0.9998011609642563 0.008346483054364594 0.9998011609642563 0.008346483054364594 1.988390357438202E-4 -0.008346483054364594
1227.2729864556143 1.8796929883786514E-4 -0.007985384874259052 0.9998120307011622 0.007985384874259052 0.9998120307011622 0.007985384874259052 1.8796929883786514E-4 -0.007985384874259052
1283.4724567750195 1.776931611832081E-4 -0.007639970580379171 0.9998223068388168 0.007639970580379171 0.9998223068388168 0.007639970580379171 1.776931611832081E-4 -0.007639970580379171
1342.245421743976 1.6796492603106012E-4 -0.007309547342898237 0.9998320350739691 0.007309547342898237 0.9998320350739691 0.007309547342898237 1.6796492603106012E-4 -0.007309547342898237
1403.7097272189235 1.5874421484990376E-4 -0.006993452676225967 0.99984125578515 0.006993452676225967 0.99984125578515 0.006993452676225967 1.5874421484990376E-4 -0.006993452676225967
1467.9886154715937 1.4999548828390245E-4 -0.006691053344308788 0.999850004511716 0.006691053344308788 0.999850004511716 0.006691053344308788 1.4999548828390245E-4 -0.006691053344308788
1535.2109723024755 1.4168757177673676E-4 -0.006401744290583411 0.9998583124282233 0.006401744290583411 0.9998583124282233 0.006401744290583411 1.4168757177673676E-4 -0.006401744290583411
1605.5115854701387 1.3379318880091704E-4 -0.006124947587306686 0.999866206811199 0.006124947587306686 0.999866206811199 0.006124947587306686 1.3379318880091704E-4 -0.006124947587306686
1679.0314149545911 1.262885054250141E-4 -0.005860111400088097 0.9998737114945748 0.005860111400088097 0.9998737114945748 0.005860111400088097 1.262885054250141E-4 -0.005860111400088097
1755.9178755965756 1.1915269047038496E-4 -0.005606708964697463 0.9998808473095296 0.005606708964697463 0.9998808473095296 0.005606708964697463 1.1915269047038496E-4 -0.005606708964697463
1836.3251326795319 1.1236749572249034E-4 -0.005364237574530756 0.9998876325042774 0.005364237574530756 0.9998876325042774 0.005364237574530756 1.1236749572249034E-4 -0.005364237574530756
1920.4144110468878 1.0591686056356352E-4 -0.005132217578407461 0.9998940831394364 0.005132217578407461 0.9998940831394364 0.005132217578407461 1.0591686056356352E-4 -0.005132217578407461
2008.3543183745 9.978654500331953E-5 -0.004910191389560944 0.9999002134549966 0.004910191389560944 0.9999002134549966 0.004910191389560944 9.978654500331953E-5 -0.004910191389560944
2100.321183246434 9.396379444606363E-5 -0.004697722507699705 0.999906036205554 0.004697722507699705 0.999906036205554 0.004697722507699705 9.396379444606363E-5 -0.004697722507699705
2196.4994087119585 8.843703870698116E-5 -0.004494394556808695 0.9999115629612929 0.004494394556808695 0.9999115629612929 0.004494394556808695 8.843703870698116E-5 -0.004494394556808695
2297.0818420326846 8.319562684863438E-5 -0.0042998103418968436 0.9999168043731513 0.0042998103418968436 0.9999168043731513 0.0042998103418968436 8.319562684863438E-5 -0.0042998103418968436
2402.270161361206 7.822959842387698E-5 -0.004113590928171464 0.9999217704015761 0.004113590928171464 0.9999217704015761 0.004113590928171464 7.822959842387698E-5 -0.004113590928171464
2512.2752801266033 7.352949075141568E-5 -0.0039353747461459586 0.9999264705092485 0.0039353747461459586 0.9999264705092485 0.0039353747461459586 7.352949075141568E-5 -0.0039353747461459586
2627.3177699376165 6.90861809720973E-5 -0.0037648167259946804 0.9999309138190279 0.0037648167259946804 0.9999309138190279 0.0037648167259946804 6.90861809720973E-5 -0.0037648167259946804
2747.6283028514745 6.489076088024558E-5 -0.003601587464099106 0.9999351092391199 0.003601587464099106 0.9999351092391199 0.003601587464099106 6.489076088024558E-5 -0.003601587464099106
2873.4481138951564 6.0934441921879255E-5 -0.0034453724242307178 0.9999390655580782 0.0034453724242307178 0.9999390655580782 0.0034453724242307178 6.0934441921879255E-5 -0.0034453724242307178
3005.0294847665045 5.7208487312233716E-5 -0.0032958711752355506 0.9999427915126877 0.0032958711752355506 0.9999427915126877 0.0032958711752355506 5.7208487312233716E-5 -0.0032958711752355506
3142.6362496850466 5.370416794757206E-5 -0.0031527966664682805 0.9999462958320525 0.0031527966664682805 0.9999462958320525 0.0031527966664682805 5.370416794757206E-5 -0.0031527966664682805
3286.544324406816 5.041273865968823E-5 -0.0030158745416077296 0.9999495872613403 0.0030158745416077296 0.9999495872613403 0.0030158745416077296 5.041273865968823E-5 -0.0030158745416077296
3437.0422594639017 4.7325431367788506E-5 -0.002884842490901823 0.9999526745686322 0.002884842490901823 0.9999526745686322 0.002884842490901823 4.7325431367788506E-5 -0.002884842490901823
3594.431818738024 4.44334617996816E-5 -0.0027594496413602216 0.9999555665382004 0.0027594496413602216 0.9999555665382004 0.0027594496413602216 4.44334617996816E-5 -0.0027594496413602216
3759.0285845282415 4.1728046659025647E-5 -0.002639455983952408 0.999958271953341 0.002639455983952408 0.999958271953341 0.002639455983952408 4.1728046659025647E-5 -0.002639455983952408
3931.162590326006 3.920042838474116E-5 -0.002524631836485979 0.9999607995716154 0.002524631836485979 0.9999607995716154 0.002524631836485979 3.920042838474116E-5 -0.002524631836485979
4111.17898256636 3.6841904961182314E-5 -0.0024147573405370933 0.999963158095039 0.0024147573405370933 0.999963158095039 0.0024147573405370933 3.6841904961182314E-5 -0.0024147573405370933
4299.438712682125 3.4643862574199974E-5 -0.002309621990581283 0.9999653561374259 0.002309621990581283 0.9999653561374259 0.002309621990581283 3.4643862574199974E-5 -0.002309621990581283
4496.31926084876 3.25978092524941E-5 -0.002209024193323099 0.9999674021907474 0.002209024193323099 0.9999674021907474 0.002209024193323099 3.25978092524941E-5 -0.002209024193323099
4702.215392871039 3.06954079721668E-5 -0.0021127708551411544 0.999969304592028 0.0021127708551411544 0.999969304592028 0.0021127708551411544 3.06954079721668E-5 -0.0021127708551411544
4917.539951729213 2.8928508024469038E-5 -0.002020676995542205 0.9999710714919756 0.002020676995542205 0.9999710714919756 0.002020676995542205 2.8928508024469038E-5 -0.002020676995542205
5142.724685371758 2.7289173744375816E-5 -0.0019325653845453255 0.9999727108262557 0.0019325653845453255 0.9999727108262557 0.0019325653845453255 2.7289173744375816E-5 -0.0019325653845453255
5378.221112414543 2.5769709965253068E-5 -0.0018482662019854805 0.9999742302900346 0.0018482662019854805 0.9999742302900346 0.0018482662019854805 2.5769709965253068E-5 -0.0018482662019854805
5624.501427482224 2.4362683799130066E-5 -0.0017676167168257516 0.999975637316201 0.0017676167168257516 0.999975637316201 0.0017676167168257516 2.4362683799130066E-5 -0.0017676167168257516
5882.059448007167 2.306094254150089E-5 -0.0016904609846904734 0.9999769390574585 0.0016904609846904734 0.9999769390574585 0.0016904609846904734 2.306094254150089E-5 -0.0016904609846904734
6151.41160438433 2.185762766430035E-5 -0.0016166495619696442 0.9999781423723357 0.0016166495619696442 0.9999781423723357 0.0016166495619696442 2.185762766430035E-5 -0.0016166495619696442
6433.097975467465 2.0746184992174595E-5 -0.0015460392349912091 0.9999792538150079 0.0015460392349912091 0.9999792538150079 0.0015460392349912091 2.0746184992174595E-5 -0.0015460392349912091
6727.683371482931 1.972037125781446E-5 -0.0014784927629062836 0.999980279628742 0.0014784927629062836 0.999980279628742 0.0014784927629062836 1.972037125781446E-5 -0.0014784927629062836
7035.758466532445 1.8774257305038824E-5 -0.001413878633078279 0.999981225742695 0.001413878633078279 0.999981225742695 0.001413878633078279 1.8774257305038824E-5 -0.001413878633078279
7357.940982955574 1.7902228257005618E-5 -0.0013520708279064289 0.9999820977717431 0.0013520708279064289 0.9999820977717431 0.0013520708279064289 1.7902228257005618E-5 -0.0013520708279064289
7694.876929926739 1.7098980995057202E-5 -0.0012929486021446832 0.9999829010190049 0.0012929486021446832 0.9999829010190049 0.0012929486021446832 1.7098980995057202E-5 -0.0012929486021446832
8047.241898770236 1.6359519304909957E-5 -0.0012363962698966541 0.999983640480695 0.0012363962698966541 0.999983640480695 0.0012363962698966541 1.6359519304909957E-5 -0.0012363962698966541
8415.742417590522 1.5679147044627295E-5 -0.0011823030005750075 0.9999843208529554 0.0011823030005750075 0.9999843208529554 0.0011823030005750075 1.5679147044627295E-5 -0.0011823030005750075
8801.117367933934 1.505345967623646E-5 -0.0011305626232092794 0.9999849465403238 0.0011305626232092794 0.9999849465403238 0.0011305626232092794 1.505345967623646E-5 -0.0011305626232092794
9204.139466322391 1.4478334482765208E-5 -0.0010810734385695777 0.9999855216655175 0.0010810734385695777 0.9999855216655175 0.0010810734385695777 1.4478334482765208E-5 -0.0010810734385695777
9625.61681362972 1.39499197673007E-5 -0.0010337380386455373 0.9999860500802327 0.0010337380386455373 0.9999860500802327 0.0010337380386455373 1.39499197673007E-5 -0.0010337380386455373
10066.394515407255 1.3464623302424882E-5 -9.88463133081137E-4 0.9999865353766976 9.88463133081137E-4 0.9999865353766976 9.88463133081137E-4 1.3464623302424882E-5 -9.88463133081137E-4
10527.356376407623 1.3019100268692173E-5 -9.451593822174165E-4 0.9999869808997315 9.451593822174165E-4 0.9999869808997315 9.451593822174165E-4 1.3019100268692173E-5 -9.451593822174165E-4
