!Murata Part Number: GRM21BR60E107ME15
!These Parameters are Measured in Series Mode Connection
!       o--ll--o
!Port1            Port2
!       o------o
!Operation Temp=25[degC], DC Bias Voltage=0[V]
!Freq. Start=100[Hz] Stop=6[GHz], 401[Steps]
!Data Generated on Oct 1, 2020
# Hz S RI R 50
!Freq.(Hz) S11(Real) S11(Imag) S21(Real) S21(Imag) S12(Real) S12(Imag) S22(Real) S22(Imag)
100.0 0.0484485913746017 -0.20977762611077244 0.9515514086253982 0.20977762611077244 0.9515514086253982 0.20977762611077244 0.0484485913746017 -0.20977762611077244
104.57921513303334 0.044583988296870734 -0.20148265846699576 0.9554160117031295 0.20148265846699576 0.9554160117031295 0.20148265846699576 0.044583988296870734 -0.20148265846699576
109.3681223784127 0.04101679245714079 -0.19344976238660222 0.9589832075428594 0.19344976238660222 0.9589832075428594 0.19344976238660222 0.04101679245714079 -0.19344976238660222
114.3763239890794 0.03772636583304736 -0.18567866247418213 0.9622736341669526 0.18567866247418213 0.9622736341669526 0.18567866247418213 0.03772636583304736 -0.18567866247418213
119.61386192579457 0.03469315339180059 -0.17816796037274446 0.9653068466081993 0.17816796037274446 0.9653068466081993 0.17816796037274446 0.03469315339180059 -0.17816796037274446
125.09123799230618 0.03189867944993577 -0.17091528148868051 0.9681013205500641 0.17091528148868051 0.9681013205500641 0.17091528148868051 0.03189867944993577 -0.17091528148868051
130.8194348925486 0.029325533949432086 -0.1639174098298999 0.9706744660505678 0.1639174098298999 0.9706744660505678 0.1639174098298999 0.029325533949432086 -0.1639174098298999
136.8099382520969 0.0269573505071292 -0.15717041122337505 0.9730426494928707 0.15717041122337505 0.9730426494928707 0.15717041122337505 0.0269573505071292 -0.15717041122337505
143.0747596480305 0.024778777882823472 -0.15066974530810065 0.9752212221171765 0.15066974530810065 0.9752212221171765 0.15066974530810065 0.024778777882823472 -0.15066974530810065
149.6264606933842 0.022775446312874693 -0.14441036679675306 0.9772245536871254 0.14441036679675306 0.9772245536871254 0.14441036679675306 0.022775446312874693 -0.14441036679675306
156.47817822447783 0.02093392997151042 -0.1383868165693109 0.9790660700284897 0.1383868165693109 0.9790660700284897 0.1383868165693109 0.02093392997151042 -0.1383868165693109
163.643650641628 0.019241706651699098 -0.13259330320900384 0.9807582933483008 0.13259330320900384 0.9807582933483008 0.13259330320900384 0.019241706651699098 -0.13259330320900384
171.13724545605763 0.01768711560155349 -0.12702377561905268 0.9823128843984464 0.12702377561905268 0.9823128843984464 0.12702377561905268 0.01768711560155349 -0.12702377561905268
178.97398809823787 0.01625931431053114 -0.12167198737109099 0.9837406856894688 0.12167198737109099 0.9837406856894688 0.12167198737109099 0.01625931431053114 -0.12167198737109099
187.1695920454257 0.014948234911823587 -0.1165315534358213 0.9850517650881766 0.1165315534358213 0.9850517650881766 0.1165315534358213 0.014948234911823587 -0.1165315534358213
195.74049032880657 0.013744540752715459 -0.11159599993588341 0.9862554592472844 0.11159599993588341 0.9862554592472844 0.11159599993588341 0.013744540752715459 -0.11159599993588341
204.70386848341695 0.012639583582670384 -0.10685880754227083 0.9873604164173295 0.10685880754227083 0.9873604164173295 0.10685880754227083 0.012639583582670384 -0.10685880754227083
214.0776990069143 0.011625361718697757 -0.1023134491107973 0.9883746382813023 0.1023134491107973 0.9883746382813023 0.1023134491107973 0.011625361718697757 -0.1023134491107973
223.88077739628844 0.010694479468348974 -0.0979534221256541 0.989305520531651 0.0979534221256541 0.989305520531651 0.0979534221256541 0.010694479468348974 -0.0979534221256541
234.132759834772 0.009840108021640582 -0.09377227648434608 0.9901598919783593 0.09377227648434608 0.9901598919783593 0.09377227648434608 0.009840108021640582 -0.09377227648434608
244.85420260451448 0.009055947963460155 -0.08976363812331874 0.9909440520365399 0.08976363812331874 0.9909440520365399 0.08976363812331874 0.009055947963460155 -0.08976363812331874
256.06660330404856 0.008336193506768008 -0.08592122894728303 0.9916638064932318 0.08592122894728303 0.9916638064932318 0.08592122894728303 0.008336193506768008 -0.08592122894728303
267.792443953192 0.007675498503402934 -0.08223888348831386 0.9923245014965969 0.08223888348831386 0.9923245014965969 0.08223888348831386 0.007675498503402934 -0.08223888348831386
280.0552360718164 0.00706894425283552 -0.0787105626838083 0.9929310557471646 0.0787105626838083 0.9929310557471646 0.0787105626838083 0.00706894425283552 -0.0787105626838083
292.87956782286926 0.0065120090991670175 -0.07533036512581251 0.993487990900833 0.07533036512581251 0.993487990900833 0.07533036512581251 0.0065120090991670175 -0.07533036512581251
306.2911533141767 0.0060005397824917745 -0.07209253609844166 0.9939994602175084 0.07209253609844166 0.9939994602175084 0.07209253609844166 0.0060005397824917745 -0.07209253609844166
320.3168841578819 0.005530724491940919 -0.06899147468548758 0.9944692755080592 0.06899147468548758 0.9944692755080592 0.06899147468548758 0.005530724491940919 -0.06899147468548758
334.9848833909005 0.005099067553860546 -0.0660217391971535 0.9949009324461393 0.0660217391971535 0.9949009324461393 0.0660217391971535 0.005099067553860546 -0.0660217391971535
350.32456186451077 0.004702365679232095 -0.06317805113351499 0.9952976343207679 0.06317805113351499 0.9952976343207679 0.06317805113351499 0.004702365679232095 -0.06317805113351499
366.36667721614316 0.004337685689193462 -0.060455297873107675 0.9956623143108064 0.060455297873107675 0.9956623143108064 0.060455297873107675 0.004337685689193462 -0.060455297873107675
383.1433955416162 0.004002343635916378 -0.05784853424832685 0.9959976563640834 0.05784853424832685 0.9959976563640834 0.05784853424832685 0.004002343635916378 -0.05784853424832685
400.68835589147574 0.0036938852376361803 -0.055352983145403295 0.996306114762364 0.055352983145403295 0.996306114762364 0.055352983145403295 0.0036938852376361803 -0.055352983145403295
419.03673772076064 0.003410067550747782 -0.052964035245868374 0.9965899324492523 0.052964035245868374 0.9965899324492523 0.052964035245868374 0.003410067550747782 -0.052964035245868374
438.225331427439 0.0031488418079444512 -0.050677248008836655 0.9968511581920557 0.050677248008836655 0.9968511581920557 0.050677248008836655 0.0031488418079444512 -0.050677248008836655
458.2926121209498 0.00290833735870072 -0.04848834397920269 0.9970916626412994 0.04848834397920269 0.9970916626412994 0.04848834397920269 0.00290833735870072 -0.04848834397920269
479.2788167687661 0.0026868466562806298 -0.04639320849591664 0.9973131533437196 0.04639320849591664 0.9973131533437196 0.04639320849591664 0.0026868466562806298 -0.04639320849591664
501.22602487566456 0.0024828112431996706 -0.04438788686667211 0.9975171887568005 0.04438788686667211 0.9975171887568005 0.04438788686667211 0.0024828112431996706 -0.04438788686667211
524.1782428574726 0.0022948086940594737 -0.042468581070246626 0.9977051913059404 0.042468581070246626 0.9977051913059404 0.042468581070246626 0.0022948086940594737 -0.042468581070246626
548.1814922784702 0.0021215404803987515 -0.04063164604488737 0.9978784595196011 0.04063164604488737 0.9978784595196011 0.04063164604488737 0.0021215404803987515 -0.04063164604488737
573.2839021293739 0.001961820726305734 -0.03887358561993614 0.9980381792736943 0.03887358561993614 0.9980381792736943 0.03887358561993614 0.001961820726305734 -0.03887358561993614
599.5358053309263 0.0018145658258404663 -0.037191048147694646 0.9981854341741596 0.037191048147694646 0.9981854341741596 0.037191048147694646 0.0018145658258404663 -0.037191048147694646
626.9898396565933 0.0016787848938308535 -0.035580821892699566 0.9983212151061691 0.035580821892699566 0.9983212151061691 0.035580821892699566 0.0016787848938308535 -0.035580821892699566
655.7010532767296 0.0015535710205206222 -0.034039830235534765 0.9984464289794791 0.034039830235534765 0.9984464289794791 0.034039830235534765 0.0015535710205206222 -0.034039830235534765
685.7270151358366 0.001438093298188613 -0.03256512674758794 0.9985619067018117 0.03256512674758794 0.9985619067018117 0.03256512674758794 0.001438093298188613 -0.03256512674758794
717.1279303842347 0.0013315895846519935 -0.031153890191441606 0.9986684104153479 0.031153890191441606 0.9986684104153479 0.031153890191441606 0.0013315895846519935 -0.031153890191441606
749.9667610955984 0.0012333599649789583 -0.029803419498717173 0.9987666400350211 0.029803419498717173 0.9987666400350211 0.029803419498717173 0.0012333599649789583 -0.029803419498717173
784.3093525124082 0.0011427608692266198 -0.028511128773162246 0.9988572391307734 0.028511128773162246 0.9988572391307734 0.028511128773162246 0.0011427608692266198 -0.028511128773162246
820.2245650724522 0.0010591998009882998 -0.02727454236172271 0.9989408001990119 0.02727454236172271 0.9989408001990119 0.02727454236172271 0.0010591998009882998 -0.02727454236172271
857.7844124811068 9.821306292917271E-4 -0.02609129003050667 0.9990178693707082 0.02609129003050667 0.9990178693707082 0.02609129003050667 9.821306292917271E-4 -0.02609129003050667
897.0642061062428 9.110493951370875E-4 -0.02495910227623136 0.9990889506048629 0.02495910227623136 0.9990889506048629 0.02495910227623136 9.110493951370875E-4 -0.02495910227623136
938.1427059852851 8.454905837888019E-4 -0.023875805797264386 0.9991545094162113 0.023875805797264386 0.9991545094162113 0.023875805797264386 8.454905837888019E-4 -0.023875805797264386
981.102278747212 7.850238148203876E-4 -0.02283931914204036 0.9992149761851796 0.02283931914204036 0.9992149761851796 0.02283931914204036 7.850238148203876E-4 -0.02283931914204036
1026.0290627661395 7.292509037544099E-4 -0.021847648546716114 0.9992707490962456 0.021847648546716114 0.9992707490962456 0.021847648546716114 7.292509037544099E-4 -0.021847648546716114
1073.0131408776467 6.778032517739903E-4 -0.020898883968629687 0.9993221967482261 0.020898883968629687 0.9993221967482261 0.020898883968629687 6.778032517739903E-4 -0.020898883968629687
1122.1487210041523 6.303395232067948E-4 -0.019991195317587397 0.9993696604767933 0.019991195317587397 0.9993696604767933 0.019991195317587397 6.303395232067948E-4 -0.019991195317587397
1173.5343250515148 5.865435740825728E-4 -0.019122828883284978 0.9994134564259174 0.019122828883284978 0.9994134564259174 0.019122828883284978 5.865435740825728E-4 -0.019122828883284978
1227.2729864556143 5.461225988349356E-4 -0.018292103954280048 0.999453877401165 0.018292103954280048 0.999453877401165 0.018292103954280048 5.461225988349356E-4 -0.018292103954280048
1283.4724567750195 5.088054659738991E-4 -0.01749740962182367 0.999491194534026 0.01749740962182367 0.999491194534026 0.01749740962182367 5.088054659738991E-4 -0.01749740962182367
1342.245421743976 4.743412171478424E-4 -0.016737201760446033 0.999525658782852 0.016737201760446033 0.999525658782852 0.016737201760446033 4.743412171478424E-4 -0.016737201760446033
1403.7097272189235 4.424977073300511E-4 -0.01601000017636034 0.99955750229267 0.01601000017636034 0.99955750229267 0.01601000017636034 4.424977073300511E-4 -0.01601000017636034
1467.9886154715937 4.130603668334556E-4 -0.01531438591437859 0.9995869396331664 0.01531438591437859 0.9995869396331664 0.01531438591437859 4.130603668334556E-4 -0.01531438591437859
1535.2109723024755 3.858310684422295E-4 -0.01464899871399637 0.9996141689315577 0.01464899871399637 0.9996141689315577 0.01464899871399637 3.858310684422295E-4 -0.01464899871399637
1605.5115854701387 3.606270851483714E-4 -0.014012534605482196 0.9996393729148518 0.014012534605482196 0.9996393729148518 0.014012534605482196 3.606270851483714E-4 -0.014012534605482196
1679.0314149545911 3.372801258207687E-4 -0.013403743637097532 0.9996627198741791 0.013403743637097532 0.9996627198741791 0.013403743637097532 3.372801258207687E-4 -0.013403743637097532
1755.9178755965756 3.1563543766041906E-4 -0.01282142772488907 0.9996843645623398 0.01282142772488907 0.9996843645623398 0.01282142772488907 3.1563543766041906E-4 -0.01282142772488907
1836.3251326795319 2.955509655703743E-4 -0.012264438616773716 0.9997044490344296 0.012264438616773716 0.9997044490344296 0.012264438616773716 2.955509655703743E-4 -0.012264438616773716
1920.4144110468878 2.7689655966270014E-4 -0.011731675962839116 0.9997231034403371 0.011731675962839116 0.9997231034403371 0.011731675962839116 2.7689655966270014E-4 -0.011731675962839116
2008.3543183745 2.5955322310909266E-4 -0.011222085483892785 0.9997404467768908 0.011222085483892785 0.9997404467768908 0.011222085483892785 2.5955322310909266E-4 -0.011222085483892785
2100.321183246434 2.434123934838242E-4 -0.010734657230319947 0.999756587606516 0.010734657230319947 0.999756587606516 0.010734657230319947 2.434123934838242E-4 -0.010734657230319947
2196.4994087119585 2.2837525170361418E-4 -0.010268423923280763 0.9997716247482964 0.010268423923280763 0.9997716247482964 0.010268423923280763 2.2837525170361418E-4 -0.010268423923280763
2297.0818420326846 2.1435205367911534E-4 -0.009822459370235776 0.9997856479463211 0.009822459370235776 0.9997856479463211 0.009822459370235776 2.1435205367911534E-4 -0.009822459370235776
2402.270161361206 2.0126148087725313E-4 -0.00939587694678857 0.9997987385191229 0.00939587694678857 0.9997987385191229 0.00939587694678857 2.0126148087725313E-4 -0.00939587694678857
2512.2752801266033 1.890300071506601E-4 -0.008987828136932788 0.9998109699928494 0.008987828136932788 0.9998109699928494 0.008987828136932788 1.890300071506601E-4 -0.008987828136932788
2627.3177699376165 1.7759128039564583E-4 -0.008597501124041014 0.9998224087196044 0.008597501124041014 0.9998224087196044 0.008597501124041014 1.7759128039564583E-4 -0.008597501124041014
2747.6283028514745 1.668855188092992E-4 -0.008224119425376212 0.9998331144811907 0.008224119425376212 0.9998331144811907 0.008224119425376212 1.668855188092992E-4 -0.008224119425376212
2873.4481138951564 1.568589226701834E-4 -0.007866940563566172 0.9998431410773299 0.007866940563566172 0.9998431410773299 0.007866940563566172 1.568589226701834E-4 -0.007866940563566172
3005.0294847665045 1.4746310359830481E-4 -0.007525254769358434 0.9998525368964017 0.007525254769358434 0.9998525368964017 0.007525254769358434 1.4746310359830481E-4 -0.007525254769358434
3142.6362496850466 1.386545340915956E-4 -0.007198383711043972 0.9998613454659084 0.007198383711043972 0.9998613454659084 0.007198383711043972 1.386545340915956E-4 -0.007198383711043972
3286.544324406816 1.3039402072998095E-4 -0.006885679247155469 0.9998696059792699 0.006885679247155469 0.9998696059792699 0.006885679247155469 1.3039402072998095E-4 -0.006885679247155469
3437.0422594639017 1.22646204742974E-4 -0.006586522200344723 0.9998773537952569 0.006586522200344723 0.9998773537952569 0.006586522200344723 1.22646204742974E-4 -0.006586522200344723
3594.431818738024 1.1537909363403928E-4 -0.006300321151645192 0.999884620906366 0.006300321151645192 0.999884620906366 0.006300321151645192 1.1537909363403928E-4 -0.006300321151645192
3759.0285845282415 1.085636272516417E-4 -0.006026511255549096 0.9998914363727482 0.006026511255549096 0.9998914363727482 0.006026511255549096 1.085636272516417E-4 -0.006026511255549096
3931.162590326006 1.0217328112510014E-4 -0.005764553077397155 0.999897826718875 0.005764553077397155 0.999897826718875 0.005764553077397155 1.0217328112510014E-4 -0.005764553077397155
4111.17898256636 9.6183709096871E-5 -0.005513931455431165 0.9999038162909033 0.005513931455431165 0.9999038162909033 0.005513931455431165 9.6183709096871E-5 -0.005513931455431165
4299.438712682125 9.05724263509484E-5 -0.005274154390452391 0.9999094275736492 0.005274154390452391 0.9999094275736492 0.005274154390452391 9.05724263509484E-5 -0.005274154390452391
4496.31926084876 8.531853293668557E-5 -0.005044751966342775 0.9999146814670633 0.005044751966342775 0.9999146814670633 0.005044751966342775 8.531853293668557E-5 -0.005044751966342775
4702.215392871039 8.04024768951295E-5 -0.004825275304745747 0.9999195975231049 0.004825275304745747 0.9999195975231049 0.004825275304745747 8.04024768951295E-5 -0.004825275304745747
4917.539951729213 7.580585517974093E-5 -0.0046152955569945696 0.9999241941448203 0.0046152955569945696 0.9999241941448203 0.0046152955569945696 7.580585517974093E-5 -0.0046152955569945696
5142.724685371758 7.151124978045196E-5 -0.004414402935960765 0.9999284887502199 0.004414402935960765 0.9999284887502199 0.004414402935960765 7.151124978045196E-5 -0.004414402935960765
5378.221112414543 6.750209584762201E-5 -0.004222205789926487 0.9999324979041525 0.004222205789926487 0.9999324979041525 0.004222205789926487 6.750209584762201E-5 -0.004222205789926487
5624.501427482224 6.37625781905633E-5 -0.0040383297199202955 0.9999362374218093 0.0040383297199202955 0.9999362374218093 0.0040383297199202955 6.37625781905633E-5 -0.0040383297199202955
5882.059448007167 6.0277552296559566E-5 -0.0038624167412517145 0.9999397224477033 0.0038624167412517145 0.9999397224477033 0.0038624167412517145 6.0277552296559566E-5 -0.0038624167412517145
6151.41160438433 5.703248596859578E-5 -0.0036941244892867986 0.9999429675140313 0.0036941244892867986 0.9999429675140313 0.0036941244892867986 5.703248596859578E-5 -0.0036941244892867986
6433.097975467465 5.4013417790142366E-5 -0.00353312546886526 0.99994598658221 0.00353312546886526 0.99994598658221 0.00353312546886526 5.4013417790142366E-5 -0.00353312546886526
6727.683371482931 5.1206928862994825E-5 -0.0033791063461997683 0.9999487930711369 0.0033791063461997683 0.9999487930711369 0.0033791063461997683 5.1206928862994825E-5 -0.0033791063461997683
7035.758466532445 4.8600124595877997E-5 -0.003231767281638459 0.9999513998754042 0.003231767281638459 0.9999513998754042 0.003231767281638459 4.8600124595877997E-5 -0.003231767281638459
7357.940982955574 4.618062371395876E-5 -0.0030908213013207033 0.999953819376286 0.0030908213013207033 0.999953819376286 0.0030908213013207033 4.618062371395876E-5 -0.0030908213013207033
7694.876929926739 4.393655208199486E-5 -0.0029559937055133913 0.9999560634479181 0.0029559937055133913 0.9999560634479181 0.0029559937055133913 4.393655208199486E-5 -0.0029559937055133913
8047.241898770236 4.185653936045993E-5 -0.002827021511273006 0.9999581434606396 0.002827021511273006 0.9999581434606396 0.002827021511273006 4.185653936045993E-5 -0.002827021511273006
8415.742417590522 3.992971692387616E-5 -0.0027036529270256715 0.9999600702830761 0.0027036529270256715 0.9999600702830761 0.0027036529270256715 3.992971692387616E-5 -0.0027036529270256715
8801.117367933934 3.814571584858225E-5 -0.002585646856678603 0.9999618542841514 0.002585646856678603 0.9999618542841514 0.002585646856678603 3.814571584858225E-5 -0.002585646856678603
9204.139466322391 3.649466411336787E-5 -0.0024727724309562865 0.9999635053358868 0.0024727724309562865 0.9999635053358868 0.0024727724309562865 3.649466411336787E-5 -0.0024727724309562865
9625.61681362972 3.496718244553118E-5 -0.0023648085637781907 0.9999650328175547 0.0023648085637781907 0.9999650328175547 0.0023648085637781907 3.496718244553118E-5 -0.0023648085637781907
10066.394515407255 3.35543784854489E-5 -0.002261543531647753 0.9999664456215147 0.002261543531647753 0.9999664456215147 0.002261543531647753 3.35543784854489E-5 -0.002261543531647753
10527.356376407623 3.224783913604282E-5 -0.0021627745741927998 0.9999677521608642 0.0021627745741927998 0.9999677521608642 0.0021627745741927998 3.224783913604282E-5 -0.0021627745741927998
11009.426672704432 3.103962111294273E-5 -0.002068307514175381 0.9999689603788873 0.002068307514175381 0.9999689603788873 0.002068307514175381 3.103962111294273E-5 -0.002068307514175381
