!Murata Part Number: GRM21BD70E107ME01
!These Parameters are Measured in Series Mode Connection
!       o--ll--o
!Port1            Port2
!       o------o
!Operation Temp=25[degC], DC Bias Voltage=0[V]
!Freq. Start=100[Hz] Stop=6[GHz], 401[Steps]
!Data Generated on Dec 3, 2024
# Hz S RI R 50
!Freq.(Hz) S11(Real) S11(Imag) S21(Real) S21(Imag) S12(Real) S12(Imag) S22(Real) S22(Imag)
100.0 0.05339534415304406 -0.2195140264355386 0.946604655846956 0.2195140264355386 0.946604655846956 0.2195140264355386 0.05339534415304406 -0.2195140264355386
104.57921513303334 0.04917520493849043 -0.2109310486048415 0.9508247950615099 0.2109310486048415 0.9508247950615099 0.2109310486048415 0.04917520493849043 -0.2109310486048415
109.3681223784127 0.045275337897148694 -0.20260944552127488 0.9547246621028513 0.20260944552127488 0.9547246621028513 0.20260944552127488 0.045275337897148694 -0.20260944552127488
114.3763239890794 0.04167398818214148 -0.1945501578334208 0.9583260118178585 0.1945501578334208 0.9583260118178585 0.1945501578334208 0.04167398818214148 -0.1945501578334208
119.61386192579457 0.03835049216542278 -0.1867528592226905 0.9616495078345773 0.1867528592226905 0.9616495078345773 0.1867528592226905 0.03835049216542278 -0.1867528592226905
125.09123799230618 0.035285280622934304 -0.17921611492518566 0.964714719377066 0.17921611492518566 0.964714719377066 0.17921611492518566 0.035285280622934304 -0.17921611492518566
130.8194348925486 0.032459870634923615 -0.1719375274013862 0.9675401293650765 0.1719375274013862 0.9675401293650765 0.1719375274013862 0.032459870634923615 -0.1719375274013862
136.8099382520969 0.02985684830391055 -0.16491386953677936 0.9701431516960896 0.16491386953677936 0.9701431516960896 0.16491386953677936 0.02985684830391055 -0.16491386953677936
143.0747596480305 0.027459844114582098 -0.1581412058857788 0.9725401558854179 0.1581412058857788 0.9725401558854179 0.1581412058857788 0.027459844114582098 -0.1581412058857788
149.6264606933842 0.02525350250938647 -0.15161500255796156 0.9747464974906134 0.15161500255796156 0.9747464974906134 0.15161500255796156 0.02525350250938647 -0.15161500255796156
156.47817822447783 0.023223447030313323 -0.14533022639976126 0.9767765529696866 0.14533022639976126 0.9767765529696866 0.14533022639976126 0.023223447030313323 -0.14533022639976126
163.643650641628 0.02135624217966009 -0.1392814341542458 0.9786437578203399 0.1392814341542458 0.9786437578203399 0.1392814341542458 0.02135624217966009 -0.1392814341542458
171.13724545605763 0.019639352978283422 -0.13346285229264915 0.9803606470217167 0.13346285229264915 0.9803606470217167 0.13346285229264915 0.019639352978283422 -0.13346285229264915
178.97398809823787 0.018061103046505298 -0.12786844820859727 0.9819388969534948 0.12786844820859727 0.9819388969534948 0.12786844820859727 0.018061103046505298 -0.12786844820859727
187.1695920454257 0.01661063189813279 -0.12249199345296756 0.9833893681018675 0.12249199345296756 0.9833893681018675 0.12249199345296756 0.01661063189813279 -0.12249199345296756
195.74049032880657 0.015277852019810119 -0.11732711966663134 0.9847221479801896 0.11732711966663134 0.9847221479801896 0.11732711966663134 0.015277852019810119 -0.11732711966663134
204.70386848341695 0.014053406204282021 -0.11236736784188299 0.9859465937957179 0.11236736784188299 0.9859465937957179 0.11236736784188299 0.014053406204282021 -0.11236736784188299
214.0776990069143 0.012928625515523689 -0.10760623151258017 0.9870713744844763 0.10760623151258017 0.9870713744844763 0.10760623151258017 0.012928625515523689 -0.10760623151258017
223.88077739628844 0.01189548818478071 -0.10303719443905236 0.9881045118152191 0.10303719443905236 0.9881045118152191 0.10303719443905236 0.01189548818478071 -0.10303719443905236
234.132759834772 0.010946579668288468 -0.09865376331758055 0.9890534203317116 0.09865376331758055 0.9890534203317116 0.09865376331758055 0.010946579668288468 -0.09865376331758055
244.85420260451448 0.010075054038918735 -0.09444949600652199 0.9899249459610813 0.09444949600652199 0.9899249459610813 0.09444949600652199 0.010075054038918735 -0.09444949600652199
256.06660330404856 0.009274596834478155 -0.09041802572267554 0.9907254031655217 0.09041802572267554 0.9907254031655217 0.09041802572267554 0.009274596834478155 -0.09041802572267554
267.792443953192 0.008539389444187608 -0.08655308162297422 0.9914606105558122 0.08655308162297422 0.9914606105558122 0.08655308162297422 0.008539389444187608 -0.08655308162297422
280.0552360718164 0.00786407508135786 -0.08284850614873697 0.992135924918642 0.08284850614873697 0.992135924918642 0.08284850614873697 0.00786407508135786 -0.08284850614873697
292.87956782286926 0.0072437263637905175 -0.07929826947319948 0.9927562736362093 0.07929826947319948 0.9927562736362093 0.07929826947319948 0.0072437263637905175 -0.07929826947319948
306.2911533141767 0.0066738145032672015 -0.07589648135850932 0.9933261854967328 0.07589648135850932 0.9933261854967328 0.07589648135850932 0.0066738145032672015 -0.07589648135850932
320.3168841578819 0.006150180090869353 -0.07263740069640114 0.9938498199091307 0.07263740069640114 0.9938498199091307 0.07263740069640114 0.006150180090869353 -0.07263740069640114
334.9848833909005 0.005669005454945472 -0.0695154429778422 0.9943309945450546 0.0695154429778422 0.9943309945450546 0.0695154429778422 0.005669005454945472 -0.0695154429778422
350.32456186451077 0.005226788562394801 -0.06652518591139774 0.9947732114376054 0.06652518591139774 0.9947732114376054 0.06652518591139774 0.005226788562394801 -0.06652518591139774
366.36667721614316 0.004820318430616108 -0.06366137338808778 0.995179681569384 0.06366137338808778 0.995179681569384 0.06366137338808778 0.004820318430616108 -0.06366137338808778
383.1433955416162 0.004446652016031377 -0.0609189179720728 0.9955533479839688 0.0609189179720728 0.9955533479839688 0.0609189179720728 0.004446652016031377 -0.0609189179720728
400.68835589147574 0.004103092544651136 -0.05829290208139825 0.995896907455349 0.05829290208139825 0.995896907455349 0.05829290208139825 0.004103092544651136 -0.05829290208139825
419.03673772076064 0.003787169249928379 -0.055778578010859316 0.9962128307500715 0.055778578010859316 0.9962128307500715 0.055778578010859316 0.003787169249928379 -0.055778578010859316
438.225331427439 0.0034966184825410687 -0.053371366939274516 0.996503381517459 0.053371366939274516 0.996503381517459 0.053371366939274516 0.0034966184825410687 -0.053371366939274516
458.2926121209498 0.003229366155334927 -0.051066857055450776 0.9967706338446649 0.051066857055450776 0.9967706338446649 0.051066857055450776 0.003229366155334927 -0.051066857055450776
479.2788167687661 0.0029835114842470044 -0.04886080093022018 0.9970164885157531 0.04886080093022018 0.9970164885157531 0.04886080093022018 0.0029835114842470044 -0.04886080093022018
501.22602487566456 0.002757311982619468 -0.046749112255503364 0.9972426880173805 0.046749112255503364 0.9972426880173805 0.046749112255503364 0.002757311982619468 -0.046749112255503364
524.1782428574726 0.0025491696620819734 -0.04472786206486797 0.997450830337918 0.04472786206486797 0.997450830337918 0.04472786206486797 0.0025491696620819734 -0.04472786206486797
548.1814922784702 0.002357618388440939 -0.04279327454310211 0.9976423816115589 0.04279327454310211 0.9976423816115589 0.04279327454310211 0.002357618388440939 -0.04279327454310211
573.2839021293739 0.002181312336151591 -0.040941722524670904 0.9978186876638485 0.040941722524670904 0.9978186876638485 0.040941722524670904 0.002181312336151591 -0.040941722524670904
599.5358053309263 0.0020190154803673703 -0.03916972277248418 0.9979809845196325 0.03916972277248418 0.9979809845196325 0.03916972277248418 0.0020190154803673703 -0.03916972277248418
626.9898396565933 0.0018695920616311427 -0.03747393111924887 0.9981304079383688 0.03747393111924887 0.9981304079383688 0.03747393111924887 0.0018695920616311427 -0.03747393111924887
655.7010532767296 0.0017319979552871954 -0.03585113754398289 0.9982680020447129 0.03585113754398289 0.9982680020447129 0.03585113754398289 0.0017319979552871954 -0.03585113754398289
685.7270151358366 0.0016052728758470382 -0.03429826124629126 0.9983947271241529 0.03429826124629126 0.9983947271241529 0.03429826124629126 0.0016052728758470382 -0.03429826124629126
717.1279303842347 0.0014885333459211652 -0.03281234577103446 0.9985114666540789 0.03281234577103446 0.9985114666540789 0.03281234577103446 0.0014885333459211652 -0.03281234577103446
749.9667610955984 0.0013809663599171483 -0.03139055422633778 0.9986190336400828 0.03139055422633778 0.9986190336400828 0.03139055422633778 0.0013809663599171483 -0.03139055422633778
784.3093525124082 0.0012818236744013439 -0.030030164628743732 0.9987181763255986 0.030030164628743732 0.9987181763255986 0.030030164628743732 0.0012818236744013439 -0.030030164628743732
820.2245650724522 0.0011904166596672673 -0.028728565400884705 0.9988095833403325 0.028728565400884705 0.9988095833403325 0.028728565400884705 0.0011904166596672673 -0.028728565400884705
857.7844124811068 0.0011061116504565073 -0.02748325103947391 0.9988938883495435 0.02748325103947391 0.9988938883495435 0.02748325103947391 0.0011061116504565073 -0.02748325103947391
897.0642061062428 0.0010283257377393387 -0.02629181796473317 0.9989716742622605 0.02629181796473317 0.9989716742622605 0.02629181796473317 0.0010283257377393387 -0.02629181796473317
938.1427059852851 9.565229477982651E-4 -0.025151960556598543 0.9990434770522015 0.025151960556598543 0.9990434770522015 0.025151960556598543 9.565229477982651E-4 -0.025151960556598543
981.102278747212 8.902107594139098E-4 -0.02406146737812828 0.9991097892405861 0.02406146737812828 0.9991097892405861 0.02406146737812828 8.902107594139098E-4 -0.02406146737812828
1026.0290627661395 8.28936914610801E-4 -0.02301821758241426 0.9991710630853893 0.02301821758241426 0.9991710630853893 0.02301821758241426 8.28936914610801E-4 -0.02301821758241426
1073.0131408776467 7.7228648309956E-4 -0.022020177495897325 0.9992277135169005 0.022020177495897325 0.9992277135169005 0.022020177495897325 7.7228648309956E-4 -0.022020177495897325
1122.1487210041523 7.198791452018203E-4 -0.021065397368238304 0.9992801208547978 0.021065397368238304 0.9992801208547978 0.021065397368238304 7.198791452018203E-4 -0.021065397368238304
1173.5343250515148 6.713666626367653E-4 -0.020152008276750354 0.9993286333373633 0.020152008276750354 0.9993286333373633 0.020152008276750354 6.713666626367653E-4 -0.020152008276750354
1227.2729864556143 6.264305110647673E-4 -0.01927821917182096 0.9993735694889353 0.01927821917182096 0.9993735694889353 0.01927821917182096 6.264305110647673E-4 -0.01927821917182096
1283.4724567750195 5.847796527033569E-4 -0.01844231404873375 0.9994152203472969 0.01844231404873375 0.9994152203472969 0.01844231404873375 5.847796527033569E-4 -0.01844231404873375
1342.245421743976 5.46148431619944E-4 -0.017642649230840225 0.9994538515683798 0.017642649230840225 0.9994538515683798 0.017642649230840225 5.46148431619944E-4 -0.017642649230840225
1403.7097272189235 5.102945784118497E-4 -0.016877650749138003 0.999489705421588 0.016877650749138003 0.999489705421588 0.016877650749138003 5.102945784118497E-4 -0.016877650749138003
1467.9886154715937 4.7699731483380806E-4 -0.016145811803981024 0.9995230026851663 0.016145811803981024 0.9995230026851663 0.016145811803981024 4.7699731483380806E-4 -0.016145811803981024
1535.2109723024755 4.460555524356997E-4 -0.015445690295861209 0.9995539444475643 0.015445690295861209 0.9995539444475643 0.015445690295861209 4.460555524356997E-4 -0.015445690295861209
1605.5115854701387 4.172861823291479E-4 -0.014775906413909185 0.9995827138176708 0.014775906413909185 0.9995827138176708 0.014775906413909185 4.172861823291479E-4 -0.014775906413909185
1679.0314149545911 3.905224557141214E-4 -0.014135140272886966 0.9996094775442858 0.014135140272886966 0.9996094775442858 0.014135140272886966 3.905224557141214E-4 -0.014135140272886966
1755.9178755965756 3.6561245668504343E-4 -0.013522129591871724 0.9996343875433149 0.013522129591871724 0.9996343875433149 0.013522129591871724 3.6561245668504343E-4 -0.013522129591871724
1836.3251326795319 3.424176700483094E-4 -0.012935667410419847 0.9996575823299516 0.012935667410419847 0.9996575823299516 0.012935667410419847 3.424176700483094E-4 -0.012935667410419847
1920.4144110468878 3.2081164740613326E-4 -0.01237459984059686 0.9996791883525937 0.01237459984059686 0.9996791883525937 0.01237459984059686 3.2081164740613326E-4 -0.01237459984059686
2008.3543183745 3.0067877462553773E-4 -0.011837823855703478 0.9996993212253746 0.011837823855703478 0.9996993212253746 0.011837823855703478 3.0067877462553773E-4 -0.011837823855703478
2100.321183246434 2.8191314308949913E-4 -0.011324285118675075 0.9997180868569105 0.011324285118675075 0.9997180868569105 0.011324285118675075 2.8191314308949913E-4 -0.011324285118675075
2196.4994087119585 2.644175259303508E-4 -0.01083297585486154 0.9997355824740697 0.01083297585486154 0.9997355824740697 0.01083297585486154 2.644175259303508E-4 -0.01083297585486154
2297.0818420326846 2.4810245891076805E-4 -0.010362932775122503 0.9997518975410894 0.010362932775122503 0.9997518975410894 0.010362932775122503 2.4810245891076805E-4 -0.010362932775122503
2402.270161361206 2.3288542389559064E-4 -0.00991323505586056 0.9997671145761045 0.00991323505586056 0.9997671145761045 0.00991323505586056 2.3288542389559064E-4 -0.00991323505586056
2512.2752801266033 2.1869013109803627E-4 -0.009483002382762744 0.9997813098689018 0.009483002382762744 0.9997813098689018 0.009483002382762744 2.1869013109803627E-4 -0.009483002382762744
2627.3177699376165 2.0544589462255373E-4 -0.009071393064670957 0.9997945541053775 0.009071393064670957 0.9997945541053775 0.009071393064670957 2.0544589462255373E-4 -0.009071393064670957
2747.6283028514745 1.9308709437590823E-4 -0.008677602223228133 0.9998069129056241 0.008677602223228133 0.9998069129056241 0.008677602223228133 1.9308709437590823E-4 -0.008677602223228133
2873.4481138951564 1.8155271626038209E-4 -0.008300860062840854 0.9998184472837396 0.008300860062840854 0.9998184472837396 0.008300860062840854 1.8155271626038209E-4 -0.008300860062840854
3005.0294847665045 1.707859617484658E-4 -0.00794043022416566 0.9998292140382516 0.00794043022416566 0.9998292140382516 0.00794043022416566 1.707859617484658E-4 -0.00794043022416566
3142.6362496850466 1.6073391748668787E-4 -0.007595608222868639 0.9998392660825133 0.007595608222868639 0.9998392660825133 0.007595608222868639 1.6073391748668787E-4 -0.007595608222868639
3286.544324406816 1.5134727548041997E-4 -0.007265719973921921 0.9998486527245197 0.007265719973921921 0.9998486527245197 0.007265719973921921 1.5134727548041997E-4 -0.007265719973921921
3437.0422594639017 1.4258009464405172E-4 -0.0069501204002692185 0.999857419905356 0.0069501204002692185 0.999857419905356 0.0069501204002692185 1.4258009464405172E-4 -0.0069501204002692185
3594.431818738024 1.3438959501984254E-4 -0.006648192123383027 0.9998656104049802 0.006648192123383027 0.9998656104049802 0.006648192123383027 1.3438959501984254E-4 -0.006648192123383027
3759.0285845282415 1.2673597672329328E-4 -0.006359344232097504 0.9998732640232767 0.006359344232097504 0.9998732640232767 0.006359344232097504 1.2673597672329328E-4 -0.006359344232097504
3931.162590326006 1.1958225660836633E-4 -0.006083011125169681 0.9998804177433915 0.006083011125169681 0.9998804177433915 0.006083011125169681 1.1958225660836633E-4 -0.006083011125169681
4111.17898256636 1.1289411670700075E-4 -0.005818651422316733 0.999887105883293 0.005818651422316733 0.999887105883293 0.005818651422316733 1.1289411670700075E-4 -0.005818651422316733
4299.438712682125 1.0663975963044192E-4 -0.005565746938008704 0.9998933602403697 0.005565746938008704 0.9998933602403697 0.005565746938008704 1.0663975963044192E-4 -0.005565746938008704
4496.31926084876 1.0078976727405027E-4 -0.005323801712062637 0.9998992102327259 0.005323801712062637 0.9998992102327259 0.005323801712062637 1.0078976727405027E-4 -0.005323801712062637
4702.215392871039 9.531696029518439E-5 -0.005092341091076337 0.9999046830397048 0.005092341091076337 0.9999046830397048 0.005092341091076337 9.531696029518439E-5 -0.005092341091076337
4917.539951729213 9.019625689237334E-5 -0.004870910854939743 0.9999098037431075 0.004870910854939743 0.9999098037431075 0.004870910854939743 9.019625689237334E-5 -0.004870910854939743
5142.724685371758 8.540453036528E-5 -0.004659076383044881 0.9999145954696348 0.004659076383044881 0.9999145954696348 0.004659076383044881 8.540453036528E-5 -0.004659076383044881
5378.221112414543 8.092046574707863E-5 -0.0044564218553495094 0.9999190795342531 0.0044564218553495094 0.9999190795342531 0.0044564218553495094 8.092046574707863E-5 -0.0044564218553495094
5624.501427482224 7.672441644964759E-5 -0.004262549484097802 0.9999232755835502 0.004262549484097802 0.9999232755835502 0.004262549484097802 7.672441644964759E-5 -0.004262549484097802
5882.059448007167 7.279826233228433E-5 -0.004077078772722338 0.9999272017376676 0.004077078772722338 0.9999272017376676 0.004077078772722338 7.279826233228433E-5 -0.004077078772722338
6151.41160438433 6.91252708915602E-5 -0.0038996457992014604 0.9999308747291086 0.0038996457992014604 0.9999308747291086 0.0038996457992014604 6.91252708915602E-5 -0.0038996457992014604
6433.097975467465 6.568996337921072E-5 -0.00372990252188255 0.9999343100366208 0.00372990252188255 0.9999343100366208 0.00372990252188255 6.568996337921072E-5 -0.00372990252188255
6727.683371482931 6.247798760264794E-5 -0.0035675161064650357 0.9999375220123975 0.0035675161064650357 0.9999375220123975 0.0035675161064650357 6.247798760264794E-5 -0.0035675161064650357
7035.758466532445 5.9475998973767344E-5 -0.0034121682734348686 0.9999405240010262 0.0034121682734348686 0.9999405240010262 0.0034121682734348686 5.9475998973767344E-5 -0.0034121682734348686
7357.940982955574 5.6671551077831026E-5 -0.003263554665730165 0.9999433284489223 0.003263554665730165 0.9999433284489223 0.003263554665730165 5.6671551077831026E-5 -0.003263554665730165
7694.876929926739 5.405299667075744E-5 -0.0031213842367816278 0.9999459470033292 0.0031213842367816278 0.9999459470033292 0.0031213842367816278 5.405299667075744E-5 -0.0031213842367816278
8047.241898770236 5.160939961615725E-5 -0.0029853786593075147 0.9999483906003837 0.0029853786593075147 0.9999483906003837 0.0029853786593075147 5.160939961615725E-5 -0.0029853786593075147
8415.742417590522 4.933045787655066E-5 -0.002855271755356811 0.9999506695421233 0.002855271755356811 0.9999506695421233 0.002855271755356811 4.933045787655066E-5 -0.002855271755356811
8801.117367933934 4.720643730509724E-5 -0.0027308089481000697 0.9999527935626947 0.0027308089481000697 0.9999527935626947 0.0027308089481000697 4.720643730509724E-5 -0.0027308089481000697
9204.139466322391 4.522811566691093E-5 -0.002611746735784277 0.999954771884333 0.002611746735784277 0.999954771884333 0.002611746735784277 4.522811566691093E-5 -0.002611746735784277
9625.61681362972 4.3386736067157896E-5 -0.0024978521881193886 0.9999566132639329 0.0024978521881193886 0.9999566132639329 0.0024978521881193886 4.3386736067157896E-5 -0.0024978521881193886
10066.394515407255 4.167396878365852E-5 -0.002388902465173275 0.9999583260312165 0.002388902465173275 0.9999583260312165 0.002388902465173275 4.167396878365852E-5 -0.002388902465173275
10527.356376407623 4.008188039489808E-5 -0.002284684358641306 0.9999599181196053 0.002284684358641306 0.9999599181196053 0.002284684358641306 4.008188039489808E-5 -0.002284684358641306
11009.426672704432 3.8602909054943924E-5 -0.0021849938551460097 0.999961397090945 0.0021849938551460097 0.999961397090945 0.0021849938551460097 3.8602909054943924E-5 -0.0021849938551460097
