!Murata Part Number: GRM31CR60G107MEA8
!These Parameters are Measured in Series Mode Connection
!       o--ll--o
!Port1            Port2
!       o------o
!Operation Temp=25[degC], DC Bias Voltage=0[V]
!Freq. Start=100[Hz] Stop=6[GHz], 401[Steps]
!Data Generated on Oct 1, 2020
# Hz S RI R 50
!Freq.(Hz) S11(Real) S11(Imag) S21(Real) S21(Imag) S12(Real) S12(Imag) S22(Real) S22(Imag)
100.0 0.036658945631364404 -0.1827210367893429 0.9633410543686355 0.1827210367893429 0.9633410543686355 0.1827210367893429 0.036658945631364404 -0.1827210367893429
104.57921513303334 0.0337476136772215 -0.17532635323916687 0.9662523863227784 0.17532635323916687 0.9662523863227784 0.17532635323916687 0.0337476136772215 -0.17532635323916687
109.3681223784127 0.03106289812632364 -0.16819027837074582 0.9689371018736765 0.16819027837074582 0.9689371018736765 0.16819027837074582 0.03106289812632364 -0.16819027837074582
114.3763239890794 0.0285880580356104 -0.16130853887239147 0.9714119419643896 0.16130853887239147 0.9714119419643896 0.16130853887239147 0.0285880580356104 -0.16130853887239147
119.61386192579457 0.026307458509716285 -0.15467628260602354 0.9736925414902836 0.15467628260602354 0.9736925414902836 0.15467628260602354 0.026307458509716285 -0.15467628260602354
125.09123799230618 0.02420652160765049 -0.1482881879956022 0.9757934783923495 0.1482881879956022 0.9757934783923495 0.1482881879956022 0.02420652160765049 -0.1482881879956022
130.8194348925486 0.02227167400959611 -0.14213856021653887 0.977728325990404 0.14213856021653887 0.977728325990404 0.14213856021653887 0.02227167400959611 -0.14213856021653887
136.8099382520969 0.020490292904637074 -0.13622141521460251 0.9795097070953629 0.13622141521460251 0.9795097070953629 0.13622141521460251 0.020490292904637074 -0.13622141521460251
143.0747596480305 0.018850651302833057 -0.13053055262353835 0.9811493486971671 0.13053055262353835 0.9811493486971671 0.13053055262353835 0.018850651302833057 -0.13053055262353835
149.6264606933842 0.01734186373932485 -0.12505961865856716 0.9826581362606751 0.12505961865856716 0.9826581362606751 0.12505961865856716 0.01734186373932485 -0.12505961865856716
156.47817822447783 0.01595383312586546 -0.11980216004340419 0.9840461668741343 0.11980216004340419 0.9840461668741343 0.11980216004340419 0.01595383312586546 -0.11980216004340419
163.643650641628 0.014677199317560199 -0.1147516699866231 0.9853228006824397 0.1147516699866231 0.9853228006824397 0.1147516699866231 0.014677199317560199 -0.1147516699866231
171.13724545605763 0.013503289800227254 -0.10990162716421246 0.9864967101997727 0.10990162716421246 0.9864967101997727 0.10990162716421246 0.013503289800227254 -0.10990162716421246
178.97398809823787 0.01242407276650358 -0.10524552859395421 0.9875759272334965 0.10524552859395421 0.9875759272334965 0.10524552859395421 0.01242407276650358 -0.10524552859395421
187.1695920454257 0.011432112735744938 -0.10077691720839142 0.988567887264255 0.10077691720839142 0.988567887264255 0.10077691720839142 0.011432112735744938 -0.10077691720839142
195.74049032880657 0.010520528782376528 -0.09648940485077552 0.9894794712176237 0.09648940485077552 0.9894794712176237 0.09648940485077552 0.010520528782376528 -0.09648940485077552
204.70386848341695 0.009682955367570734 -0.09237669133601498 0.9903170446324294 0.09237669133601498 0.9903170446324294 0.09237669133601498 0.009682955367570734 -0.09237669133601498
214.0776990069143 0.00891350571750685 -0.08843258013914639 0.9910864942824932 0.08843258013914639 0.9910864942824932 0.08843258013914639 0.00891350571750685 -0.08843258013914639
223.88077739628844 0.00820673765532965 -0.08465099119934928 0.9917932623446705 0.08465099119934928 0.9917932623446705 0.08465099119934928 0.00820673765532965 -0.08465099119934928
234.132759834772 0.0075576217705471535 -0.08102597125949115 0.9924423782294528 0.08102597125949115 0.9924423782294528 0.08102597125949115 0.0075576217705471535 -0.08102597125949115
244.85420260451448 0.00696151179636112 -0.07755170210044199 0.9930384882036387 0.07755170210044199 0.9930384882036387 0.07755170210044199 0.00696151179636112 -0.07755170210044199
256.06660330404856 0.0064141170598829445 -0.0742225069762147 0.993585882940117 0.0742225069762147 0.993585882940117 0.0742225069762147 0.0064141170598829445 -0.0742225069762147
267.792443953192 0.005911476870218583 -0.07103285551024538 0.9940885231297815 0.07103285551024538 0.9940885231297815 0.07103285551024538 0.005911476870218583 -0.07103285551024538
280.0552360718164 0.00544993671319941 -0.06797736727434395 0.9945500632868004 0.06797736727434395 0.9945500632868004 0.06797736727434395 0.00544993671319941 -0.06797736727434395
292.87956782286926 0.005026126127628961 -0.06505081423935567 0.9949738738723708 0.06505081423935567 0.9949738738723708 0.06505081423935567 0.005026126127628961 -0.06505081423935567
306.2911533141767 0.004636938145174252 -0.062248122259574705 0.9953630618548257 0.062248122259574705 0.9953630618548257 0.062248122259574705 0.004636938145174252 -0.062248122259574705
320.3168841578819 0.004279510183625569 -0.05956437173059923 0.9957204898163744 0.05956437173059923 0.9957204898163744 0.05956437173059923 0.004279510183625569 -0.05956437173059923
334.9848833909005 0.0039512062906150855 -0.056994797541780856 0.9960487937093849 0.056994797541780856 0.9960487937093849 0.056994797541780856 0.0039512062906150855 -0.056994797541780856
350.32456186451077 0.0036496006416811325 -0.05453478842892046 0.9963503993583189 0.05453478842892046 0.9963503993583189 0.05453478842892046 0.0036496006416811325 -0.05453478842892046
366.36667721614316 0.003372462202630495 -0.05217988581970499 0.9966275377973697 0.05217988581970499 0.9966275377973697 0.05217988581970499 0.003372462202630495 -0.05217988581970499
383.1433955416162 0.003117740471465999 -0.049925782252965546 0.9968822595285339 0.049925782252965546 0.9968822595285339 0.049925782252965546 0.003117740471465999 -0.049925782252965546
400.68835589147574 0.002883552219796337 -0.047768319442682845 0.9971164477802038 0.047768319442682845 0.9971164477802038 0.047768319442682845 0.002883552219796337 -0.047768319442682845
419.03673772076064 0.002668169157787314 -0.04570348604838975 0.9973318308422124 0.04570348604838975 0.9973318308422124 0.04570348604838975 0.002668169157787314 -0.04570348604838975
438.225331427439 0.0024700064505512025 -0.04372741520496613 0.9975299935494487 0.04372741520496613 0.9975299935494487 0.04372741520496613 0.0024700064505512025 -0.04372741520496613
458.2926121209498 0.002287612017622121 -0.04183638185661915 0.9977123879823778 0.04183638185661915 0.9977123879823778 0.04183638185661915 0.002287612017622121 -0.04183638185661915
479.2788167687661 0.00211965655104339 -0.04002679993204321 0.9978803434489566 0.04002679993204321 0.9978803434489566 0.04002679993204321 0.00211965655104339 -0.04002679993204321
501.22602487566456 0.0019649241917796528 -0.03829521939037999 0.9980350758082203 0.03829521939037999 0.9980350758082203 0.03829521939037999 0.0019649241917796528 -0.03829521939037999
524.1782428574726 0.0018223038087944049 -0.03663832316075385 0.9981776961912056 0.03663832316075385 0.9981776961912056 0.03663832316075385 0.0018223038087944049 -0.03663832316075385
548.1814922784702 0.0016907808302675169 -0.035052923991992564 0.9983092191697325 0.035052923991992564 0.9983092191697325 0.035052923991992564 0.0016907808302675169 -0.035052923991992564
573.2839021293739 0.0015694295820538624 -0.03353596122383909 0.998430570417946 0.03353596122383909 0.998430570417946 0.03353596122383909 0.0015694295820538624 -0.03353596122383909
599.5358053309263 0.001457406094506571 -0.03208449748669488 0.9985425939054934 0.03208449748669488 0.9985425939054934 0.03208449748669488 0.001457406094506571 -0.03208449748669488
626.9898396565933 0.0013539413450314782 -0.030695715333857315 0.9986460586549684 0.030695715333857315 0.9986460586549684 0.030695715333857315 0.0013539413450314782 -0.030695715333857315
655.7010532767296 0.0012583349099632751 -0.029366913808417935 0.9987416650900368 0.029366913808417935 0.9987416650900368 0.029366913808417935 0.0012583349099632751 -0.029366913808417935
685.7270151358366 0.0011699490052765609 -0.028095504946485383 0.9988300509947233 0.028095504946485383 0.9988300509947233 0.028095504946485383 0.0011699490052765609 -0.028095504946485383
717.1279303842347 0.0010882029009728533 -0.02687901021911049 0.998911797099027 0.02687901021911049 0.998911797099027 0.02687901021911049 0.0010882029009728533 -0.02687901021911049
749.9667610955984 0.0010125676984448836 -0.025715056917048708 0.9989874323015548 0.025715056917048708 0.9989874323015548 0.025715056917048708 0.0010125676984448836 -0.025715056917048708
784.3093525124082 9.425614634937389E-4 -0.024601374485044392 0.9990574385365062 0.024601374485044392 0.9990574385365062 0.024601374485044392 9.425614634937389E-4 -0.024601374485044392
820.2245650724522 8.777447098248611E-4 -0.023535790815344626 0.999122255290175 0.023535790815344626 0.999122255290175 0.023535790815344626 8.777447098248611E-4 -0.023535790815344626
857.7844124811068 8.177162287363962E-4 -0.02251622851330447 0.9991822837712637 0.02251622851330447 0.9991822837712637 0.02251622851330447 8.177162287363962E-4 -0.02251622851330447
897.0642061062428 7.621092604025031E-4 -0.021540701150887923 0.9992378907395975 0.021540701150887923 0.9992378907395975 0.021540701150887923 7.621092604025031E-4 -0.021540701150887923
938.1427059852851 7.105880008054389E-4 -0.020607309526298797 0.9992894119991947 0.020607309526298797 0.9992894119991947 0.020607309526298797 7.105880008054389E-4 -0.020607309526298797
981.102278747212 6.628444362206068E-4 -0.019714237949657536 0.9993371555637793 0.019714237949657536 0.9993371555637793 0.019714237949657536 6.628444362206068E-4 -0.019714237949657536
1026.0290627661395 6.185954944942386E-4 -0.018859750575427794 0.9993814045055059 0.018859750575427794 0.9993814045055059 0.018859750575427794 6.185954944942386E-4 -0.018859750575427794
1073.0131408776467 5.775804994765139E-4 -0.01804218780213736 0.9994224195005235 0.01804218780213736 0.9994224195005235 0.01804218780213736 5.775804994765139E-4 -0.01804218780213736
1122.1487210041523 5.395589121717963E-4 -0.017259962758871764 0.9994604410878282 0.017259962758871764 0.9994604410878282 0.017259962758871764 5.395589121717963E-4 -0.017259962758871764
1173.5343250515148 5.043083396889682E-4 -0.016511557896161273 0.9994956916603109 0.016511557896161273 0.9994956916603109 0.016511557896161273 5.043083396889682E-4 -0.016511557896161273
1227.2729864556143 4.716227911051203E-4 -0.015795521696407525 0.9995283772088948 0.015795521696407525 0.9995283772088948 0.015795521696407525 4.716227911051203E-4 -0.015795521696407525
1283.4724567750195 4.413111580114969E-4 -0.015110465516107154 0.9995586888419885 0.015110465516107154 0.9995586888419885 0.015110465516107154 4.413111580114969E-4 -0.015110465516107154
1342.245421743976 4.131958968374904E-4 -0.014455060569040003 0.9995868041031626 0.014455060569040003 0.9995868041031626 0.014455060569040003 4.131958968374904E-4 -0.014455060569040003
1403.7097272189235 3.871118900287509E-4 -0.013828035056494773 0.9996128881099712 0.013828035056494773 0.9996128881099712 0.013828035056494773 3.871118900287509E-4 -0.013828035056494773
1467.9886154715937 3.6290546372048655E-4 -0.013228171447671522 0.9996370945362795 0.013228171447671522 0.9996370945362795 0.013228171447671522 3.6290546372048655E-4 -0.013228171447671522
1535.2109723024755 3.404335405929301E-4 -0.012654303910754816 0.9996595664594072 0.012654303910754816 0.9996595664594072 0.012654303910754816 3.404335405929301E-4 -0.012654303910754816
1605.5115854701387 3.1956290800018796E-4 -0.012105315892872568 0.999680437092 0.012105315892872568 0.999680437092 0.012105315892872568 3.1956290800018796E-4 -0.012105315892872568
1679.0314149545911 3.0016958310029746E-4 -0.011580137845281295 0.9996998304168995 0.011580137845281295 0.9996998304168995 0.011580137845281295 3.0016958310029746E-4 -0.011580137845281295
1755.9178755965756 2.821382584663489E-4 -0.011077745088646914 0.9997178617415339 0.011077745088646914 0.9997178617415339 0.011077745088646914 2.821382584663489E-4 -0.011077745088646914
1836.3251326795319 2.6536181342740387E-4 -0.01059715581218942 0.9997346381865726 0.01059715581218942 0.9997346381865726 0.01059715581218942 2.6536181342740387E-4 -0.01059715581218942
1920.4144110468878 2.497408780990121E-4 -0.010137429199678014 0.9997502591219011 0.010137429199678014 0.9997502591219011 0.010137429199678014 2.497408780990121E-4 -0.010137429199678014
2008.3543183745 2.3518343866793512E-4 -0.009697663674736758 0.9997648165613323 0.009697663674736758 0.9997648165613323 0.009697663674736758 2.3518343866793512E-4 -0.009697663674736758
2100.321183246434 2.2160447397128168E-4 -0.009276995257585059 0.9997783955260288 0.009276995257585059 0.9997783955260288 0.009276995257585059 2.2160447397128168E-4 -0.009276995257585059
2196.4994087119585 2.0892561475603205E-4 -0.00887459602513314 0.9997910743852441 0.00887459602513314 0.9997910743852441 0.00887459602513314 2.0892561475603205E-4 -0.00887459602513314
2297.0818420326846 1.9707481823773838E-4 -0.008489672666232285 0.9998029251817623 0.008489672666232285 0.9998029251817623 0.008489672666232285 1.9707481823773838E-4 -0.008489672666232285
2402.270161361206 1.859860517252974E-4 -0.008121465123812305 0.9998140139482748 0.008121465123812305 0.9998140139482748 0.008121465123812305 1.859860517252974E-4 -0.008121465123812305
2512.2752801266033 1.755989801750521E-4 -0.007769245315609288 0.9998244010198252 0.007769245315609288 0.9998244010198252 0.007769245315609288 1.755989801750521E-4 -0.007769245315609288
2627.3177699376165 1.6585865361322917E-4 -0.007432315925198682 0.9998341413463867 0.007432315925198682 0.9998341413463867 0.007432315925198682 1.6585865361322917E-4 -0.007432315925198682
2747.6283028514745 1.5671519144409623E-4 -0.007110009255119443 0.9998432848085557 0.007110009255119443 0.9998432848085557 0.007110009255119443 1.5671519144409623E-4 -0.007110009255119443
2873.4481138951564 1.4812346175297112E-4 -0.006801686134030917 0.9998518765382469 0.006801686134030917 0.9998518765382469 0.006801686134030917 1.4812346175297112E-4 -0.006801686134030917
3005.0294847665045 1.4004275481357238E-4 -0.006506734870118371 0.9998599572451864 0.006506734870118371 0.9998599572451864 0.006506734870118371 1.4004275481357238E-4 -0.006506734870118371
3142.6362496850466 1.3243645109722526E-4 -0.006224570243384227 0.9998675635489029 0.006224570243384227 0.9998675635489029 0.006224570243384227 1.3243645109722526E-4 -0.006224570243384227
3286.544324406816 1.2527168512161457E-4 -0.005954632530052236 0.9998747283148786 0.005954632530052236 0.9998747283148786 0.005954632530052236 1.2527168512161457E-4 -0.005954632530052236
3437.0422594639017 1.185190074230084E-4 -0.005696386553078414 0.9998814809925769 0.005696386553078414 0.9998814809925769 0.005696386553078414 1.185190074230084E-4 -0.005696386553078414
3594.431818738024 1.1215204773718852E-4 -0.005449320753695889 0.9998878479522626 0.005449320753695889 0.9998878479522626 0.005449320753695889 1.1215204773718852E-4 -0.005449320753695889
3759.0285845282415 1.0614718308179659E-4 -0.005212946279992145 0.9998938528169181 0.005212946279992145 0.9998938528169181 0.005212946279992145 1.0614718308179659E-4 -0.005212946279992145
3931.162590326006 1.004832148065235E-4 -0.004986796089680947 0.9998995167851935 0.004986796089680947 0.9998995167851935 0.004986796089680947 1.004832148065235E-4 -0.004986796089680947
4111.17898256636 9.514105879270352E-5 -0.004770424065428205 0.9999048589412074 0.004770424065428205 0.9999048589412074 0.004770424065428205 9.514105879270352E-5 -0.004770424065428205
4299.438712682125 9.010345283486474E-5 -0.0045634041422544964 0.9999098965471652 0.0045634041422544964 0.9999098965471652 0.0045634041422544964 9.010345283486474E-5 -0.0045634041422544964
4496.31926084876 8.535468483902686E-5 -0.004365329447600464 0.9999146453151612 0.004365329447600464 0.9999146453151612 0.004365329447600464 8.535468483902686E-5 -0.004365329447600464
4702.215392871039 8.088034486127196E-5 -0.004175811455545137 0.9999191196551388 0.004175811455545137 0.9999191196551388 0.004175811455545137 8.088034486127196E-5 -0.004175811455545137
4917.539951729213 7.666710323679198E-5 -0.003994479157364891 0.999923332896763 0.003994479157364891 0.999923332896763 0.003994479157364891 7.666710323679198E-5 -0.003994479157364891
5142.724685371758 7.270251617631867E-5 -0.003820978251084135 0.9999272974838236 0.003820978251084135 0.9999272974838236 0.003820978251084135 7.270251617631867E-5 -0.003820978251084135
5378.221112414543 6.897485929965494E-5 -0.0036549703528889884 0.9999310251407004 0.0036549703528889884 0.9999310251407004 0.0036549703528889884 6.897485929965494E-5 -0.0036549703528889884
5624.501427482224 6.547298869838491E-5 -0.00349613223326292 0.9999345270113014 0.00349613223326292 0.9999345270113014 0.00349613223326292 6.547298869838491E-5 -0.00349613223326292
5882.059448007167 6.218622832676166E-5 -0.003344155080486235 0.9999378137716731 0.003344155080486235 0.9999378137716731 0.003344155080486235 6.218622832676166E-5 -0.003344155080486235
6151.41160438433 5.91042818536023E-5 -0.0031987437937588906 0.9999408957181466 0.0031987437937588906 0.9999408957181466 0.0031987437937588906 5.91042818536023E-5 -0.0031987437937588906
6433.097975467465 5.6217166596139343E-5 -0.003059616307706093 0.9999437828334039 0.003059616307706093 0.9999437828334039 0.003059616307706093 5.6217166596139343E-5 -0.003059616307706093
6727.683371482931 5.351516681119315E-5 -0.0029265029494572417 0.9999464848331887 0.0029265029494572417 0.9999464848331887 0.0029265029494572417 5.351516681119315E-5 -0.0029265029494572417
7035.758466532445 5.098880343767719E-5 -0.0027991458288981626 0.9999490111965624 0.0027991458288981626 0.9999490111965624 0.0027991458288981626 5.098880343767719E-5 -0.0027991458288981626
7357.940982955574 4.8628817353713983E-5 -0.002677298262124675 0.9999513711826463 0.002677298262124675 0.9999513711826463 0.002677298262124675 4.8628817353713983E-5 -0.002677298262124675
7694.876929926739 4.642616330955973E-5 -0.002560724227604379 0.9999535738366904 0.002560724227604379 0.9999535738366904 0.002560724227604379 4.642616330955973E-5 -0.002560724227604379
8047.241898770236 4.437201189723015E-5 -0.0024491978541061597 0.9999556279881026 0.0024491978541061597 0.9999556279881026 0.0024491978541061597 4.437201189723015E-5 -0.0024491978541061597
8415.742417590522 4.245775719052132E-5 -0.0023425029390961227 0.9999575422428093 0.0023425029390961227 0.9999575422428093 0.0023425029390961227 4.245775719052132E-5 -0.0023425029390961227
8801.117367933934 4.0675028007239044E-5 -0.002240432496029777 0.9999593249719927 0.002240432496029777 0.9999593249719927 0.002240432496029777 4.0675028007239044E-5 -0.002240432496029777
9204.139466322391 3.901570108389787E-5 -0.0021427883287907326 0.9999609842989162 0.0021427883287907326 0.9999609842989162 0.0021427883287907326 3.901570108389787E-5 -0.0021427883287907326
9625.61681362972 3.747191479097992E-5 -0.0020493806314290843 0.9999625280852092 0.0020493806314290843 0.9999625280852092 0.0020493806314290843 3.747191479097992E-5 -0.0020493806314290843
10066.394515407255 3.60360823377063E-5 -0.001960027611326917 0.9999639639176623 0.001960027611326917 0.9999639639176623 0.001960027611326917 3.60360823377063E-5 -0.001960027611326917
10527.356376407623 3.4700903707456636E-5 -0.0018745551339517626 0.9999652990962925 0.0018745551339517626 0.9999652990962925 0.0018745551339517626 3.4700903707456636E-5 -0.0018745551339517626
11009.426672704432 3.3459375821029305E-5 -0.0017927963874380221 0.999966540624179 0.0017927963874380221 0.999966540624179 0.0017927963874380221 3.3459375821029305E-5 -0.0017927963874380221
