!Murata Part Number: GRM32ER61A107ME20
!These Parameters are Measured in Series Mode Connection
!       o--ll--o
!Port1            Port2
!       o------o
!Operation Temp=25[degC], DC Bias Voltage=0[V]
!Freq. Start=100[Hz] Stop=6[GHz], 401[Steps]
!Data Generated on Jan 10, 2017
# Hz S RI R 50
!Freq.(Hz) S11(Real) S11(Imag) S21(Real) S21(Imag) S12(Real) S12(Imag) S22(Real) S22(Imag)
100.0 0.05511321292070337 -0.22194560287901627 0.9448867870792965 0.22194560287901627 0.9448867870792965 0.22194560287901627 0.05511321292070337 -0.22194560287901627
104.57921513303334 0.05078805563476588 -0.21329272213904507 0.949211944365234 0.21329272213904507 0.949211944365234 0.21329272213904507 0.05078805563476588 -0.21329272213904507
109.3681223784127 0.04679218196492728 -0.20490148399160865 0.9532078180350727 0.20490148399160865 0.9532078180350727 0.20490148399160865 0.04679218196492728 -0.20490148399160865
114.3763239890794 0.04310298915841233 -0.19677352334639603 0.9568970108415876 0.19677352334639603 0.9568970108415876 0.19677352334639603 0.04310298915841233 -0.19677352334639603
119.61386192579457 0.03969897588598329 -0.1889090513710135 0.9603010241140166 0.1889090513710135 0.9603010241140166 0.1889090513710135 0.03969897588598329 -0.1889090513710135
125.09123799230618 0.03655976278019749 -0.1813070307856297 0.9634402372198024 0.1813070307856297 0.9634402372198024 0.1813070307856297 0.03655976278019749 -0.1813070307856297
130.8194348925486 0.03366609768794832 -0.1739653386121858 0.9663339023120516 0.1739653386121858 0.9663339023120516 0.1739653386121858 0.03366609768794832 -0.1739653386121858
136.8099382520969 0.03099984821544709 -0.16688091618947495 0.9690001517845529 0.16688091618947495 0.9690001517845529 0.16688091618947495 0.03099984821544709 -0.16688091618947495
143.0747596480305 0.028543983881167072 -0.16004990655136042 0.9714560161188329 0.16004990655136042 0.9714560161188329 0.16004990655136042 0.028543983881167072 -0.16004990655136042
149.6264606933842 0.026282549927540814 -0.15346777948674173 0.9737174500724594 0.15346777948674173 0.9737174500724594 0.15346777948674173 0.026282549927540814 -0.15346777948674173
156.47817822447783 0.02420063458379529 -0.14712944476436624 0.9757993654162048 0.14712944476436624 0.9757993654162048 0.14712944476436624 0.02420063458379529 -0.14712944476436624
163.643650641628 0.022284331326540213 -0.14102935412101075 0.9777156686734599 0.14102935412101075 0.9777156686734599 0.14102935412101075 0.022284331326540213 -0.14102935412101075
171.13724545605763 0.020520697456140918 -0.13516159268554517 0.9794793025438592 0.13516159268554517 0.9794793025438592 0.13516159268554517 0.020520697456140918 -0.13516159268554517
178.97398809823787 0.01889771009854643 -0.129519960551095 0.9811022899014534 0.129519960551095 0.9811022899014534 0.129519960551095 0.01889771009854643 -0.129519960551095
187.1695920454257 0.01740422055593521 -0.1240980452196845 0.9825957794440647 0.1240980452196845 0.9825957794440647 0.1240980452196845 0.01740422055593521 -0.1240980452196845
195.74049032880657 0.016029907766070477 -0.11888928563451699 0.9839700922339296 0.11888928563451699 0.9839700922339296 0.11888928563451699 0.016029907766070477 -0.11888928563451699
204.70386848341695 0.014765231489558594 -0.11388702849005368 0.9852347685104416 0.11388702849005368 0.9852347685104416 0.11388702849005368 0.014765231489558594 -0.11388702849005368
214.0776990069143 0.013601385725478954 -0.10908457747430353 0.9863986142745212 0.10908457747430353 0.9863986142745212 0.10908457747430353 0.013601385725478954 -0.10908457747430353
223.88077739628844 0.012530252757677973 -0.1044752360556507 0.9874697472423221 0.1044752360556507 0.9874697472423221 0.1044752360556507 0.012530252757677973 -0.1044752360556507
234.132759834772 0.01154435815444877 -0.10005234438189022 0.9884556418455512 0.10005234438189022 0.9884556418455512 0.10005234438189022 0.01154435815444877 -0.10005234438189022
244.85420260451448 0.010636826980987727 -0.09580931081500421 0.989363173019012 0.09580931081500421 0.989363173019012 0.09580931081500421 0.010636826980987727 -0.09580931081500421
256.06660330404856 0.0098013414342679 -0.09173963858393176 0.990198658565732 0.09173963858393176 0.990198658565732 0.09173963858393176 0.0098013414342679 -0.09173963858393176
267.792443953192 0.009032100070988085 -0.08783694800077446 0.990967899929012 0.08783694800077446 0.990967899929012 0.08783694800077446 0.009032100070988085 -0.08783694800077446
280.0552360718164 0.008323778768238898 -0.08409499465436764 0.9916762212317612 0.08409499465436764 0.9916762212317612 0.08409499465436764 0.008323778768238898 -0.08409499465436764
292.87956782286926 0.007671493530850681 -0.08050768396907629 0.9923285064691493 0.08050768396907629 0.9923285064691493 0.08050768396907629 0.007671493530850681 -0.08050768396907629
306.2911533141767 0.007070765236761349 -0.07706908249553904 0.9929292347632387 0.07706908249553904 0.9929292347632387 0.07706908249553904 0.007070765236761349 -0.07706908249553904
320.3168841578819 0.006517486390350777 -0.07377342628291654 0.993482513609649 0.07377342628291654 0.993482513609649 0.07377342628291654 0.006517486390350777 -0.07377342628291654
334.9848833909005 0.0060078899322717 -0.0706151266676955 0.9939921100677281 0.0706151266676955 0.9939921100677281 0.0706151266676955 0.0060078899322717 -0.0706151266676955
350.32456186451077 0.005538520132199783 -0.06758877380083828 0.9944614798678002 0.06758877380083828 0.9944614798678002 0.06758877380083828 0.005538520132199783 -0.06758877380083828
366.36667721614316 0.005106205568019458 -0.0646891382216814 0.9948937944319806 0.0646891382216814 0.9948937944319806 0.0646891382216814 0.005106205568019458 -0.0646891382216814
383.1433955416162 0.004708034171626064 -0.06191117077232835 0.995291965828374 0.06191117077232835 0.995291965828374 0.06191117077232835 0.004708034171626064 -0.06191117077232835
400.68835589147574 0.0043413302984713345 -0.059250001129544906 0.9956586697015287 0.059250001129544906 0.9956586697015287 0.059250001129544906 0.0043413302984713345 -0.059250001129544906
419.03673772076064 0.0040036337561132705 -0.056700935211933076 0.9959963662438869 0.056700935211933076 0.9959963662438869 0.056700935211933076 0.0040036337561132705 -0.056700935211933076
438.225331427439 0.003692680707296044 -0.0542594516984341 0.9963073192927038 0.0542594516984341 0.9963073192927038 0.0542594516984341 0.003692680707296044 -0.0542594516984341
458.2926121209498 0.003406386346323015 -0.051921197870342 0.996593613653677 0.051921197870342 0.996593613653677 0.051921197870342 0.003406386346323015 -0.051921197870342
479.2788167687661 0.0031428292343363153 -0.04968198496363208 0.9968571707656637 0.04968198496363208 0.9968571707656637 0.04968198496363208 0.0031428292343363153 -0.04968198496363208
501.22602487566456 0.0029002371699539393 -0.04753778319233201 0.9970997628300459 0.04753778319233201 0.9970997628300459 0.04753778319233201 0.0029002371699539393 -0.04753778319233201
524.1782428574726 0.0026769744666284095 -0.04548471657775097 0.9973230255333715 0.04548471657775097 0.9973230255333715 0.04548471657775097 0.0026769744666284095 -0.04548471657775097
548.1814922784702 0.0024715305069017666 -0.0435190576934786 0.9975284694930981 0.0435190576934786 0.9975284694930981 0.0435190576934786 0.0024715305069017666 -0.0435190576934786
573.2839021293739 0.0022825094460390744 -0.04163722241288614 0.9977174905539609 0.04163722241288614 0.9977174905539609 0.04163722241288614 0.0022825094460390744 -0.04163722241288614
599.5358053309263 0.002108620942767729 -0.03983576472496945 0.9978913790572324 0.03983576472496945 0.9978913790572324 0.03983576472496945 0.002108620942767729 -0.03983576472496945
626.9898396565933 0.0019486718023821604 -0.03811137166613556 0.9980513281976177 0.03811137166613556 0.9980513281976177 0.03811137166613556 0.0019486718023821604 -0.03811137166613556
655.7010532767296 0.0018015584266166597 -0.03646085840013323 0.9981984415733832 0.03646085840013323 0.9981984415733832 0.03646085840013323 0.0018015584266166597 -0.03646085840013323
685.7270151358366 0.0016662599747940918 -0.03488116346576706 0.9983337400252059 0.03488116346576706 0.9983337400252059 0.03488116346576706 0.0016662599747940918 -0.03488116346576706
717.1279303842347 0.0015418321512450193 -0.033369344202187755 0.9984581678487552 0.033369344202187755 0.9984581678487552 0.033369344202187755 0.0015418321512450193 -0.033369344202187755
749.9667610955984 0.0014274015443732334 -0.031922572354174165 0.998572598455627 0.031922572354174165 0.998572598455627 0.031922572354174165 0.0014274015443732334 -0.031922572354174165
784.3093525124082 0.001322160452638295 -0.030538129854612767 0.9986778395473619 0.030538129854612767 0.9986778395473619 0.030538129854612767 0.001322160452638295 -0.030538129854612767
820.2245650724522 0.0012253621418574236 -0.029213404777995992 0.9987746378581425 0.029213404777995992 0.9987746378581425 0.029213404777995992 0.0012253621418574236 -0.029213404777995992
857.7844124811068 0.0011363164864191609 -0.02794588745685178 0.9988636835135809 0.02794588745685178 0.9988636835135809 0.02794588745685178 0.0011363164864191609 -0.02794588745685178
897.0642061062428 0.0010543859541557602 -0.026733166752252256 0.9989456140458444 0.026733166752252256 0.9989456140458444 0.026733166752252256 0.0010543859541557602 -0.026733166752252256
938.1427059852851 9.789819007145052E-4 -0.025572926469621154 0.9990210180992856 0.025572926469621154 0.9990210180992856 0.025572926469621154 9.789819007145052E-4 -0.025572926469621154
981.102278747212 9.095611443279862E-4 -0.024462941911698212 0.9990904388556721 0.024462941911698212 0.9990904388556721 0.024462941911698212 9.095611443279862E-4 -0.024462941911698212
1026.0290627661395 8.456227959758884E-4 -0.023401076561496315 0.9991543772040241 0.023401076561496315 0.9991543772040241 0.023401076561496315 8.456227959758884E-4 -0.023401076561496315
1073.0131408776467 7.867053231485825E-4 -0.022385278889211456 0.9992132946768515 0.022385278889211456 0.9992132946768515 0.022385278889211456 7.867053231485825E-4 -0.022385278889211456
1122.1487210041523 7.323838278751382E-4 -0.02141357927816572 0.9992676161721249 0.02141357927816572 0.9992676161721249 0.02141357927816572 7.323838278751382E-4 -0.02141357927816572
1173.5343250515148 6.822675214841264E-4 -0.020484087065860062 0.9993177324785157 0.020484087065860062 0.9993177324785157 0.020484087065860062 6.822675214841264E-4 -0.020484087065860062
1227.2729864556143 6.359973798483521E-4 -0.019594987696998765 0.9993640026201516 0.019594987696998765 0.9993640026201516 0.019594987696998765 6.359973798483521E-4 -0.019594987696998765
1283.4724567750195 5.932439637493707E-4 -0.01874453998586139 0.9994067560362506 0.01874453998586139 0.9994067560362506 0.01874453998586139 5.932439637493707E-4 -0.01874453998586139
1342.245421743976 5.537053896079201E-4 -0.017931073485606797 0.9994462946103921 0.017931073485606797 0.9994462946103921 0.017931073485606797 5.537053896079201E-4 -0.017931073485606797
1403.7097272189235 5.171054362823817E-4 -0.017152985961985952 0.9994828945637175 0.017152985961985952 0.9994828945637175 0.017152985961985952 5.171054362823817E-4 -0.017152985961985952
1467.9886154715937 4.8319177405300307E-4 -0.016408740968531864 0.9995168082259467 0.016408740968531864 0.9995168082259467 0.016408740968531864 4.8319177405300307E-4 -0.016408740968531864
1535.2109723024755 4.5173430238911025E-4 -0.015696865519622478 0.9995482656976108 0.015696865519622478 0.9995482656976108 0.015696865519622478 4.5173430238911025E-4 -0.015696865519622478
1605.5115854701387 4.2252358372996617E-4 -0.015015947856935953 0.99957747641627 0.015015947856935953 0.99957747641627 0.015015947856935953 4.2252358372996617E-4 -0.015015947856935953
1679.0314149545911 3.953693613680764E-4 -0.014364635303818311 0.9996046306386319 0.014364635303818311 0.9996046306386319 0.014364635303818311 3.953693613680764E-4 -0.014364635303818311
1755.9178755965756 3.700991506524884E-4 -0.013741632201057646 0.9996299008493474 0.013741632201057646 0.9996299008493474 0.013741632201057646 3.700991506524884E-4 -0.013741632201057646
1836.3251326795319 3.465568941450256E-4 -0.013145697916614121 0.9996534431058549 0.013145697916614121 0.9996534431058549 0.013145697916614121 3.465568941450256E-4 -0.013145697916614121
1920.4144110468878 3.246016730471135E-4 -0.012575644921100616 0.9996753983269528 0.012575644921100616 0.9996753983269528 0.012575644921100616 3.246016730471135E-4 -0.012575644921100616
2008.3543183745 3.041064691171866E-4 -0.012030336920346699 0.9996958935308828 0.012030336920346699 0.9996958935308828 0.012030336920346699 3.041064691171866E-4 -0.012030336920346699
2100.321183246434 2.849569733347998E-4 -0.011508687036290755 0.9997150430266651 0.011508687036290755 0.9997150430266651 0.011508687036290755 2.849569733347998E-4 -0.011508687036290755
2196.4994087119585 2.6705043962784196E-4 -0.011009656027787793 0.999732949560372 0.011009656027787793 0.999732949560372 0.011009656027787793 2.6705043962784196E-4 -0.011009656027787793
2297.0818420326846 2.502945839377453E-4 -0.01053225054370865 0.9997497054160622 0.01053225054370865 0.9997497054160622 0.01053225054370865 2.502945839377453E-4 -0.01053225054370865
2402.270161361206 2.346065306249712E-4 -0.010075521401918312 0.9997653934693751 0.010075521401918312 0.9997653934693751 0.010075521401918312 2.346065306249712E-4 -0.010075521401918312
2512.2752801266033 2.1991180959448327E-4 -0.009638561889288803 0.9997800881904054 0.009638561889288803 0.9997800881904054 0.009638561889288803 2.1991180959448327E-4 -0.009638561889288803
2627.3177699376165 2.061434084539185E-4 -0.00922050607972569 0.999793856591546 0.00922050607972569 0.999793856591546 0.00922050607972569 2.061434084539185E-4 -0.00922050607972569
2747.6283028514745 1.9324088444669282E-4 -0.008820527169135655 0.9998067591155532 0.008820527169135655 0.9998067591155532 0.008820527169135655 1.9324088444669282E-4 -0.008820527169135655
2873.4481138951564 1.8114954081219136E-4 -0.00843783582819554 0.9998188504591877 0.00843783582819554 0.9998188504591877 0.00843783582819554 1.8114954081219136E-4 -0.00843783582819554
3005.0294847665045 1.6981967164400098E-4 -0.008071678575558473 0.9998301803283559 0.008071678575558473 0.9998301803283559 0.008071678575558473 1.6981967164400098E-4 -0.008071678575558473
3142.6362496850466 1.5920587831468597E-4 -0.007721336175627788 0.9998407941216854 0.007721336175627788 0.9998407941216854 0.007721336175627788 1.5920587831468597E-4 -0.007721336175627788
3286.544324406816 1.492664592144195E-4 -0.007386122066148075 0.9998507335407856 0.007386122066148075 0.9998507335407856 0.007386122066148075 1.492664592144195E-4 -0.007386122066148075
3437.0422594639017 1.3996287303423907E-4 -0.007065380821547869 0.9998600371269657 0.007065380821547869 0.9998600371269657 0.007065380821547869 1.3996287303423907E-4 -0.007065380821547869
3594.431818738024 1.3125927424317502E-4 -0.00675848665820226 0.9998687407257568 0.00675848665820226 0.9998687407257568 0.00675848665820226 1.3125927424317502E-4 -0.00675848665820226
3759.0285845282415 1.2312211788606365E-4 -0.006464841987587651 0.9998768778821142 0.006464841987587651 0.9998768778821142 0.006464841987587651 1.2312211788606365E-4 -0.006464841987587651
3931.162590326006 1.1551982947180671E-4 -0.006183876022729676 0.999884480170528 0.006183876022729676 0.999884480170528 0.006183876022729676 1.1551982947180671E-4 -0.006183876022729676
4111.17898256636 1.0842253461070523E-4 -0.005915043442477136 0.9998915774653894 0.005915043442477136 0.9998915774653894 0.005915043442477136 1.0842253461070523E-4 -0.005915043442477136
4299.438712682125 1.0180184224485125E-4 -0.005657823117061472 0.9998981981577552 0.005657823117061472 0.9998981981577552 0.005657823117061472 1.0180184224485125E-4 -0.005657823117061472
4496.31926084876 9.563067481773075E-5 -0.005411716897218366 0.9999043693251823 0.005411716897218366 0.9999043693251823 0.005411716897218366 9.563067481773075E-5 -0.005411716897218366
4702.215392871039 8.988313854119464E-5 -0.00517624846794415 0.9999101168614589 0.00517624846794415 0.9999101168614589 0.00517624846794415 8.988313854119464E-5 -0.00517624846794415
4917.539951729213 8.453442701075556E-5 -0.004950962266811769 0.9999154655729892 0.004950962266811769 0.9999154655729892 0.004950962266811769 8.453442701075556E-5 -0.004950962266811769
5142.724685371758 7.956075174920252E-5 -0.004735422465738228 0.9999204392482506 0.004735422465738228 0.9999204392482506 0.004735422465738228 7.956075174920252E-5 -0.004735422465738228
5378.221112414543 7.493929377040764E-5 -0.004529212014218869 0.9999250607062296 0.004529212014218869 0.9999250607062296 0.004529212014218869 7.493929377040764E-5 -0.004529212014218869
5624.501427482224 7.064817089391156E-5 -0.004331931741345413 0.9999293518291059 0.004331931741345413 0.9999293518291059 0.004331931741345413 7.064817089391156E-5 -0.004331931741345413
5882.059448007167 6.666641625280026E-5 -0.004143199513411514 0.9999333335837469 0.004143199513411514 0.9999333335837469 0.004143199513411514 6.666641625280026E-5 -0.004143199513411514
6151.41160438433 6.297396417494278E-5 -0.00396264944357383 0.9999370260358253 0.00396264944357383 0.9999370260358253 0.00396264944357383 6.297396417494278E-5 -0.00396264944357383
6433.097975467465 5.955164034156338E-5 -0.0037899311498625758 0.9999404483596587 0.0037899311498625758 0.9999404483596587 0.0037899311498625758 5.955164034156338E-5 -0.0037899311498625758
6727.683371482931 5.638115380728326E-5 -0.003624709057800224 0.9999436188461927 0.003624709057800224 0.9999436188461927 0.003624709057800224 5.638115380728326E-5 -0.003624709057800224
7035.758466532445 5.344508908125701E-5 -0.0034666617439647416 0.9999465549109188 0.0034666617439647416 0.9999465549109188 0.0034666617439647416 5.344508908125701E-5 -0.0034666617439647416
7357.940982955574 5.072689700721477E-5 -0.0033154813169985913 0.9999492731029928 0.0033154813169985913 0.9999492731029928 0.0033154813169985913 5.072689700721477E-5 -0.0033154813169985913
7694.876929926739 4.821088363552274E-5 -0.0031708728327916502 0.9999517891163642 0.0031708728327916502 0.9999517891163642 0.0031708728327916502 4.821088363552274E-5 -0.0031708728327916502
8047.241898770236 4.588219665277117E-5 -0.0030325537408333715 0.9999541178033472 0.0030325537408333715 0.9999541178033472 0.0030325537408333715 4.588219665277117E-5 -0.0030325537408333715
8415.742417590522 4.372680922794281E-5 -0.0029002533590177407 0.999956273190772 0.0029002533590177407 0.999956273190772 0.0029002533590177407 4.372680922794281E-5 -0.0029002533590177407
8801.117367933934 4.1731501355675445E-5 -0.002773712374479156 0.9999582684986442 0.002773712374479156 0.9999582684986442 0.002773712374479156 4.1731501355675445E-5 -0.002773712374479156
9204.139466322391 3.9883838934817724E-5 -0.0026526823683259955 0.9999601161610652 0.0026526823683259955 0.9999601161610652 0.0026526823683259955 3.9883838934817724E-5 -0.0026526823683259955
9625.61681362972 3.817215092332813E-5 -0.002536925362413106 0.9999618278490767 0.002536925362413106 0.9999618278490767 0.002536925362413106 3.817215092332813E-5 -0.002536925362413106
10066.394515407255 3.6585504967467346E-5 -0.0024262133865485844 0.9999634144950327 0.0024262133865485844 0.9999634144950327 0.0024262133865485844 3.6585504967467346E-5 -0.0024262133865485844
10527.356376407623 3.5113681922561564E-5 -0.002320328064760394 0.9999648863180775 0.002320328064760394 0.9999648863180775 0.002320328064760394 3.5113681922561564E-5 -0.002320328064760394
11009.426672704432 3.3747149671984585E-5 -0.0022190602194522963 0.9999662528503279 0.0022190602194522963 0.9999662528503279 0.0022190602194522963 3.3747149671984585E-5 -0.0022190602194522963
