!Murata Part Number: GRM31CR60J227ME11
!These Parameters are Measured in Series Mode Connection
!       o--ll--o
!Port1            Port2
!       o------o
!Operation Temp=25[degC], DC Bias Voltage=0[V]
!Freq. Start=100[Hz] Stop=6[GHz], 401[Steps]
!Data Generated on Aug 3, 2020
# Hz S RI R 50
!Freq.(Hz) S11(Real) S11(Imag) S21(Real) S21(Imag) S12(Real) S12(Imag) S22(Real) S22(Imag)
100.0 0.012798122635569608 -0.10605067120440857 0.9872018773644307 0.10605067120440857 0.9872018773644307 0.10605067120440857 0.012798122635569608 -0.10605067120440857
104.57921513303334 0.01178440631027621 -0.10154931427194115 0.9882155936897239 0.10154931427194115 0.9882155936897239 0.10154931427194115 0.01178440631027621 -0.10154931427194115
109.3681223784127 0.010853502834914402 -0.09723074668488693 0.9891464971650856 0.09723074668488693 0.9891464971650856 0.09723074668488693 0.010853502834914402 -0.09723074668488693
114.3763239890794 0.009998703483511808 -0.09308870395148423 0.9900012965164884 0.09308870395148423 0.9900012965164884 0.09308870395148423 0.009998703483511808 -0.09308870395148423
119.61386192579457 0.009213805518692083 -0.0891169892006965 0.990786194481308 0.0891169892006965 0.990786194481308 0.0891169892006965 0.009213805518692083 -0.0891169892006965
125.09123799230618 0.008493079182775644 -0.08530949203653355 0.9915069208172242 0.08530949203653355 0.9915069208172242 0.08530949203653355 0.008493079182775644 -0.08530949203653355
130.8194348925486 0.007831236254657785 -0.0816602044183782 0.992168763745342 0.0816602044183782 0.992168763745342 0.0816602044183782 0.007831236254657785 -0.0816602044183782
136.8099382520969 0.0072234002034948525 -0.07816323389596999 0.9927765997965052 0.07816323389596999 0.9927765997965052 0.07816323389596999 0.0072234002034948525 -0.07816323389596999
143.0747596480305 0.006665077946960974 -0.07481281450323346 0.9933349220530389 0.07481281450323346 0.9933349220530389 0.07481281450323346 0.006665077946960974 -0.07481281450323346
149.6264606933842 0.006152133201454128 -0.07160331559109552 0.993847866798546 0.07160331559109552 0.993847866798546 0.07160331559109552 0.006152133201454128 -0.07160331559109552
156.47817822447783 0.005680761393959436 -0.06852924885574976 0.9943192386060404 0.06852924885574976 0.9943192386060404 0.06852924885574976 0.005680761393959436 -0.06852924885574976
163.643650641628 0.005247466090205765 -0.0655852737954599 0.9947525339097939 0.0655852737954599 0.9947525339097939 0.0655852737954599 0.005247466090205765 -0.0655852737954599
171.13724545605763 0.004849036881214474 -0.06276620180593702 0.9951509631187855 0.06276620180593702 0.9951509631187855 0.06276620180593702 0.004849036881214474 -0.06276620180593702
178.97398809823787 0.004482528660315629 -0.06006699910161454 0.9955174713396846 0.06006699910161454 0.9955174713396846 0.06006699910161454 0.004482528660315629 -0.06006699910161454
187.1695920454257 0.004145242215206357 -0.05748278862786523 0.9958547577847936 0.05748278862786523 0.9958547577847936 0.05748278862786523 0.004145242215206357 -0.05748278862786523
195.74049032880657 0.0038347060546701285 -0.05500885110750461 0.9961652939453297 0.05500885110750461 0.9961652939453297 0.05500885110750461 0.0038347060546701285 -0.05500885110750461
204.70386848341695 0.0035486593871774546 -0.05264062534402322 0.9964513406128225 0.05264062534402322 0.9964513406128225 0.05264062534402322 0.0035486593871774546 -0.05264062534402322
214.0776990069143 0.0032850361687231117 -0.050373707884164814 0.9967149638312769 0.050373707884164814 0.9967149638312769 0.050373707884164814 0.0032850361687231117 -0.050373707884164814
223.88077739628844 0.0030419501398335136 -0.048203852124062474 0.9969580498601666 0.048203852124062474 0.9969580498601666 0.048203852124062474 0.0030419501398335136 -0.048203852124062474
234.132759834772 0.002817680776519048 -0.046126966926526625 0.997182319223481 0.046126966926526625 0.997182319223481 0.046126966926526625 0.002817680776519048 -0.046126966926526625
244.85420260451448 0.0026106600867592754 -0.0441391148026286 0.9973893399132405 0.0441391148026286 0.9973893399132405 0.0441391148026286 0.0026106600867592754 -0.0441391148026286
256.06660330404856 0.0024194601924833786 -0.04223650969876812 0.9975805398075166 0.04223650969876812 0.9975805398075166 0.04223650969876812 0.0024194601924833786 -0.04223650969876812
267.792443953192 0.002242781646424654 -0.040415514421212426 0.9977572183535752 0.040415514421212426 0.9977572183535752 0.040415514421212426 0.002242781646424654 -0.040415514421212426
280.0552360718164 0.0020794424430784116 -0.03867263772376777 0.9979205575569218 0.03867263772376777 0.9979205575569218 0.03867263772376777 0.0020794424430784116 -0.03867263772376777
292.87956782286926 0.001928367692625907 -0.03700453108076105 0.9980716323073738 0.03700453108076105 0.9980716323073738 0.03700453108076105 0.001928367692625907 -0.03700453108076105
306.2911533141767 0.001788579935457761 -0.035407985166659016 0.9982114200645423 0.035407985166659016 0.9982114200645423 0.035407985166659016 0.001788579935457761 -0.035407985166659016
320.3168841578819 0.0016591900822613165 -0.03387992606504635 0.9983408099177384 0.03387992606504635 0.9983408099177384 0.03387992606504635 0.0016591900822613165 -0.03387992606504635
334.9848833909005 0.0015393889700740387 -0.032417411232792286 0.9984606110299261 0.032417411232792286 0.9984606110299261 0.032417411232792286 0.0015393889700740387 -0.032417411232792286
350.32456186451077 0.001428439527965644 -0.031017625249408185 0.9985715604720344 0.031017625249408185 0.9985715604720344 0.031017625249408185 0.001428439527965644 -0.031017625249408185
366.36667721614316 0.00132566954701029 -0.02967787538615664 0.9986743304529898 0.02967787538615664 0.9986743304529898 0.02967787538615664 0.00132566954701029 -0.02967787538615664
383.1433955416162 0.0012304650480642388 -0.028395587033738654 0.9987695349519358 0.028395587033738654 0.9987695349519358 0.028395587033738654 0.0012304650480642388 -0.028395587033738654
400.68835589147574 0.0011422642378764011 -0.027168299030782803 0.9988577357621237 0.027168299030782803 0.9988577357621237 0.027168299030782803 0.0011422642378764011 -0.027168299030782803
419.03673772076064 0.001060552039675147 -0.02599365893743396 0.998939447960325 0.02599365893743396 0.998939447960325 0.02599365893743396 0.001060552039675147 -0.02599365893743396
438.225331427439 9.848551791309717E-4 -0.024869418298815227 0.999015144820869 0.024869418298815227 0.999015144820869 0.024869418298815227 9.848551791309717E-4 -0.024869418298815227
458.2926121209498 9.147378010554176E-4 -0.023793427941916377 0.9990852621989444 0.023793427941916377 0.9990852621989444 0.023793427941916377 9.147378010554176E-4 -0.023793427941916377
479.2788167687661 8.497975868960261E-4 -0.022763633346623752 0.999150202413104 0.022763633346623752 0.999150202413104 0.022763633346623752 8.497975868960261E-4 -0.022763633346623752
501.22602487566456 7.896623384791119E-4 -0.02177807012737358 0.9992103376615209 0.02177807012737358 0.9992103376615209 0.02177807012737358 7.896623384791119E-4 -0.02177807012737358
524.1782428574726 7.339869898763801E-4 -0.02083485965660624 0.9992660130101235 0.02083485965660624 0.9992660130101235 0.02083485965660624 7.339869898763801E-4 -0.02083485965660624
548.1814922784702 6.824510069364248E-4 -0.019932204855212066 0.9993175489930636 0.019932204855212066 0.9993175489930636 0.019932204855212066 6.824510069364248E-4 -0.019932204855212066
573.2839021293739 6.347561330046078E-4 -0.01906838616888381 0.9993652438669953 0.01906838616888381 0.9993652438669953 0.01906838616888381 6.347561330046078E-4 -0.01906838616888381
599.5358053309263 5.90624439613764E-4 -0.018241757743098157 0.9994093755603863 0.018241757743098157 0.9994093755603863 0.018241757743098157 5.90624439613764E-4 -0.018241757743098157
626.9898396565933 5.497966423282695E-4 -0.017450743803652313 0.9994502033576718 0.017450743803652313 0.9994502033576718 0.017450743803652313 5.497966423282695E-4 -0.017450743803652313
655.7010532767296 5.120306442644303E-4 -0.016693835244521362 0.9994879693557357 0.016693835244521362 0.9994879693557357 0.016693835244521362 5.120306442644303E-4 -0.016693835244521362
685.7270151358366 4.771002728538026E-4 -0.01596958642043461 0.9995228997271461 0.01596958642043461 0.9995228997271461 0.01596958642043461 4.771002728538026E-4 -0.01596958642043461
717.1279303842347 4.447941789165123E-4 -0.015276612138073863 0.9995552058210837 0.015276612138073863 0.9995552058210837 0.015276612138073863 4.447941789165123E-4 -0.015276612138073863
749.9667610955984 4.149148708347183E-4 -0.01461358483718158 0.9995850851291654 0.01461358483718158 0.9995850851291654 0.01461358483718158 4.149148708347183E-4 -0.01461358483718158
784.3093525124082 3.872778603558992E-4 -0.013979231951084376 0.9996127221396441 0.013979231951084376 0.9996127221396441 0.013979231951084376 3.872778603558992E-4 -0.013979231951084376
820.2245650724522 3.6171090014308155E-4 -0.013372333435097158 0.9996382890998569 0.013372333435097158 0.9996382890998569 0.013372333435097158 3.6171090014308155E-4 -0.013372333435097158
857.7844124811068 3.380532964976836E-4 -0.012791719450860401 0.9996619467035024 0.012791719450860401 0.9996619467035024 0.012791719450860401 3.380532964976836E-4 -0.012791719450860401
897.0642061062428 3.1615528362523526E-4 -0.012236268194748245 0.9996838447163746 0.012236268194748245 0.9996838447163746 0.012236268194748245 3.1615528362523526E-4 -0.012236268194748245
938.1427059852851 2.958774483482001E-4 -0.011704903858938437 0.9997041225516516 0.011704903858938437 0.9997041225516516 0.011704903858938437 2.958774483482001E-4 -0.011704903858938437
981.102278747212 2.7709019628026674E-4 -0.011196594714431393 0.9997229098037198 0.011196594714431393 0.9997229098037198 0.011196594714431393 2.7709019628026674E-4 -0.011196594714431393
1026.0290627661395 2.596732521771299E-4 -0.010710351306135893 0.9997403267478232 0.010710351306135893 0.9997403267478232 0.010710351306135893 2.596732521771299E-4 -0.010710351306135893
1073.0131408776467 2.4351518850559118E-4 -0.010245224751005928 0.9997564848114944 0.010245224751005928 0.9997564848114944 0.010245224751005928 2.4351518850559118E-4 -0.010245224751005928
1122.1487210041523 2.285129772770753E-4 -0.009800305131044188 0.9997714870227231 0.009800305131044188 0.9997714870227231 0.009800305131044188 2.285129772770753E-4 -0.009800305131044188
1173.5343250515148 2.145715609347437E-4 -0.00937471997372411 0.999785428439065 0.00937471997372411 0.999785428439065 0.00937471997372411 2.145715609347437E-4 -0.00937471997372411
1227.2729864556143 2.0160343863199405E-4 -0.008967632812991207 0.9997983965613678 0.008967632812991207 0.9997983965613678 0.008967632812991207 2.0160343863199405E-4 -0.008967632812991207
1283.4724567750195 1.8952826466164035E-4 -0.008578241824466638 0.9998104717353382 0.008578241824466638 0.9998104717353382 0.008578241824466638 1.8952826466164035E-4 -0.008578241824466638
1342.245421743976 1.7827245615349515E-4 -0.008205778528796306 0.9998217275438465 0.008205778528796306 0.9998217275438465 0.008205778528796306 1.7827245615349515E-4 -0.008205778528796306
1403.7097272189235 1.6776880750997867E-4 -0.00784950655728298 0.9998322311924899 0.00784950655728298 0.9998322311924899 0.00784950655728298 1.6776880750997867E-4 -0.00784950655728298
1467.9886154715937 1.5795610944043401E-4 -0.0075087204740410815 0.9998420438905595 0.0075087204740410815 0.9998420438905595 0.0075087204740410815 1.5795610944043401E-4 -0.0075087204740410815
1535.2109723024755 1.487787709165915E-4 -0.007182744648965463 0.9998512212290833 0.007182744648965463 0.9998512212290833 0.007182744648965463 1.487787709165915E-4 -0.007182744648965463
1605.5115854701387 1.4018644291930306E-4 -0.0068709321758555755 0.9998598135570808 0.0068709321758555755 0.9998598135570808 0.0068709321758555755 1.4018644291930306E-4 -0.0068709321758555755
1679.0314149545911 1.3213364347795174E-4 -0.0065726638301346774 0.9998678663565219 0.0065726638301346774 0.9998678663565219 0.0065726638301346774 1.3213364347795174E-4 -0.0065726638301346774
1755.9178755965756 1.2457938419933038E-4 -0.006287347060795628 0.9998754206158005 0.006287347060795628 0.9998754206158005 0.006287347060795628 1.2457938419933038E-4 -0.006287347060795628
1836.3251326795319 1.1748679920762416E-4 -0.006014415011525799 0.9998825132007924 0.006014415011525799 0.9998825132007924 0.006014415011525799 1.1748679920762416E-4 -0.006014415011525799
1920.4144110468878 1.1082277812541678E-4 -0.005753325566435993 0.9998891772218745 0.005753325566435993 0.9998891772218745 0.005753325566435993 1.1082277812541678E-4 -0.005753325566435993
2008.3543183745 1.0455760536523905E-4 -0.005503560416445326 0.9998954423946347 0.005503560416445326 0.9998954423946347 0.005503560416445326 1.0455760536523905E-4 -0.005503560416445326
2100.321183246434 9.866460852011946E-5 -0.00526462414314192 0.99990133539148 0.00526462414314192 0.99990133539148 0.00526462414314192 9.866460852011946E-5 -0.00526462414314192
2196.4994087119585 9.311981899450499E-5 -0.0050360433178152815 0.9999068801810054 0.0050360433178152815 0.9999068801810054 0.0050360433178152815 9.311981899450499E-5 -0.0050360433178152815
2297.0818420326846 8.790164817083623E-5 -0.004817365614293586 0.9999120983518293 0.004817365614293586 0.9999120983518293 0.004817365614293586 8.790164817083623E-5 -0.004817365614293586
2402.270161361206 8.299058234581532E-5 -0.004608158935161538 0.9999170094176542 0.004608158935161538 0.9999170094176542 0.004608158935161538 8.299058234581532E-5 -0.004608158935161538
2512.2752801266033 7.836889939678473E-5 -0.0044080105518225195 0.9999216311006034 0.0044080105518225195 0.9999216311006034 0.0044080105518225195 7.836889939678473E-5 -0.0044080105518225195
2627.3177699376165 7.402040967422834E-5 -0.004216526259646696 0.9999259795903257 0.004216526259646696 0.9999259795903257 0.004216526259646696 7.402040967422834E-5 -0.004216526259646696
2747.6283028514745 6.993022299897224E-5 -0.004033329550068675 0.999930069777001 0.004033329550068675 0.999930069777001 0.004033329550068675 6.993022299897224E-5 -0.004033329550068675
2873.4481138951564 6.608454292164923E-5 -0.003858060801932163 0.9999339154570783 0.003858060801932163 0.9999339154570783 0.003858060801932163 6.608454292164923E-5 -0.003858060801932163
3005.0294847665045 6.247048863285624E-5 -0.0036903764946105058 0.9999375295113674 0.0036903764946105058 0.9999375295113674 0.0036903764946105058 6.247048863285624E-5 -0.0036903764946105058
3142.6362496850466 5.907594415060208E-5 -0.0035299484454632485 0.9999409240558493 0.0035299484454632485 0.9999409240558493 0.0035299484454632485 5.907594415060208E-5 -0.0035299484454632485
3286.544324406816 5.58894337070712E-5 -0.003376463074038188 0.9999441105662928 0.003376463074038188 0.9999441105662928 0.003376463074038188 5.58894337070712E-5 -0.003376463074038188
3437.0422594639017 5.290002164959102E-5 -0.0032296206951263544 0.9999470999783504 0.0032296206951263544 0.9999470999783504 0.0032296206951263544 5.290002164959102E-5 -0.0032296206951263544
3594.431818738024 5.00972346887633E-5 -0.0030891348423622888 0.9999499027653111 0.0030891348423622888 0.9999499027653111 0.0030891348423622888 5.00972346887633E-5 -0.0030891348423622888
3759.0285845282415 4.7471003984434066E-5 -0.0029547316235755947 0.9999525289960156 0.0029547316235755947 0.9999525289960156 0.0029547316235755947 4.7471003984434066E-5 -0.0029547316235755947
3931.162590326006 4.501162435932529E-5 -0.0028261491085829356 0.9999549883756407 0.0028261491085829356 0.9999549883756407 0.0028261491085829356 4.501162435932529E-5 -0.0028261491085829356
4111.17898256636 4.270972786176987E-5 -0.0027031367495985222 0.999957290272138 0.0027031367495985222 0.999957290272138 0.0027031367495985222 4.270972786176987E-5 -0.0027031367495985222
4299.438712682125 4.0556268946081805E-5 -0.002585454833965298 0.9999594437310539 0.002585454833965298 0.9999594437310539 0.002585454833965298 4.0556268946081805E-5 -0.002585454833965298
4496.31926084876 3.8542518679611276E-5 -0.0024728739684895867 0.9999614574813201 0.0024728739684895867 0.9999614574813201 0.0024728739684895867 3.8542518679611276E-5 -0.0024728739684895867
4702.215392871039 3.666006559533345E-5 -0.0023651745943121666 0.9999633399344046 0.0023651745943121666 0.9999633399344046 0.0023651745943121666 3.666006559533345E-5 -0.0023651745943121666
4917.539951729213 3.490082106413953E-5 -0.0022621465309735195 0.999965099178936 0.0022621465309735195 0.999965099178936 0.0022621465309735195 3.490082106413953E-5 -0.0022621465309735195
5142.724685371758 3.325702734042167E-5 -0.0021635885481299205 0.9999667429726596 0.0021635885481299205 0.9999667429726596 0.0021635885481299205 3.325702734042167E-5 -0.0021635885481299205
5378.221112414543 3.172126672023544E-5 -0.002069307963243802 0.9999682787332799 0.002069307963243802 0.9999682787332799 0.002069307963243802 3.172126672023544E-5 -0.002069307963243802
5624.501427482224 3.0286470529675614E-5 -0.001979120263498089 0.9999697135294703 0.001979120263498089 0.9999697135294703 0.001979120263498089 3.0286470529675614E-5 -0.001979120263498089
5882.059448007167 2.8945926922781106E-5 -0.001892848750159511 0.9999710540730773 0.001892848750159511 0.9999710540730773 0.001892848750159511 2.8945926922781106E-5 -0.001892848750159511
6151.41160438433 2.7693286707861243E-5 -0.0018103242036299088 0.9999723067132921 0.0018103242036299088 0.9999723067132921 0.0018103242036299088 2.7693286707861243E-5 -0.0018103242036299088
6433.097975467465 2.6522566636402046E-5 -0.0017313845674679573 0.9999734774333635 0.0017313845674679573 0.9999734774333635 0.0017313845674679573 2.6522566636402046E-5 -0.0017313845674679573
6727.683371482931 2.54281497798198E-5 -0.0016558746497284174 0.9999745718502201 0.0016558746497284174 0.9999745718502201 0.0016558746497284174 2.54281497798198E-5 -0.0016558746497284174
7035.758466532445 2.4404782787901782E-5 -0.0015836458400463613 0.999975595217212 0.0015836458400463613 0.999975595217212 0.0015836458400463613 2.4404782787901782E-5 -0.0015836458400463613
7357.940982955574 2.344756997103377E-5 -0.0015145558409853756 0.9999765524300287 0.0015145558409853756 0.9999765524300287 0.0015145558409853756 2.344756997103377E-5 -0.0015145558409853756
7694.876929926739 2.2551964278397095E-5 -0.0014484684122693364 0.9999774480357217 0.0014484684122693364 0.9999774480357217 0.0014484684122693364 2.2551964278397095E-5 -0.0014484684122693364
8047.241898770236 2.1713755357735074E-5 -0.0013852531266256409 0.9999782862446425 0.0013852531266256409 0.9999782862446425 0.0013852531266256409 2.1713755357735074E-5 -0.0013852531266256409
8415.742417590522 2.092905497967711E-5 -0.0013247851360831161 0.9999790709450203 0.0013247851360831161 0.9999790709450203 0.0013247851360831161 2.092905497967711E-5 -0.0013247851360831161
8801.117367933934 2.0194280190670816E-5 -0.0012669449476897829 0.9999798057198094 0.0012669449476897829 0.9999798057198094 0.0012669449476897829 2.0194280190670816E-5 -0.0012669449476897829
9204.139466322391 1.9506134622280533E-5 -0.0012116182077432115 0.9999804938653778 0.0012116182077432115 0.9999804938653778 0.0012116182077432115 1.9506134622280533E-5 -0.0012116182077432115
9625.61681362972 1.8861588429547294E-5 -0.0011586954937577497 0.9999811384115703 0.0011586954937577497 0.9999811384115703 0.0011586954937577497 1.8861588429547294E-5 -0.0011586954937577497
10066.394515407255 1.8257857355921173E-5 -0.0011080721135258089 0.999981742142644 0.0011080721135258089 0.999981742142644 0.0011080721135258089 1.8257857355921173E-5 -0.0011080721135258089
10527.356376407623 1.7692381426150114E-5 -0.0010596479107612888 0.9999823076185738 0.0010596479107612888 0.9999823076185738 0.0010596479107612888 1.7692381426150114E-5 -0.0010596479107612888
