!Murata Part Number: GRM32ER60E337ME05
!These Parameters are Measured in Series Mode Connection
!       o--ll--o
!Port1            Port2
!       o------o
!Operation Temp=25[degC], DC Bias Voltage=0[V]
!Freq. Start=100[Hz] Stop=6[GHz], 401[Steps]
!Data Generated on Dec 1, 2020
# Hz S RI R 50
!Freq.(Hz) S11(Real) S11(Imag) S21(Real) S21(Imag) S12(Real) S12(Imag) S22(Real) S22(Imag)
100.0 0.005891968500861916 -0.07006383588934674 0.994108031499138 0.07006383588934674 0.994108031499138 0.07006383588934674 0.005891968500861916 -0.07006383588934674
104.57921513303334 0.0054347580000316115 -0.06705267226538186 0.9945652419999685 0.06705267226538186 0.9945652419999685 0.06705267226538186 0.0054347580000316115 -0.06705267226538186
109.3681223784127 0.005014795212398875 -0.06416821849660531 0.9949852047876012 0.06416821849660531 0.9949852047876012 0.06416821849660531 0.005014795212398875 -0.06416821849660531
114.3763239890794 0.004629050153609341 -0.06140552710768953 0.9953709498463906 0.06140552710768953 0.9953709498463906 0.06140552710768953 0.004629050153609341 -0.06140552710768953
119.61386192579457 0.00427472597263218 -0.058759800171851846 0.9957252740273679 0.058759800171851846 0.9957252740273679 0.058759800171851846 0.00427472597263218 -0.058759800171851846
125.09123799230618 0.00394924233825951 -0.05622638897425628 0.9960507576617406 0.05622638897425628 0.9960507576617406 0.05622638897425628 0.00394924233825951 -0.05622638897425628
130.8194348925486 0.003650219989343037 -0.05380079316688495 0.9963497800106571 0.05380079316688495 0.9963497800106571 0.05380079316688495 0.003650219989343037 -0.05380079316688495
136.8099382520969 0.0033754663630820676 -0.0514786594878529 0.9966245336369179 0.0514786594878529 0.9966245336369179 0.0514786594878529 0.0033754663630820676 -0.0514786594878529
143.0747596480305 0.003122962223460367 -0.04925578010982046 0.9968770377765398 0.04925578010982046 0.9968770377765398 0.04925578010982046 0.003122962223460367 -0.04925578010982046
149.6264606933842 0.0028908492182929874 -0.047128090675301 0.9971091507817069 0.047128090675301 0.9971091507817069 0.047128090675301 0.0028908492182929874 -0.047128090675301
156.47817822447783 0.002677418298442595 -0.045091668070757575 0.9973225817015574 0.045091668070757575 0.9973225817015574 0.045091668070757575 0.002677418298442595 -0.045091668070757575
163.643650641628 0.0024810989368118795 -0.043142727986023505 0.9975189010631882 0.043142727986023505 0.9975189010631882 0.043142727986023505 0.0024810989368118795 -0.043142727986023505
171.13724545605763 0.0023004490879653177 -0.04127762230047489 0.9976995509120348 0.04127762230047489 0.9976995509120348 0.04127762230047489 0.0023004490879653177 -0.04127762230047489
178.97398809823787 0.0021341458319478644 -0.03949283633232248 0.9978658541680521 0.03949283633232248 0.9978658541680521 0.03949283633232248 0.0021341458319478644 -0.03949283633232248
187.1695920454257 0.0019809766483190666 -0.03778498598227017 0.998019023351681 0.03778498598227017 0.998019023351681 0.03778498598227017 0.0019809766483190666 -0.03778498598227017
195.74049032880657 0.0018398312688624081 -0.036150814797578576 0.9981601687311374 0.036150814797578576 0.9981601687311374 0.036150814797578576 0.0018398312688624081 -0.036150814797578576
204.70386848341695 0.001709694060085396 -0.03458719097732715 0.9982903059399147 0.03458719097732715 0.9982903059399147 0.03458719097732715 0.001709694060085396 -0.03458719097732715
214.0776990069143 0.001589636889674722 -0.03309110433449923 0.9984103631103252 0.03309110433449923 0.9984103631103252 0.03309110433449923 0.001589636889674722 -0.03309110433449923
223.88077739628844 0.0014788124346326727 -0.031659663225590065 0.9985211875653671 0.031659663225590065 0.9985211875653671 0.031659663225590065 0.0014788124346326727 -0.031659663225590065
234.132759834772 0.0013764478929450567 -0.030290091453955035 0.998623552107055 0.030290091453955035 0.998623552107055 0.030290091453955035 0.0013764478929450567 -0.030290091453955035
244.85420260451448 0.0012818390652884124 -0.028979725149289044 0.9987181609347117 0.028979725149289044 0.9987181609347117 0.028979725149289044 0.0012818390652884124 -0.028979725149289044
256.06660330404856 0.0011943447783666794 -0.02772600962265324 0.9988056552216333 0.02772600962265324 0.9988056552216333 0.02772600962265324 0.0011943447783666794 -0.02772600962265324
267.792443953192 0.001113381626793577 -0.026526496194504742 0.9988866183732064 0.026526496194504742 0.9988866183732064 0.026526496194504742 0.001113381626793577 -0.026526496194504742
280.0552360718164 0.0010384190157669282 -0.02537883899233606 0.9989615809842332 0.02537883899233606 0.9989615809842332 0.02537883899233606 0.0010384190157669282 -0.02537883899233606
292.87956782286926 9.689744918401212E-4 -0.024280791714811907 0.99903102550816 0.024280791714811907 0.99903102550816 0.024280791714811907 9.689744918401212E-4 -0.024280791714811907
306.2911533141767 9.046093536022727E-4 -0.02323020436062941 0.9990953906463979 0.02323020436062941 0.9990953906463979 0.02323020436062941 9.046093536022727E-4 -0.02323020436062941
320.3168841578819 8.449245377757455E-4 -0.022225019922561273 0.9991550754622242 0.022225019922561273 0.9991550754622242 0.022225019922561273 8.449245377757455E-4 -0.022225019922561273
334.9848833909005 7.895567789262055E-4 -0.02126327105003307 0.9992104432210738 0.02126327105003307 0.9992104432210738 0.02126327105003307 7.895567789262055E-4 -0.02126327105003307
350.32456186451077 7.381750425341332E-4 -0.020343076686836388 0.999261824957466 0.020343076686836388 0.999261824957466 0.020343076686836388 7.381750425341332E-4 -0.020343076686836388
366.36667721614316 6.904772315704046E-4 -0.019462638693872686 0.9993095227684298 0.019462638693872686 0.9993095227684298 0.019462638693872686 6.904772315704046E-4 -0.019462638693872686
383.1433955416162 6.461871660224779E-4 -0.018620238469842842 0.9993538128339776 0.018620238469842842 0.9993538128339776 0.018620238469842842 6.461871660224779E-4 -0.018620238469842842
400.68835589147574 6.050518331912446E-4 -0.01781423358527172 0.9993949481668086 0.01781423358527172 0.9993949481668086 0.01781423358527172 6.050518331912446E-4 -0.01781423358527172
419.03673772076064 5.668389042505919E-4 -0.01704305444697929 0.9994331610957493 0.01704305444697929 0.9994331610957493 0.01704305444697929 5.668389042505919E-4 -0.01704305444697929
438.225331427439 5.313345098035282E-4 -0.01630520101095488 0.9994686654901964 0.01630520101095488 0.9994686654901964 0.01630520101095488 5.313345098035282E-4 -0.01630520101095488
458.2926121209498 4.98341264263917E-4 -0.015599239561525216 0.999501658735736 0.015599239561525216 0.999501658735736 0.015599239561525216 4.98341264263917E-4 -0.015599239561525216
479.2788167687661 4.676765261079135E-4 -0.01492379957377914 0.999532323473892 0.01492379957377914 0.999532323473892 0.01492379957377914 4.676765261079135E-4 -0.01492379957377914
501.22602487566456 4.3917087859922914E-4 -0.014277570674544798 0.9995608291214008 0.014277570674544798 0.9995608291214008 0.014277570674544798 4.3917087859922914E-4 -0.014277570674544798
524.1782428574726 4.126668136638287E-4 -0.013659299714977017 0.9995873331863362 0.013659299714977017 0.9995873331863362 0.013659299714977017 4.126668136638287E-4 -0.013659299714977017
548.1814922784702 3.88017600272692E-4 -0.013067787965203803 0.9996119823997272 0.013067787965203803 0.9996119823997272 0.013067787965203803 3.88017600272692E-4 -0.013067787965203803
573.2839021293739 3.65086318019244E-4 -0.012501888438701618 0.9996349136819807 0.012501888438701618 0.9996349136819807 0.012501888438701618 3.65086318019244E-4 -0.012501888438701618
599.5358053309263 3.4374503652533344E-4 -0.011960503351305813 0.9996562549634745 0.011960503351305813 0.9996562549634745 0.011960503351305813 3.4374503652533344E-4 -0.011960503351305813
626.9898396565933 3.2387412180355377E-4 -0.011442581717170644 0.9996761258781963 0.011442581717170644 0.9996761258781963 0.011442581717170644 3.2387412180355377E-4 -0.011442581717170644
655.7010532767296 3.053616516395515E-4 -0.010947117081688273 0.9996946383483605 0.010947117081688273 0.9996946383483605 0.010947117081688273 3.053616516395515E-4 -0.010947117081688273
685.7270151358366 2.8810292331434744E-4 -0.010473145389430229 0.999711897076686 0.010473145389430229 0.999711897076686 0.010473145389430229 2.8810292331434744E-4 -0.010473145389430229
717.1279303842347 2.7200003843954706E-4 -0.010019742983618806 0.9997279999615606 0.010019742983618806 0.9997279999615606 0.010019742983618806 2.7200003843954706E-4 -0.010019742983618806
749.9667610955984 2.569615512126762E-4 -0.009586024732463637 0.9997430384487874 0.009586024732463637 0.9997430384487874 0.009586024732463637 2.569615512126762E-4 -0.009586024732463637
784.3093525124082 2.429021679183718E-4 -0.00917114227687389 0.9997570978320818 0.00917114227687389 0.9997570978320818 0.00917114227687389 2.429021679183718E-4 -0.00917114227687389
820.2245650724522 2.297424869296779E-4 -0.008774282393523724 0.9997702575130701 0.008774282393523724 0.9997702575130701 0.008774282393523724 2.297424869296779E-4 -0.008774282393523724
857.7844124811068 2.1740876975381095E-4 -0.008394665466938405 0.9997825912302463 0.008394665466938405 0.9997825912302463 0.008394665466938405 2.1740876975381095E-4 -0.008394665466938405
897.0642061062428 2.058327347958943E-4 -0.00803154406410926 0.9997941672652042 0.00803154406410926 0.9997941672652042 0.00803154406410926 2.058327347958943E-4 -0.00803154406410926
938.1427059852851 1.9495136648354808E-4 -0.007684201605069599 0.9998050486335164 0.007684201605069599 0.9998050486335164 0.007684201605069599 1.9495136648354808E-4 -0.007684201605069599
981.102278747212 1.847067332263104E-4 -0.007351951122812025 0.9998152932667735 0.007351951122812025 0.9998152932667735 0.007351951122812025 1.847067332263104E-4 -0.007351951122812025
1026.0290627661395 1.750458084135009E-4 -0.007034134105857473 0.9998249541915863 0.007034134105857473 0.9998249541915863 0.007034134105857473 1.750458084135009E-4 -0.007034134105857473
1073.0131408776467 1.6592028932883447E-4 -0.006730119416673127 0.9998340797106711 0.006730119416673127 0.9998340797106711 0.006730119416673127 1.6592028932883447E-4 -0.006730119416673127
1122.1487210041523 1.5728640952971737E-4 -0.006439302278973849 0.9998427135904703 0.006439302278973849 0.9998427135904703 0.006439302278973849 1.5728640952971737E-4 -0.006439302278973849
1173.5343250515148 1.491047409505115E-4 -0.006161103326745055 0.9998508952590494 0.006161103326745055 0.9998508952590494 0.006161103326745055 1.491047409505115E-4 -0.006161103326745055
1227.2729864556143 1.4133998277951403E-4 -0.005894967707625298 0.9998586600172205 0.005894967707625298 0.9998586600172205 0.005894967707625298 1.4133998277951403E-4 -0.005894967707625298
1283.4724567750195 1.3396073505155887E-4 -0.005640364233129268 0.9998660392649485 0.005640364233129268 0.9998660392649485 0.005640364233129268 1.3396073505155887E-4 -0.005640364233129268
1342.245421743976 1.2693925589560287E-4 -0.005396784568129684 0.9998730607441043 0.005396784568129684 0.9998730607441043 0.005396784568129684 1.2693925589560287E-4 -0.005396784568129684
1403.7097272189235 1.2025120246195311E-4 -0.005163742452103201 0.9998797487975379 0.005163742452103201 0.9998797487975379 0.005163742452103201 1.2025120246195311E-4 -0.005163742452103201
1467.9886154715937 1.1387535668865271E-4 -0.004940772944927668 0.9998861246433114 0.004940772944927668 0.9998861246433114 0.004940772944927668 1.1387535668865271E-4 -0.004940772944927668
1535.2109723024755 1.0779333819492109E-4 -0.004727431690529711 0.999892206661805 0.004727431690529711 0.999892206661805 0.004727431690529711 1.0779333819492109E-4 -0.004727431690529711
1605.5115854701387 1.0198930764310048E-4 -0.004523294192434214 0.9998980106923568 0.004523294192434214 0.9998980106923568 0.004523294192434214 1.0198930764310048E-4 -0.004523294192434214
1679.0314149545911 9.644966481633134E-5 -0.004327955096250527 0.9999035503351836 0.004327955096250527 0.9999035503351836 0.004327955096250527 9.644966481633134E-5 -0.004327955096250527
1755.9178755965756 9.11627463482881E-5 -0.004141027475307792 0.9999088372536518 0.004141027475307792 0.9999088372536518 0.004141027475307792 9.11627463482881E-5 -0.004141027475307792
1836.3251326795319 8.61185284577164E-5 -0.003962142116964433 0.9999138814715424 0.003962142116964433 0.9999138814715424 0.003962142116964433 8.61185284577164E-5 -0.003962142116964433
1920.4144110468878 8.13083401484671E-5 -0.0037909468084893904 0.9999186916598513 0.0037909468084893904 0.9999186916598513 0.0037909468084893904 8.13083401484671E-5 -0.0037909468084893904
2008.3543183745 7.67245921247681E-5 -0.003627105622759314 0.9999232754078752 0.003627105622759314 0.9999232754078752 0.003627105622759314 7.67245921247681E-5 -0.003627105622759314
2100.321183246434 7.236052615826853E-5 -0.003470298205251716 0.9999276394738418 0.003470298205251716 0.9999276394738418 0.003470298205251716 7.236052615826853E-5 -0.003470298205251716
2196.4994087119585 6.820998887009209E-5 -0.003320219064862902 0.9999317900111299 0.003320219064862902 0.9999317900111299 0.003320219064862902 6.820998887009209E-5 -0.003320219064862902
2297.0818420326846 6.426723292056524E-5 -0.003176576871881887 0.9999357327670794 0.003176576871881887 0.9999357327670794 0.003176576871881887 6.426723292056524E-5 -0.003176576871881887
2402.270161361206 6.052674750780473E-5 -0.003039093766971346 0.9999394732524921 0.003039093766971346 0.9999394732524921 0.003039093766971346 6.052674750780473E-5 -0.003039093766971346
2512.2752801266033 5.698311894541117E-5 -0.002907504685231696 0.9999430168810547 0.002907504685231696 0.9999430168810547 0.002907504685231696 5.698311894541117E-5 -0.002907504685231696
2627.3177699376165 5.3630920997341786E-5 -0.0027815566993678 0.9999463690790028 0.0027815566993678 0.9999463690790028 0.0027815566993678 5.3630920997341786E-5 -0.0027815566993678
2747.6283028514745 5.046463366233052E-5 -0.0026610083856726577 0.9999495353663379 0.0026610083856726577 0.9999495353663379 0.0026610083856726577 5.046463366233052E-5 -0.0026610083856726577
2873.4481138951564 4.747858827294917E-5 -0.0025456292160380587 0.9999525214117271 0.0025456292160380587 0.9999525214117271 0.0025456292160380587 4.747858827294917E-5 -0.0025456292160380587
3005.0294847665045 4.466693613891467E-5 -0.0024351989785564264 0.9999553330638609 0.0024351989785564264 0.9999553330638609 0.0024351989785564264 4.466693613891467E-5 -0.0024351989785564264
3142.6362496850466 4.2023637534854465E-5 -0.0023295072285515815 0.9999579763624653 0.0023295072285515815 0.9999579763624653 0.0023295072285515815 4.2023637534854465E-5 -0.0023295072285515815
3286.544324406816 3.9542467606366444E-5 -0.0022283527711263345 0.9999604575323936 0.0022283527711263345 0.9999604575323936 0.0022283527711263345 3.9542467606366444E-5 -0.0022283527711263345
3437.0422594639017 3.7217035727552176E-5 -0.0021315431755911654 0.9999627829642724 0.0021315431755911654 0.9999627829642724 0.0021315431755911654 3.7217035727552176E-5 -0.0021315431755911654
3594.431818738024 3.504081496074842E-5 -0.0020388943214801124 0.9999649591850391 0.0020388943214801124 0.9999649591850391 0.0020388943214801124 3.504081496074842E-5 -0.0020388943214801124
3759.0285845282415 3.300717851145614E-5 -0.0019502299752946633 0.9999669928214886 0.0019502299752946633 0.9999669928214886 0.0019502299752946633 3.300717851145614E-5 -0.0019502299752946633
3931.162590326006 3.110944040293635E-5 -0.0018653813966597003 0.9999688905595971 0.0018653813966597003 0.9999688905595971 0.0018653813966597003 3.110944040293635E-5 -0.0018653813966597003
4111.17898256636 2.9340897981287606E-5 -0.0017841869722327755 0.9999706591020188 0.0017841869722327755 0.9999706591020188 0.0017841869722327755 2.9340897981287606E-5 -0.0017841869722327755
4299.438712682125 2.769487427231478E-5 -0.0017064918754760283 0.9999723051257277 0.0017064918754760283 0.9999723051257277 0.0017064918754760283 2.769487427231478E-5 -0.0017064918754760283
4496.31926084876 2.616475862052013E-5 -0.0016321477502693092 0.9999738352413793 0.0016321477502693092 0.9999738352413793 0.0016321477502693092 2.616475862052013E-5 -0.0016321477502693092
4702.215392871039 2.47440444282563E-5 -0.0015610124163000158 0.9999752559555718 0.0015610124163000158 0.9999752559555718 0.0015610124163000158 2.47440444282563E-5 -0.0015610124163000158
4917.539951729213 2.3426363165434458E-5 -0.0014929495941938297 0.9999765736368347 0.0014929495941938297 0.9999765736368347 0.0014929495941938297 2.3426363165434458E-5 -0.0014929495941938297
5142.724685371758 2.2205514128481875E-5 -0.0014278286484347802 0.9999777944858714 0.0014278286484347802 0.9999777944858714 0.0014278286484347802 2.2205514128481875E-5 -0.0014278286484347802
5378.221112414543 2.1075489687352287E-5 -0.001365524346247198 0.9999789245103126 0.001365524346247198 0.9999789245103126 0.001365524346247198 2.1075489687352287E-5 -0.001365524346247198
5624.501427482224 2.0030495970830848E-5 -0.0013059166307621513 0.9999799695040292 0.0013059166307621513 0.9999799695040292 0.0013059166307621513 2.0030495970830848E-5 -0.0013059166307621513
5882.059448007167 1.906496910537568E-5 -0.0012488904069550403 0.9999809350308945 0.0012488904069550403 0.9999809350308945 0.0012488904069550403 1.906496910537568E-5 -0.0012488904069550403
6151.41160438433 1.8173587245379898E-5 -0.0011943353390093216 0.9999818264127546 0.0011943353390093216 0.9999818264127546 0.0011943353390093216 1.8173587245379898E-5 -0.0011943353390093216
6433.097975467465 1.735127871819658E-5 -0.001142145657926499 0.9999826487212817 0.001142145657926499 0.9999826487212817 0.001142145657926499 1.735127871819658E-5 -0.001142145657926499
6727.683371482931 1.6593226661205127E-5 -0.0010922199783591662 0.999983406773339 0.0010922199783591662 0.999983406773339 0.0010922199783591662 1.6593226661205127E-5 -0.0010922199783591662
7035.758466532445 1.589487055629593E-5 -0.0010444611237883377 0.9999841051294437 0.0010444611237883377 0.9999841051294437 0.0010444611237883377 1.589487055629593E-5 -0.0010444611237883377
7357.940982955574 1.525190507479722E-5 -9.987759592965024E-4 0.9999847480949251 9.987759592965024E-4 0.9999847480949251 9.987759592965024E-4 1.525190507479722E-5 -9.987759592965024E-4
7694.876929926739 1.466027663794304E-5 -9.550752313028976E-4 0.9999853397233619 9.550752313028976E-4 0.9999853397233619 9.550752313028976E-4 1.466027663794304E-5 -9.550752313028976E-4
8047.241898770236 1.4116178078740083E-5 -9.132734137273222E-4 0.9999858838219211 9.132734137273222E-4 0.9999858838219211 9.132734137273222E-4 1.4116178078740083E-5 -9.132734137273222E-4
8415.742417590522 1.3616041764131756E-5 -8.732885601340782E-4 0.9999863839582358 8.732885601340782E-4 0.9999863839582358 8.732885601340782E-4 1.3616041764131756E-5 -8.732885601340782E-4
8801.117367933934 1.3156531504624535E-5 -8.350421614793595E-4 0.9999868434684952 8.350421614793595E-4 0.9999868434684952 8.350421614793595E-4 1.3156531504624535E-5 -8.350421614793595E-4
9204.139466322391 1.27345335443745E-5 -7.984590091449106E-4 0.9999872654664557 7.984590091449106E-4 0.9999872654664557 7.984590091449106E-4 1.27345335443745E-5 -7.984590091449106E-4
9625.61681362972 1.2347146889929296E-5 -7.63467062989455E-4 0.9999876528531101 7.63467062989455E-4 0.9999876528531101 7.63467062989455E-4 1.2347146889929296E-5 -7.63467062989455E-4
10066.394515407255 1.1991673201714061E-5 -7.299973241887138E-4 0.9999880083267982 7.299973241887138E-4 0.9999880083267982 7.299973241887138E-4 1.1991673201714061E-5 -7.299973241887138E-4
10527.356376407623 1.166560643988054E-5 -6.979837126661615E-4 0.9999883343935603 6.979837126661615E-4 0.9999883343935603 6.979837126661615E-4 1.166560643988054E-5 -6.979837126661615E-4
