!Murata Part Number: GRM32ED70G227ME01
!These Parameters are Measured in Series Mode Connection
!       o--ll--o
!Port1            Port2
!       o------o
!Operation Temp=25[degC], DC Bias Voltage=0[V]
!Freq. Start=100[Hz] Stop=6[GHz], 401[Steps]
!Data Generated on Oct 3, 2023
# Hz S RI R 50
!Freq.(Hz) S11(Real) S11(Imag) S21(Real) S21(Imag) S12(Real) S12(Imag) S22(Real) S22(Imag)
100.0 0.010688220224490662 -0.09800972324356076 0.9893117797755094 0.09800972324356076 0.9893117797755094 0.09800972324356076 0.010688220224490662 -0.09800972324356076
104.57921513303334 0.009837897008342079 -0.09382946454348201 0.9901621029916581 0.09382946454348201 0.9901621029916581 0.09382946454348201 0.009837897008342079 -0.09382946454348201
109.3681223784127 0.009056895029320616 -0.08982147201698895 0.9909431049706795 0.08982147201698895 0.9909431049706795 0.08982147201698895 0.009056895029320616 -0.08982147201698895
114.3763239890794 0.00833953947080602 -0.08597943725997399 0.9916604605291938 0.08597943725997399 0.9916604605291938 0.08597943725997399 0.00833953947080602 -0.08597943725997399
119.61386192579457 0.007680603725101905 -0.0822971766880404 0.9923193962748981 0.0822971766880404 0.9923193962748981 0.0822971766880404 0.007680603725101905 -0.0822971766880404
125.09123799230618 0.007075277683711559 -0.07876864321821113 0.9929247223162884 0.07876864321821113 0.9929247223162884 0.07876864321821113 0.007075277683711559 -0.07876864321821113
130.8194348925486 0.006519137904947385 -0.07538793576649253 0.9934808620950526 0.07538793576649253 0.9934808620950526 0.07538793576649253 0.006519137904947385 -0.07538793576649253
136.8099382520969 0.006008119567334986 -0.07214930683181313 0.9939918804326652 0.07214930683181313 0.9939918804326652 0.07214930683181313 0.006008119567334986 -0.07214930683181313
143.0747596480305 0.00553849011400385 -0.06904716839966886 0.994461509885996 0.06904716839966886 0.994461509885996 0.06904716839966886 0.00553849011400385 -0.06904716839966886
149.6264606933842 0.005106824493586962 -0.06607609636586352 0.994893175506413 0.06607609636586352 0.994893175506413 0.06607609636586352 0.005106824493586962 -0.06607609636586352
156.47817822447783 0.004709981906407416 -0.06323083365196047 0.9952900180935923 0.06323083365196047 0.9952900180935923 0.06323083365196047 0.004709981906407416 -0.06323083365196047
163.643650641628 0.004345083970267385 -0.060506292159380026 0.9956549160297326 0.060506292159380026 0.9956549160297326 0.060506292159380026 0.004345083970267385 -0.060506292159380026
171.13724545605763 0.004009494227332896 -0.0578975536884122 0.9959905057726672 0.0578975536884122 0.9959905057726672 0.0578975536884122 0.004009494227332896 -0.0578975536884122
178.97398809823787 0.003700798921774453 -0.05539986993164556 0.9962992010782256 0.05539986993164556 0.9962992010782256 0.05539986993164556 0.003700798921774453 -0.05539986993164556
187.1695920454257 0.003416788986323174 -0.053008661638231286 0.9965832110136769 0.053008661638231286 0.9965832110136769 0.053008661638231286 0.003416788986323174 -0.053008661638231286
195.74049032880657 0.0031554431841028523 -0.05071951703570897 0.9968445568158971 0.05071951703570897 0.9968445568158971 0.05071951703570897 0.0031554431841028523 -0.05071951703570897
204.70386848341695 0.002914912359426024 -0.04852818958938718 0.9970850876405739 0.04852818958938718 0.9970850876405739 0.04852818958938718 0.002914912359426024 -0.04852818958938718
214.0776990069143 0.0026935047572249965 -0.046430595174965124 0.9973064952427751 0.046430595174965124 0.9973064952427751 0.046430595174965124 0.0026935047572249965 -0.046430595174965124
223.88077739628844 0.0024896723750950506 -0.044422808737586326 0.9975103276249052 0.044422808737586326 0.9975103276249052 0.044422808737586326 0.0024896723750950506 -0.044422808737586326
234.132759834772 0.002301998314391635 -0.042501060509164135 0.9976980016856083 0.042501060509164135 0.9976980016856083 0.042501060509164135 0.002301998314391635 -0.042501060509164135
244.85420260451448 0.0021291850974605887 -0.04066173185496452 0.9978708149025395 0.04066173185496452 0.9978708149025395 0.04066173185496452 0.0021291850974605887 -0.04066173185496452
256.06660330404856 0.0019700439170727414 -0.0389013508194726 0.9980299560829274 0.0389013508194726 0.9980299560829274 0.0389013508194726 0.0019700439170727414 -0.0389013508194726
267.792443953192 0.001823484781806881 -0.0372165874400293 0.9981765152181932 0.0372165874400293 0.9981765152181932 0.0372165874400293 0.001823484781806881 -0.0372165874400293
280.0552360718164 0.0016885075179011756 -0.03560424889425336 0.9983114924820989 0.03560424889425336 0.9983114924820989 0.03560424889425336 0.0016885075179011756 -0.03560424889425336
292.87956782286926 0.0015641935844443765 -0.03406127454368609 0.9984358064155556 0.03406127454368609 0.9984358064155556 0.03406127454368609 0.0015641935844443765 -0.03406127454368609
306.2911533141767 0.0014496986551706002 -0.03258473093138481 0.9985503013448295 0.03258473093138481 0.9985503013448295 0.03258473093138481 0.0014496986551706002 -0.03258473093138481
320.3168841578819 0.0013442459169702452 -0.031171806785464395 0.9986557540830298 0.031171806785464395 0.9986557540830298 0.031171806785464395 0.0013442459169702452 -0.031171806785464395
334.9848833909005 0.0012471200328621876 -0.02981980807407067 0.998752879967138 0.02981980807407067 0.998752879967138 0.02981980807407067 0.0012471200328621876 -0.02981980807407067
350.32456186451077 0.001157661715808252 -0.028526153150258936 0.998842338284192 0.028526153150258936 0.998842338284192 0.028526153150258936 0.001157661715808252 -0.028526153150258936
366.36667721614316 0.0010752628594948728 -0.027288368018069647 0.998924737140505 0.027288368018069647 0.998924737140505 0.027288368018069647 0.0010752628594948728 -0.027288368018069647
383.1433955416162 9.993621730560985E-4 -0.026104081744056925 0.9990006378269438 0.026104081744056925 0.9990006378269438 0.026104081744056925 9.993621730560985E-4 -0.026104081744056925
400.68835589147574 9.294412685736318E-4 -0.0249710220319111 0.9990705587314264 0.0249710220319111 0.9990705587314264 0.0249710220319111 9.294412685736318E-4 -0.0249710220319111
419.03673772076064 8.650211529033786E-4 -0.02388701097184363 0.9991349788470966 0.02388701097184363 0.9991349788470966 0.02388701097184363 8.650211529033786E-4 -0.02388701097184363
438.225331427439 8.056590787425201E-4 -0.022849960971222688 0.9991943409212575 0.022849960971222688 0.9991943409212575 0.022849960971222688 8.056590787425201E-4 -0.022849960971222688
458.2926121209498 7.509457136478898E-4 -0.021857870868640543 0.9992490542863521 0.021857870868640543 0.9992490542863521 0.021857870868640543 7.509457136478898E-4 -0.021857870868640543
479.2788167687661 7.005025897308721E-4 -0.020908822230177457 0.9992994974102689 0.020908822230177457 0.9992994974102689 0.020908822230177457 7.005025897308721E-4 -0.020908822230177457
501.22602487566456 6.539798007914392E-4 -0.02000097582406255 0.9993460201992083 0.02000097582406255 0.9993460201992083 0.02000097582406255 6.539798007914392E-4 -0.02000097582406255
524.1782428574726 6.110539175502734E-4 -0.019132568268140204 0.9993889460824498 0.019132568268140204 0.9993889460824498 0.019132568268140204 6.110539175502734E-4 -0.019132568268140204
548.1814922784702 5.714260952657982E-4 -0.018301908843423875 0.9994285739047345 0.018301908843423875 0.9994285739047345 0.018301908843423875 5.714260952657982E-4 -0.018301908843423875
573.2839021293739 5.348203512931397E-4 -0.01750737646643202 0.9994651796487067 0.01750737646643202 0.9994651796487067 0.01750737646643202 5.348203512931397E-4 -0.01750737646643202
599.5358053309263 5.009819930024144E-4 -0.016747416812824073 0.9994990180069974 0.016747416812824073 0.9994990180069974 0.016747416812824073 5.009819930024144E-4 -0.016747416812824073
626.9898396565933 4.696761789057378E-4 -0.01602053958496046 0.9995303238210942 0.01602053958496046 0.9995303238210942 0.01602053958496046 4.696761789057378E-4 -0.01602053958496046
655.7010532767296 4.406865978565489E-4 -0.015325315916282719 0.9995593134021435 0.015325315916282719 0.9995593134021435 0.015325315916282719 4.406865978565489E-4 -0.015325315916282719
685.7270151358366 4.1381425281593814E-4 -0.014660375905745726 0.999586185747184 0.014660375905745726 0.999586185747184 0.014660375905745726 4.1381425281593814E-4 -0.014660375905745726
717.1279303842347 3.8887633698213064E-4 -0.014024406275848701 0.9996111236630179 0.014024406275848701 0.9996111236630179 0.014024406275848701 3.8887633698213064E-4 -0.014024406275848701
749.9667610955984 3.657051911183836E-4 -0.013416148148043155 0.9996342948088816 0.013416148148043155 0.9996342948088816 0.013416148148043155 3.657051911183836E-4 -0.013416148148043155
784.3093525124082 3.441473317669481E-4 -0.01283439492940188 0.9996558526682331 0.01283439492940188 0.9996558526682331 0.01283439492940188 3.441473317669481E-4 -0.01283439492940188
820.2245650724522 3.2406254078124705E-4 -0.012277990304395641 0.9996759374592188 0.012277990304395641 0.9996759374592188 0.012277990304395641 3.2406254078124705E-4 -0.012277990304395641
857.7844124811068 3.05323007321543E-4 -0.01174582632544836 0.9996946769926786 0.01174582632544836 0.9996946769926786 0.01174582632544836 3.05323007321543E-4 -0.01174582632544836
897.0642061062428 2.8781251420965384E-4 -0.011236841595653246 0.9997121874857904 0.011236841595653246 0.9997121874857904 0.011236841595653246 2.8781251420965384E-4 -0.011236841595653246
938.1427059852851 2.714256613807671E-4 -0.01075001953667657 0.9997285743386194 0.01075001953667657 0.9997285743386194 0.01075001953667657 2.714256613807671E-4 -0.01075001953667657
981.102278747212 2.560671201415528E-4 -0.01028438673451291 0.9997439328798585 0.01028438673451291 0.9997439328798585 0.01028438673451291 2.560671201415528E-4 -0.01028438673451291
1026.0290627661395 2.4165091305738455E-4 -0.009839011355454416 0.9997583490869425 0.009839011355454416 0.9997583490869425 0.009839011355454416 2.4165091305738455E-4 -0.009839011355454416
1073.0131408776467 2.2809971553629604E-4 -0.009413001624467206 0.9997719002844637 0.009413001624467206 0.9997719002844637 0.009413001624467206 2.2809971553629604E-4 -0.009413001624467206
1122.1487210041523 2.153441765170479E-4 -0.009005504358194864 0.999784655823483 0.009005504358194864 0.999784655823483 0.009005504358194864 2.153441765170479E-4 -0.009005504358194864
1173.5343250515148 2.0332225704474132E-4 -0.008615703545080924 0.9997966777429553 0.008615703545080924 0.9997966777429553 0.008615703545080924 2.0332225704474132E-4 -0.008615703545080924
1227.2729864556143 1.9197858685454327E-4 -0.008242818965646355 0.9998080214131455 0.008242818965646355 0.9998080214131455 0.008242818965646355 1.9197858685454327E-4 -0.008242818965646355
1283.4724567750195 1.8126384029855557E-4 -0.00788610484677436 0.9998187361597013 0.00788610484677436 0.9998187361597013 0.00788610484677436 1.8126384029855557E-4 -0.00788610484677436
1342.245421743976 1.7113413396040937E-4 -0.007544848544913478 0.9998288658660394 0.007544848544913478 0.9998288658660394 0.007544848544913478 1.7113413396040937E-4 -0.007544848544913478
1403.7097272189235 1.61550449036386E-4 -0.007218369254353367 0.9998384495509633 0.007218369254353367 0.9998384495509633 0.007218369254353367 1.61550449036386E-4 -0.007218369254353367
1467.9886154715937 1.5247808197161225E-4 -0.006906016738076865 0.9998475219180284 0.006906016738076865 0.9998475219180284 0.006906016738076865 1.5247808197161225E-4 -0.006906016738076865
1535.2109723024755 1.4388612690416713E-4 -0.006607170080051865 0.9998561138730958 0.006607170080051865 0.9998561138730958 0.006607170080051865 1.4388612690416713E-4 -0.006607170080051865
1605.5115854701387 1.357469931993632E-4 -0.006321236459102623 0.9998642530068006 0.006321236459102623 0.9998642530068006 0.006321236459102623 1.357469931993632E-4 -0.006321236459102623
1679.0314149545911 1.2803596079222822E-4 -0.006047649945601848 0.9998719640392076 0.006047649945601848 0.9998719640392076 0.006047649945601848 1.2803596079222822E-4 -0.006047649945601848
1755.9178755965756 1.2073077526527459E-4 -0.0057858703230844796 0.9998792692247346 0.0057858703230844796 0.9998792692247346 0.0057858703230844796 1.2073077526527459E-4 -0.0057858703230844796
1836.3251326795319 1.1381128365526831E-4 -0.005535381937455819 0.9998861887163447 0.005535381937455819 0.9998861887163447 0.005535381937455819 1.1381128365526831E-4 -0.005535381937455819
1920.4144110468878 1.0725911099827024E-4 -0.0052956925767373994 0.9998927408890017 0.0052956925767373994 0.9998927408890017 0.0052956925767373994 1.0725911099827024E-4 -0.0052956925767373994
2008.3543183745 1.0105737667435156E-4 -0.005066332384278337 0.9998989426233255 0.005066332384278337 0.9998989426233255 0.005066332384278337 1.0105737667435156E-4 -0.005066332384278337
2100.321183246434 9.519044877653448E-5 -0.004846852808098548 0.9999048095512234 0.004846852808098548 0.9999048095512234 0.004846852808098548 9.519044877653448E-5 -0.004846852808098548
2196.4994087119585 8.964373405687837E-5 -0.004636825588581663 0.9999103562659432 0.004636825588581663 0.9999103562659432 0.004636825588581663 8.964373405687837E-5 -0.004636825588581663
2297.0818420326846 8.440350052650655E-5 -0.0044358417861678524 0.9999155964994736 0.0044358417861678524 0.9999155964994736 0.0044358417861678524 8.440350052650655E-5 -0.0044358417861678524
2402.270161361206 7.945672951194302E-5 -0.004243510850078689 0.9999205432704881 0.004243510850078689 0.9999205432704881 0.004243510850078689 7.945672951194302E-5 -0.004243510850078689
2512.2752801266033 7.479099388244277E-5 -0.004059459728498676 0.9999252090061176 0.004059459728498676 0.9999252090061176 0.004059459728498676 7.479099388244277E-5 -0.004059459728498676
2627.3177699376165 7.039435923125784E-5 -0.0038833320200893856 0.9999296056407689 0.0038833320200893856 0.9999296056407689 0.0038833320200893856 7.039435923125784E-5 -0.0038833320200893856
2747.6283028514745 6.625530497780375E-5 -0.0037147871662536213 0.9999337446950224 0.0037147871662536213 0.9999337446950224 0.0037147871662536213 6.625530497780375E-5 -0.0037147871662536213
2873.4481138951564 6.23626626145599E-5 -0.0035534996832139298 0.9999376373373853 0.0035534996832139298 0.9999376373373853 0.0035534996832139298 6.23626626145599E-5 -0.0035534996832139298
3005.0294847665045 5.8705568612322484E-5 -0.003399158432721633 0.9999412944313875 0.003399158432721633 0.9999412944313875 0.003399158432721633 5.8705568612322484E-5 -0.003399158432721633
3142.6362496850466 5.5273429787394365E-5 -0.0032514659300578713 0.9999447265702126 0.0032514659300578713 0.9999447265702126 0.0032514659300578713 5.5273429787394365E-5 -0.0032514659300578713
3286.544324406816 5.205589920127687E-5 -0.003110137687908089 0.9999479441007989 0.003110137687908089 0.9999479441007989 0.003110137687908089 5.205589920127687E-5 -0.003110137687908089
3437.0422594639017 4.904286089432986E-5 -0.002974901594663838 0.9999509571391056 0.002974901594663838 0.9999509571391056 0.002974901594663838 4.904286089432986E-5 -0.002974901594663838
3594.431818738024 4.622442194570338E-5 -0.002845497325709877 0.9999537755780545 0.002845497325709877 0.9999537755780545 0.002845497325709877 4.622442194570338E-5 -0.002845497325709877
3759.0285845282415 4.359091050570229E-5 -0.0027216757862723972 0.9999564090894942 0.0027216757862723972 0.9999564090894942 0.0027216757862723972 4.359091050570229E-5 -0.0027216757862723972
3931.162590326006 4.113287857127279E-5 -0.002603198584423448 0.9999588671214289 0.002603198584423448 0.9999588671214289 0.002603198584423448 4.113287857127279E-5 -0.002603198584423448
4111.17898256636 3.8841108380180776E-5 -0.002489837532849538 0.9999611588916199 0.002489837532849538 0.9999611588916199 0.002489837532849538 3.8841108380180776E-5 -0.002489837532849538
4299.438712682125 3.670662139427081E-5 -0.0023813741779970927 0.9999632933786058 0.0023813741779970927 0.9999632933786058 0.0023813741779970927 3.670662139427081E-5 -0.0023813741779970927
4496.31926084876 3.472068893488369E-5 -0.0022775993552046924 0.9999652793110653 0.0022775993552046924 0.9999652793110653 0.0022775993552046924 3.472068893488369E-5 -0.0022775993552046924
4702.215392871039 3.28748436294911E-5 -0.002178312768426311 0.9999671251563703 0.002178312768426311 0.9999671251563703 0.002178312768426311 3.28748436294911E-5 -0.002178312768426311
4917.539951729213 3.116089093052345E-5 -0.0020833225931454038 0.9999688391090694 0.0020833225931454038 0.9999688391090694 0.0020833225931454038 3.116089093052345E-5 -0.0020833225931454038
5142.724685371758 2.9570920075352027E-5 -0.001992445101081889 0.9999704290799246 0.001992445101081889 0.9999704290799246 0.001992445101081889 2.9570920075352027E-5 -0.001992445101081889
5378.221112414543 2.809731396858379E-5 -0.001905504305306625 0.9999719026860313 0.001905504305306625 0.9999719026860313 0.001905504305306625 2.809731396858379E-5 -0.001905504305306625
5624.501427482224 2.6732757581122317E-5 -0.0018223316244034005 0.9999732672424191 0.0018223316244034005 0.9999732672424191 0.0018223316244034005 2.6732757581122317E-5 -0.0018223316244034005
5882.059448007167 2.5470244571150145E-5 -0.0017427655643579099 0.9999745297554288 0.0017427655643579099 0.9999745297554288 0.0017427655643579099 2.5470244571150145E-5 -0.0017427655643579099
6151.41160438433 2.430308193665015E-5 -0.0016666514169061735 0.9999756969180634 0.0016666514169061735 0.9999756969180634 0.0016666514169061735 2.430308193665015E-5 -0.0016666514169061735
6433.097975467465 2.3224892604145945E-5 -0.0015938409731398088 0.999976775107396 0.0015938409731398088 0.999976775107396 0.0015938409731398088 2.3224892604145945E-5 -0.0015938409731398088
6727.683371482931 2.222961594162256E-5 -0.0015241922512402464 0.9999777703840588 0.0015241922512402464 0.9999777703840588 0.0015241922512402464 2.222961594162256E-5 -0.0015241922512402464
7035.758466532445 2.131150625359571E-5 -0.0014575692372953133 0.9999786884937465 0.0014575692372953133 0.9999786884937465 0.0014575692372953133 2.131150625359571E-5 -0.0014575692372953133
7357.940982955574 2.0465129372433093E-5 -0.0013938416382368937 0.9999795348706275 0.0013938416382368937 0.9999795348706275 0.0013938416382368937 2.0465129372433093E-5 -0.0013938416382368937
7694.876929926739 1.968535750248214E-5 -0.0013328846460245682 0.9999803146424974 0.0013328846460245682 0.9999803146424974 0.0013328846460245682 1.968535750248214E-5 -0.0013328846460245682
8047.241898770236 1.8967362503153783E-5 -0.0012745787122849486 0.999981032637497 0.0012745787122849486 0.999981032637497 0.0012745787122849486 1.8967362503153783E-5 -0.0012745787122849486
8415.742417590522 1.8306607815136012E-5 -0.0012188093326976227 0.9999816933921849 0.0012188093326976227 0.9999816933921849 0.0012188093326976227 1.8306607815136012E-5 -0.0012188093326976227
8801.117367933934 1.769883924194189E-5 -0.001165466840494787 0.9999823011607579 0.001165466840494787 0.9999823011607579 0.001165466840494787 1.769883924194189E-5 -0.001165466840494787
9204.139466322391 1.714007479873957E-5 -0.001114446208511681 0.9999828599252013 0.001114446208511681 0.9999828599252013 0.001114446208511681 1.714007479873957E-5 -0.001114446208511681
9625.61681362972 1.6626593833581066E-5 -0.001065646859288103 0.9999833734061664 0.001065646859288103 0.9999833734061664 0.001065646859288103 1.6626593833581066E-5 -0.001065646859288103
10066.394515407255 1.6154925614366764E-5 -0.0010189724827775826 0.9999838450743854 0.0010189724827775826 0.9999838450743854 0.0010189724827775826 1.6154925614366764E-5 -0.0010189724827775826
10527.356376407623 1.572183755962147E-5 -9.74330861269989E-4 0.9999842781624403 9.74330861269989E-4 0.9999842781624403 9.74330861269989E-4 1.572183755962147E-5 -9.74330861269989E-4
