!Murata Part Number: GRM32EB30J107ME16
!These Parameters are Measured in Series Mode Connection
!       o--ll--o
!Port1            Port2
!       o------o
!Operation Temp=20[degC], DC Bias Voltage=0[V]
!Freq. Start=100[Hz] Stop=6[GHz], 401[Steps]
!Data Generated on Jan 10, 2017
# Hz S RI R 50
!Freq.(Hz) S11(Real) S11(Imag) S21(Real) S21(Imag) S12(Real) S12(Imag) S22(Real) S22(Imag)
100.0 0.05710050152395608 -0.2253317184979668 0.942899498476044 0.2253317184979668 0.942899498476044 0.2253317184979668 0.05710050152395608 -0.2253317184979668
104.57921513303334 0.05263656988365142 -0.21658807257519125 0.9473634301163486 0.21658807257519125 0.9473634301163486 0.21658807257519125 0.05263656988365142 -0.21658807257519125
109.3681223784127 0.04851081682174602 -0.20810428244727744 0.9514891831782538 0.20810428244727744 0.9514891831782538 0.20810428244727744 0.04851081682174602 -0.20810428244727744
114.3763239890794 0.044700264765703865 -0.19988263457368832 0.9552997352342961 0.19988263457368832 0.9552997352342961 0.19988263457368832 0.044700264765703865 -0.19988263457368832
119.61386192579457 0.04118301664861636 -0.19192391825868674 0.9588169833513835 0.19192391825868674 0.9588169833513835 0.19192391825868674 0.04118301664861636 -0.19192391825868674
125.09123799230618 0.03793828427938506 -0.1842276050604565 0.9620617157206149 0.1842276050604565 0.9620617157206149 0.1842276050604565 0.03793828427938506 -0.1842276050604565
130.8194348925486 0.034946400304513944 -0.17679201601927522 0.9650535996954861 0.17679201601927522 0.9650535996954861 0.17679201601927522 0.034946400304513944 -0.17679201601927522
136.8099382520969 0.03218881642329317 -0.1696144763572449 0.9678111835767069 0.1696144763572449 0.9678111835767069 0.1696144763572449 0.03218881642329317 -0.1696144763572449
143.0747596480305 0.029648090264284853 -0.1626914576176237 0.9703519097357151 0.1626914576176237 0.9703519097357151 0.1626914576176237 0.029648090264284853 -0.1626914576176237
149.6264606933842 0.02730786306990788 -0.15601870745998828 0.9726921369300923 0.15601870745998828 0.9726921369300923 0.15601870745998828 0.02730786306990788 -0.15601870745998828
156.47817822447783 0.02515283007708417 -0.14959136751567514 0.9748471699229158 0.14959136751567514 0.9748471699229158 0.14959136751567514 0.02515283007708417 -0.14959136751567514
163.643650641628 0.023168705232664608 -0.14340407984387968 0.9768312947673353 0.14340407984387968 0.9768312947673353 0.14340407984387968 0.023168705232664608 -0.14340407984387968
171.13724545605763 0.021342181648111205 -0.13745108262003125 0.9786578183518889 0.13745108262003125 0.9786578183518889 0.13745108262003125 0.021342181648111205 -0.13745108262003125
178.97398809823787 0.0196608889824634 -0.13172629574193073 0.9803391110175365 0.13172629574193073 0.9803391110175365 0.13172629574193073 0.0196608889824634 -0.13172629574193073
187.1695920454257 0.018113348748411924 -0.12622339706256333 0.981886651251588 0.12622339706256333 0.981886651251588 0.12622339706256333 0.018113348748411924 -0.12622339706256333
195.74049032880657 0.016688928364653455 -0.12093588995790784 0.9833110716353466 0.12093588995790784 0.9833110716353466 0.12093588995790784 0.016688928364653455 -0.12093588995790784
204.70386848341695 0.015377794628964816 -0.11585716291938164 0.9846222053710351 0.11585716291938164 0.9846222053710351 0.11585716291938164 0.015377794628964816 -0.11585716291938164
214.0776990069143 0.014170867160151871 -0.11098054182912517 0.985829132839848 0.11098054182912517 0.985829132839848 0.11098054182912517 0.014170867160151871 -0.11098054182912517
223.88077739628844 0.013059772252030904 -0.1062993355369151 0.9869402277479693 0.1062993355369151 0.9869402277479693 0.1062993355369151 0.013059772252030904 -0.1062993355369151
234.132759834772 0.012036797497117833 -0.10180687531422274 0.9879632025028819 0.10180687531422274 0.9879632025028819 0.10180687531422274 0.012036797497117833 -0.10180687531422274
244.85420260451448 0.011094847469465817 -0.09749654871724237 0.9889051525305341 0.09749654871724237 0.9889051525305341 0.09749654871724237 0.011094847469465817 -0.09749654871724237
256.06660330404856 0.010227400702462506 -0.09336182834929357 0.9897725992975378 0.09336182834929357 0.9897725992975378 0.09336182834929357 0.010227400702462506 -0.09336182834929357
267.792443953192 0.009428468155509058 -0.08939629597577652 0.990571531844491 0.08939629597577652 0.990571531844491 0.08939629597577652 0.009428468155509058 -0.08939629597577652
280.0552360718164 0.008692553330423845 -0.08559366241292357 0.991307446669576 0.08559366241292357 0.991307446669576 0.08559366241292357 0.008692553330423845 -0.08559366241292357
292.87956782286926 0.008014614171344627 -0.08194778358530937 0.9919853858286554 0.08194778358530937 0.9919853858286554 0.08194778358530937 0.008014614171344627 -0.08194778358530937
306.2911533141767 0.007390026858337436 -0.07845267312608036 0.9926099731416627 0.07845267312608036 0.9926099731416627 0.07845267312608036 0.007390026858337436 -0.07845267312608036
320.3168841578819 0.006814551582815319 -0.07510251187724232 0.9931854484171846 0.07510251187724232 0.9931854484171846 0.07510251187724232 0.006814551582815319 -0.07510251187724232
334.9848833909005 0.006284300370747578 -0.07189165463378017 0.9937156996292527 0.07189165463378017 0.9937156996292527 0.07189165463378017 0.006284300370747578 -0.07189165463378017
350.32456186451077 0.005795706996647461 -0.06881463446337109 0.9942042930033527 0.06881463446337109 0.9942042930033527 0.06881463446337109 0.005795706996647461 -0.06881463446337109
366.36667721614316 0.005345499007224815 -0.06586616492149538 0.9946545009927754 0.06586616492149538 0.9946545009927754 0.06586616492149538 0.005345499007224815 -0.06586616492149538
383.1433955416162 0.004930671848676909 -0.06304114046852967 0.995069328151323 0.06304114046852967 0.995069328151323 0.06304114046852967 0.004930671848676909 -0.06304114046852967
400.68835589147574 0.004548465066576517 -0.0603346353799569 0.9954515349334234 0.0603346353799569 0.9954515349334234 0.0603346353799569 0.004548465066576517 -0.0603346353799569
419.03673772076064 0.0041963405231628705 -0.05774190142257579 0.9958036594768371 0.05774190142257579 0.9958036594768371 0.05774190142257579 0.0041963405231628705 -0.05774190142257579
438.225331427439 0.0038719625545962657 -0.05525836454842744 0.9961280374454039 0.05525836454842744 0.9961280374454039 0.05525836454842744 0.0038719625545962657 -0.05525836454842744
458.2926121209498 0.003573179971377423 -0.052879620834365086 0.9964268200286227 0.052879620834365086 0.9964268200286227 0.052879620834365086 0.003573179971377423 -0.052879620834365086
479.2788167687661 0.003298009789441373 -0.05060143186939085 0.9967019902105585 0.05060143186939085 0.9967019902105585 0.05060143186939085 0.003298009789441373 -0.05060143186939085
501.22602487566456 0.003044622567922577 -0.048419719764918136 0.9969553774320773 0.048419719764918136 0.9969553774320773 0.048419719764918136 0.003044622567922577 -0.048419719764918136
524.1782428574726 0.0028113292224524688 -0.04633056193592378 0.9971886707775476 0.04633056193592378 0.9971886707775476 0.04633056193592378 0.0028113292224524688 -0.04633056193592378
548.1814922784702 0.0025965691799937803 -0.04433018577447562 0.9974034308200063 0.04433018577447562 0.9974034308200063 0.04433018577447562 0.0025965691799937803 -0.04433018577447562
573.2839021293739 0.002398899742278423 -0.04241496331218528 0.9976011002577213 0.04241496331218528 0.9976011002577213 0.04241496331218528 0.002398899742278423 -0.04241496331218528
599.5358053309263 0.0022169865293447224 -0.04058140594542231 0.9977830134706552 0.04058140594542231 0.9977830134706552 0.04058140594542231 0.0022169865293447224 -0.04058140594542231
626.9898396565933 0.0020495948817896167 -0.03882615927709723 0.9979504051182104 0.03882615927709723 0.9979504051182104 0.03882615927709723 0.0020495948817896167 -0.03882615927709723
655.7010532767296 0.0018955821094380112 -0.0371459981117476 0.9981044178905618 0.0371459981117476 0.9981044178905618 0.0371459981117476 0.0018955821094380112 -0.0371459981117476
685.7270151358366 0.0017538904844725792 -0.03553782162660937 0.9982461095155274 0.03553782162660937 0.9982461095155274 0.03553782162660937 0.0017538904844725792 -0.03553782162660937
717.1279303842347 0.0016235408880127839 -0.0339986487302316 0.9983764591119871 0.0339986487302316 0.9983764591119871 0.0339986487302316 0.0016235408880127839 -0.0339986487302316
749.9667610955984 0.0015036270301251788 -0.03252561361177652 0.9984963729698748 0.03252561361177652 0.9984963729698748 0.03252561361177652 0.0015036270301251788 -0.03252561361177652
784.3093525124082 0.001393310173842132 -0.031115961478132507 0.9986066898261577 0.031115961478132507 0.9986066898261577 0.031115961478132507 0.001393310173842132 -0.031115961478132507
820.2245650724522 0.0012918143036316848 -0.02976704447199779 0.9987081856963684 0.02976704447199779 0.9987081856963684 0.02976704447199779 0.0012918143036316848 -0.02976704447199779
857.7844124811068 0.0011984216876741146 -0.028476317761798257 0.998801578312326 0.028476317761798257 0.998801578312326 0.028476317761798257 0.0011984216876741146 -0.028476317761798257
897.0642061062428 0.0011124687911332845 -0.027241335793319284 0.9988875312088666 0.027241335793319284 0.9988875312088666 0.027241335793319284 0.0011124687911332845 -0.027241335793319284
938.1427059852851 0.0010333425043147011 -0.026059748692922113 0.9989666574956851 0.026059748692922113 0.9989666574956851 0.026059748692922113 0.0010333425043147011 -0.026059748692922113
981.102278747212 9.604766551910756E-4 -0.024929298812880408 0.9990395233448088 0.024929298812880408 0.9990395233448088 0.024929298812880408 9.604766551910756E-4 -0.024929298812880408
1026.0290627661395 8.933487803099703E-4 -0.023847817410452825 0.99910665121969 0.023847817410452825 0.99910665121969 0.023847817410452825 8.933487803099703E-4 -0.023847817410452825
1073.0131408776467 8.314771316687322E-4 -0.022813221453589567 0.9991685228683312 0.022813221453589567 0.9991685228683312 0.022813221453589567 8.314771316687322E-4 -0.022813221453589567
1122.1487210041523 7.744178998619938E-4 -0.021823510547477522 0.9992255821001378 0.021823510547477522 0.9992255821001378 0.021823510547477522 7.744178998619938E-4 -0.021823510547477522
1173.5343250515148 7.217626358018761E-4 -0.020876763977325494 0.9992782373641982 0.020876763977325494 0.9992782373641982 0.020876763977325494 7.217626358018761E-4 -0.020876763977325494
1227.2729864556143 6.731358547121652E-4 -0.019971137863774618 0.999326864145288 0.019971137863774618 0.999326864145288 0.019971137863774618 6.731358547121652E-4 -0.019971137863774618
1283.4724567750195 6.281928070391664E-4 -0.0191048624280163 0.999371807192961 0.0191048624280163 0.999371807192961 0.0191048624280163 6.281928070391664E-4 -0.0191048624280163
1342.245421743976 5.866174015370817E-4 -0.018276239364068202 0.9994133825984628 0.018276239364068202 0.9994133825984628 0.018276239364068202 5.866174015370817E-4 -0.018276239364068202
1403.7097272189235 5.481202662050371E-4 -0.017483639315679863 0.999451879733795 0.017483639315679863 0.999451879733795 0.017483639315679863 5.481202662050371E-4 -0.017483639315679863
1467.9886154715937 5.124369331009247E-4 -0.01672549945502144 0.999487563066899 0.01672549945502144 0.999487563066899 0.01672549945502144 5.124369331009247E-4 -0.01672549945502144
1535.2109723024755 4.7932613344954967E-4 -0.01600032115968721 0.9995206738665503 0.01600032115968721 0.9995206738665503 0.01600032115968721 4.7932613344954967E-4 -0.01600032115968721
1605.5115854701387 4.485681900008876E-4 -0.015306667783676297 0.9995514318099993 0.015306667783676297 0.9995514318099993 0.015306667783676297 4.485681900008876E-4 -0.015306667783676297
1679.0314149545911 4.199634943613014E-4 -0.014643162516979166 0.9995800365056388 0.014643162516979166 0.9995800365056388 0.014643162516979166 4.199634943613014E-4 -0.014643162516979166
1755.9178755965756 3.9333105807401475E-4 -0.014008486327300255 0.999606668941926 0.014008486327300255 0.999606668941926 0.014008486327300255 3.9333105807401475E-4 -0.014008486327300255
1836.3251326795319 3.6850712759196836E-4 -0.013401375976396646 0.999631492872408 0.013401375976396646 0.999631492872408 0.013401375976396646 3.6850712759196836E-4 -0.013401375976396646
1920.4144110468878 3.4534385495842027E-4 -0.012820622102631294 0.9996546561450418 0.012820622102631294 0.9996546561450418 0.012820622102631294 3.4534385495842027E-4 -0.012820622102631294
2008.3543183745 3.237080179430834E-4 -0.0122650673607384 0.9996762919820569 0.0122650673607384 0.9996762919820569 0.0122650673607384 3.237080179430834E-4 -0.0122650673607384
2100.321183246434 3.0347978549344476E-4 -0.011733604609576644 0.9996965202145066 0.011733604609576644 0.9996965202145066 0.011733604609576644 3.0347978549344476E-4 -0.011733604609576644
2196.4994087119585 2.845515265409198E-4 -0.01122517513887162 0.9997154484734591 0.01122517513887162 0.9997154484734591 0.01122517513887162 2.845515265409198E-4 -0.01122517513887162
2297.0818420326846 2.668266623175455E-4 -0.010738766926654047 0.9997331733376823 0.010738766926654047 0.9997331733376823 0.010738766926654047 2.668266623175455E-4 -0.010738766926654047
2402.270161361206 2.502185642507257E-4 -0.010273412920272836 0.9997497814357493 0.010273412920272836 0.9997497814357493 0.010273412920272836 2.502185642507257E-4 -0.010273412920272836
2512.2752801266033 2.3464950107769948E-4 -0.009828189335444206 0.9997653504989223 0.009828189335444206 0.9997653504989223 0.009828189335444206 2.3464950107769948E-4 -0.009828189335444206
2627.3177699376165 2.2004963994638554E-4 -0.009402213969691101 0.9997799503600536 0.009402213969691101 0.9997799503600536 0.009402213969691101 2.2004963994638554E-4 -0.009402213969691101
2747.6283028514745 2.0635610686865736E-4 -0.00899464452859905 0.9997936438931311 0.00899464452859905 0.9997936438931311 0.00899464452859905 2.0635610686865736E-4 -0.00899464452859905
2873.4481138951564 1.935121119338854E-4 -0.00860467696541525 0.9998064878880661 0.00860467696541525 0.9998064878880661 0.00860467696541525 1.935121119338854E-4 -0.00860467696541525
3005.0294847665045 1.8146614419095326E-4 -0.008231543836492682 0.999818533855809 0.008231543836492682 0.999818533855809 0.008231543836492682 1.8146614419095326E-4 -0.008231543836492682
3142.6362496850466 1.7017124012839598E-4 -0.007874512676790894 0.9998298287598716 0.007874512676790894 0.9998298287598716 0.007874512676790894 1.7017124012839598E-4 -0.007874512676790894
3286.544324406816 1.595843283258346E-4 -0.00753288440097578 0.9998404156716745 0.00753288440097578 0.9998404156716745 0.00753288440097578 1.595843283258346E-4 -0.00753288440097578
3437.0422594639017 1.4966565124314743E-4 -0.007205991736537899 0.9998503343487567 0.007205991736537899 0.9998503343487567 0.007205991736537899 1.4966565124314743E-4 -0.007205991736537899
3594.431818738024 1.4037826339657354E-4 -0.006893197695740415 0.9998596217366035 0.006893197695740415 0.9998596217366035 0.006893197695740415 1.4037826339657354E-4 -0.006893197695740415
3759.0285845282415 1.3168760348029486E-4 -0.006593894093124595 0.9998683123965197 0.006593894093124595 0.9998683123965197 0.006593894093124595 1.3168760348029486E-4 -0.006593894093124595
3931.162590326006 1.2356113644935017E-4 -0.006307500114792438 0.9998764388635506 0.006307500114792438 0.9998764388635506 0.006307500114792438 1.2356113644935017E-4 -0.006307500114792438
4111.17898256636 1.1596806028072182E-4 -0.0060334609448296685 0.9998840319397193 0.0060334609448296685 0.9998840319397193 0.0060334609448296685 1.1596806028072182E-4 -0.0060334609448296685
4299.438712682125 1.0887907113845835E-4 -0.005771246453124754 0.9998911209288616 0.005771246453124754 0.9998911209288616 0.005771246453124754 1.0887907113845835E-4 -0.005771246453124754
4496.31926084876 1.0226618001716165E-4 -0.005520349947582783 0.9998977338199827 0.005520349947582783 0.9998977338199827 0.005520349947582783 1.0226618001716165E-4 -0.005520349947582783
4702.215392871039 9.610257362680641E-5 -0.005280286992426496 0.9999038974263731 0.005280286992426496 0.9999038974263731 0.005280286992426496 9.610257362680641E-5 -0.005280286992426496
4917.539951729213 9.0362512285705E-5 -0.005050594293007429 0.9999096374877142 0.005050594293007429 0.9999096374877142 0.005050594293007429 9.0362512285705E-5 -0.005050594293007429
5142.724685371758 8.502125786361758E-5 -0.004830828646387942 0.9999149787421363 0.004830828646387942 0.9999149787421363 0.004830828646387942 8.502125786361758E-5 -0.004830828646387942
5378.221112414543 8.005502530799847E-5 -0.004620565955950475 0.9999199449746918 0.004620565955950475 0.9999199449746918 0.004620565955950475 8.005502530799847E-5 -0.004620565955950475
5624.501427482224 7.544095193291656E-5 -0.0044194003074725634 0.9999245590480672 0.0044194003074725634 0.9999245590480672 0.0044194003074725634 7.544095193291656E-5 -0.0044194003074725634
5882.059448007167 7.115707939314826E-5 -0.004226943103488176 0.9999288429206068 0.004226943103488176 0.9999288429206068 0.004226943103488176 7.115707939314826E-5 -0.004226943103488176
6151.41160438433 6.718234405167359E-5 -0.004042822252332882 0.9999328176559483 0.004042822252332882 0.9999328176559483 0.004042822252332882 6.718234405167359E-5 -0.004042822252332882
6433.097975467465 6.349657223204151E-5 -0.0038666814080278796 0.999936503427768 0.0038666814080278796 0.999936503427768 0.0038666814080278796 6.349657223204151E-5 -0.0038666814080278796
6727.683371482931 6.0080477592312934E-5 -0.0036981792570733134 0.9999399195224076 0.0036981792570733134 0.9999399195224076 0.0036981792570733134 6.0080477592312934E-5 -0.0036981792570733134
7035.758466532445 5.691565853901164E-5 -0.0035369888482669237 0.9999430843414612 0.0035369888482669237 0.9999430843414612 0.0035369888482669237 5.691565853901164E-5 -0.0035369888482669237
7357.940982955574 5.39845942015085E-5 -0.003382796961812379 0.9999460154057985 0.003382796961812379 0.9999460154057985 0.003382796961812379 5.39845942015085E-5 -0.003382796961812379
7694.876929926739 5.1270638001348104E-5 -0.0032353035142048104 0.9999487293619986 0.0032353035142048104 0.9999487293619986 0.0032353035142048104 5.1270638001348104E-5 -0.0032353035142048104
8047.241898770236 4.875800827552426E-5 -0.003094220995654407 0.9999512419917245 0.003094220995654407 0.9999512419917245 0.003094220995654407 4.875800827552426E-5 -0.003094220995654407
8415.742417590522 4.643177575080167E-5 -0.0029592739371111215 0.9999535682242493 0.0029592739371111215 0.9999535682242493 0.0029592739371111215 4.643177575080167E-5 -0.0029592739371111215
8801.117367933934 4.42778479244054E-5 -0.0028301984042669393 0.9999557221520758 0.0028301984042669393 0.9999557221520758 0.0028301984042669393 4.42778479244054E-5 -0.0028301984042669393
9204.139466322391 4.228295059330795E-5 -0.00270674151622294 0.9999577170494067 0.00270674151622294 0.9999577170494067 0.00270674151622294 4.228295059330795E-5 -0.00270674151622294
9625.61681362972 4.043460689944227E-5 -0.0025886609868063944 0.9999595653931007 0.0025886609868063944 0.9999595653931007 0.0025886609868063944 4.043460689944227E-5 -0.0025886609868063944
10066.394515407255 3.872111433109418E-5 -0.0024757246868010482 0.9999612788856689 0.0024757246868010482 0.9999612788856689 0.0024757246868010482 3.872111433109418E-5 -0.0024757246868010482
10527.356376407623 3.713152015070119E-5 -0.0023677102256068733 0.9999628684798492 0.0023677102256068733 0.9999628684798492 0.0023677102256068733 3.713152015070119E-5 -0.0023677102256068733
11009.426672704432 3.565559571476326E-5 -0.002264404551071196 0.9999643444042854 0.002264404551071196 0.9999643444042854 0.002264404551071196 3.565559571476326E-5 -0.002264404551071196
