!Murata Part Number: KCM55WC71E107MH13
!These Parameters are Measured in Series Mode Connection
!       o--ll--o
!Port1            Port2
!       o------o
!Operation Temp=25[degC], DC Bias Voltage=0[V]
!Freq. Start=100[Hz] Stop=3[GHz], 401[Steps]
!Data Generated on Feb 1, 2017
# Hz S RI R 50
!Freq.(Hz) S11(Real) S11(Imag) S21(Real) S21(Imag) S12(Real) S12(Imag) S22(Real) S22(Imag)
100.0 0.031979912113392066 -0.1739644624017307 0.9680200878866079 0.1739644624017307 0.9680200878866079 0.1739644624017307 0.031979912113392066 -0.1739644624017307
104.39815008896174 0.029474394440884632 -0.1670849458906764 0.9705256055591152 0.1670849458906764 0.9705256055591152 0.1670849458906764 0.029474394440884632 -0.1670849458906764
108.98973741997382 0.027162989362512616 -0.16044549156778348 0.9728370106374872 0.16044549156778348 0.9728370106374872 0.16044549156778348 0.027162989362512616 -0.16044549156778348
113.78326965326954 0.02503135796000282 -0.15404167591640286 0.9749686420399971 0.15404167591640286 0.9749686420399971 0.15404167591640286 0.02503135796000282 -0.15404167591640286
118.7876286287484 0.02306608670055137 -0.1478686299018711 0.9769339132994486 0.1478686299018711 0.9769339132994486 0.1478686299018711 0.02306608670055137 -0.1478686299018711
124.01208682295923 0.021254649294284642 -0.14192112181906424 0.9787453507057151 0.14192112181906424 0.9787453507057151 0.14192112181906424 0.021254649294284642 -0.14192112181906424
129.46632452988652 0.01958536651258486 -0.13619363110315938 0.9804146334874152 0.13619363110315938 0.9804146334874152 0.13619363110315938 0.01958536651258486 -0.13619363110315938
135.1604477973732 0.018047364801903363 -0.13068041380098036 0.9819526351980968 0.13068041380098036 0.9819526351980968 0.13068041380098036 0.018047364801903363 -0.13068041380098036
141.10500715241446 0.01663053438053349 -0.12537556039410697 0.9833694656194666 0.12537556039410697 0.9833694656194666 0.12537556039410697 0.01663053438053349 -0.12537556039410697
147.31101715001782 0.015325487376482146 -0.12027304664593451 0.984674512623518 0.12027304664593451 0.984674512623518 0.12027304664593451 0.015325487376482146 -0.12027304664593451
153.78997678185178 0.014123516452082515 -0.11536677811636939 0.9858764835479172 0.11536677811636939 0.9858764835479172 0.11536677811636939 0.014123516452082515 -0.11536677811636939
160.55389078249704 0.013016554264187609 -0.1106506289525816 0.9869834457358126 0.1106506289525816 0.9869834457358126 0.1106506289525816 0.013016554264187609 -0.1106506289525816
167.61529187277893 0.011997134026443283 -0.10611847552448525 0.9880028659735569 0.10611847552448525 0.9880028659735569 0.10611847552448525 0.011997134026443283 -0.10611847552448525
174.98726398139505 0.01105835137099691 -0.10176422543128942 0.9889416486290031 0.10176422543128942 0.9889416486290031 0.10176422543128942 0.01105835137099691 -0.10176422543128942
182.68346648786448 0.010193827649781814 -0.09758184236209748 0.9898061723502183 0.09758184236209748 0.9898061723502183 0.09758184236209748 0.010193827649781814 -0.09758184236209748
190.71815953171884 0.009397674768974053 -0.0935653672504494 0.9906023252310259 0.0935653672504494 0.9906023252310259 0.0935653672504494 0.009397674768974053 -0.0935653672504494
199.10623043482934 0.008664461613102154 -0.08970893612092708 0.9913355383868978 0.08970893612092708 0.9913355383868978 0.08970893612092708 0.008664461613102154 -0.08970893612092708
207.86322128582714 0.00798918208638339 -0.08600679498634202 0.9920108179136167 0.08600679498634202 0.9920108179136167 0.08600679498634202 0.00798918208638339 -0.08600679498634202
217.00535773772845 0.007367224776956394 -0.08245331211722867 0.9926327752230436 0.08245331211722867 0.9926327752230436 0.08245331211722867 0.007367224776956394 -0.08245331211722867
226.5495790721221 0.006794344233603967 -0.07904298797185128 0.9932056557663961 0.07904298797185128 0.9932056557663961 0.07904298797185128 0.006794344233603967 -0.07904298797185128
236.51356958562508 0.006266633833170149 -0.0757704630449556 0.9937333661668296 0.0757704630449556 0.9937333661668296 0.0757704630449556 0.006266633833170149 -0.0757704630449556
246.91579135676182 0.005780500209091021 -0.07263052386716787 0.994219499790909 0.07263052386716787 0.994219499790909 0.07263052386716787 0.005780500209091021 -0.07263052386716787
257.77551845397977 0.005332639206277381 -0.06961810736416695 0.9946673607937225 0.06961810736416695 0.9946673607937225 0.06961810736416695 0.005332639206277381 -0.06961810736416695
269.1128726481851 0.0049200133241220105 -0.06672830376530241 0.9950799866758778 0.06672830376530241 0.9950799866758778 0.06672830376530241 0.0049200133241220105 -0.06672830376530241
280.9488606959687 0.004539830606904111 -0.0639563582348197 0.9954601693930959 0.0639563582348197 0.9954601693930959 0.0639563582348197 0.004539830606904111 -0.0639563582348197
293.30541326260544 0.004189524938741195 -0.06129767138481716 0.9958104750612589 0.06129767138481716 0.9958104750612589 0.06129767138481716 0.004189524938741195 -0.06129767138481716
306.2054255569443 0.003866737698081621 -0.05874779881697076 0.9961332623019181 0.05874779881697076 0.9961332623019181 0.05874779881697076 0.003866737698081621 -0.05874779881697076
319.6727997534827 0.003569300724300203 -0.05630244982937913 0.9964306992756998 0.05630244982937913 0.9964306992756998 0.05630244982937913 0.003569300724300203 -0.05630244982937913
333.732489280227 0.003295220546180748 -0.053957485415104305 0.9967047794538193 0.053957485415104305 0.9967047794538193 0.053957485415104305 0.003295220546180748 -0.053957485415104305
348.41054505439945 0.0030426638190040973 -0.05170891566967849 0.9969573361809959 0.05170891566967849 0.9969573361809959 0.05170891566967849 0.0030426638190040973 -0.05170891566967849
363.7341637516616 0.002809943913772422 -0.04955289671568157 0.9971900560862276 0.04955289671568157 0.9971900560862276 0.04955289671568157 0.002809943913772422 -0.04955289671568157
379.7317381982896 0.002595508599016775 -0.04748572724325409 0.9974044914009832 0.04748572724325409 0.9974044914009832 0.04748572724325409 0.002595508599016775 -0.04748572724325409
396.4329099796736 0.0023979287529023647 -0.04550384475599427 0.9976020712470974 0.04550384475599427 0.9976020712470974 0.04550384475599427 0.0023979287529023647 -0.04550384475599427
413.8686243626182 0.0022158880411977796 -0.04360382160210254 0.997784111958802 0.04360382160210254 0.997784111958802 0.04360382160210254 0.0022158880411977796 -0.04360382160210254
432.07118763320744 0.002048173495299209 -0.04178236086097694 0.9979518265047007 0.04178236086097694 0.9979518265047007 0.04178236086097694 0.002048173495299209 -0.04178236086097694
451.07432695647526 0.001893666924024766 -0.040036292145878845 0.9981063330759754 0.040036292145878845 0.9981063330759754 0.040036292145878845 0.001893666924024766 -0.040036292145878845
470.91325286879504 0.0017513370933721097 -0.03836256737396404 0.9982486629066277 0.03836256737396404 0.9982486629066277 0.03836256737396404 0.0017513370933721097 -0.03836256737396404
491.62472451877653 0.00162023260985002 -0.03675825654610251 0.9983797673901499 0.03675825654610251 0.9983797673901499 0.03675825654610251 0.00162023260985002 -0.03675825654610251
513.2471177775572 0.0014994754452743299 -0.03522054357065846 0.9985005245547256 0.03522054357065846 0.9985005245547256 0.03522054357065846 0.0014994754452743299 -0.03522054357065846
535.8204963446842 0.0013882550439373409 -0.033746722157915174 0.998611744956063 0.033746722157915174 0.998611744956063 0.033746722157915174 0.0013882550439373409 -0.033746722157915174
559.3866859813432 0.0012858229566619776 -0.03233419180519945 0.9987141770433382 0.03233419180519945 0.9987141770433382 0.03233419180519945 0.0012858229566619776 -0.03233419180519945
583.9893520084717 0.001191487950268173 -0.030980453887043395 0.9988085120497319 0.030980453887043395 0.9988085120497319 0.030980453887043395 0.001191487950268173 -0.030980453887043395
609.6740802133593 0.0011046115452391521 -0.029683107859919917 0.998895388454761 0.029683107859919917 0.998895388454761 0.029683107859919917 0.0011046115452391521 -0.029683107859919917
636.4884613146398 0.0010246039387218754 -0.028439847587175725 0.998975396061278 0.028439847587175725 0.998975396061278 0.028439847587175725 0.0010246039387218754 -0.028439847587175725
664.4821791421808 9.509202742907681E-4 -0.027248457786697797 0.9990490797257091 0.027248457786697797 0.9990490797257091 0.027248457786697797 9.509202742907681E-4 -0.027248457786697797
693.7071026952576 8.830572240343662E-4 -0.026106810601504056 0.9991169427759654 0.026106810601504056 0.9991169427759654 0.026106810601504056 8.830572240343662E-4 -0.026106810601504056
724.217382249583 8.205498524044642E-4 -0.025012862291751675 0.9991794501475956 0.025012862291751675 0.9991794501475956 0.025012862291751675 8.205498524044642E-4 -0.025012862291751675
756.0695496912691 7.629687348367693E-4 -0.023964650045504476 0.9992370312651632 0.023964650045504476 0.9992370312651632 0.023964650045504476 7.629687348367693E-4 -0.023964650045504476
789.3226232636284 7.099173073744844E-4 -0.02296028890489561 0.9992900826926256 0.02296028890489561 0.9992900826926256 0.02296028890489561 7.099173073744844E-4 -0.02296028890489561
824.0382169208929 6.610294263854963E-4 -0.02199796880396862 0.9993389705736146 0.02199796880396862 0.9993389705736146 0.02199796880396862 6.610294263854963E-4 -0.02199796880396862
860.2806544914778 6.159671199597455E-4 -0.02107595171439193 0.9993840328800401 0.02107595171439193 0.9993840328800401 0.02107595171439193 6.159671199597455E-4 -0.02107595171439193
898.1170888623152 5.744185147183686E-4 -0.02019256889534538 0.9994255814852817 0.02019256889534538 0.9994255814852817 0.02019256889534538 5.744185147183686E-4 -0.02019256889534538
937.6176264050937 5.360959235813436E-4 -0.01934621824410534 0.9994639040764186 0.01934621824410534 0.9994639040764186 0.01934621824410534 5.360959235813436E-4 -0.01934621824410534
978.8554568749504 5.007340815527897E-4 -0.01853536174415426 0.9994992659184471 0.01853536174415426 0.9994992659184471 0.01853536174415426 5.007340815527897E-4 -0.01853536174415426
1021.9069890223027 4.6808851782342766E-4 -0.017758523007964006 0.9995319114821766 0.017758523007964006 0.9995319114821766 0.017758523007964006 4.6808851782342766E-4 -0.017758523007964006
1066.8519921690936 4.3793405349091895E-4 -0.01701428491191551 0.9995620659465091 0.01701428491191551 0.9995620659465091 0.01701428491191551 4.3793405349091895E-4 -0.01701428491191551
1113.7737440117685 4.100634149946762E-4 -0.01630128732108843 0.9995899365850054 0.01630128732108843 0.9995899365850054 0.01630128732108843 4.100634149946762E-4 -0.01630128732108843
1162.759184924854 3.8428595398680654E-4 -0.015618224901861778 0.9996157140460132 0.015618224901861778 0.9996157140460132 0.015618224901861778 3.8428595398680654E-4 -0.015618224901861778
1213.8990790510372 3.604264648498927E-4 -0.014963845020392457 0.9996395735351502 0.014963845020392457 0.9996395735351502 0.014963845020392457 3.604264648498927E-4 -0.014963845020392457
1267.2881824762262 3.3832409146031646E-4 -0.014336945725071866 0.9996616759085397 0.014336945725071866 0.9996616759085397 0.014336945725071866 3.3832409146031646E-4 -0.014336945725071866
1323.025418801206 3.178313151178807E-4 -0.01373637381099477 0.999682168684882 0.01373637381099477 0.999682168684882 0.01373637381099477 3.178313151178807E-4 -0.01373637381099477
1381.2140624351975 2.9881301585332184E-4 -0.013161022964310739 0.9997011869841467 0.013161022964310739 0.9997011869841467 0.013161022964310739 2.9881301585332184E-4 -0.013161022964310739
1441.9619299509434 2.8114559961864657E-4 -0.012609831984072282 0.9997188544003812 0.012609831984072282 0.9997188544003812 0.012609831984072282 2.8114559961864657E-4 -0.012609831984072282
1505.381579855875 2.6471618419260644E-4 -0.012081783078859881 0.9997352838158072 0.012081783078859881 0.9997352838158072 0.012081783078859881 2.6471618419260644E-4 -0.012081783078859881
1571.5905211495199 2.494218370228588E-4 -0.011575900235071787 0.9997505781629771 0.011575900235071787 0.9997505781629771 0.011575900235071787 2.494218370228588E-4 -0.011575900235071787
1640.7114310535717 2.3516885869970163E-4 -0.011091247653344941 0.9997648311413003 0.011091247653344941 0.9997648311413003 0.011091247653344941 2.3516885869970163E-4 -0.011091247653344941
1712.8723823180596 2.218721063282637E-4 -0.010626928249153466 0.9997781278936715 0.010626928249153466 0.9997781278936715 0.010626928249153466 2.218721063282637E-4 -0.010626928249153466
1788.2070805247824 2.0945435174181073E-4 -0.010182082213251524 0.9997905456482581 0.010182082213251524 0.9997905456482581 0.010182082213251524 2.0945435174181073E-4 -0.010182082213251524
1866.8551118277032 1.9784567027247504E-4 -0.009755885627324885 0.9998021543297277 0.009755885627324885 0.9998021543297277 0.009755885627324885 1.9784567027247504E-4 -0.009755885627324885
1948.9622015893392 1.8698285664972748E-4 -0.009347549130027168 0.9998130171433502 0.009347549130027168 0.9998130171433502 0.009347549130027168 1.8698285664972748E-4 -0.009347549130027168
2034.6804843923717 1.768088655025309E-4 -0.008956316628532768 0.9998231911344972 0.008956316628532768 0.9998231911344972 0.008956316628532768 1.768088655025309E-4 -0.008956316628532768
2124.1687859267618 1.6727227486003747E-4 -0.008581464050860549 0.9998327277251399 0.008581464050860549 0.9998327277251399 0.008581464050860549 1.6727227486003747E-4 -0.008581464050860549
2217.5929172746974 1.5832677193292551E-4 -0.008222298134519891 0.999841673228067 0.008222298134519891 0.999841673228067 0.008222298134519891 1.5832677193292551E-4 -0.008222298134519891
2315.1259821386234 1.4993066126540384E-4 -0.007878155247499397 0.9998500693387345 0.007878155247499397 0.9998500693387345 0.007878155247499397 1.4993066126540384E-4 -0.007878155247499397
2416.94869758163 1.4204639603083167E-4 -0.007548400238237898 0.9998579536039691 0.007548400238237898 0.9998579536039691 0.007548400238237898 1.4204639603083167E-4 -0.007548400238237898
2523.2497288744757 1.3464013376294167E-4 -0.007232425311955318 0.9998653598662374 0.007232425311955318 0.9998653598662374 0.007232425311955318 1.3464013376294167E-4 -0.007232425311955318
2634.226039069695 1.2768131814190904E-4 -0.006929648931532301 0.9998723186818582 0.006929648931532301 0.9998723186818582 0.006929648931532301 1.2768131814190904E-4 -0.006929648931532301
2750.0832539504922 1.2114228857631723E-4 -0.00663951474196108 0.9998788577114236 0.00663951474196108 0.9998788577114236 0.00663951474196108 1.2114228857631723E-4 -0.00663951474196108
2871.0360430306378 1.1499791924056902E-4 -0.006361490518192292 0.9998850020807594 0.006361490518192292 0.9998850020807594 0.006361490518192292 1.1499791924056902E-4 -0.006361490518192292
2997.308517311313 1.0922528896024497E-4 -0.006095067136922864 0.9998907747110398 0.006095067136922864 0.9998907747110398 0.006095067136922864 1.0922528896024497E-4 -0.006095067136922864
3129.1346445318986 1.0380338291675627E-4 -0.005839757573466097 0.9998961966170832 0.005839757573466097 0.9998961966170832 0.005839757573466097 1.0380338291675627E-4 -0.005839757573466097
3266.758682684111 9.871282660903636E-5 -0.005595095925285447 0.9999012871733908 0.005595095925285447 0.9999012871733908 0.005595095925285447 9.871282660903636E-5 -0.005595095925285447
3410.4356325927456 9.39356519114912E-5 -0.0053606364640414505 0.9999060643480886 0.0053606364640414505 0.9999060643480886 0.0053606364640414505 9.39356519114912E-5 -0.0053606364640414505
3560.4317104016063 8.945509445257731E-5 -0.005135952718093712 0.9999105449055474 0.005135952718093712 0.9999105449055474 0.005135952718093712 8.945509445257731E-5 -0.005135952718093712
3717.0248408400566 8.525542095245065E-5 -0.004920636587328351 0.9999147445790474 0.004920636587328351 0.9999147445790474 0.004920636587328351 8.525542095245065E-5 -0.004920636587328351
3880.5051721841933 8.132178463929164E-5 -0.004714297491967098 0.999918678215361 0.004714297491967098 0.999918678215361 0.004714297491967098 8.132178463929164E-5 -0.004714297491967098
4051.175613866778 7.764010644078797E-5 -0.004516561556688181 0.9999223598935592 0.004516561556688181 0.9999223598935592 0.004516561556688181 7.764010644078797E-5 -0.004516561556688181
4229.352397732056 7.419697933764015E-5 -0.004327070830985253 0.9999258030206621 0.004327070830985253 0.9999258030206621 0.004327070830985253 7.419697933764015E-5 -0.004327070830985253
4415.365663975414 7.097959307688812E-5 -0.004145482546244036 0.9999290204069231 0.004145482546244036 0.9999290204069231 0.004145482546244036 7.097959307688812E-5 -0.004145482546244036
4609.560072853534 6.797567637169505E-5 -0.0039714684095605995 0.9999320243236284 0.0039714684095605995 0.9999320243236284 0.0039714684095605995 6.797567637169505E-5 -0.0039714684095605995
4812.295443298486 6.517345375045168E-5 -0.003804713933888108 0.9999348265462494 0.003804713933888108 0.9999348265462494 0.003804713933888108 6.517345375045168E-5 -0.003804713933888108
5023.947419619021 6.256161434555324E-5 -0.0036449178037033896 0.9999374383856544 0.0036449178037033896 0.9999374383856544 0.0036449178037033896 6.256161434555324E-5 -0.0036449178037033896
5244.908167524385 6.01292901114992E-5 -0.003491791275046197 0.9999398707098885 0.003491791275046197 0.9999398707098885 0.003491791275046197 6.01292901114992E-5 -0.003491791275046197
5475.58710076032 5.78660412124697E-5 -0.003345057608512114 0.9999421339587876 0.003345057608512114 0.9999421339587876 0.003345057608512114 5.78660412124697E-5 -0.003345057608512114
5716.411639703585 5.576184660123928E-5 -0.0032044515335775212 0.9999442381533988 0.0032044515335775212 0.9999442381533988 0.0032044515335775212 5.576184660123928E-5 -0.0032044515335775212
5967.828003320627 5.3807098106161726E-5 -0.0030697187425007305 0.9999461929018938 0.0030697187425007305 0.9999461929018938 0.0030697187425007305 5.3807098106161726E-5 -0.0030697187425007305
6230.302035957758 5.199259663576746E-5 -0.0029406154119716544 0.9999480074033642 0.0029406154119716544 0.9999480074033642 0.0029406154119716544 5.199259663576746E-5 -0.0029406154119716544
6504.320070494819 5.030954938926377E-5 -0.0028169077506655454 0.9999496904506107 0.0028169077506655454 0.9999496904506107 0.0028169077506655454 5.030954938926377E-5 -0.0028169077506655454
6790.389829461643 4.874956721722543E-5 -0.002698371570885082 0.9999512504327829 0.002698371570885082 0.9999512504327829 0.002698371570885082 4.874956721722543E-5 -0.002698371570885082
7089.0413657869585 4.730466150440403E-5 -0.002584791882539811 0.9999526953384956 0.002584791882539811 0.9999526953384956 0.002584791882539811 4.730466150440403E-5 -0.002584791882539811
7400.828044922852 4.596724014296173E-5 -0.0024759625078032066 0.9999540327598571 0.0024759625078032066 0.9999540327598571 0.0024759625078032066 4.596724014296173E-5 -0.0024759625078032066
7726.3275701645325 4.4730102328859125E-5 -0.0023716857148967344 0.9999552698976713 0.0023716857148967344 0.9999552698976713 0.0023716857148967344 4.4730102328859125E-5 -0.0023716857148967344
8066.143053065199 4.358643204760224E-5 -0.00227177186956994 0.9999564135679525 0.00227177186956994 0.9999564135679525 0.00227177186956994 4.358643204760224E-5 -0.00227177186956994
8420.904130929366 4.2529790220299534E-5 -0.002176039102969291 0.9999574702097797 0.002176039102969291 0.9999574702097797 0.002176039102969291 4.2529790220299534E-5 -0.002176039102969291
8791.26813345522 4.15541055599795E-5 -0.002084312994711481 0.99995844589444 0.002084312994711481 0.99995844589444 0.002084312994711481 4.15541055599795E-5 -0.002084312994711481
9177.921300687645 4.06536642447662E-5 -0.00199642627009541 0.9999593463357551 0.00199642627009541 0.9999593463357551 0.00199642627009541 4.06536642447662E-5 -0.00199642627009541
