!Murata Part Number: KCM55WR71E686MH01
!These Parameters are Measured in Series Mode Connection
!       o--ll--o
!Port1            Port2
!       o------o
!Operation Temp=25[degC], DC Bias Voltage=0[V]
!Freq. Start=100[Hz] Stop=6[GHz], 401[Steps]
!Data Generated on Feb 1, 2023
# Hz S RI R 50
!Freq.(Hz) S11(Real) S11(Imag) S21(Real) S21(Imag) S12(Real) S12(Imag) S22(Real) S22(Imag)
100.0 0.060350819752541564 -0.23594996017013908 0.9396491802474585 0.23594996017013908 0.9396491802474585 0.23594996017013908 0.060350819752541564 -0.23594996017013908
104.57921513303334 0.05554618434021299 -0.22681169953256777 0.9444538156597869 0.22681169953256777 0.9444538156597869 0.22681169953256777 0.05554618434021299 -0.22681169953256777
109.3681223784127 0.051106316280356244 -0.21793905235142969 0.9488936837196438 0.21793905235142969 0.9488936837196438 0.21793905235142969 0.051106316280356244 -0.21793905235142969
114.3763239890794 0.047006474793554895 -0.20933518652063376 0.952993525206445 0.20933518652063376 0.952993525206445 0.20933518652063376 0.047006474793554895 -0.20933518652063376
119.61386192579457 0.04322310996009731 -0.20100159946307972 0.9567768900399026 0.20100159946307972 0.9567768900399026 0.20100159946307972 0.04322310996009731 -0.20100159946307972
125.09123799230618 0.039733892138369475 -0.19293832565394067 0.9602661078616307 0.19293832565394067 0.9602661078616307 0.19293832565394067 0.039733892138369475 -0.19293832565394067
130.8194348925486 0.03651772192695212 -0.1851441289110399 0.963482278073048 0.1851441289110399 0.963482278073048 0.1851441289110399 0.03651772192695212 -0.1851441289110399
136.8099382520969 0.03355472399207143 -0.17761667910234324 0.9664452760079284 0.17761667910234324 0.9664452760079284 0.17761667910234324 0.03355472399207143 -0.17761667910234324
143.0747596480305 0.03082622775418566 -0.1703527132973294 0.9691737722458142 0.1703527132973294 0.9691737722458142 0.1703527132973294 0.03082622775418566 -0.1703527132973294
149.6264606933842 0.028314737599856043 -0.16334818168475174 0.9716852624001441 0.16334818168475174 0.9716852624001441 0.16334818168475174 0.028314737599856043 -0.16334818168475174
156.47817822447783 0.026003894966401958 -0.15659837880562033 0.9739961050335981 0.15659837880562033 0.9739961050335981 0.15659837880562033 0.026003894966401958 -0.15659837880562033
163.643650641628 0.023878434343071422 -0.15009806081764115 0.9761215656569286 0.15009806081764115 0.9761215656569286 0.15009806081764115 0.023878434343071422 -0.15009806081764115
171.13724545605763 0.021924134947357444 -0.143841549625275 0.9780758650526425 0.143841549625275 0.9780758650526425 0.143841549625275 0.021924134947357444 -0.143841549625275
178.97398809823787 0.020127769570901344 -0.13782282478616975 0.9798722304290987 0.13782282478616975 0.9798722304290987 0.13782282478616975 0.020127769570901344 -0.13782282478616975
187.1695920454257 0.01847705184735795 -0.13203560414704635 0.9815229481526421 0.13203560414704635 0.9815229481526421 0.13203560414704635 0.01847705184735795 -0.13203560414704635
195.74049032880657 0.016960582975151142 -0.12647341417623612 0.9830394170248489 0.12647341417623612 0.9830394170248489 0.12647341417623612 0.016960582975151142 -0.12647341417623612
204.70386848341695 0.01556779873125583 -0.12112965095124613 0.9844322012687442 0.12112965095124613 0.9844322012687442 0.12112965095124613 0.01556779873125583 -0.12112965095124613
214.0776990069143 0.014288917437693602 -0.115997632732589 0.9857110825623064 0.115997632732589 0.9857110825623064 0.115997632732589 0.014288917437693602 -0.115997632732589
223.88077739628844 0.013114889389741664 -0.11107064501375041 0.9868851106102584 0.11107064501375041 0.9868851106102584 0.11107064501375041 0.013114889389741664 -0.11107064501375041
234.132759834772 0.01203734812309536 -0.10634197888526385 0.9879626518769048 0.10634197888526385 0.9879626518769048 0.10634197888526385 0.01203734812309536 -0.10634197888526385
244.85420260451448 0.011048563785317047 -0.1018049634916916 0.988951436214683 0.1018049634916916 0.988951436214683 0.1018049634916916 0.011048563785317047 -0.1018049634916916
256.06660330404856 0.010141398783538374 -0.09745299329678095 0.9898586012164616 0.09745299329678095 0.9898586012164616 0.09745299329678095 0.010141398783538374 -0.09745299329678095
267.792443953192 0.009309265804044663 -0.09327955080670258 0.9906907341959554 0.09327955080670258 0.9906907341959554 0.09327955080670258 0.009309265804044663 -0.09327955080670258
280.0552360718164 0.008546088238371408 -0.08927822533619476 0.9914539117616287 0.08927822533619476 0.9914539117616287 0.08927822533619476 0.008546088238371408 -0.08927822533619476
292.87956782286926 0.007846263003092034 -0.08544272833935224 0.9921537369969078 0.08544272833935224 0.9921537369969078 0.08544272833935224 0.007846263003092034 -0.08544272833935224
306.2911533141767 0.007204625704730507 -0.08176690576701254 0.9927953742952697 0.08176690576701254 0.9927953742952697 0.08176690576701254 0.007204625704730507 -0.08176690576701254
320.3168841578819 0.006616418075375163 -0.07824474785712342 0.9933835819246247 0.07824474785712342 0.9933835819246247 0.07824474785712342 0.006616418075375163 -0.07824474785712342
334.9848833909005 0.006077257586866911 -0.07487039671369718 0.993922742413133 0.07487039671369718 0.993922742413133 0.07487039671369718 0.006077257586866911 -0.07487039671369718
350.32456186451077 0.005583109140284279 -0.07163815198422332 0.9944168908597156 0.07163815198422332 0.9944168908597156 0.07163815198422332 0.005583109140284279 -0.07163815198422332
366.36667721614316 0.0051302587214204255 -0.06854247490474524 0.9948697412785797 0.06854247490474524 0.9948697412785797 0.06854247490474524 0.0051302587214204255 -0.06854247490474524
383.1433955416162 0.004715288910803524 -0.06557799094602851 0.9952847110891965 0.06557799094602851 0.9952847110891965 0.06557799094602851 0.004715288910803524 -0.06557799094602851
400.68835589147574 0.004335056137509287 -0.06273949126304666 0.9956649438624907 0.06273949126304666 0.9956649438624907 0.06273949126304666 0.004335056137509287 -0.06273949126304666
419.03673772076064 0.003986669568702921 -0.06002193312299096 0.9960133304312971 0.06002193312299096 0.9960133304312971 0.06002193312299096 0.003986669568702921 -0.06002193312299096
438.225331427439 0.0036674715308530176 -0.05742043946373432 0.9963325284691469 0.05742043946373432 0.9963325284691469 0.05742043946373432 0.0036674715308530176 -0.05742043946373432
458.2926121209498 0.0033750193633640614 -0.054930297714695896 0.9966249806366357 0.054930297714695896 0.9966249806366357 0.054930297714695896 0.0033750193633640614 -0.054930297714695896
479.2788167687661 0.0031070686105917314 -0.052546957994927895 0.9968929313894085 0.052546957994927895 0.9968929313894085 0.052546957994927895 0.0031070686105917314 -0.052546957994927895
501.22602487566456 0.0028615574635594064 -0.05026603078858071 0.9971384425364406 0.05026603078858071 0.9971384425364406 0.05026603078858071 0.0028615574635594064 -0.05026603078858071
524.1782428574726 0.002636592367992562 -0.04808328418532503 0.9973634076320075 0.04808328418532503 0.9973634076320075 0.04808328418532503 0.002636592367992562 -0.04808328418532503
548.1814922784702 0.0024304347204044474 -0.045994640762507484 0.9975695652795957 0.045994640762507484 0.9975695652795957 0.045994640762507484 0.0024304347204044474 -0.045994640762507484
573.2839021293739 0.002241488578821683 -0.04399617417651017 0.9977585114211782 0.04399617417651017 0.9977585114211782 0.04399617417651017 0.002241488578821683 -0.04399617417651017
599.5358053309263 0.0020682893192871666 -0.042084105522736975 0.9979317106807128 0.042084105522736975 0.9979317106807128 0.042084105522736975 0.0020682893192871666 -0.042084105522736975
626.9898396565933 0.0019094931734971374 -0.04025479951666318 0.9980905068265029 0.04025479951666318 0.9980905068265029 0.04025479951666318 0.0019094931734971374 -0.04025479951666318
655.7010532767296 0.0017638675868115706 -0.03850476054228545 0.9982361324131884 0.03850476054228545 0.9982361324131884 0.03850476054228545 0.0017638675868115706 -0.03850476054228545
685.7270151358366 0.001630282339424627 -0.036830628608955814 0.9983697176605755 0.036830628608955814 0.9983697176605755 0.036830628608955814 0.001630282339424627 -0.036830628608955814
717.1279303842347 0.0015077013767028308 -0.035229175252843296 0.9984922986232972 0.035229175252843296 0.9984922986232972 0.035229175252843296 0.0015077013767028308 -0.035229175252843296
749.9667610955984 0.0013951752976076935 -0.03369729941503469 0.9986048247023922 0.03369729941503469 0.9986048247023922 0.03369729941503469 0.0013951752976076935 -0.03369729941503469
784.3093525124082 0.0012918344527356664 -0.032232023324457564 0.9987081655472643 0.032232023324457564 0.9987081655472643 0.032232023324457564 0.0012918344527356664 -0.032232023324457564
820.2245650724522 0.0011968826058577806 -0.030830488410296456 0.9988031173941423 0.030830488410296456 0.9988031173941423 0.030830488410296456 0.0011968826058577806 -0.030830488410296456
857.7844124811068 0.0011095911149574312 -0.029489951265294544 0.9988904088850424 0.029489951265294544 0.9988904088850424 0.029489951265294544 0.0011095911149574312 -0.029489951265294544
897.0642061062428 0.0010292935906899387 -0.02820777967821677 0.9989707064093098 0.02820777967821677 0.9989707064093098 0.02820777967821677 0.0010292935906899387 -0.02820777967821677
938.1427059852851 9.553809919740192E-4 -0.026981448750736207 0.9990446190080262 0.026981448750736207 0.9990446190080262 0.026981448750736207 9.553809919740192E-4 -0.026981448750736207
981.102278747212 8.872971201347227E-4 -0.02580853711104619 0.9991127028798653 0.02580853711104619 0.9991127028798653 0.02580853711104619 8.872971201347227E-4 -0.02580853711104619
1026.0290627661395 8.24534474719523E-4 -0.024686723233568117 0.9991754655252805 0.024686723233568117 0.9991754655252805 0.024686723233568117 8.24534474719523E-4 -0.024686723233568117
1073.0131408776467 7.666304358785789E-4 -0.02361378187121026 0.9992333695641213 0.02361378187121026 0.9992333695641213 0.02361378187121026 7.666304358785789E-4 -0.02361378187121026
1122.1487210041523 7.131637401109623E-4 -0.022587580603753443 0.999286836259889 0.022587580603753443 0.999286836259889 0.022587580603753443 7.131637401109623E-4 -0.022587580603753443
1173.5343250515148 6.637512182981704E-4 -0.0216060765031341 0.9993362487817017 0.0216060765031341 0.9993362487817017 0.0216060765031341 6.637512182981704E-4 -0.0216060765031341
1227.2729864556143 6.180447673270927E-4 -0.020667312913731455 0.9993819552326728 0.020667312913731455 0.9993819552326728 0.020667312913731455 6.180447673270927E-4 -0.020667312913731455
1283.4724567750195 5.757285292763153E-4 -0.019769416343327028 0.9994242714707238 0.019769416343327028 0.9994242714707238 0.019769416343327028 5.757285292763153E-4 -0.019769416343327028
1342.245421743976 5.365162551014757E-4 -0.01891059345829341 0.9994634837448985 0.01891059345829341 0.9994634837448985 0.01891059345829341 5.365162551014757E-4 -0.01891059345829341
1403.7097272189235 5.001488329706799E-4 -0.018089128174886938 0.9994998511670293 0.018089128174886938 0.9994998511670293 0.018089128174886938 5.001488329706799E-4 -0.018089128174886938
1467.9886154715937 4.6639196479554817E-4 -0.017303378837361653 0.9995336080352044 0.017303378837361653 0.9995336080352044 0.017303378837361653 4.6639196479554817E-4 -0.017303378837361653
1535.2109723024755 4.35033977967653E-4 -0.016551775473064568 0.9995649660220322 0.016551775473064568 0.9995649660220322 0.016551775473064568 4.35033977967653E-4 -0.016551775473064568
1605.5115854701387 4.058837627062556E-4 -0.01583281711475421 0.9995941162372938 0.01583281711475421 0.9995941162372938 0.01583281711475421 4.058837627062556E-4 -0.01583281711475421
1679.0314149545911 3.787688285973589E-4 -0.015145069181102885 0.9996212311714028 0.015145069181102885 0.9996212311714028 0.015145069181102885 3.787688285973589E-4 -0.015145069181102885
1755.9178755965756 3.535334767013173E-4 -0.014487160907646686 0.9996464665232987 0.014487160907646686 0.9996464665232987 0.014487160907646686 3.535334767013173E-4 -0.014487160907646686
1836.3251326795319 3.300370858875667E-4 -0.013857782822235074 0.9996699629141125 0.013857782822235074 0.9996699629141125 0.013857782822235074 3.300370858875667E-4 -0.013857782822235074
1920.4144110468878 3.0815251371379493E-4 -0.013255684261163022 0.9996918474862861 0.013255684261163022 0.9996918474862861 0.013255684261163022 3.0815251371379493E-4 -0.013255684261163022
2008.3543183745 2.8776461314166914E-4 -0.012679670924471554 0.9997122353868585 0.012679670924471554 0.9997122353868585 0.012679670924471554 2.8776461314166914E-4 -0.012679670924471554
2100.321183246434 2.6876886666398885E-4 -0.012128602471194216 0.9997312311333357 0.012128602471194216 0.9997312311333357 0.012128602471194216 2.6876886666398885E-4 -0.012128602471194216
2196.4994087119585 2.510701390555131E-4 -0.011601390157429276 0.9997489298609443 0.011601390157429276 0.9997489298609443 0.011601390157429276 2.510701390555131E-4 -0.011601390157429276
2297.0818420326846 2.34581549047909E-4 -0.011096994521877101 0.9997654184509521 0.011096994521877101 0.9997654184509521 0.011096994521877101 2.34581549047909E-4 -0.011096994521877101
2402.270161361206 2.1922345890286788E-4 -0.010614423124782025 0.9997807765410973 0.010614423124782025 0.9997807765410973 0.010614423124782025 2.1922345890286788E-4 -0.010614423124782025
2512.2752801266033 2.049225792742598E-4 -0.010152728346990717 0.9997950774207258 0.010152728346990717 0.9997950774207258 0.010152728346990717 2.049225792742598E-4 -0.010152728346990717
2627.3177699376165 1.9161118507429346E-4 -0.009711005256065214 0.999808388814926 0.009711005256065214 0.999808388814926 0.009711005256065214 1.9161118507429346E-4 -0.009711005256065214
2747.6283028514745 1.7922643644403163E-4 -0.009288389546099387 0.9998207735635559 0.009288389546099387 0.9998207735635559 0.009288389546099387 1.7922643644403163E-4 -0.009288389546099387
2873.4481138951564 1.6770979750567374E-4 -0.008884055557151204 0.9998322902024943 0.008884055557151204 0.9998322902024943 0.008884055557151204 1.6770979750567374E-4 -0.008884055557151204
3005.0294847665045 1.570065444402302E-4 -0.008497214379117749 0.99984299345556 0.008497214379117749 0.99984299345556 0.008497214379117749 1.570065444402302E-4 -0.008497214379117749
3142.6362496850466 1.4706535364964027E-4 -0.008127112043559247 0.9998529346463503 0.008127112043559247 0.9998529346463503 0.008127112043559247 1.4706535364964027E-4 -0.008127112043559247
3286.544324406816 1.3783796034982544E-4 -0.007773027805537174 0.9998621620396505 0.007773027805537174 0.9998621620396505 0.007773027805537174 1.3783796034982544E-4 -0.007773027805537174
3437.0422594639017 1.2927887789029876E-4 -0.007434272516078165 0.9998707211221097 0.007434272516078165 0.9998707211221097 0.007434272516078165 1.2927887789029876E-4 -0.007434272516078165
3594.431818738024 1.2134516836999778E-4 -0.007110187084500741 0.9998786548316299 0.007110187084500741 0.9998786548316299 0.007110187084500741 1.2134516836999778E-4 -0.007110187084500741
3759.0285845282415 1.1399625566295402E-4 -0.006800141028615806 0.9998860037443369 0.006800141028615806 0.9998860037443369 0.006800141028615806 1.1399625566295402E-4 -0.006800141028615806
3931.162590326006 1.0719377271619214E-4 -0.006503531109781427 0.9998928062272837 0.006503531109781427 0.9998928062272837 0.006503531109781427 1.0719377271619214E-4 -0.006503531109781427
4111.17898256636 1.0090143586828704E-4 -0.006219780048982375 0.9998990985641316 0.006219780048982375 0.9998990985641316 0.006219780048982375 1.0090143586828704E-4 -0.006219780048982375
4299.438712682125 9.508493989618042E-5 -0.005948335319520444 0.9999049150601039 0.005948335319520444 0.9999049150601039 0.005948335319520444 9.508493989618042E-5 -0.005948335319520444
4496.31926084876 8.971186847382181E-5 -0.005688668011532209 0.9999102881315262 0.005688668011532209 0.9999102881315262 0.005688668011532209 8.971186847382181E-5 -0.005688668011532209
4702.215392871039 8.475161567295827E-5 -0.005440271763375579 0.9999152483843272 0.005440271763375579 0.9999152483843272 0.005440271763375579 8.475161567295827E-5 -0.005440271763375579
4917.539951729213 8.01753150192441E-5 -0.005202661754915461 0.9999198246849808 0.005202661754915461 0.9999198246849808 0.005202661754915461 8.01753150192441E-5 -0.005202661754915461
5142.724685371758 7.595577341225099E-5 -0.004975373757861681 0.9999240442265876 0.004975373757861681 0.9999240442265876 0.004975373757861681 7.595577341225099E-5 -0.004975373757861681
5378.221112414543 7.206740791237739E-5 -0.00475796323853529 0.9999279325920877 0.00475796323853529 0.9999279325920877 0.00475796323853529 7.206740791237739E-5 -0.00475796323853529
5624.501427482224 6.8486183986029E-5 -0.004550004508733441 0.999931513816014 0.004550004508733441 0.999931513816014 0.004550004508733441 6.8486183986029E-5 -0.004550004508733441
5882.059448007167 6.518955428429639E-5 -0.00435108992070086 0.9999348104457156 0.00435108992070086 0.9999348104457156 0.00435108992070086 6.518955428429639E-5 -0.00435108992070086
6151.41160438433 6.215639741605047E-5 -0.004160829102575121 0.999937843602584 0.004160829102575121 0.999937843602584 0.004160829102575121 6.215639741605047E-5 -0.004160829102575121
6433.097975467465 5.9366956473412944E-5 -0.003978848231035475 0.9999406330435266 0.003978848231035475 0.9999406330435266 0.003978848231035475 5.9366956473412944E-5 -0.003978848231035475
6727.683371482931 5.680277728719792E-5 -0.0038047893382373247 0.9999431972227127 0.0038047893382373247 0.9999431972227127 0.0038047893382373247 5.680277728719792E-5 -0.0038047893382373247
7035.758466532445 5.444664654405157E-5 -0.0036383096504465544 0.9999455533534561 0.0036383096504465544 0.9999455533534561 0.0036383096504465544 5.444664654405157E-5 -0.0036383096504465544
7357.940982955574 5.2282529997334816E-5 -0.0034790809560939066 0.9999477174700027 0.0034790809560939066 0.9999477174700027 0.0034790809560939066 5.2282529997334816E-5 -0.0034790809560939066
7694.876929926739 5.029551106122315E-5 -0.003326789001245593 0.9999497044889387 0.003326789001245593 0.9999497044889387 0.003326789001245593 5.029551106122315E-5 -0.003326789001245593
8047.241898770236 4.847173010183891E-5 -0.003181132910731295 0.9999515282698982 0.003181132910731295 0.9999515282698982 0.003181132910731295 4.847173010183891E-5 -0.003181132910731295
8415.742417590522 4.679832473898517E-5 -0.003041824633384762 0.9999532016752609 0.003041824633384762 0.9999532016752609 0.003041824633384762 4.679832473898517E-5 -0.003041824633384762
8801.117367933934 4.5263371454368414E-5 -0.002908588410037106 0.9999547366285456 0.002908588410037106 0.9999547366285456 0.002908588410037106 4.5263371454368414E-5 -0.002908588410037106
9204.139466322391 4.3855828772928086E-5 -0.00278116026306054 0.9999561441712271 0.00278116026306054 0.9999561441712271 0.00278116026306054 4.3855828772928086E-5 -0.00278116026306054
9625.61681362972 4.256548224768582E-5 -0.002659287506393697 0.9999574345177523 0.002659287506393697 0.9999574345177523 0.002659287506393697 4.256548224768582E-5 -0.002659287506393697
10066.394515407255 4.138289143897244E-5 -0.0025427282750914893 0.9999586171085612 0.0025427282750914893 0.9999586171085612 0.0025427282750914893 4.138289143897244E-5 -0.0025427282750914893
10527.356376407623 4.0299339038667836E-5 -0.0024312510735355433 0.9999597006609615 0.0024312510735355433 0.9999597006609615 0.0024312510735355433 4.0299339038667836E-5 -0.0024312510735355433
11009.426672704432 3.930678225111402E-5 -0.0023246343415184736 0.9999606932177488 0.0023246343415184736 0.9999606932177488 0.0023246343415184736 3.930678225111402E-5 -0.0023246343415184736
