! BLE18PK160SN1
# Hz S RI R 50
!Freq.(Hz) S11(Real) S11(Imag) S21(Real) S21(Imag) S12(Real) S12(Imag) S22(Real) S22(Imag)
1000000.0 1.1604483364821337E-4 0.00238676754112256 0.9998839551663519 -0.00238676754112256 0.9998839551663519 -0.00238676754112256 1.1604483364821337E-4 0.00238676754112256
1020217.5806586457 1.1710873690438455E-4 0.002435007856588571 0.9998828912630957 -0.0024350078565885712 0.9998828912630957 -0.0024350078565885712 1.1710873690438455E-4 0.002435007856588571
1040843.9118849806 1.1821607742691734E-4 0.0024842225866922854 0.9998817839225732 -0.0024842225866922854 0.9998817839225732 -0.0024842225866922854 1.1821607742691734E-4 0.0024842225866922854
1061887.2576265757 1.1936862797170843E-4 0.002534431376819963 0.9998806313720283 -0.002534431376819963 0.9998806313720283 -0.002534431376819963 1.1936862797170843E-4 0.002534431376819963
1083356.0489080292 1.2056823358496593E-4 0.002585654266143829 0.999879431766415 -0.002585654266143829 0.999879431766415 -0.002585654266143829 1.2056823358496593E-4 0.002585654266143829
1105258.8872088592 1.2181681454616805E-4 0.002637911695373568 0.9998781831854539 -0.002637911695373568 0.9998781831854539 -0.002637911695373568 1.2181681454616805E-4 0.002637911695373568
1127604.5479096894 1.2311636943041998E-4 0.002691224514651576 0.9998768836305695 -0.002691224514651576 0.9998768836305695 -0.002691224514651576 1.2311636943041998E-4 0.002691224514651576
1150401.9838081095 1.2446897829501797E-4 0.0027456139915940725 0.999875531021705 -0.0027456139915940725 0.999875531021705 -0.0027456139915940725 1.2446897829501797E-4 0.0027456139915940725
1173660.328705616 1.2587680599522114E-4 0.0028011018194801797 0.9998741231940048 -0.0028011018194801797 0.9998741231940048 -0.0028011018194801797 1.2587680599522114E-4 0.0028011018194801797
1197388.9010670746 1.2734210563443077E-4 0.0028577101255910543 0.9998726578943654 -0.0028577101255910543 0.9998726578943654 -0.0028577101255910543 1.2734210563443077E-4 0.0028577101255910543
1221597.2077541656 1.288672221541805E-4 0.0029154614797011515 0.9998711327778458 -0.002915461479701151 0.9998711327778458 -0.002915461479701151 1.288672221541805E-4 0.0029154614797011515
1246294.947834312 1.3045459606955657E-4 0.0029743789027236833 0.9998695454039305 -0.0029743789027236837 0.9998695454039305 -0.0029743789027236837 1.3045459606955657E-4 0.0029743789027236833
1271492.016466615 1.3210676735588795E-4 0.0030344858755123145 0.9998678932326439 -0.0030344858755123145 0.9998678932326439 -0.0030344858755123145 1.3210676735588795E-4 0.0030344858755123145
1297198.5088663532 1.3382637949277735E-4 0.003095806347821109 0.9998661736205072 -0.003095806347821109 0.9998661736205072 -0.003095806347821109 1.3382637949277735E-4 0.003095806347821109
1323424.7243496338 1.3561618367178107E-4 0.003158364747424708 0.9998643838163281 -0.0031583647474247075 0.9998643838163281 -0.0031583647474247075 1.3561618367178107E-4 0.003158364747424708
1350181.1704598186 1.3747904317429685E-4 0.0032221859894007074 0.9998625209568256 -0.0032221859894007074 0.9998625209568256 -0.0032221859894007074 1.3747904317429685E-4 0.0032221859894007074
1377478.5671773748 1.3941793792647308E-4 0.003287295485576134 0.9998605820620734 -0.003287295485576134 0.9998605820620734 -0.003287295485576134 1.3941793792647308E-4 0.003287295485576134
1405327.8512148394 1.4143596923822102E-4 0.0033537191541398916 0.9998585640307617 -0.0033537191541398916 0.9998585640307617 -0.0033537191541398916 1.4143596923822102E-4 0.0033537191541398916
1433740.1803986167 1.435363647336892E-4 0.003421483429422989 0.9998564636352663 -0.003421483429422989 0.9998564636352663 -0.003421483429422989 1.435363647336892E-4 0.003421483429422989
1462726.9381393674 1.4572248348084543E-4 0.0034906152718483328 0.9998542775165192 -0.0034906152718483328 0.9998542775165192 -0.0034906152718483328 1.4572248348084543E-4 0.0034906152718483328
1492299.737992774 1.479978213281089E-4 0.003561142178051736 0.9998520021786718 -0.003561142178051736 0.9998520021786718 -0.003561142178051736 1.479978213281089E-4 0.003561142178051736
1522470.428312519 1.5036601645628653E-4 0.0036330921911758183 0.9998496339835437 -0.0036330921911758183 0.9998496339835437 -0.0036330921911758183 1.5036601645628653E-4 0.0036330921911758183
1553251.0969973304 1.5283085515438338E-4 0.0037064939113382856 0.9998471691448455 -0.0037064939113382865 0.9998471691448455 -0.0037064939113382865 1.5283085515438338E-4 0.0037064939113382856
1584654.076334004 1.5539627782819407E-4 0.0037813765062761026 0.9998446037221717 -0.0037813765062761034 0.9998446037221717 -0.0037813765062761034 1.5539627782819407E-4 0.0037813765062761026
1616691.9479383389 1.5806638525092028E-4 0.0038577697221668598 0.999841933614749 -0.0038577697221668598 0.999841933614749 -0.0038577697221668598 1.5806638525092028E-4 0.0038577697221668598
1649377.5477959653 1.608454450654198E-4 0.003935703894628618 0.9998391545549346 -0.003935703894628619 0.9998391545549346 -0.003935703894628619 1.608454450654198E-4 0.003935703894628618
1682723.9714050898 1.6373789854806073E-4 0.004015209959899383 0.9998362621014519 -0.004015209959899383 0.9998362621014519 -0.004015209959899383 1.6373789854806073E-4 0.004015209959899383
1716744.5790232092 1.6674836764453405E-4 0.0040963194661971505 0.9998332516323556 -0.0040963194661971505 0.9998332516323556 -0.0040963194661971505 1.6674836764453405E-4 0.0040963194661971505
1751453.001019904 1.6988166228837638E-4 0.004179064585261471 0.9998301183377118 -0.004179064585261471 0.9998301183377118 -0.004179064585261471 1.6988166228837638E-4 0.004179064585261471
1786863.143337851 1.731427880133632E-4 0.004263478124077173 0.9998268572119867 -0.004263478124077174 0.9998268572119867 -0.004263478124077174 1.731427880133632E-4 0.004263478124077173
1822989.1930642454 1.765369538713559E-4 0.004349593536780857 0.9998234630461287 -0.004349593536780856 0.9998234630461287 -0.004349593536780856 1.765369538713559E-4 0.004349593536780857
1859845.6241148617 1.800695806676253E-4 0.004437444936750474 0.9998199304193323 -0.004437444936750474 0.9998199304193323 -0.004437444936750474 1.800695806676253E-4 0.004437444936750474
1897447.2030330333 1.8374630952612737E-4 0.004527067108878204 0.999816253690474 -0.004527067108878204 0.999816253690474 -0.004527067108878204 1.8374630952612737E-4 0.004527067108878204
1935808.994905876 1.875730107976762E-4 0.004618495522026583 0.9998124269892025 -0.004618495522026583 0.9998124269892025 -0.004618495522026583 1.875730107976762E-4 0.004618495522026583
1974946.3694001175 1.9155579332444383E-4 0.004711766341667594 0.9998084442066757 -0.004711766341667594 0.9998084442066757 -0.004711766341667594 1.9155579332444383E-4 0.004711766341667594
2014875.0069199642 1.9570101407471657E-4 0.004806916442704252 0.9998042989859252 -0.004806916442704251 0.9998042989859252 -0.004806916442704251 1.9570101407471657E-4 0.004806916442704252
2055610.904889458 2.0001528816235715E-4 0.004903983422473883 0.9997999847118376 -0.004903983422473883 0.9997999847118376 -0.004903983422473883 2.0001528816235715E-4 0.004903983422473883
2097170.3841618528 2.045054992659528E-4 0.0050030056139320055 0.9997954945007341 -0.005003005613932006 0.9997954945007341 -0.005003005613932006 2.045054992659528E-4 0.0050030056139320055
2139570.0955585684 2.0917881046318536E-4 0.005104022099015514 0.9997908211895367 -0.005104022099015514 0.9997908211895367 -0.005104022099015514 2.0917881046318536E-4 0.005104022099015514
2182827.0265403506 2.1404267549652458E-4 0.005207072722183389 0.9997859573245034 -0.005207072722183389 0.9997859573245034 -0.005207072722183389 2.1404267549652458E-4 0.005207072722183389
2226958.508013302 2.1910485048693467E-4 0.005312198104132912 0.999780895149513 -0.005312198104132911 0.999780895149513 -0.005312198104132911 2.1910485048693467E-4 0.005312198104132912
2271982.2212725184 2.2437340611289086E-4 0.005419439655688972 0.9997756265938873 -0.005419439655688972 0.9997756265938873 -0.005419439655688972 2.2437340611289086E-4 0.005419439655688972
2317916.205086105 2.2985674027262124E-4 0.005528839591863517 0.9997701432597274 -0.005528839591863518 0.9997701432597274 -0.005528839591863518 2.2985674027262124E-4 0.005528839591863517
2364778.8629224156 2.3556359124813898E-4 0.00564044094608198 0.9997644364087519 -0.005640440946081979 0.9997644364087519 -0.005640440946081979 2.3556359124813898E-4 0.00564044094608198
2412588.9703234104 2.4150305139028364E-4 0.005754287584572817 0.9997584969486097 -0.005754287584572816 0.9997584969486097 -0.005754287584572816 2.4150305139028364E-4 0.005754287584572817
2461365.682427083 2.4768458134467555E-4 0.005870424220915944 0.9997523154186555 -0.005870424220915944 0.9997523154186555 -0.005870424220915944 2.4768458134467555E-4 0.005870424220915944
2511128.5416419753 2.5411802483918475E-4 0.005988896430745249 0.9997458819751608 -0.005988896430745249 0.9997458819751608 -0.005988896430745249 2.5411802483918475E-4 0.005988896430745249
2561897.48547685 2.6081362405423573E-4 0.006109750666599789 0.9997391863759457 -0.006109750666599789 0.9997391863759457 -0.006109750666599789 2.6081362405423573E-4 0.006109750666599789
2613692.85452866 2.677820355980043E-4 0.006233034272917656 0.9997322179644019 -0.006233034272917656 0.9997322179644019 -0.006233034272917656 2.677820355980043E-4 0.006233034272917656
2666535.4006320196 2.750343471093259E-4 0.006358795501165899 0.9997249656528908 -0.006358795501165899 0.9997249656528908 -0.006358795501165899 2.750343471093259E-4 0.006358795501165899
2720446.295173432 2.82582094511905E-4 0.006487083525099057 0.9997174179054881 -0.006487083525099056 0.9997174179054881 -0.006487083525099056 2.82582094511905E-4 0.006487083525099057
2775447.137573615 2.904372799442151E-4 0.00661794845613824 0.9997095627200556 -0.00661794845613824 0.9997095627200556 -0.00661794845613824 2.904372799442151E-4 0.00661794845613824
2831559.963941318 2.986123903902929E-4 0.00675144135886185 0.9997013876096097 -0.00675144135886185 0.9997013876096097 -0.00675144135886185 2.986123903902929E-4 0.00675144135886185
2888807.255902094 3.071204170374579E-4 0.00688761426659805 0.9996928795829625 -0.00688761426659805 0.9996928795829625 -0.00688761426659805 3.071204170374579E-4 0.00688761426659805
2947211.9496055758 3.159748753878519E-4 0.007026520197108484 0.9996840251246121 -0.007026520197108484 0.9996840251246121 -0.007026520197108484 3.159748753878519E-4 0.007026520197108484
3006797.4449148513 3.251898261515434E-4 0.007168213168351397 0.9996748101738484 -0.007168213168351395 0.9996748101738484 -0.007168213168351395 3.251898261515434E-4 0.007168213168351397
3067587.6147816274 3.3477989694984675E-4 0.007312748214311592 0.9996652201030501 -0.007312748214311593 0.9996652201030501 -0.007312748214311593 3.3477989694984675E-4 0.007312748214311592
3129606.8148109377 3.447603048583913E-4 0.0074601814008833965 0.9996552396951416 -0.0074601814008833965 0.9996552396951416 -0.0074601814008833965 3.447603048583913E-4 0.0074601814008833965
3192879.893019226 3.5514687982040217E-4 0.0076105698417916435 0.9996448531201796 -0.007610569841791642 0.9996448531201796 -0.007610569841791642 3.5514687982040217E-4 0.0076105698417916435
3257432.1997897103 3.6595608896157944E-4 0.007763971714534529 0.9996340439110383 -0.007763971714534529 0.9996340439110383 -0.007763971714534529 3.6595608896157944E-4 0.007763971714534529
3323289.598029029 3.772050618389094E-4 0.007920446276330774 0.9996227949381611 -0.007920446276330775 0.9996227949381611 -0.007920446276330775 3.772050618389094E-4 0.007920446276330774
3390478.4735292196 3.889116166566935E-4 0.008080053880052196 0.9996110883833434 -0.008080053880052196 0.9996110883833434 -0.008080053880052196 3.889116166566935E-4 0.008080053880052196
3459025.745539199 4.010942874840436E-4 0.008242855990121223 0.9995989057125161 -0.008242855990121225 0.9995989057125161 -0.008242855990121225 4.010942874840436E-4 0.008242855990121223
3528958.8775499705 4.1377235250906813E-4 0.008408915198351444 0.9995862276474909 -0.008408915198351444 0.9995862276474909 -0.008408915198351444 4.1377235250906813E-4 0.008408915198351444
3600305.8882978815 4.269658633659465E-4 0.008578295239707424 0.999573034136634 -0.008578295239707424 0.999573034136634 -0.008578295239707424 4.269658633659465E-4 0.008578295239707424
3673095.3629903416 4.406956755720676E-4 0.008751061007958374 0.9995593043244279 -0.008751061007958374 0.9995593043244279 -0.008751061007958374 4.406956755720676E-4 0.008751061007958374
3747356.4647584967 4.549834801133944E-4 0.00892727857119834 0.9995450165198865 -0.00892727857119834 0.9995450165198865 -0.00892727857119834 4.549834801133944E-4 0.00892727857119834
3823118.9463414503 4.698518362171884E-4 0.009107015187203554 0.9995301481637829 -0.009107015187203554 0.9995301481637829 -0.009107015187203554 4.698518362171884E-4 0.009107015187203554
3900413.1620067055 4.853242053521963E-4 0.009290339318595476 0.9995146757946478 -0.009290339318595476 0.9995146757946478 -0.009290339318595476 4.853242053521963E-4 0.009290339318595476
3979270.0797116193 5.014249864973715E-4 0.009477320647775875 0.9994985750135026 -0.009477320647775875 0.9994985750135026 -0.009477320647775875 5.014249864973715E-4 0.009477320647775875
4059721.293510725 5.181795527211346E-4 0.009668030091597831 0.9994818204472788 -0.009668030091597833 0.9994818204472788 -0.009668030091597833 5.181795527211346E-4 0.009668030091597831
4141799.0362139 5.356142891141127E-4 0.009862539815734069 0.9994643857108858 -0.009862539815734069 0.9994643857108858 -0.009862539815734069 5.356142891141127E-4 0.009862539815734069
4225536.192300457 5.53756632119201E-4 0.010060923248701453 0.9994462433678808 -0.010060923248701453 0.9994462433678808 -0.010060923248701453 5.53756632119201E-4 0.010060923248701453
4310966.311094318 5.726351103036509E-4 0.010263255095497541 0.9994273648896962 -0.010263255095497541 0.9994273648896962 -0.010263255095497541 5.726351103036509E-4 0.010263255095497541
4398123.620205573 5.922793866187343E-4 0.010469611350802242 0.9994077206133813 -0.010469611350802243 0.9994077206133813 -0.010469611350802243 5.922793866187343E-4 0.010469611350802242
4487043.0392437745 6.127203021933146E-4 0.010680069311694365 0.9993872796978067 -0.010680069311694365 0.9993872796978067 -0.010680069311694365 6.127203021933146E-4 0.010680069311694365
4577760.193808502 6.339899217084113E-4 0.010894707589829813 0.9993660100782917 -0.010894707589829813 0.9993660100782917 -0.010894707589829813 6.339899217084113E-4 0.010894707589829813
4670311.429762763 6.561215804004996E-4 0.011113606123024315 0.9993438784195995 -0.011113606123024316 0.9993438784195995 -0.011113606123024316 6.561215804004996E-4 0.011113606123024315
4764733.827794987 6.791499327419222E-4 0.011336846186180227 0.9993208500672579 -0.011336846186180227 0.9993208500672579 -0.011336846186180227 6.791499327419222E-4 0.011336846186180227
4861065.218275411 7.031110028473063E-4 0.011564510401492985 0.9992968889971529 -0.011564510401492985 0.9992968889971529 -0.011564510401492985 7.031110028473063E-4 0.011564510401492985
4959344.196412832 7.280422366553262E-4 0.011796682747868603 0.9992719577633445 -0.011796682747868601 0.9992719577633445 -0.011796682747868601 7.280422366553262E-4 0.011796682747868603
5059610.137717796 7.53982555935499E-4 0.012033448569479552 0.9992460174440645 -0.012033448569479552 0.9992460174440645 -0.012033448569479552 7.53982555935499E-4 0.012033448569479552
5161903.213778406 7.809724141699077E-4 0.012274894583381619 0.9992190275858301 -0.012274894583381619 0.9992190275858301 -0.012274894583381619 7.809724141699077E-4 0.012274894583381619
5266264.4083550945 8.090538543598664E-4 0.012521108886109755 0.9991909461456401 -0.012521108886109755 0.9991909461456401 -0.012521108886109755 8.090538543598664E-4 0.012521108886109755
5372735.53380077 8.382705688074778E-4 0.012772180959165947 0.9991617294311924 -0.012772180959165949 0.9991617294311924 -0.012772180959165949 8.382705688074778E-4 0.012772180959165947
5481359.247812959 8.686679609218297E-4 0.013028201673306825 0.9991313320390781 -0.013028201673306821 0.9991313320390781 -0.013028201673306821 8.686679609218297E-4 0.013028201673306825
5592179.070524632 9.002932090992033E-4 0.01328926329153337 0.9990997067909009 -0.01328926329153337 0.9990997067909009 -0.01328926329153337 9.002932090992033E-4 0.01328926329153337
5705239.401940555 9.331953327260515E-4 0.013555459470679257 0.9990668046672739 -0.01355545947067926 0.9990668046672739 -0.01355545947067926 9.331953327260515E-4 0.013555459470679257
5820585.5397261735 9.674252603527536E-4 0.01382688526148846 0.9990325747396471 -0.01382688526148846 0.9990325747396471 -0.01382688526148846 9.674252603527536E-4 0.01382688526148846
5938263.697356135 0.001003035900085048 0.014103637107066254 0.9989969640999148 -0.014103637107066254 0.9989969640999148 -0.014103637107066254 0.001003035900085048 0.014103637107066254
6058321.022629741 0.0010400822122387928 0.014385812839581527 0.9989599177877612 -0.01438581283958153 0.9989599177877612 -0.01438581283958153 0.0010400822122387928 0.014385812839581527
6180805.616560728 0.001078621284302066 0.014673511675091093 0.998921378715698 -0.014673511675091089 0.998921378715698 -0.014673511675091089 0.001078621284302066 0.014673511675091093
6305766.552648956 0.0011187124082467199 0.014966834206349708 0.9988812875917533 -0.014966834206349705 0.9988812875917533 -0.014966834206349705 0.0011187124082467199 0.014966834206349708
6433253.896541728 0.001160417160229229 0.015265882393462167 0.9988395828397707 -0.015265882393462167 0.9988395828397707 -0.015265882393462167 0.001160417160229229 0.015265882393462167
6563318.726092606 0.0012037994827180138 0.015570759552225713 0.998796200517282 -0.015570759552225713 0.998796200517282 -0.015570759552225713 0.0012037994827180138 0.015570759552225713
6696013.151825785 0.0012489257690813862 0.015881570340003343 0.9987510742309187 -0.015881570340003343 0.9987510742309187 -0.015881570340003343 0.0012489257690813862 0.015881570340003343
6831390.3378141755 0.0012958649506667039 0.01619842073895986 0.9987041350493333 -0.01619842073895986 0.9987041350493333 -0.01619842073895986 0.0012958649506667039 0.01619842073895986
6969504.522979628 0.0013446885863973562 0.016521418036484086 0.9986553114136025 -0.016521418036484086 0.9986553114136025 -0.016521418036484086 0.0013446885863973562 0.016521418036484086
7110411.042823766 0.0013954709549096381 0.01685067080261146 0.9986045290450903 -0.01685067080261146 0.9986045290450903 -0.01685067080261146 0.0013954709549096381 0.01685067080261146
7254166.351598182 0.001448289149246451 0.017186288864251997 0.9985517108507537 -0.017186288864251994 0.9985517108507537 -0.017186288864251994 0.001448289149246451 0.017186288864251997
7400828.044922853 0.0015032231741190418 0.017528383276018918 0.998496776825881 -0.017528383276018914 0.998496776825881 -0.017528383276018914 0.0015032231741190418 0.017528383276018918
7550454.882861849 0.0015603560457415574 0.01787706628744361 0.9984396439542584 -0.01787706628744361 0.9984396439542584 -0.01787706628744361 0.0015603560457415574 0.01787706628744361
7703106.813465575 0.0016197738942360653 0.01823245130635188 0.9983802261057639 -0.01823245130635188 0.9983802261057639 -0.01823245130635188 0.0016197738942360653 0.01823245130635188
7858844.9967889795 0.0016815660685977475 0.018594652858166548 0.9983184339314024 -0.018594652858166548 0.9983184339314024 -0.018594652858166548 0.0016815660685977475 0.018594652858166548
8017731.829395356 0.0017458252442012134 0.018963786540890346 0.9982541747557986 -0.018963786540890343 0.9982541747557986 -0.018963786540890343 0.0017458252442012134 0.018963786540890346
8179830.96935555 0.0018126475328192177 0.01933996897551245 0.9981873524671807 -0.01933996897551245 0.9981873524671807 -0.01933996897551245 0.0018126475328192177 0.01933996897551245
