! BLE18PS080BH1
# Hz S RI R 50
!Freq.(Hz) S11(Real) S11(Imag) S21(Real) S21(Imag) S12(Real) S12(Imag) S22(Real) S22(Imag)
1000000.0 2.8850114775564893E-5 9.600558320526433E-4 0.9999711498852243 -9.600558320526431E-4 0.9999711498852243 -9.600558320526431E-4 2.8850114775564893E-5 9.600558320526433E-4
1020217.5806586457 2.9007520070782706E-5 9.794664738661412E-4 0.9999709924799293 -9.794664738661412E-4 0.9999709924799293 -9.794664738661412E-4 2.9007520070782706E-5 9.794664738661412E-4
1040843.9118849806 2.9171364832275148E-5 9.992695902690104E-4 0.9999708286351676 -9.992695902690104E-4 0.9999708286351676 -9.992695902690104E-4 2.9171364832275148E-5 9.992695902690104E-4
1061887.2576265757 2.934191293054677E-5 0.0010194731184224287 0.9999706580870693 -0.0010194731184224285 0.9999706580870693 -0.0010194731184224285 2.934191293054677E-5 0.0010194731184224287
1083356.0489080292 2.9519439083707442E-5 0.0010400851560881243 0.9999704805609163 -0.0010400851560881243 0.9999704805609163 -0.0010400851560881243 2.9519439083707442E-5 0.0010400851560881243
1105258.8872088592 2.9704229306201393E-5 0.0010611139648823268 0.9999702957706936 -0.0010611139648823266 0.9999702957706936 -0.0010611139648823266 2.9704229306201393E-5 0.0010611139648823268
1127604.5479096894 2.989658137631518E-5 0.0010825679735958261 0.9999701034186235 -0.001082567973595826 0.9999701034186235 -0.001082567973595826 2.989658137631518E-5 0.0010825679735958261
1150401.9838081095 3.0096805323266313E-5 0.0011044557815814845 0.9999699031946767 -0.0011044557815814845 0.9999699031946767 -0.0011044557815814845 3.0096805323266313E-5 0.0011044557815814845
1173660.328705616 3.0305223934710102E-5 0.001126786162210581 0.9999696947760652 -0.001126786162210581 0.9999696947760652 -0.001126786162210581 3.0305223934710102E-5 0.001126786162210581
1197388.9010670746 3.0522173285538686E-5 0.0011495680663993787 0.9999694778267144 -0.0011495680663993787 0.9999694778267144 -0.0011495680663993787 3.0522173285538686E-5 0.0011495680663993787
1221597.2077541656 3.0748003288885214E-5 0.001172810626207349 0.9999692519967112 -0.001172810626207349 0.9999692519967112 -0.001172810626207349 3.0748003288885214E-5 0.001172810626207349
1246294.947834312 3.0983078270286484E-5 0.0011965231585085005 0.9999690169217298 -0.0011965231585085005 0.9999690169217298 -0.0011965231585085005 3.0983078270286484E-5 0.0011965231585085005
1271492.016466615 3.122777756599953E-5 0.001220715168737302 0.9999687722224341 -0.0012207151687373022 0.9999687722224341 -0.0012207151687373022 3.122777756599953E-5 0.001220715168737302
1297198.5088663532 3.1482496146511924E-5 0.0012453963547107065 0.9999685175038535 -0.0012453963547107067 0.9999685175038535 -0.0012453963547107067 3.1482496146511924E-5 0.0012453963547107065
1323424.7243496338 3.174764526633199E-5 0.0012705766105278171 0.9999682523547337 -0.0012705766105278171 0.9999682523547337 -0.0012705766105278171 3.174764526633199E-5 0.0012705766105278171
1350181.1704598186 3.202365314119326E-5 0.0012962660305487633 0.9999679763468587 -0.0012962660305487635 0.9999679763468587 -0.0012962660305487635 3.202365314119326E-5 0.0012962660305487633
1377478.5671773748 3.231096565385809E-5 0.0013224749134543915 0.9999676890343462 -0.0013224749134543915 0.9999676890343462 -0.0013224749134543915 3.231096565385809E-5 0.0013224749134543915
1405327.8512148394 3.261004708975866E-5 0.001349213766388388 0.9999673899529101 -0.001349213766388388 0.9999673899529101 -0.001349213766388388 3.261004708975866E-5 0.001349213766388388
1433740.1803986167 3.292138090376865E-5 0.0013764933091835055 0.9999670786190963 -0.0013764933091835053 0.9999670786190963 -0.0013764933091835053 3.292138090376865E-5 0.0013764933091835055
1462726.9381393674 3.3245470519456694E-5 0.0014043244786735702 0.9999667545294806 -0.0014043244786735702 0.9999667545294806 -0.0014043244786735702 3.3245470519456694E-5 0.0014043244786735702
1492299.737992774 3.358284016223366E-5 0.0014327184330929928 0.9999664171598377 -0.0014327184330929928 0.9999664171598377 -0.0014327184330929928 3.358284016223366E-5 0.0014327184330929928
1522470.428312519 3.3934035727869E-5 0.0014616865565655385 0.9999660659642721 -0.0014616865565655385 0.9999660659642721 -0.0014616865565655385 3.3934035727869E-5 0.0014616865565655385
1553251.0969973304 3.429962568791729E-5 0.0014912404636841176 0.9999657003743122 -0.0014912404636841174 0.9999657003743122 -0.0014912404636841174 3.429962568791729E-5 0.0014912404636841176
1584654.076334004 3.468020203366609E-5 0.001521392004183427 0.9999653197979665 -0.0015213920041834271 0.9999653197979665 -0.0015213920041834271 3.468020203366609E-5 0.001521392004183427
1616691.9479383389 3.5076381260288085E-5 0.0015521532677072723 0.9999649236187397 -0.0015521532677072723 0.9999649236187397 -0.0015521532677072723 3.5076381260288085E-5 0.0015521532677072723
1649377.5477959653 3.54888053929562E-5 0.0015835365886724298 0.999964511194607 -0.0015835365886724296 0.999964511194607 -0.0015835365886724296 3.54888053929562E-5 0.0015835365886724298
1682723.9714050898 3.591814305676013E-5 0.0016155545512309734 0.9999640818569432 -0.0016155545512309734 0.9999640818569432 -0.0016155545512309734 3.591814305676013E-5 0.0016155545512309734
1716744.5790232092 3.636509059234436E-5 0.0016482199943329671 0.9999636349094079 -0.0016482199943329671 0.9999636349094079 -0.0016482199943329671 3.636509059234436E-5 0.0016482199943329671
1751453.001019904 3.68303732192754E-5 0.001681546016891501 0.9999631696267807 -0.0016815460168915005 0.9999631696267807 -0.0016815460168915005 3.68303732192754E-5 0.001681546016891501
1786863.143337851 3.731474624923513E-5 0.001715545983052045 0.9999626852537506 -0.001715545983052045 0.9999626852537506 -0.001715545983052045 3.731474624923513E-5 0.001715545983052045
1822989.1930642454 3.78189963512321E-5 0.0017502335275681425 0.9999621810036488 -0.001750233527568142 0.9999621810036488 -0.001750233527568142 3.78189963512321E-5 0.0017502335275681425
1859845.6241148617 3.8343942871120754E-5 0.001785622561285473 0.999961656057129 -0.001785622561285473 0.999961656057129 -0.001785622561285473 3.8343942871120754E-5 0.001785622561285473
1897447.2030330333 3.889043920782137E-5 0.001821727276736363 0.9999611095607922 -0.001821727276736363 0.9999611095607922 -0.001821727276736363 3.889043920782137E-5 0.001821727276736363
1935808.994905876 3.945937424874068E-5 0.001858562153846833 0.9999605406257513 -0.001858562153846833 0.9999605406257513 -0.001858562153846833 3.945937424874068E-5 0.001858562153846833
1974946.3694001175 4.0051673867004765E-5 0.0018961419657582829 0.999959948326133 -0.0018961419657582826 0.999959948326133 -0.0018961419657582826 4.0051673867004765E-5 0.0018961419657582829
2014875.0069199642 4.066830248323274E-5 0.0019344817847659701 0.9999593316975168 -0.0019344817847659701 0.9999593316975168 -0.0019344817847659701 4.066830248323274E-5 0.0019344817847659701
2055610.904889458 4.1310264694700805E-5 0.001973596988376432 0.9999586897353054 -0.001973596988376432 0.9999586897353054 -0.001973596988376432 4.1310264694700805E-5 0.001973596988376432
2097170.3841618528 4.197860697487308E-5 0.002013503265486021 0.9999580213930253 -0.0020135032654860206 0.9999580213930253 -0.0020135032654860206 4.197860697487308E-5 0.002013503265486021
2139570.0955585684 4.2674419446407184E-5 0.0020542166226827493 0.9999573255805535 -0.0020542166226827493 0.9999573255805535 -0.0020542166226827493 4.2674419446407184E-5 0.0020542166226827493
2182827.0265403506 4.3398837730879804E-5 0.0020957533906736684 0.999956601162269 -0.0020957533906736684 0.999956601162269 -0.0020957533906736684 4.3398837730879804E-5 0.0020957533906736684
2226958.508013302 4.415304487861977E-5 0.002138130230839959 0.9999558469551214 -0.002138130230839959 0.9999558469551214 -0.002138130230839959 4.415304487861977E-5 0.002138130230839959
2271982.2212725184 4.49382733821848E-5 0.0021813641419220066 0.9999550617266177 -0.0021813641419220066 0.9999550617266177 -0.0021813641419220066 4.49382733821848E-5 0.0021813641419220066
2317916.205086105 4.575580727717135E-5 0.002225472466836664 0.999954244192723 -0.0022254724668366644 0.999954244192723 -0.0022254724668366644 4.575580727717135E-5 0.002225472466836664
2364778.8629224156 4.6606984334207365E-5 0.0022704728996289494 0.9999533930156657 -0.00227047289962895 0.9999533930156657 -0.00227047289962895 4.6606984334207365E-5 0.0022704728996289494
2412588.9703234104 4.749319834614301E-5 0.002316383492560412 0.9999525068016538 -0.002316383492560412 0.9999525068016538 -0.002316383492560412 4.749319834614301E-5 0.002316383492560412
2461365.682427083 4.841590151462595E-5 0.0023632226633363896 0.9999515840984853 -0.0023632226633363896 0.9999515840984853 -0.0023632226633363896 4.841590151462595E-5 0.0023632226633363896
2511128.5416419753 4.937660694042611E-5 0.00241100920247439 0.9999506233930596 -0.00241100920247439 0.9999506233930596 -0.00241100920247439 4.937660694042611E-5 0.00241100920247439
2561897.48547685 5.037689122205775E-5 0.0024597622808157833 0.999949623108778 -0.0024597622808157833 0.999949623108778 -0.0024597622808157833 5.037689122205775E-5 0.0024597622808157833
2613692.85452866 5.141839716743748E-5 0.0025095014571830093 0.9999485816028326 -0.0025095014571830093 0.9999485816028326 -0.0025095014571830093 5.141839716743748E-5 0.0025095014571830093
2666535.4006320196 5.2502836623512127E-5 0.0025602466861844387 0.9999474971633766 -0.0025602466861844387 0.9999474971633766 -0.0025602466861844387 5.2502836623512127E-5 0.0025602466861844387
2720446.295173432 5.363199342899312E-5 0.002612018326169048 0.9999463680065711 -0.002612018326169048 0.9999463680065711 -0.002612018326169048 5.363199342899312E-5 0.002612018326169048
2775447.137573615 5.4807726495541655E-5 0.0026648371473329585 0.9999451922735042 -0.002664837147332958 0.9999451922735042 -0.002664837147332958 5.4807726495541655E-5 0.0026648371473329585
2831559.963941318 5.603197302296366E-5 0.0027187243399799358 0.999943968026977 -0.0027187243399799358 0.999943968026977 -0.0027187243399799358 5.603197302296366E-5 0.0027187243399799358
2888807.255902094 5.730675185419247E-5 0.0027737015229377967 0.9999426932481458 -0.0027737015229377967 0.9999426932481458 -0.0027737015229377967 5.730675185419247E-5 0.0027737015229377967
2947211.9496055758 5.8634166976064365E-5 0.0028297907521327237 0.9999413658330241 -0.002829790752132724 0.9999413658330241 -0.002829790752132724 5.8634166976064365E-5 0.0028297907521327237
3006797.4449148513 6.0016411172120924E-5 0.0028870145293232855 0.9999399835888277 -0.0028870145293232855 0.9999399835888277 -0.0028870145293232855 6.0016411172120924E-5 0.0028870145293232855
3067587.6147816274 6.145576983391099E-5 0.002945395810996035 0.999938544230166 -0.002945395810996035 0.999938544230166 -0.002945395810996035 6.145576983391099E-5 0.002945395810996035
3129606.8148109377 6.295462493750406E-5 0.0030049580174243587 0.9999370453750626 -0.003004958017424359 0.9999370453750626 -0.003004958017424359 6.295462493750406E-5 0.0030049580174243587
3192879.893019226 6.451545919217472E-5 0.0030657250418921977 0.9999354845408078 -0.0030657250418921977 0.9999354845408078 -0.0030657250418921977 6.451545919217472E-5 0.0030657250418921977
3257432.1997897103 6.614086036846672E-5 0.003127721260084204 0.9999338591396315 -0.003127721260084204 0.9999338591396315 -0.003127721260084204 6.614086036846672E-5 0.003127721260084204
3323289.598029029 6.783352581310059E-5 0.0031909715396436934 0.9999321664741869 -0.0031909715396436934 0.9999321664741869 -0.0031909715396436934 6.783352581310059E-5 0.0031909715396436934
3390478.4735292196 6.959626715844573E-5 0.0032555012498997242 0.9999304037328414 -0.0032555012498997242 0.9999304037328414 -0.0032555012498997242 6.959626715844573E-5 0.0032555012498997242
3459025.745539199 7.143201523453957E-5 0.003321336271764465 0.9999285679847656 -0.003321336271764466 0.9999285679847656 -0.003321336271764466 7.143201523453957E-5 0.003321336271764465
3528958.8775499705 7.334382519189891E-5 0.003388503007801824 0.999926656174808 -0.003388503007801824 0.999926656174808 -0.003388503007801824 7.334382519189891E-5 0.003388503007801824
3600305.8882978815 7.53348818436358E-5 0.0034570283924682957 0.9999246651181564 -0.0034570283924682957 0.9999246651181564 -0.0034570283924682957 7.53348818436358E-5 0.0034570283924682957
3673095.3629903416 7.740850523565549E-5 0.003526939902526661 0.9999225914947644 -0.003526939902526661 0.9999225914947644 -0.003526939902526661 7.740850523565549E-5 0.003526939902526661
3747356.4647584967 7.956815645398404E-5 0.0035982655676331226 0.9999204318435461 -0.0035982655676331226 0.9999204318435461 -0.0035982655676331226 7.956815645398404E-5 0.0035982655676331226
3823118.9463414503 8.181744367854112E-5 0.0036710339810982254 0.9999181825563213 -0.0036710339810982254 0.9999181825563213 -0.0036710339810982254 8.181744367854112E-5 0.0036710339810982254
3900413.1620067055 8.416012849294242E-5 0.003745274310821758 0.9999158398715071 -0.0037452743108217583 0.9999158398715071 -0.0037452743108217583 8.416012849294242E-5 0.003745274310821758
3979270.0797116193 8.660013246018426E-5 0.003821016310401559 0.9999133998675398 -0.003821016310401559 0.9999133998675398 -0.003821016310401559 8.660013246018426E-5 0.003821016310401559
4059721.293510725 8.914154397433104E-5 0.003898290330416065 0.9999108584560258 -0.0038982903304160647 0.9999108584560258 -0.0038982903304160647 8.914154397433104E-5 0.003898290330416065
4141799.0362139 9.178862539859121E-5 0.003977127329880086 0.9999082113746014 -0.003977127329880086 0.9999082113746014 -0.003977127329880086 9.178862539859121E-5 0.003977127329880086
4225536.192300457 9.454582050043297E-5 0.004057558887873221 0.9999054541794996 -0.004057558887873221 0.9999054541794996 -0.004057558887873221 9.454582050043297E-5 0.004057558887873221
4310966.311094318 9.741776219465164E-5 0.004139617215339928 0.9999025822378053 -0.004139617215339928 0.9999025822378053 -0.004139617215339928 9.741776219465164E-5 0.004139617215339928
4398123.620205573 1.0040928060556382E-4 0.004223335167060207 0.9998995907193945 -0.004223335167060207 0.9998995907193945 -0.004223335167060207 1.0040928060556382E-4 0.004223335167060207
4487043.0392437745 1.0352541145975885E-4 0.0043087462537894725 0.9998964745885401 -0.0043087462537894725 0.9998964745885401 -0.0043087462537894725 1.0352541145975885E-4 0.0043087462537894725
4577760.193808502 1.0677140482109861E-4 0.0043958846545660655 0.9998932285951787 -0.0043958846545660655 0.9998932285951787 -0.0043958846545660655 1.0677140482109861E-4 0.0043958846545660655
4670311.429762763 1.1015273417990917E-4 0.004484785229184512 0.9998898472658201 -0.004484785229184512 0.9998898472658201 -0.004484785229184512 1.1015273417990917E-4 0.004484785229184512
4764733.827794987 1.1367510590856524E-4 0.004575483530832492 0.9998863248940913 -0.004575483530832492 0.9998863248940913 -0.004575483530832492 1.1367510590856524E-4 0.004575483530832492
4861065.218275411 1.1734446909592311E-4 0.0046680158188891685 0.999882655530904 -0.0046680158188891685 0.999882655530904 -0.0046680158188891685 1.1734446909592311E-4 0.0046680158188891685
4959344.196412832 1.2116702577331495E-4 0.0047624190718823355 0.9998788329742266 -0.004762419071882335 0.9998788329742266 -0.004762419071882335 1.2116702577331495E-4 0.0047624190718823355
5059610.137717796 1.2514924154507923E-4 0.004858731000601618 0.999874850758455 -0.004858731000601618 0.999874850758455 -0.004858731000601618 1.2514924154507923E-4 0.004858731000601618
5161903.213778406 1.2929785663686431E-4 0.004956990061364663 0.9998707021433632 -0.004956990061364663 0.9998707021433632 -0.004956990061364663 1.2929785663686431E-4 0.004956990061364663
5266264.4083550945 1.3361989737522014E-4 0.005057235469433152 0.999866380102625 -0.005057235469433152 0.999866380102625 -0.005057235469433152 1.3361989737522014E-4 0.005057235469433152
5372735.53380077 1.38122688112271E-4 0.005159507212575169 0.9998618773118876 -0.005159507212575169 0.9998618773118876 -0.005159507212575169 1.38122688112271E-4 0.005159507212575169
5481359.247812959 1.4281386360956365E-4 0.0052638460647703245 0.9998571861363903 -0.0052638460647703245 0.9998571861363903 -0.0052638460647703245 1.4281386360956365E-4 0.0052638460647703245
5592179.070524632 1.4770138189549244E-4 0.00537029360005377 0.9998522986181044 -0.005370293600053769 0.9998522986181044 -0.005370293600053769 1.4770138189549244E-4 0.00537029360005377
5705239.401940555 1.527935376110422E-4 0.005478892206495136 0.9998472064623889 -0.005478892206495135 0.9998472064623889 -0.005478892206495135 1.527935376110422E-4 0.005478892206495136
5820585.5397261735 1.5809897585894562E-4 0.005589685100308314 0.999841901024141 -0.005589685100308315 0.999841901024141 -0.005589685100308315 1.5809897585894562E-4 0.005589685100308314
5938263.697356135 1.6362670657173723E-4 0.005702716340087619 0.9998363732934282 -0.0057027163400876196 0.9998363732934282 -0.0057027163400876196 1.6362670657173723E-4 0.005702716340087619
6058321.022629741 1.693861194146149E-4 0.005818030841166021 0.9998306138805854 -0.005818030841166021 0.9998306138805854 -0.005818030841166021 1.693861194146149E-4 0.005818030841166021
6180805.616560728 1.7538699923947874E-4 0.005935674390090848 0.9998246130007605 -0.005935674390090848 0.9998246130007605 -0.005935674390090848 1.7538699923947874E-4 0.005935674390090848
6305766.552648956 1.8163954210702397E-4 0.006055693659212186 0.9998183604578932 -0.006055693659212186 0.9998183604578932 -0.006055693659212186 1.8163954210702397E-4 0.006055693659212186
6433253.896541728 1.881543718943311E-4 0.006178136221379224 0.9998118456281058 -0.006178136221379225 0.9998118456281058 -0.006178136221379225 1.881543718943311E-4 0.006178136221379224
6563318.726092606 1.949425575060074E-4 0.006303050564739607 0.999805057442494 -0.006303050564739607 0.999805057442494 -0.006303050564739607 1.949425575060074E-4 0.006303050564739607
6696013.151825785 2.020156307076203E-4 0.006430486107636674 0.9997979843692922 -0.006430486107636674 0.9997979843692922 -0.006430486107636674 2.020156307076203E-4 0.006430486107636674
6831390.3378141755 2.0938560460090786E-4 0.0065604932135994104 0.9997906143953991 -0.0065604932135994104 0.9997906143953991 -0.0065604932135994104 2.0938560460090786E-4 0.0065604932135994104
6969504.522979628 2.170649927610863E-4 0.006693123206419806 0.9997829350072388 -0.006693123206419807 0.9997829350072388 -0.006693123206419807 2.170649927610863E-4 0.006693123206419806
7110411.042823766 2.2506682905746895E-4 0.006828428385312022 0.9997749331709425 -0.006828428385312024 0.9997749331709425 -0.006828428385312024 2.2506682905746895E-4 0.006828428385312022
7254166.351598182 2.3340468817961203E-4 0.006966462040147694 0.9997665953118204 -0.006966462040147694 0.9997665953118204 -0.006966462040147694 2.3340468817961203E-4 0.006966462040147694
7400828.044922853 2.4209270689227604E-4 0.0071072784667613464 0.9997579072931079 -0.0071072784667613464 0.9997579072931079 -0.0071072784667613464 2.4209270689227604E-4 0.0071072784667613464
7550454.882861849 2.5114560604366933E-4 0.007250932982319706 0.9997488543939564 -0.007250932982319706 0.9997488543939564 -0.007250932982319706 2.5114560604366933E-4 0.007250932982319706
7703106.813465575 2.605787133527056E-4 0.007397481940748193 0.9997394212866473 -0.007397481940748193 0.9997394212866473 -0.007397481940748193 2.605787133527056E-4 0.007397481940748193
7858844.9967889795 2.7040798700237237E-4 0.00754698274820755 0.9997295920129976 -0.00754698274820755 0.9997295920129976 -0.00754698274820755 2.7040798700237237E-4 0.00754698274820755
8017731.829395356 2.8065004006776954E-4 0.007699493878612987 0.9997193499599322 -0.007699493878612987 0.9997193499599322 -0.007699493878612987 2.8065004006776954E-4 0.007699493878612987
