! BLE18PK100SN1
# Hz S RI R 50
!Freq.(Hz) S11(Real) S11(Imag) S21(Real) S21(Imag) S12(Real) S12(Imag) S22(Real) S22(Imag)
1000000.0 7.07352462758792E-5 0.0013203006902030958 0.9999292647537241 -0.0013203006902030958 0.9999292647537241 -0.0013203006902030958 7.07352462758792E-5 0.0013203006902030958
1020217.5806586457 7.117380711163822E-5 0.001346989172200018 0.9999288261928884 -0.001346989172200018 0.9999288261928884 -0.001346989172200018 7.117380711163822E-5 0.001346989172200018
1040843.9118849806 7.163027584971929E-5 0.0013742169335017452 0.9999283697241503 -0.0013742169335017452 0.9999283697241503 -0.0013742169335017452 7.163027584971929E-5 0.0013742169335017452
1061887.2576265757 7.210538353240146E-5 0.0014019948586420222 0.9999278946164675 -0.0014019948586420222 0.9999278946164675 -0.0014019948586420222 7.210538353240146E-5 0.0014019948586420222
1083356.0489080292 7.259989102838339E-5 0.0014303340510760946 0.9999274001089714 -0.0014303340510760946 0.9999274001089714 -0.0014303340510760946 7.259989102838339E-5 0.0014303340510760946
1105258.8872088592 7.31145902483277E-5 0.0014592458375364424 0.9999268854097516 -0.0014592458375364424 0.9999268854097516 -0.0014592458375364424 7.31145902483277E-5 0.0014592458375364424
1127604.5479096894 7.365030540982945E-5 0.001488741772472229 0.9999263496945903 -0.0014887417724722288 0.9999263496945903 -0.0014887417724722288 7.365030540982945E-5 0.001488741772472229
1150401.9838081095 7.420789435380884E-5 0.0015188336425739004 0.9999257921056461 -0.0015188336425739002 0.9999257921056461 -0.0015188336425739002 7.420789435380884E-5 0.0015188336425739004
1173660.328705616 7.478824991440818E-5 0.0015495334713843472 0.9999252117500858 -0.0015495334713843474 0.9999252117500858 -0.0015495334713843474 7.478824991440818E-5 0.0015495334713843472
1197388.9010670746 7.539230134455674E-5 0.001580853523998104 0.9999246076986554 -0.0015808535239981037 0.9999246076986554 -0.0015808535239981037 7.539230134455674E-5 0.001580853523998104
1221597.2077541656 7.602101579945366E-5 0.001612806311850031 0.9999239789842006 -0.001612806311850031 0.9999239789842006 -0.001612806311850031 7.602101579945366E-5 0.001612806311850031
1246294.947834312 7.667539988030852E-5 0.0016454045975949443 0.9999233246001197 -0.0016454045975949443 0.9999233246001197 -0.0016454045975949443 7.667539988030852E-5 0.0016454045975949443
1271492.016466615 7.735650124077333E-5 0.0016786614000796802 0.9999226434987591 -0.0016786614000796802 0.9999226434987591 -0.0016786614000796802 7.735650124077333E-5 0.0016786614000796802
1297198.5088663532 7.806541025859647E-5 0.0017125899994090757 0.9999219345897413 -0.0017125899994090762 0.9999219345897413 -0.0017125899994090762 7.806541025859647E-5 0.0017125899994090757
1323424.7243496338 7.880326177512957E-5 0.00174720394210735 0.9999211967382249 -0.0017472039421073504 0.9999211967382249 -0.0017472039421073504 7.880326177512957E-5 0.00174720394210735
1350181.1704598186 7.957123690542375E-5 0.0017825170463763944 0.9999204287630946 -0.0017825170463763944 0.9999204287630946 -0.0017825170463763944 7.957123690542375E-5 0.0017825170463763944
1377478.5671773748 8.037056492176032E-5 0.001818543407452459 0.9999196294350782 -0.0018185434074524593 0.9999196294350782 -0.0018185434074524593 8.037056492176032E-5 0.001818543407452459
1405327.8512148394 8.120252521357355E-5 0.001855297403062752 0.9999187974747864 -0.001855297403062752 0.9999187974747864 -0.001855297403062752 8.120252521357355E-5 0.001855297403062752
1433740.1803986167 8.206844932684082E-5 0.0018927936989834356 0.9999179315506731 -0.0018927936989834356 0.9999179315506731 -0.0018927936989834356 8.206844932684082E-5 0.0018927936989834356
1462726.9381393674 8.296972308613812E-5 0.001931047254700536 0.9999170302769139 -0.001931047254700536 0.9999170302769139 -0.001931047254700536 8.296972308613812E-5 0.001931047254700536
1492299.737992774 8.390778880268358E-5 0.001970073329175262 0.9999160922111974 -0.001970073329175262 0.9999160922111974 -0.001970073329175262 8.390778880268358E-5 0.001970073329175262
1522470.428312519 8.48841475718253E-5 0.0020098874867152112 0.999915115852428 -0.0020098874867152112 0.999915115852428 -0.0020098874867152112 8.48841475718253E-5 0.0020098874867152112
1553251.0969973304 8.590036166356418E-5 0.0020505056029529725 0.9999140996383367 -0.0020505056029529725 0.9999140996383367 -0.0020505056029529725 8.590036166356418E-5 0.0020505056029529725
1584654.076334004 8.695805700984532E-5 0.0020919438709335646 0.99991304194299 -0.0020919438709335646 0.99991304194299 -0.0020919438709335646 8.695805700984532E-5 0.0020919438709335646
1616691.9479383389 8.805892579249828E-5 0.002134218807312217 0.9999119410742074 -0.002134218807312217 0.9999119410742074 -0.002134218807312217 8.805892579249828E-5 0.002134218807312217
1649377.5477959653 8.920472913585808E-5 0.0021773472586638872 0.999910795270864 -0.0021773472586638872 0.999910795270864 -0.0021773472586638872 8.920472913585808E-5 0.0021773472586638872
1682723.9714050898 9.039729990825832E-5 0.002221346407905987 0.9999096027000918 -0.002221346407905987 0.9999096027000918 -0.002221346407905987 9.039729990825832E-5 0.002221346407905987
1716744.5790232092 9.163854563675098E-5 0.0022662337808356863 0.999908361454363 -0.0022662337808356863 0.999908361454363 -0.0022662337808356863 9.163854563675098E-5 0.0022662337808356863
1751453.001019904 9.293045153957796E-5 0.0023120272527831992 0.9999070695484602 -0.002312027252783199 0.9999070695484602 -0.002312027252783199 9.293045153957796E-5 0.0023120272527831992
1786863.143337851 9.427508368109622E-5 0.002358745055382379 0.999905724916319 -0.0023587450553823794 0.999905724916319 -0.0023587450553823794 9.427508368109622E-5 0.002358745055382379
1822989.1930642454 9.567459225404114E-5 0.002406405783459957 0.9999043254077461 -0.002406405783459957 0.9999043254077461 -0.002406405783459957 9.567459225404114E-5 0.002406405783459957
1859845.6241148617 9.713121499420274E-5 0.0024550284020446833 0.9999028687850057 -0.002455028402044683 0.9999028687850057 -0.002455028402044683 9.713121499420274E-5 0.0024550284020446833
1897447.2030330333 9.864728073278624E-5 0.002504632253497621 0.9999013527192672 -0.0025046322534976206 0.9999013527192672 -0.0025046322534976206 9.864728073278624E-5 0.002504632253497621
1935808.994905876 1.002252130919317E-4 0.002555237064764764 0.9998997747869082 -0.002555237064764764 0.9998997747869082 -0.002555237064764764 1.002252130919317E-4 0.002555237064764764
1974946.3694001175 1.0186753432908044E-4 0.0026068629547531252 0.9998981324656709 -0.0026068629547531257 0.9998981324656709 -0.0026068629547531257 1.0186753432908044E-4 0.0026068629547531252
2014875.0069199642 1.0357686933609294E-4 0.002659530441831361 0.999896423130664 -0.002659530441831361 0.999896423130664 -0.002659530441831361 1.0357686933609294E-4 0.002659530441831361
2055610.904889458 1.0535594979925076E-4 0.002713260451455942 0.9998946440502007 -0.002713260451455942 0.9998946440502007 -0.002713260451455942 1.0535594979925076E-4 0.002713260451455942
2097170.3841618528 1.0720761852651033E-4 0.0027680743239238102 0.9998927923814734 -0.0027680743239238102 0.9998927923814734 -0.0027680743239238102 1.0720761852651033E-4 0.0027680743239238102
2139570.0955585684 1.0913483394861846E-4 0.00282399382225238 0.9998908651660514 -0.00282399382225238 0.9998908651660514 -0.00282399382225238 1.0913483394861846E-4 0.00282399382225238
2182827.0265403506 1.1114067480095183E-4 0.002881041140187655 0.9998888593251992 -0.0028810411401876544 0.9998888593251992 -0.0028810411401876544 1.1114067480095183E-4 0.002881041140187655
2226958.508013302 1.1322834499320357E-4 0.002939238910341142 0.999886771655007 -0.002939238910341142 0.999886771655007 -0.002939238910341142 1.1322834499320357E-4 0.002939238910341142
2271982.2212725184 1.1540117867430846E-4 0.0029986102124561383 0.9998845988213256 -0.0029986102124561383 0.9998845988213256 -0.0029986102124561383 1.1540117867430846E-4 0.0029986102124561383
2317916.205086105 1.1766264550027794E-4 0.0030591785818038465 0.9998823373544997 -0.0030591785818038465 0.9998823373544997 -0.0030591785818038465 1.1766264550027794E-4 0.0030591785818038465
2364778.8629224156 1.2001635611290396E-4 0.0031209680177096753 0.9998799836438872 -0.0031209680177096757 0.9998799836438872 -0.0031209680177096757 1.2001635611290396E-4 0.0031209680177096753
2412588.9703234104 1.2246606783758877E-4 0.003184002992209933 0.9998775339321624 -0.003184002992209933 0.9998775339321624 -0.003184002992209933 1.2246606783758877E-4 0.003184002992209933
2461365.682427083 1.250156906088653E-4 0.003248308458838979 0.999874984309391 -0.0032483084588389795 0.999874984309391 -0.0032483084588389795 1.250156906088653E-4 0.003248308458838979
2511128.5416419753 1.2766929313249068E-4 0.003313909861546744 0.9998723307068673 -0.003313909861546744 0.9998723307068673 -0.003313909861546744 1.2766929313249068E-4 0.003313909861546744
2561897.48547685 1.3043110929332493E-4 0.003380833143746385 0.9998695688907066 -0.003380833143746385 0.9998695688907066 -0.003380833143746385 1.3043110929332493E-4 0.003380833143746385
2613692.85452866 1.3330554481854364E-4 0.0034491047574916243 0.9998666944551813 -0.003449104757491625 0.9998666944551813 -0.003449104757491625 1.3330554481854364E-4 0.0034491047574916243
2666535.4006320196 1.362971842060859E-4 0.0035187516727831648 0.9998637028157938 -0.0035187516727831656 0.9998637028157938 -0.0035187516727831656 1.362971842060859E-4 0.0035187516727831648
2720446.295173432 1.3941079792859632E-4 0.0035898013870033258 0.9998605892020714 -0.003589801387003325 0.9998605892020714 -0.003589801387003325 1.3941079792859632E-4 0.0035898013870033258
2775447.137573615 1.4265134992349503E-4 0.0036622819344778613 0.9998573486500765 -0.0036622819344778613 0.9998573486500765 -0.0036622819344778613 1.4265134992349503E-4 0.0036622819344778613
2831559.963941318 1.4602400538019048E-4 0.0037362218961636724 0.9998539759946199 -0.0037362218961636724 0.9998539759946199 -0.0037362218961636724 1.4602400538019048E-4 0.0037362218961636724
2888807.255902094 1.4953413883584378E-4 0.0038116504094607953 0.9998504658611642 -0.0038116504094607953 0.9998504658611642 -0.0038116504094607953 1.4953413883584378E-4 0.0038116504094607953
2947211.9496055758 1.5318734259150383E-4 0.003888597178146918 0.9998468126574085 -0.003888597178146918 0.9998468126574085 -0.003888597178146918 1.5318734259150383E-4 0.003888597178146918
3006797.4449148513 1.5698943546084404E-4 0.003967092482432208 0.9998430105645391 -0.003967092482432208 0.9998430105645391 -0.003967092482432208 1.5698943546084404E-4 0.003967092482432208
3067587.6147816274 1.6094647186416677E-4 0.004047167189132052 0.9998390535281357 -0.004047167189132052 0.9998390535281357 -0.004047167189132052 1.6094647186416677E-4 0.004047167189132052
3129606.8148109377 1.6506475128077926E-4 0.004128852761954877 0.9998349352487191 -0.004128852761954877 0.9998349352487191 -0.004128852761954877 1.6506475128077926E-4 0.004128852761954877
3192879.893019226 1.6935082807330052E-4 0.004212181271901918 0.9998306491719268 -0.004212181271901918 0.9998306491719268 -0.004212181271901918 1.6935082807330052E-4 0.004212181271901918
3257432.1997897103 1.738115216979218E-4 0.004297185407775343 0.9998261884783021 -0.004297185407775342 0.9998261884783021 -0.004297185407775342 1.738115216979218E-4 0.004297185407775343
3323289.598029029 1.7845392731512244E-4 0.004383898486790803 0.9998215460726849 -0.004383898486790803 0.9998215460726849 -0.004383898486790803 1.7845392731512244E-4 0.004383898486790803
3390478.4735292196 1.8328542681582928E-4 0.004472354465289954 0.9998167145731841 -0.004472354465289954 0.9998167145731841 -0.004472354465289954 1.8328542681582928E-4 0.004472354465289954
3459025.745539199 1.8831370027850875E-4 0.0045625879495480685 0.9998116862997216 -0.0045625879495480685 0.9998116862997216 -0.0045625879495480685 1.8831370027850875E-4 0.0045625879495480685
3528958.8775499705 1.9354673787319295E-4 0.0046546342066713245 0.9998064532621269 -0.0046546342066713245 0.9998064532621269 -0.0046546342066713245 1.9354673787319295E-4 0.0046546342066713245
3600305.8882978815 1.989928522289623E-4 0.004748529175577819 0.9998010071477709 -0.00474852917557782 0.9998010071477709 -0.00474852917557782 1.989928522289623E-4 0.004748529175577819
3673095.3629903416 2.046606912819414E-4 0.004844309478055803 0.9997953393087179 -0.004844309478055803 0.9997953393087179 -0.004844309478055803 2.046606912819414E-4 0.004844309478055803
3747356.4647584967 2.1055925162140622E-4 0.0049420124298919345 0.9997894407483786 -0.004942012429891935 0.9997894407483786 -0.004942012429891935 2.1055925162140622E-4 0.0049420124298919345
3823118.9463414503 2.1669789235215751E-4 0.005041676052061817 0.999783302107648 -0.005041676052061817 0.999783302107648 -0.005041676052061817 2.1669789235215751E-4 0.005041676052061817
3900413.1620067055 2.2308634949187484E-4 0.005143339081974258 0.9997769136505081 -0.005143339081974258 0.9997769136505081 -0.005143339081974258 2.2308634949187484E-4 0.005143339081974258
3979270.0797116193 2.2973475092273664E-4 0.005247040984760067 0.9997702652490772 -0.005247040984760067 0.9997702652490772 -0.005247040984760067 2.2973475092273664E-4 0.005247040984760067
4059721.293510725 2.3665363191717318E-4 0.005352821964595295 0.9997633463680827 -0.005352821964595294 0.9997633463680827 -0.005352821964595294 2.3665363191717318E-4 0.005352821964595295
4141799.0362139 2.4385395125820002E-4 0.005460722976048066 0.999756146048742 -0.005460722976048066 0.999756146048742 -0.005460722976048066 2.4385395125820002E-4 0.005460722976048066
4225536.192300457 2.513471079753768E-4 0.005570785735437249 0.9997486528920249 -0.00557078573543725 0.9997486528920249 -0.00557078573543725 2.513471079753768E-4 0.005570785735437249
4310966.311094318 2.5914495871802673E-4 0.005683052732190236 0.9997408550412821 -0.005683052732190236 0.9997408550412821 -0.005683052732190236 2.5914495871802673E-4 0.005683052732190236
4398123.620205573 2.672598357879543E-4 0.005797567240186093 0.9997327401642119 -0.005797567240186093 0.9997327401642119 -0.005797567240186093 2.672598357879543E-4 0.005797567240186093
4487043.0392437745 2.757045658544972E-4 0.005914373329069314 0.9997242954341455 -0.005914373329069314 0.9997242954341455 -0.005914373329069314 2.757045658544972E-4 0.005914373329069314
4577760.193808502 2.8449248937535205E-4 0.006033515875518241 0.9997155075106245 -0.006033515875518241 0.9997155075106245 -0.006033515875518241 2.8449248937535205E-4 0.006033515875518241
4670311.429762763 2.9363748074721E-4 0.006155040574451056 0.9997063625192526 -0.006155040574451056 0.9997063625192526 -0.006155040574451056 2.9363748074721E-4 0.006155040574451056
4764733.827794987 3.0315396921083297E-4 0.006278993950150919 0.9996968460307891 -0.00627899395015092 0.9996968460307891 -0.00627899395015092 3.0315396921083297E-4 0.006278993950150919
4861065.218275411 3.1305696053579026E-4 0.006405423367290528 0.9996869430394644 -0.006405423367290528 0.9996869430394644 -0.006405423367290528 3.1305696053579026E-4 0.006405423367290528
4959344.196412832 3.2336205951065595E-4 0.006534377041834941 0.9996766379404893 -0.006534377041834941 0.9996766379404893 -0.006534377041834941 3.2336205951065595E-4 0.006534377041834941
5059610.137717796 3.3408549326503117E-4 0.0066659040518000125 0.9996659145067348 -0.0066659040518000125 0.9996659145067348 -0.0066659040518000125 3.3408549326503117E-4 0.0066659040518000125
5161903.213778406 3.452441354503097E-4 0.006800054347842133 0.9996547558645497 -0.006800054347842133 0.9996547558645497 -0.006800054347842133 3.452441354503097E-4 0.006800054347842133
5266264.4083550945 3.568555313066397E-4 0.006936878763653382 0.9996431444686934 -0.006936878763653383 0.9996431444686934 -0.006936878763653383 3.568555313066397E-4 0.006936878763653382
5372735.53380077 3.6893792364404E-4 0.007076429026134313 0.9996310620763559 -0.007076429026134311 0.9996310620763559 -0.007076429026134311 3.6893792364404E-4 0.007076429026134313
5481359.247812959 3.815102797661208E-4 0.007218757765314816 0.9996184897202339 -0.007218757765314816 0.9996184897202339 -0.007218757765314816 3.815102797661208E-4 0.007218757765314816
5592179.070524632 3.945923193653026E-4 0.007363918523991475 0.9996054076806348 -0.007363918523991475 0.9996054076806348 -0.007363918523991475 3.945923193653026E-4 0.007363918523991475
5705239.401940555 4.0820454341884737E-4 0.007511965767047681 0.9995917954565813 -0.007511965767047681 0.9995917954565813 -0.007511965767047681 4.0820454341884737E-4 0.007511965767047681
5820585.5397261735 4.223682641153866E-4 0.007662954890420693 0.9995776317358849 -0.007662954890420695 0.9995776317358849 -0.007662954890420695 4.223682641153866E-4 0.007662954890420693
5938263.697356135 4.3710563584195897E-4 0.007816942229677437 0.999562894364158 -0.007816942229677437 0.999562894364158 -0.007816942229677437 4.3710563584195897E-4 0.007816942229677437
6058321.022629741 4.524396872618299E-4 0.00797398506815834 0.9995475603127381 -0.00797398506815834 0.9995475603127381 -0.00797398506815834 4.524396872618299E-4 0.00797398506815834
6180805.616560728 4.683943545135853E-4 0.008134141644646086 0.9995316056454865 -0.008134141644646084 0.9995316056454865 -0.008134141644646084 4.683943545135853E-4 0.008134141644646086
6305766.552648956 4.849945155621134E-4 0.008297471160513267 0.999515005484438 -0.008297471160513267 0.999515005484438 -0.008297471160513267 4.849945155621134E-4 0.008297471160513267
6433253.896541728 5.022660257321615E-4 0.008464033786300272 0.9994977339742677 -0.008464033786300272 0.9994977339742677 -0.008464033786300272 5.022660257321615E-4 0.008464033786300272
6563318.726092606 5.20235754455104E-4 0.00863389066767158 0.9994797642455449 -0.008633890667671578 0.9994797642455449 -0.008633890667671578 5.20235754455104E-4 0.00863389066767158
6696013.151825785 5.389316232594485E-4 0.008807103930695656 0.9994610683767405 -0.008807103930695656 0.9994610683767405 -0.008807103930695656 5.389316232594485E-4 0.008807103930695656
6831390.3378141755 5.58382645035351E-4 0.008983736686390263 0.9994416173549646 -0.008983736686390263 0.9994416173549646 -0.008983736686390263 5.58382645035351E-4 0.008983736686390263
6969504.522979628 5.786189646030635E-4 0.00916385303447159 0.9994213810353969 -0.00916385303447159 0.9994213810353969 -0.00916385303447159 5.786189646030635E-4 0.00916385303447159
7110411.042823766 5.99671900614733E-4 0.009347518066242028 0.9994003280993853 -0.009347518066242028 0.9994003280993853 -0.009347518066242028 5.99671900614733E-4 0.009347518066242028
7254166.351598182 6.215739888183414E-4 0.009534797866547614 0.9993784260111817 -0.009534797866547613 0.9993784260111817 -0.009534797866547613 6.215739888183414E-4 0.009534797866547614
7400828.044922853 6.443590267117583E-4 0.009725759514732289 0.9993556409732883 -0.009725759514732289 0.9993556409732883 -0.009725759514732289 6.443590267117583E-4 0.009725759514732289
7550454.882861849 6.680621196139099E-4 0.009920471084511922 0.9993319378803859 -0.00992047108451192 0.9993319378803859 -0.00992047108451192 6.680621196139099E-4 0.009920471084511922
7703106.813465575 6.927197281788858E-4 0.01011900164268688 0.9993072802718211 -0.01011900164268688 0.9993072802718211 -0.01011900164268688 6.927197281788858E-4 0.01011900164268688
7858844.9967889795 7.1836971737741E-4 0.010321421246607376 0.9992816302826224 -0.010321421246607376 0.9992816302826224 -0.010321421246607376 7.1836971737741E-4 0.010321421246607376
8017731.829395356 7.450514069684942E-4 0.010527800940301247 0.9992549485930315 -0.010527800940301245 0.9992549485930315 -0.010527800940301245 7.450514069684942E-4 0.010527800940301247
8179830.96935555 7.728056234821986E-4 0.010738212749168937 0.999227194376518 -0.010738212749168937 0.999227194376518 -0.010738212749168937 7.728056234821986E-4 0.010738212749168937
