! BLE32PN260SH1
# Hz S RI R 50
!Freq.(Hz) S11(Real) S11(Imag) S21(Real) S21(Imag) S12(Real) S12(Imag) S22(Real) S22(Imag)
1000000.0 6.697733662416771E-5 0.003910638635803911 0.9999330226633759 -0.003910638635803911 0.9999330226633759 -0.003910638635803911 6.697733662416771E-5 0.003910638635803911
1020217.5806586457 6.926314242379619E-5 0.00398966751745371 0.9999307368575759 -0.00398966751745371 0.9999307368575759 -0.00398966751745371 6.926314242379619E-5 0.00398966751745371
1040843.9118849806 7.164226509393334E-5 0.004070292020742379 0.999928357734906 -0.004070292020742379 0.999928357734906 -0.004070292020742379 7.164226509393334E-5 0.004070292020742379
1061887.2576265757 7.411851236264652E-5 0.004152544272223358 0.9999258814876373 -0.004152544272223359 0.9999258814876373 -0.004152544272223359 7.411851236264652E-5 0.004152544272223358
1083356.0489080292 7.669584717244153E-5 0.004236457039744516 0.9999233041528274 -0.004236457039744515 0.9999233041528274 -0.004236457039744515 7.669584717244153E-5 0.004236457039744516
1105258.8872088592 7.93783939941703E-5 0.004322063744905224 0.9999206216060058 -0.004322063744905225 0.9999206216060058 -0.004322063744905225 7.93783939941703E-5 0.004322063744905224
1127604.5479096894 8.21704453966876E-5 0.00440939847573396 0.9999178295546033 -0.00440939847573396 0.9999178295546033 -0.00440939847573396 8.21704453966876E-5 0.00440939847573396
1150401.9838081095 8.507646888252455E-5 0.004498495999588857 0.9999149235311173 -0.004498495999588857 0.9999149235311173 -0.004498495999588857 8.507646888252455E-5 0.004498495999588857
1173660.328705616 8.810111400025223E-5 0.004589391776283771 0.9999118988859996 -0.004589391776283771 0.9999118988859996 -0.004589391776283771 8.810111400025223E-5 0.004589391776283771
1197388.9010670746 9.12492197446277E-5 0.004682121971442153 0.9999087507802553 -0.004682121971442153 0.9999087507802553 -0.004682121971442153 9.12492197446277E-5 0.004682121971442153
1221597.2077541656 9.452582225605036E-5 0.004776723470081061 0.999905474177744 -0.004776723470081062 0.999905474177744 -0.004776723470081062 9.452582225605036E-5 0.004776723470081061
1246294.947834312 9.793616283131074E-5 0.004873233890427536 0.9999020638371687 -0.004873233890427536 0.9999020638371687 -0.004873233890427536 9.793616283131074E-5 0.004873233890427536
1271492.016466615 1.0148569625807891E-4 0.004971691597969366 0.9998985143037418 -0.004971691597969366 0.9998985143037418 -0.004971691597969366 1.0148569625807891E-4 0.004971691597969366
1297198.5088663532 1.0518009948607166E-4 0.005072135719742316 0.9998948199005141 -0.005072135719742316 0.9998948199005141 -0.005072135719742316 1.0518009948607166E-4 0.005072135719742316
1323424.7243496338 1.0902528064833567E-4 0.005174606158855546 0.9998909747193517 -0.005174606158855545 0.9998909747193517 -0.005174606158855545 1.0902528064833567E-4 0.005174606158855546
1350181.1704598186 1.1302738844661354E-4 0.005279143609257053 0.9998869726115535 -0.005279143609257053 0.9998869726115535 -0.005279143609257053 1.1302738844661354E-4 0.005279143609257053
1377478.5671773748 1.1719282191529719E-4 0.0053857895707406025 0.9998828071780848 -0.0053857895707406025 0.9998828071780848 -0.0053857895707406025 1.1719282191529719E-4 0.0053857895707406025
1405327.8512148394 1.2152824057903699E-4 0.00549458636419552 0.9998784717594209 -0.00549458636419552 0.9998784717594209 -0.00549458636419552 1.2152824057903699E-4 0.00549458636419552
1433740.1803986167 1.2604057501965942E-4 0.005605577147100623 0.9998739594249804 -0.005605577147100623 0.9998739594249804 -0.005605577147100623 1.2604057501965942E-4 0.005605577147100623
1462726.9381393674 1.3073703786864652E-4 0.0057188059292631824 0.9998692629621313 -0.0057188059292631824 0.9998692629621313 -0.0057188059292631824 1.3073703786864652E-4 0.0057188059292631824
1492299.737992774 1.3562513524205887E-4 0.005834317588803731 0.999864374864758 -0.005834317588803731 0.999864374864758 -0.005834317588803731 1.3562513524205887E-4 0.005834317588803731
1522470.428312519 1.4071267863543062E-4 0.005952157888387271 0.9998592873213646 -0.005952157888387271 0.9998592873213646 -0.005952157888387271 1.4071267863543062E-4 0.005952157888387271
1553251.0969973304 1.4600779729683492E-4 0.006072373491701071 0.9998539922027031 -0.00607237349170107 0.9998539922027031 -0.00607237349170107 1.4600779729683492E-4 0.006072373491701071
1584654.076334004 1.5151895109701542E-4 0.006195011980179116 0.9998484810489031 -0.006195011980179117 0.9998484810489031 -0.006195011980179117 1.5151895109701542E-4 0.006195011980179116
1616691.9479383389 1.572549439161964E-4 0.006320121869972875 0.999842745056084 -0.006320121869972875 0.999842745056084 -0.006320121869972875 1.572549439161964E-4 0.006320121869972875
1649377.5477959653 1.632249375679275E-4 0.006447752629167653 0.9998367750624321 -0.006447752629167653 0.9998367750624321 -0.006447752629167653 1.632249375679275E-4 0.006447752629167653
1682723.9714050898 1.694384662810926E-4 0.006577954695243702 0.999830561533719 -0.006577954695243702 0.999830561533719 -0.006577954695243702 1.694384662810926E-4 0.006577954695243702
1716744.5790232092 1.7590545176200236E-4 0.0067107794927804675 0.999824094548238 -0.006710779492780467 0.999824094548238 -0.006710779492780467 1.7590545176200236E-4 0.0067107794927804675
1751453.001019904 1.8263621885931854E-4 0.006846279451402386 0.9998173637811407 -0.006846279451402386 0.9998173637811407 -0.006846279451402386 1.8263621885931854E-4 0.006846279451402386
1786863.143337851 1.89641511855407E-4 0.006984508023963861 0.9998103584881446 -0.006984508023963861 0.9998103584881446 -0.006984508023963861 1.89641511855407E-4 0.006984508023963861
1822989.1930642454 1.969325114085922E-4 0.007125519704970717 0.9998030674885913 -0.007125519704970717 0.9998030674885913 -0.007125519704970717 1.969325114085922E-4 0.007125519704970717
1859845.6241148617 2.0452085217169925E-4 0.007269370049234906 0.9997954791478283 -0.007269370049234906 0.9997954791478283 -0.007269370049234906 2.0452085217169925E-4 0.007269370049234906
1897447.2030330333 2.1241864111320256E-4 0.007416115690758678 0.9997875813588869 -0.007416115690758678 0.9997875813588869 -0.007416115690758678 2.1241864111320256E-4 0.007416115690758678
1935808.994905876 2.2063847656827112E-4 0.00756581436184383 0.9997793615234316 -0.00756581436184383 0.9997793615234316 -0.00756581436184383 2.2063847656827112E-4 0.00756581436184383
1974946.3694001175 2.291934680479937E-4 0.007718524912420998 0.9997708065319518 -0.007718524912420999 0.9997708065319518 -0.007718524912420999 2.291934680479937E-4 0.007718524912420998
2014875.0069199642 2.3809725683610308E-4 0.007874307329593332 0.9997619027431638 -0.00787430732959333 0.9997619027431638 -0.00787430732959333 2.3809725683610308E-4 0.007874307329593332
2055610.904889458 2.473640374035739E-4 0.008033222757388108 0.9997526359625966 -0.008033222757388108 0.9997526359625966 -0.008033222757388108 2.473640374035739E-4 0.008033222757388108
2097170.3841618528 2.5700857967256443E-4 0.008195333516709055 0.9997429914203273 -0.008195333516709055 0.9997429914203273 -0.008195333516709055 2.5700857967256443E-4 0.008195333516709055
2139570.0955585684 2.6704625216229897E-4 0.008360703125481428 0.9997329537478378 -0.00836070312548143 0.9997329537478378 -0.00836070312548143 2.6704625216229897E-4 0.008360703125481428
2182827.0265403506 2.7749304605064384E-4 0.008529396318980831 0.9997225069539495 -0.008529396318980833 0.9997225069539495 -0.008529396318980833 2.7749304605064384E-4 0.008529396318980831
2226958.508013302 2.8836560018632345E-4 0.008701479070335926 0.9997116343998137 -0.008701479070335926 0.9997116343998137 -0.008701479070335926 2.8836560018632345E-4 0.008701479070335926
2271982.2212725184 2.9968122708794946E-4 0.008877018611194202 0.999700318772912 -0.008877018611194202 0.999700318772912 -0.008877018611194202 2.9968122708794946E-4 0.008877018611194202
2317916.205086105 3.114579399672902E-4 0.009056083452538746 0.9996885420600327 -0.009056083452538746 0.9996885420600327 -0.009056083452538746 3.114579399672902E-4 0.009056083452538746
2364778.8629224156 3.2371448081550466E-4 0.009238743405642909 0.9996762855191844 -0.009238743405642907 0.9996762855191844 -0.009238743405642907 3.2371448081550466E-4 0.009238743405642909
2412588.9703234104 3.364703495923867E-4 0.00942506960314851 0.9996635296504076 -0.00942506960314851 0.9996635296504076 -0.00942506960314851 3.364703495923867E-4 0.00942506960314851
2461365.682427083 3.497458345600299E-4 0.00961513452025192 0.99965025416544 -0.00961513452025192 0.99965025416544 -0.00961513452025192 3.497458345600299E-4 0.00961513452025192
2511128.5416419753 3.635620438037078E-4 0.009809011995980874 0.9996364379561964 -0.009809011995980874 0.9996364379561964 -0.009809011995980874 3.635620438037078E-4 0.009809011995980874
2561897.48547685 3.779409379841936E-4 0.010006777254543523 0.9996220590620158 -0.010006777254543523 0.9996220590620158 -0.010006777254543523 3.779409379841936E-4 0.010006777254543523
2613692.85452866 3.9290536436719986E-4 0.010208506926729487 0.9996070946356329 -0.010208506926729487 0.9996070946356329 -0.010208506926729487 3.9290536436719986E-4 0.010208506926729487
2666535.4006320196 4.084790921771011E-4 0.010414279071341103 0.9995915209078229 -0.010414279071341102 0.9995915209078229 -0.010414279071341102 4.084790921771011E-4 0.010414279071341103
2720446.295173432 4.2468684932362653E-4 0.01062417319663123 0.9995753131506763 -0.01062417319663123 0.9995753131506763 -0.01062417319663123 4.2468684932362653E-4 0.01062417319663123
2775447.137573615 4.415543605517448E-4 0.01083827028172195 0.9995584456394482 -0.010838270281721952 0.9995584456394482 -0.010838270281721952 4.415543605517448E-4 0.01083827028172195
2831559.963941318 4.5910838706655357E-4 0.01105665279797676 0.9995408916129334 -0.011056652797976761 0.9995408916129334 -0.011056652797976761 4.5910838706655357E-4 0.01105665279797676
2888807.255902094 4.7737676768655994E-4 0.011279404730296226 0.9995226232323133 -0.011279404730296224 0.9995226232323133 -0.011279404730296224 4.7737676768655994E-4 0.011279404730296226
2947211.9496055758 4.963884615803915E-4 0.011506611598305388 0.9995036115384197 -0.011506611598305388 0.9995036115384197 -0.011506611598305388 4.963884615803915E-4 0.011506611598305388
3006797.4449148513 5.161735926435837E-4 0.011738360477398077 0.9994838264073564 -0.01173836047739808 0.9994838264073564 -0.01173836047739808 5.161735926435837E-4 0.011738360477398077
3067587.6147816274 5.367634955737904E-4 0.011974740019601391 0.9994632365044264 -0.011974740019601391 0.9994632365044264 -0.011974740019601391 5.367634955737904E-4 0.011974740019601391
3129606.8148109377 5.581907637044065E-4 0.012215840474220285 0.9994418092362956 -0.012215840474220285 0.9994418092362956 -0.012215840474220285 5.581907637044065E-4 0.012215840474220285
3192879.893019226 5.804892986583E-4 0.012461753708219652 0.9994195107013417 -0.012461753708219652 0.9994195107013417 -0.012461753708219652 5.804892986583E-4 0.012461753708219652
3257432.1997897103 6.03694361885045E-4 0.012712573226298143 0.999396305638115 -0.012712573226298143 0.999396305638115 -0.012712573226298143 6.03694361885045E-4 0.012712573226298143
3323289.598029029 6.278426281467406E-4 0.01296839419060455 0.9993721573718534 -0.012968394190604547 0.9993721573718534 -0.012968394190604547 6.278426281467406E-4 0.01296839419060455
3390478.4735292196 6.529722410191968E-4 0.013229313440044221 0.9993470277589808 -0.013229313440044221 0.9993470277589808 -0.013229313440044221 6.529722410191968E-4 0.013229313440044221
3459025.745539199 6.791228704769727E-4 0.013495429509119417 0.999320877129523 -0.013495429509119417 0.999320877129523 -0.013495429509119417 6.791228704769727E-4 0.013495429509119417
3528958.8775499705 7.063357726324123E-4 0.013766842646243423 0.9992936642273678 -0.013766842646243423 0.9992936642273678 -0.013766842646243423 7.063357726324123E-4 0.013766842646243423
3600305.8882978815 7.346538517004844E-4 0.014043654831464195 0.9992653461482998 -0.014043654831464194 0.9992653461482998 -0.014043654831464194 7.346538517004844E-4 0.014043654831464195
3673095.3629903416 7.641217242628693E-4 0.014325969793529118 0.999235878275737 -0.014325969793529118 0.999235878275737 -0.014325969793529118 7.641217242628693E-4 0.014325969793529118
3747356.4647584967 7.947857859063092E-4 0.014613893026217694 0.9992052142140938 -0.014613893026217694 0.9992052142140938 -0.014613893026217694 7.947857859063092E-4 0.014613893026217694
3823118.9463414503 8.266942803117999E-4 0.014907531803864123 0.9991733057196881 -0.014907531803864123 0.9991733057196881 -0.014907531803864123 8.266942803117999E-4 0.014907531803864123
3900413.1620067055 8.598973708726677E-4 0.015206995195986703 0.9991401026291273 -0.015206995195986703 0.9991401026291273 -0.015206995195986703 8.598973708726677E-4 0.015206995195986703
3979270.0797116193 8.944472149210167E-4 0.015512394080935559 0.9991055527850788 -0.015512394080935559 0.9991055527850788 -0.015512394080935559 8.944472149210167E-4 0.015512394080935559
4059721.293510725 9.303980406433543E-4 0.0158238411584644 0.9990696019593569 -0.0158238411584644 0.9990696019593569 -0.0158238411584644 9.303980406433543E-4 0.0158238411584644
4141799.0362139 9.678062267674355E-4 0.01614145096112599 0.9990321937732326 -0.016141450961125986 0.9990321937732326 -0.016141450961125986 9.678062267674355E-4 0.01614145096112599
4225536.192300457 0.001006730385103535 0.016465339864384875 0.9989932696148964 -0.01646533986438488 0.9989932696148964 -0.01646533986438488 0.001006730385103535 0.016465339864384875
4310966.311094318 0.001047231446024306 0.016795626095333784 0.9989527685539756 -0.016795626095333784 0.9989527685539756 -0.016795626095333784 0.001047231446024306 0.016795626095333784
4398123.620205573 0.0010893727469683057 0.01713242973989348 0.9989106272530317 -0.01713242973989348 0.9989106272530317 -0.01713242973989348 0.0010893727469683057 0.01713242973989348
4487043.0392437745 0.0011332201240529046 0.017475872748368194 0.9988667798759472 -0.017475872748368194 0.9988667798759472 -0.017475872748368194 0.0011332201240529046 0.017475872748368194
4577760.193808502 0.0011788420068828583 0.01782607893922097 0.9988211579931171 -0.01782607893922097 0.9988211579931171 -0.01782607893922097 0.0011788420068828583 0.01782607893922097
4670311.429762763 0.0012263095166410783 0.018183174000925072 0.998773690483359 -0.018183174000925072 0.998773690483359 -0.018183174000925072 0.0012263095166410783 0.018183174000925072
4764733.827794987 0.0012756965675482382 0.01854728549173894 0.9987243034324518 -0.01854728549173894 0.9987243034324518 -0.01854728549173894 0.0012756965675482382 0.01854728549173894
4861065.218275411 0.0013270799717776192 0.01891854283724309 0.9986729200282224 -0.018918542837243094 0.9986729200282224 -0.018918542837243094 0.0013270799717776192 0.01891854283724309
4959344.196412832 0.0013805395479111492 0.019297077325467864 0.9986194604520886 -0.019297077325467864 0.9986194604520886 -0.019297077325467864 0.0013805395479111492 0.019297077325467864
5059610.137717796 0.0014361582330217387 0.01968302209943086 0.9985638417669782 -0.019683022099430864 0.9985638417669782 -0.019683022099430864 0.0014361582330217387 0.01968302209943086
5161903.213778406 0.0014940221984658727 0.020076512146892597 0.998505977801534 -0.020076512146892597 0.998505977801534 -0.020076512146892597 0.0014940221984658727 0.020076512146892597
5266264.4083550945 0.0015542209694688301 0.02047768428712768 0.9984457790305312 -0.02047768428712768 0.9984457790305312 -0.02047768428712768 0.0015542209694688301 0.02047768428712768
5372735.53380077 0.0016168475485828927 0.02088667715449755 0.9983831524514172 -0.02088667715449755 0.9983831524514172 -0.02088667715449755 0.0016168475485828927 0.02088667715449755
5481359.247812959 0.0016819985430964436 0.02130363117859882 0.9983180014569036 -0.021303631178598823 0.9983180014569036 -0.021303631178598823 0.0016819985430964436 0.02130363117859882
5592179.070524632 0.001749774296468798 0.021728688560748527 0.9982502257035312 -0.021728688560748527 0.9982502257035312 -0.021728688560748527 0.001749774296468798 0.021728688560748527
5705239.401940555 0.0018202790238620369 0.022161993246554688 0.9981797209761378 -0.022161993246554688 0.9981797209761378 -0.022161993246554688 0.0018202790238620369 0.022161993246554688
5820585.5397261735 0.0018936209518368924 0.02260369089430694 0.9981063790481629 -0.02260369089430694 0.9981063790481629 -0.02260369089430694 0.0018936209518368924 0.02260369089430694
5938263.697356135 0.0019699124622747782 0.023053928838907653 0.9980300875377253 -0.023053928838907653 0.9980300875377253 -0.023053928838907653 0.0019699124622747782 0.023053928838907653
6058321.022629741 0.0020492702405824265 0.023512856051049455 0.9979507297594176 -0.02351285605104946 0.9979507297594176 -0.02351285605104946 0.0020492702405824265 0.023512856051049455
6180805.616560728 0.00213181542822905 0.023980623091329197 0.9978681845717711 -0.023980623091329197 0.9978681845717711 -0.023980623091329197 0.00213181542822905 0.023980623091329197
6305766.552648956 0.002217673779658619 0.024457382058973277 0.9977823262203415 -0.024457382058973277 0.9977823262203415 -0.024457382058973277 0.002217673779658619 0.024457382058973277
6433253.896541728 0.002306975823611429 0.02494328653483186 0.9976930241763886 -0.02494328653483186 0.9976930241763886 -0.02494328653483186 0.002306975823611429 0.02494328653483186
6563318.726092606 0.0023998570288797775 0.025438491518283163 0.9976001429711203 -0.02543849151828316 0.9976001429711203 -0.02543849151828316 0.0023998570288797775 0.025438491518283163
6696013.151825785 0.002496457974512006 0.02594315335767082 0.997503542025488 -0.02594315335767082 0.997503542025488 -0.02594315335767082 0.002496457974512006 0.02594315335767082
6831390.3378141755 0.0025969245244674304 0.02645742967387959 0.9974030754755325 -0.02645742967387959 0.9974030754755325 -0.02645742967387959 0.0025969245244674304 0.02645742967387959
6969504.522979628 0.002701408006711596 0.02698147927663565 0.9972985919932885 -0.02698147927663565 0.9972985919932885 -0.02698147927663565 0.002701408006711596 0.02698147927663565
7110411.042823766 0.002810065396726744 0.027515462073098407 0.9971899346032733 -0.027515462073098414 0.9971899346032733 -0.027515462073098414 0.002810065396726744 0.027515462073098407
7254166.351598182 0.0029230595053964616 0.028059538968291695 0.9970769404946034 -0.028059538968291695 0.9970769404946034 -0.028059538968291695 0.0029230595053964616 0.028059538968291695
7400828.044922853 0.0030405591712056833 0.02861387175690109 0.9969594408287944 -0.02861387175690109 0.9969594408287944 -0.02861387175690109 0.0030405591712056833 0.02861387175690109
7550454.882861849 0.003162739456677856 0.029178623005944475 0.9968372605433222 -0.029178623005944475 0.9968372605433222 -0.029178623005944475 0.003162739456677856 0.029178623005944475
7703106.813465575 0.003289781848949757 0.029753955927801435 0.9967102181510503 -0.029753955927801442 0.9967102181510503 -0.029753955927801442 0.003289781848949757 0.029753955927801435
7858844.9967889795 0.0034218744643610987 0.030340034243066485 0.9965781255356388 -0.030340034243066482 0.9965781255356388 -0.030340034243066482 0.0034218744643610987 0.030340034243066485
8017731.829395356 0.0035592122569105453 0.030937022032668984 0.9964407877430895 -0.03093702203266899 0.9964407877430895 -0.03093702203266899 0.0035592122569105453 0.030937022032668984
8179830.96935555 0.003701997230402082 0.0315450835786822 0.996298002769598 -0.0315450835786822 0.996298002769598 -0.0315450835786822 0.003701997230402082 0.0315450835786822
8345207.361752584 0.0038504386540753176 0.03216438319322135 0.9961495613459247 -0.03216438319322135 0.9961495613459247 -0.03216438319322135 0.0038504386540753176 0.03216438319322135
