! NFZ32SW301HN10
# Hz S RI R 50
!Freq.(Hz) S11(Real) S11(Imag) S21(Real) S21(Imag) S12(Real) S12(Imag) S22(Real) S22(Imag)
1000000.0 0.002526648179215394 0.02966151312009521 0.9974733518207847 -0.02966151312009521 0.9974733518207847 -0.02966151312009521 0.002526648179215394 0.02966151312009521
1020217.5806586457 0.002582365305322102 0.030236284578993803 0.9974176346946779 -0.030236284578993796 0.9974176346946779 -0.030236284578993796 0.002582365305322102 0.030236284578993803
1040843.9118849806 0.002639479077102774 0.030822475804669278 0.9973605209228972 -0.030822475804669285 0.9973605209228972 -0.030822475804669285 0.002639479077102774 0.030822475804669278
1061887.2576265757 0.002698049341586467 0.03142032729989314 0.9973019506584135 -0.03142032729989314 0.9973019506584135 -0.03142032729989314 0.002698049341586467 0.03142032729989314
1083356.0489080292 0.002758139212599775 0.03203008399737302 0.9972418607874001 -0.03203008399737301 0.9972418607874001 -0.03203008399737301 0.002758139212599775 0.03203008399737302
1105258.8872088592 0.002819815174657852 0.032651995287537997 0.9971801848253424 -0.03265199528753799 0.9971801848253424 -0.03265199528753799 0.002819815174657852 0.032651995287537997
1127604.5479096894 0.0028831471884233203 0.03328631504729705 0.9971168528115767 -0.03328631504729705 0.9971168528115767 -0.03328631504729705 0.0028831471884233203 0.03328631504729705
1150401.9838081095 0.0029482087980259087 0.03393330166986695 0.997051791201974 -0.03393330166986696 0.997051791201974 -0.03393330166986696 0.0029482087980259087 0.03393330166986695
1173660.328705616 0.0030150772405510558 0.03459321809573921 0.9969849227594492 -0.03459321809573921 0.9969849227594492 -0.03459321809573921 0.0030150772405510558 0.03459321809573921
1197388.9010670746 0.0030838335580190626 0.035266331844831286 0.9969161664419809 -0.035266331844831286 0.9969161664419809 -0.035266331844831286 0.0030838335580190626 0.035266331844831286
1221597.2077541656 0.003154562712187315 0.035952915049840405 0.9968454372878127 -0.0359529150498404 0.9968454372878127 -0.0359529150498404 0.003154562712187315 0.035952915049840405
1246294.947834312 0.003227353702516876 0.036653244490790896 0.9967726462974831 -0.036653244490790896 0.9967726462974831 -0.036653244490790896 0.003227353702516876 0.036653244490790896
1271492.016466615 0.003302299687651541 0.03736760163074043 0.9966977003123484 -0.03736760163074043 0.9966977003123484 -0.03736760163074043 0.003302299687651541 0.03736760163074043
1297198.5088663532 0.0033794981107621892 0.03809627265258258 0.9966205018892378 -0.03809627265258258 0.9966205018892378 -0.03809627265258258 0.0033794981107621892 0.03809627265258258
1323424.7243496338 0.0034590508291121843 0.0388395484968573 0.996540949170888 -0.0388395484968573 0.996540949170888 -0.0388395484968573 0.0034590508291121843 0.0388395484968573
1350181.1704598186 0.003541064248200915 0.03959772490045478 0.996458935751799 -0.03959772490045478 0.996458935751799 -0.03959772490045478 0.003541064248200915 0.03959772490045478
1377478.5671773748 0.0036256494608422384 0.04037110243607217 0.9963743505391579 -0.04037110243607217 0.9963743505391579 -0.04037110243607217 0.0036256494608422384 0.04037110243607217
1405327.8512148394 0.0037129223915330183 0.04115998655225794 0.9962870776084668 -0.04115998655225794 0.9962870776084668 -0.04115998655225794 0.0037129223915330183 0.04115998655225794
1433740.1803986167 0.0038030039464641324 0.04196468761385419 0.996196996053536 -0.04196468761385419 0.996196996053536 -0.04196468761385419 0.0038030039464641324 0.04196468761385419
1462726.9381393674 0.0038960201695224543 0.042785520942623244 0.9961039798304775 -0.042785520942623244 0.9961039798304775 -0.042785520942623244 0.0038960201695224543 0.042785520942623244
1492299.737992774 0.003992102404627572 0.043622806857822105 0.9960078975953722 -0.043622806857822105 0.9960078975953722 -0.043622806857822105 0.003992102404627572 0.043622806857822105
1522470.428312519 0.004091387464741535 0.04447687071646577 0.9959086125352583 -0.04447687071646577 0.9959086125352583 -0.04447687071646577 0.004091387464741535 0.04447687071646577
1553251.0969973304 0.004194017807883748 0.045348042952998074 0.9958059821921165 -0.04534804295299808 0.9958059821921165 -0.04534804295299808 0.004194017807883748 0.045348042952998074
1584654.076334004 0.004300141720476588 0.04623665911806842 0.9956998582795233 -0.04623665911806842 0.9956998582795233 -0.04623665911806842 0.004300141720476588 0.04623665911806842
1616691.9479383389 0.00440991350834028 0.047143059916091065 0.9955900864916597 -0.04714305991609106 0.9955900864916597 -0.04714305991609106 0.00440991350834028 0.047143059916091065
1649377.5477959653 0.004523493695648236 0.048067591241243254 0.9954765063043517 -0.048067591241243254 0.9954765063043517 -0.048067591241243254 0.004523493695648236 0.048067591241243254
1682723.9714050898 0.004641049232146504 0.049010604211539105 0.9953589507678535 -0.049010604211539105 0.9953589507678535 -0.049010604211539105 0.004641049232146504 0.049010604211539105
1716744.5790232092 0.004762753708933279 0.049972455200595095 0.9952372462910668 -0.049972455200595095 0.9952372462910668 -0.049972455200595095 0.004762753708933279 0.049972455200595095
1751453.001019904 0.004888787583086461 0.05095350586668401 0.9951112124169136 -0.05095350586668401 0.9951112124169136 -0.05095350586668401 0.004888787583086461 0.05095350586668401
1786863.143337851 0.00501933841141929 0.051954123178654096 0.9949806615885806 -0.051954123178654096 0.9949806615885806 -0.051954123178654096 0.00501933841141929 0.051954123178654096
1822989.1930642454 0.005154601093635862 0.0529746794382697 0.9948453989063643 -0.0529746794382697 0.9948453989063643 -0.0529746794382697 0.005154601093635862 0.0529746794382697
1859845.6241148617 0.005294778125150138 0.05401555229851029 0.9947052218748497 -0.05401555229851029 0.9947052218748497 -0.05401555229851029 0.005294778125150138 0.05401555229851029
1897447.2030330333 0.005440079859823446 0.055077124777343084 0.9945599201401762 -0.05507712477734307 0.9945599201401762 -0.05507712477734307 0.005440079859823446 0.055077124777343084
1935808.994905876 0.005590724782866933 0.0561597852664645 0.9944092752171328 -0.0561597852664645 0.9944092752171328 -0.0561597852664645 0.005590724782866933 0.0561597852664645
1974946.3694001175 0.005746939794146288 0.05726392753448264 0.9942530602058536 -0.057263927534482645 0.9942530602058536 -0.057263927534482645 0.005746939794146288 0.05726392753448264
2014875.0069199642 0.005908960502116955 0.05838995072399278 0.994091039497883 -0.05838995072399278 0.994091039497883 -0.05838995072399278 0.005908960502116955 0.05838995072399278
2055610.904889458 0.006077031528607899 0.05953825934197152 0.9939229684713922 -0.05953825934197152 0.9939229684713922 -0.05953825934197152 0.006077031528607899 0.05953825934197152
2097170.3841618528 0.00625140682466211 0.0607092632428952 0.9937485931753378 -0.0607092632428952 0.9937485931753378 -0.0607092632428952 0.00625140682466211 0.0607092632428952
2139570.0955585684 0.006432349997630656 0.06190337760395988 0.9935676500023694 -0.061903377603959864 0.9935676500023694 -0.061903377603959864 0.006432349997630656 0.06190337760395988
2182827.0265403506 0.006620134649705458 0.06312102289175599 0.9933798653502943 -0.06312102289175599 0.9933798653502943 -0.06312102289175599 0.006620134649705458 0.06312102289175599
2226958.508013302 0.0068150447280632825 0.06436262481972424 0.9931849552719367 -0.06436262481972424 0.9931849552719367 -0.06436262481972424 0.0068150447280632825 0.06436262481972424
2271982.2212725184 0.007017374886779564 0.06562861429568957 0.9929826251132203 -0.06562861429568957 0.9929826251132203 -0.06562861429568957 0.007017374886779564 0.06562861429568957
2317916.205086105 0.00722743086065566 0.06691942735874276 0.9927725691393445 -0.06691942735874278 0.9927725691393445 -0.06691942735874278 0.00722743086065566 0.06691942735874276
2364778.8629224156 0.00744552985108673 0.06823550510470715 0.9925544701489135 -0.06823550510470713 0.9925544701489135 -0.06823550510470713 0.00744552985108673 0.06823550510470715
2412588.9703234104 0.007672000924079448 0.06957729359939795 0.9923279990759205 -0.06957729359939796 0.9923279990759205 -0.06957729359939796 0.007672000924079448 0.06957729359939795
2461365.682427083 0.007907185420508937 0.07094524377884805 0.9920928145794912 -0.07094524377884805 0.9920928145794912 -0.07094524377884805 0.007907185420508937 0.07094524377884805
2511128.5416419753 0.008151437378682564 0.07233981133563966 0.9918485626213175 -0.07233981133563966 0.9918485626213175 -0.07233981133563966 0.008151437378682564 0.07233981133563966
2561897.48547685 0.008405123969254481 0.07376145659044807 0.9915948760307455 -0.07376145659044805 0.9915948760307455 -0.07376145659044805 0.008405123969254481 0.07376145659044807
2613692.85452866 0.008668625942508409 0.07521064434786548 0.9913313740574916 -0.07521064434786548 0.9913313740574916 -0.07521064434786548 0.008668625942508409 0.07521064434786548
2666535.4006320196 0.008942338087997428 0.07668784373553701 0.9910576619120025 -0.07668784373553701 0.9910576619120025 -0.07668784373553701 0.008942338087997428 0.07668784373553701
2720446.295173432 0.009226669706497836 0.0781935280256022 0.9907733302935022 -0.0781935280256022 0.9907733302935022 -0.0781935280256022 0.009226669706497836 0.0781935280256022
2775447.137573615 0.00952204509419949 0.079728174437396 0.9904779549058005 -0.07972817443739598 0.9904779549058005 -0.07972817443739598 0.00952204509419949 0.079728174437396
2831559.963941318 0.009828904039017209 0.08129226392032443 0.9901710959609827 -0.08129226392032443 0.9901710959609827 -0.08129226392032443 0.009828904039017209 0.08129226392032443
2888807.255902094 0.01014770232886608 0.08288628091578781 0.9898522976711339 -0.08288628091578783 0.9898522976711339 -0.08288628091578783 0.01014770232886608 0.08288628091578781
2947211.9496055758 0.010478912271698695 0.08451071309698509 0.9895210877283013 -0.08451071309698509 0.9895210877283013 -0.08451071309698509 0.010478912271698695 0.08451071309698509
3006797.4449148513 0.010823023227052735 0.08616605108538987 0.9891769767729475 -0.08616605108538987 0.9891769767729475 -0.08616605108538987 0.010823023227052735 0.08616605108538987
3067587.6147816274 0.011180542148804163 0.08785278814264877 0.9888194578511957 -0.08785278814264877 0.9888194578511957 -0.08785278814264877 0.011180542148804163 0.08785278814264877
3129606.8148109377 0.011551994138763028 0.0895714198366097 0.9884480058612372 -0.0895714198366097 0.9884480058612372 -0.0895714198366097 0.011551994138763028 0.0895714198366097
3192879.893019226 0.011937923010686323 0.09132244368014752 0.9880620769893135 -0.09132244368014751 0.9880620769893135 -0.09132244368014751 0.011937923010686323 0.09132244368014752
3257432.1997897103 0.012338891864214496 0.09310635874141396 0.9876611081357857 -0.09310635874141397 0.9876611081357857 -0.09310635874141397 0.012338891864214496 0.09310635874141396
3323289.598029029 0.012755483668165033 0.09492366522409836 0.9872445163318351 -0.09492366522409836 0.9872445163318351 -0.09492366522409836 0.012755483668165033 0.09492366522409836
3390478.4735292196 0.013188301852538243 0.09677486401624864 0.9868116981474616 -0.09677486401624864 0.9868116981474616 -0.09677486401624864 0.013188301852538243 0.09677486401624864
3459025.745539199 0.013637970908505815 0.09866045620616443 0.9863620290914943 -0.09866045620616443 0.9863620290914943 -0.09866045620616443 0.013637970908505815 0.09866045620616443
3528958.8775499705 0.014105136995562465 0.10058094256383929 0.9858948630044373 -0.10058094256383929 0.9858948630044373 -0.10058094256383929 0.014105136995562465 0.10058094256383929
3600305.8882978815 0.01459046855492475 0.10253682298639896 0.9854095314450753 -0.10253682298639896 0.9854095314450753 -0.10253682298639896 0.01459046855492475 0.10253682298639896
3673095.3629903416 0.015094656928157927 0.10452859590595062 0.9849053430718421 -0.10452859590595064 0.9849053430718421 -0.10452859590595064 0.015094656928157927 0.10452859590595062
3747356.4647584967 0.015618416979902565 0.10655675765823541 0.9843815830200975 -0.10655675765823541 0.9843815830200975 -0.10655675765823541 0.015618416979902565 0.10655675765823541
3823118.9463414503 0.016162487723456524 0.10862180181045332 0.9838375122765435 -0.10862180181045332 0.9838375122765435 -0.10862180181045332 0.016162487723456524 0.10862180181045332
3900413.1620067055 0.016727632947844795 0.11072421844661395 0.9832723670521553 -0.11072421844661398 0.9832723670521553 -0.11072421844661398 0.016727632947844795 0.11072421844661395
3979270.0797116193 0.017314641844880126 0.11286449340875528 0.9826853581551199 -0.11286449340875529 0.9826853581551199 -0.11286449340875529 0.017314641844880126 0.11286449340875528
4059721.293510725 0.017924329634580436 0.11504310749236744 0.9820756703654195 -0.11504310749236743 0.9820756703654195 -0.11504310749236743 0.017924329634580436 0.11504310749236744
4141799.0362139 0.018557538187165233 0.11726053559436028 0.9814424618128347 -0.11726053559436028 0.9814424618128347 -0.11726053559436028 0.018557538187165233 0.11726053559436028
4225536.192300457 0.019215136639703194 0.11951724581192451 0.9807848633602968 -0.11951724581192451 0.9807848633602968 -0.11951724581192451 0.019215136639703194 0.11951724581192451
4310966.311094318 0.019898022005324922 0.12181369849065135 0.980101977994675 -0.12181369849065134 0.980101977994675 -0.12181369849065134 0.019898022005324922 0.12181369849065135
4398123.620205573 0.020607119772751994 0.12415034522030748 0.9793928802272481 -0.12415034522030748 0.9793928802272481 -0.12415034522030748 0.020607119772751994 0.12415034522030748
4487043.0392437745 0.021343384493722164 0.12652762777669463 0.9786566155062778 -0.12652762777669466 0.9786566155062778 -0.12652762777669466 0.021343384493722164 0.12652762777669463
4577760.193808502 0.02210780035571568 0.12894597700807817 0.9778921996442842 -0.12894597700807817 0.9778921996442842 -0.12894597700807817 0.02210780035571568 0.12894597700807817
4670311.429762763 0.02290138173720481 0.13140581166472465 0.9770986182627953 -0.13140581166472465 0.9770986182627953 -0.13140581166472465 0.02290138173720481 0.13140581166472465
4764733.827794987 0.02372517374246308 0.13390753717016804 0.976274826257537 -0.13390753717016807 0.976274826257537 -0.13390753717016807 0.02372517374246308 0.13390753717016804
4861065.218275411 0.024580252712779155 0.13645154433290907 0.9754197472872208 -0.13645154433290907 0.9754197472872208 -0.13645154433290907 0.024580252712779155 0.13645154433290907
4959344.196412832 0.025467726710726078 0.13903820799735875 0.9745322732892739 -0.13903820799735875 0.9745322732892739 -0.13903820799735875 0.025467726710726078 0.13903820799735875
5059610.137717796 0.02638873597393942 0.14166788563295707 0.9736112640260608 -0.1416678856329571 0.9736112640260608 -0.1416678856329571 0.02638873597393942 0.14166788563295707
5161903.213778406 0.027344453334658774 0.14434091586053402 0.9726555466653412 -0.14434091586053405 0.9726555466653412 -0.14434091586053405 0.027344453334658774 0.14434091586053402
5266264.4083550945 0.02833608460108857 0.1470576169151394 0.9716639153989115 -0.1470576169151394 0.9716639153989115 -0.1470576169151394 0.02833608460108857 0.1470576169151394
5372735.53380077 0.02936486889643384 0.1498182850447369 0.9706351311035663 -0.1498182850447369 0.9706351311035663 -0.1498182850447369 0.02936486889643384 0.1498182850447369
5481359.247812959 0.030432078951272878 0.15262319284436077 0.9695679210487272 -0.15262319284436077 0.9695679210487272 -0.15262319284436077 0.030432078951272878 0.15262319284436077
5592179.070524632 0.03153902134473385 0.15547258752554236 0.9684609786552661 -0.15547258752554236 0.9684609786552661 -0.15547258752554236 0.03153902134473385 0.15547258752554236
5705239.401940555 0.03268703668975691 0.1583666891210539 0.9673129633102432 -0.1583666891210539 0.9673129633102432 -0.1583666891210539 0.03268703668975691 0.1583666891210539
5820585.5397261735 0.03387749975754376 0.16130568862527656 0.9661225002424562 -0.16130568862527658 0.9661225002424562 -0.16130568862527658 0.03387749975754376 0.16130568862527656
5938263.697356135 0.03511181953612655 0.1642897460707803 0.9648881804638735 -0.1642897460707803 0.9648881804638735 -0.1642897460707803 0.03511181953612655 0.1642897460707803
6058321.022629741 0.03639143921783053 0.16731898854200764 0.9636085607821693 -0.16731898854200764 0.9636085607821693 -0.16731898854200764 0.03639143921783053 0.16731898854200764
6180805.616560728 0.037717836110259306 0.17039350812727927 0.9622821638897409 -0.17039350812727927 0.9622821638897409 -0.17039350812727927 0.037717836110259306 0.17039350812727927
6305766.552648956 0.03909252146530652 0.17351335981069183 0.9609074785346934 -0.17351335981069183 0.9609074785346934 -0.17351335981069183 0.03909252146530652 0.17351335981069183
6433253.896541728 0.04051704022058682 0.17667855930584633 0.9594829597794131 -0.17667855930584633 0.9594829597794131 -0.17667855930584633 0.04051704022058682 0.17667855930584633
6563318.726092606 0.04199297064759317 0.1798890808337391 0.9580070293524069 -0.1798890808337391 0.9580070293524069 -0.1798890808337391 0.04199297064759317 0.1798890808337391
6696013.151825785 0.043521923900825585 0.1831448548475634 0.9564780760991745 -0.18314485484756343 0.9564780760991745 -0.18314485484756343 0.043521923900825585 0.1831448548475634
6831390.3378141755 0.04510554346209979 0.18644576570759905 0.9548944565379002 -0.18644576570759902 0.9548944565379002 -0.18644576570759902 0.04510554346209979 0.18644576570759905
6969504.522979628 0.04674550447423875 0.18979164930981696 0.9532544955257612 -0.18979164930981696 0.9532544955257612 -0.18979164930981696 0.04674550447423875 0.18979164930981696
7110411.042823766 0.04844351295837714 0.19318229067229475 0.9515564870416229 -0.19318229067229475 0.9515564870416229 -0.19318229067229475 0.04844351295837714 0.19318229067229475
7254166.351598182 0.050201304909169304 0.19661742148401343 0.9497986950908307 -0.19661742148401343 0.9497986950908307 -0.19661742148401343 0.050201304909169304 0.19661742148401343
7400828.044922853 0.05202064526229051 0.20009671762109757 0.9479793547377093 -0.20009671762109757 0.9479793547377093 -0.20009671762109757 0.05202064526229051 0.20009671762109757
7550454.882861849 0.05390332672875809 0.2036197966360542 0.9460966732712419 -0.2036197966360542 0.9460966732712419 -0.2036197966360542 0.05390332672875809 0.2036197966360542
7703106.813465575 0.05585116849077977 0.2071862152260694 0.9441488315092204 -0.2071862152260694 0.9441488315092204 -0.2071862152260694 0.05585116849077977 0.2071862152260694
7858844.9967889795 0.057866014754057 0.21079546668691793 0.9421339852459429 -0.21079546668691793 0.9421339852459429 -0.21079546668691793 0.057866014754057 0.21079546668691793
8017731.829395356 0.059949733151737274 0.21444697835953888 0.9400502668482627 -0.21444697835953888 0.9400502668482627 -0.21444697835953888 0.059949733151737274 0.21444697835953888
8179830.96935555 0.0621042129955207 0.2181401090768168 0.9378957870044794 -0.2181401090768168 0.9378957870044794 -0.2181401090768168 0.0621042129955207 0.2181401090768168
8345207.361752584 0.06433136336978014 0.22187414661858107 0.9356686366302197 -0.22187414661858113 0.9356686366302197 -0.22187414661858113 0.06433136336978014 0.22187414661858107
8513927.264701942 0.06663311106495554 0.22564830518329382 0.9333668889350445 -0.22564830518329382 0.9333668889350445 -0.22564830518329382 0.06663311106495554 0.22564830518329382
8686058.275897898 0.069011398346924 0.22946172288532427 0.9309886016530761 -0.22946172288532427 0.9309886016530761 -0.22946172288532427 0.069011398346924 0.22946172288532427
8861669.359696563 0.07146818055953486 0.23331345928711913 0.928531819440465 -0.23331345928711913 0.928531819440465 -0.23331345928711913 0.07146818055953486 0.23331345928711913
