! NFZ32BW451HZ10
# Hz S RI R 50
!Freq.(Hz) S11(Real) S11(Imag) S21(Real) S21(Imag) S12(Real) S12(Imag) S22(Real) S22(Imag)
1000000.0 0.9459366466111445 0.21472828131115357 0.05406335338885552 -0.21472828131115357 0.05406335338885552 -0.21472828131115357 0.9459366466111445 0.21472828131115357
1020217.5806586457 0.94788916253757 0.21092860355491844 0.05211083746242998 -0.21092860355491844 0.05211083746242998 -0.21092860355491844 0.94788916253757 0.21092860355491844
1040843.9118849806 0.9497741490691343 0.20717746874702836 0.050225850930865665 -0.20717746874702833 0.050225850930865665 -0.20717746874702833 0.9497741490691343 0.20717746874702836
1061887.2576265757 0.9515936226104055 0.20347521494056384 0.048406377389594586 -0.20347521494056384 0.048406377389594586 -0.20347521494056384 0.9515936226104055 0.20347521494056384
1083356.0489080292 0.9533495623311796 0.19982211432472707 0.046650437668820384 -0.1998221143247271 0.046650437668820384 -0.1998221143247271 0.9533495623311796 0.19982211432472707
1105258.8872088592 0.9550439090913475 0.19621837652571553 0.044956090908652394 -0.19621837652571555 0.044956090908652394 -0.19621837652571555 0.9550439090913475 0.19621837652571553
1127604.5479096894 0.9566785645369084 0.1926641518329991 0.04332143546309153 -0.1926641518329991 0.04332143546309153 -0.1926641518329991 0.9566785645369084 0.1926641518329991
1150401.9838081095 0.95825539035647 0.18915953434594904 0.04174460964352989 -0.18915953434594907 0.04174460964352989 -0.18915953434594907 0.95825539035647 0.18915953434594904
1173660.328705616 0.9597762076878084 0.18570456503658797 0.04022379231219163 -0.18570456503658797 0.04022379231219163 -0.18570456503658797 0.9597762076878084 0.18570456503658797
1197388.9010670746 0.961242796664331 0.18229923472498677 0.03875720333566898 -0.18229923472498677 0.03875720333566898 -0.18229923472498677 0.961242796664331 0.18229923472498677
1221597.2077541656 0.9626568960915962 0.17894348696454057 0.037343103908403834 -0.17894348696454057 0.037343103908403834 -0.17894348696454057 0.9626568960915962 0.17894348696454057
1246294.947834312 0.9640202032443626 0.17563722083500305 0.03597979675563747 -0.17563722083500305 0.03597979675563747 -0.17563722083500305 0.9640202032443626 0.17563722083500305
1271492.016466615 0.9653343737750012 0.1723802936417463 0.034665626224998934 -0.1723802936417463 0.034665626224998934 -0.1723802936417463 0.9653343737750012 0.1723802936417463
1297198.5088663532 0.966601021724458 0.16917252352026185 0.03339897827554199 -0.16917252352026185 0.03339897827554199 -0.16917252352026185 0.966601021724458 0.16917252352026185
1323424.7243496338 0.9678217196273383 0.16601369194540336 0.03217828037266154 -0.16601369194540336 0.03217828037266154 -0.16601369194540336 0.9678217196273383 0.16601369194540336
1350181.1704598186 0.9689979987030607 0.16290354614531632 0.031002001296939287 -0.16290354614531632 0.031002001296939287 -0.16290354614531632 0.9689979987030607 0.16290354614531632
1377478.5671773748 0.9701313491254193 0.1598418014203972 0.029868650874580804 -0.1598418014203972 0.029868650874580804 -0.1598418014203972 0.9701313491254193 0.1598418014203972
1405327.8512148394 0.9712232203632805 0.156828143367981 0.028776779636719565 -0.156828143367981 0.028776779636719565 -0.156828143367981 0.9712232203632805 0.156828143367981
1433740.1803986167 0.9722750215855236 0.1538622300137675 0.027724978414476322 -0.15386223001376748 0.027724978414476322 -0.15386223001376748 0.9722750215855236 0.1538622300137675
1462726.9381393674 0.9732881221237185 0.1509436938512746 0.026711877876281678 -0.1509436938512746 0.026711877876281678 -0.1509436938512746 0.9732881221237185 0.1509436938512746
1492299.737992774 0.9742638519864056 0.14807214379085107 0.025736148013594366 -0.1480721437908511 0.025736148013594366 -0.1480721437908511 0.9742638519864056 0.14807214379085107
1522470.428312519 0.9752035024192212 0.14524716701998402 0.024796497580778877 -0.14524716701998402 0.024796497580778877 -0.14524716701998402 0.9752035024192212 0.14524716701998402
1553251.0969973304 0.9761083265054505 0.14246833077682036 0.02389167349454941 -0.14246833077682033 0.02389167349454941 -0.14246833077682033 0.9761083265054505 0.14246833077682036
1584654.076334004 0.9769795398019622 0.13973518403896934 0.023020460198037877 -0.13973518403896934 0.023020460198037877 -0.13973518403896934 0.9769795398019622 0.13973518403896934
1616691.9479383389 0.977818321005792 0.13704725912977778 0.022181678994207893 -0.13704725912977778 0.022181678994207893 -0.13704725912977778 0.977818321005792 0.13704725912977778
1649377.5477959653 0.9786258126469879 0.13440407324437198 0.021374187353012063 -0.13440407324437198 0.021374187353012063 -0.13440407324437198 0.9786258126469879 0.13440407324437198
1682723.9714050898 0.9794031218036221 0.13180512989783968 0.02059687819637792 -0.13180512989783968 0.02059687819637792 -0.13180512989783968 0.9794031218036221 0.13180512989783968
1716744.5790232092 0.9801513208351902 0.12924992029798615 0.019848679164809858 -0.12924992029798613 0.019848679164809858 -0.12924992029798613 0.9801513208351902 0.12924992029798615
1751453.001019904 0.9808714481308919 0.1267379246451408 0.0191285518691082 -0.1267379246451408 0.0191285518691082 -0.1267379246451408 0.9808714481308919 0.1267379246451408
1786863.143337851 0.9815645088695645 0.12426861336151934 0.01843549113043555 -0.12426861336151934 0.01843549113043555 -0.12426861336151934 0.9815645088695645 0.12426861336151934
1822989.1930642454 0.9822314757882986 0.12184144825265666 0.017768524211701334 -0.12184144825265665 0.017768524211701334 -0.12184144825265665 0.9822314757882986 0.12184144825265666
1859845.6241148617 0.9828732899570087 0.11945588360342992 0.017126710042991322 -0.11945588360342992 0.017126710042991322 -0.11945588360342992 0.9828732899570087 0.11945588360342992
1897447.2030330333 0.9834908615564638 0.11711136721117765 0.01650913844353633 -0.11711136721117765 0.01650913844353633 -0.11711136721117765 0.9834908615564638 0.11711136721117765
1935808.994905876 0.9840850706575041 0.1148073413584 0.015914929342495877 -0.1148073413584 0.015914929342495877 -0.1148073413584 0.9840850706575041 0.1148073413584
1974946.3694001175 0.9846567679993732 0.11254324372749935 0.015343232000626773 -0.11254324372749935 0.015343232000626773 -0.11254324372749935 0.9846567679993732 0.11254324372749935
2014875.0069199642 0.9852067757652879 0.11031850825997905 0.014793224234712105 -0.11031850825997905 0.014793224234712105 -0.11031850825997905 0.9852067757652879 0.11031850825997905
2055610.904889458 0.9857358883535549 0.10813256596247957 0.01426411164644525 -0.10813256596247957 0.01426411164644525 -0.10813256596247957 0.9857358883535549 0.10813256596247957
2097170.3841618528 0.986244873142707 0.10598484566198009 0.013755126857292865 -0.10598484566198009 0.013755126857292865 -0.10598484566198009 0.986244873142707 0.10598484566198009
2139570.0955585684 0.9867344712492981 0.10387477471244086 0.013265528750701822 -0.10387477471244086 0.013265528750701822 -0.10387477471244086 0.9867344712492981 0.10387477471244086
2182827.0265403506 0.9872053982771328 0.10180177965510619 0.012794601722867172 -0.10180177965510617 0.012794601722867172 -0.10180177965510617 0.9872053982771328 0.10180177965510619
2226958.508013302 0.9876583450568605 0.09976528683462553 0.012341654943139603 -0.09976528683462552 0.012341654943139603 -0.09976528683462552 0.9876583450568605 0.09976528683462553
2271982.2212725184 0.9880939783749769 0.09776472297309034 0.011906021625023154 -0.09776472297309033 0.011906021625023154 -0.09776472297309033 0.9880939783749769 0.09776472297309034
2317916.205086105 0.9885129416914052 0.09579951570401854 0.011487058308594747 -0.09579951570401854 0.011487058308594747 -0.09579951570401854 0.9885129416914052 0.09579951570401854
2364778.8629224156 0.9889158558449331 0.09386909406825267 0.011084144155066917 -0.09386909406825267 0.011084144155066917 -0.09386909406825267 0.9889158558449331 0.09386909406825267
2412588.9703234104 0.9893033197458864 0.0919728889736723 0.01069668025411362 -0.09197288897367231 0.01069668025411362 -0.09197288897367231 0.9893033197458864 0.0919728889736723
2461365.682427083 0.9896759110555148 0.09011033362055401 0.01032408894448523 -0.09011033362055401 0.01032408894448523 -0.09011033362055401 0.9896759110555148 0.09011033362055401
2511128.5416419753 0.9900341868516476 0.08828086389434482 0.009965813148352378 -0.08828086389434482 0.009965813148352378 -0.08828086389434482 0.9900341868516476 0.08828086389434482
2561897.48547685 0.9903786842802609 0.0864839187275487 0.009621315719739268 -0.08648391872754868 0.009621315719739268 -0.08648391872754868 0.9903786842802609 0.0864839187275487
2613692.85452866 0.9907099211926655 0.08471894043235922 0.009290078807334467 -0.08471894043235922 0.009290078807334467 -0.08471894043235922 0.9907099211926655 0.08471894043235922
2666535.4006320196 0.9910283967680994 0.08298537500560617 0.008971603231900747 -0.08298537500560617 0.008971603231900747 -0.08298537500560617 0.9910283967680994 0.08298537500560617
2720446.295173432 0.9913345921215547 0.0812826724075189 0.008665407878445244 -0.0812826724075189 0.008665407878445244 -0.0812826724075189 0.9913345921215547 0.0812826724075189
2775447.137573615 0.9916289708967438 0.07961028681574689 0.008371029103256034 -0.07961028681574688 0.008371029103256034 -0.07961028681574688 0.9916289708967438 0.07961028681574689
2831559.963941318 0.9919119798441387 0.07796767685601402 0.008088020155861228 -0.07796767685601402 0.008088020155861228 -0.07796767685601402 0.9919119798441387 0.07796767685601402
2888807.255902094 0.9921840493840782 0.07635430581072486 0.007815950615921876 -0.07635430581072483 0.007815950615921876 -0.07635430581072483 0.9921840493840782 0.07635430581072486
2947211.9496055758 0.9924455941549712 0.07476964180677935 0.007554405845028763 -0.07476964180677936 0.007554405845028763 -0.07476964180677936 0.9924455941549712 0.07476964180677935
3006797.4449148513 0.992697013546663 0.07321315798379756 0.00730298645333702 -0.07321315798379756 0.00730298645333702 -0.07321315798379756 0.992697013546663 0.07321315798379756
3067587.6147816274 0.9929386922190606 0.07168433264389798 0.0070613077809395155 -0.07168433264389797 0.0070613077809395155 -0.07168433264389797 0.9929386922190606 0.07168433264389798
3129606.8148109377 0.9931710006061493 0.07018264938411956 0.006828999393850658 -0.07018264938411957 0.006828999393850658 -0.07018264938411957 0.9931710006061493 0.07018264938411956
3192879.893019226 0.9933942954055535 0.06870759721252638 0.006605704594446657 -0.06870759721252638 0.006605704594446657 -0.06870759721252638 0.9933942954055535 0.06870759721252638
3257432.1997897103 0.9936089200538152 0.06725867064898063 0.006391079946184977 -0.06725867064898064 0.006391079946184977 -0.06725867064898064 0.9936089200538152 0.06725867064898063
3323289.598029029 0.9938152051875939 0.06583536981152407 0.006184794812406087 -0.06583536981152407 0.006184794812406087 -0.06583536981152407 0.9938152051875939 0.06583536981152407
3390478.4735292196 0.9940134690909973 0.06443720048925769 0.0059865309090025975 -0.06443720048925769 0.0059865309090025975 -0.06443720048925769 0.9940134690909973 0.06443720048925769
3459025.745539199 0.9942040181292738 0.06306367420256702 0.005795981870726227 -0.06306367420256702 0.005795981870726227 -0.06306367420256702 0.9942040181292738 0.06306367420256702
3528958.8775499705 0.9943871471691103 0.06171430825149488 0.005612852830889725 -0.06171430825149488 0.005612852830889725 -0.06171430825149488 0.9943871471691103 0.06171430825149488
3600305.8882978815 0.9945631399857898 0.06038862575302285 0.00543686001421013 -0.06038862575302287 0.00543686001421013 -0.06038862575302287 0.9945631399857898 0.06038862575302285
3673095.3629903416 0.9947322696574694 0.059086155667982164 0.005267730342530515 -0.059086155667982164 0.005267730342530515 -0.059086155667982164 0.9947322696574694 0.059086155667982164
3747356.4647584967 0.9948947989468501 0.05780643281827631 0.0051052010531499456 -0.057806432818276306 0.0051052010531499456 -0.057806432818276306 0.9948947989468501 0.05780643281827631
3823118.9463414503 0.9950509806705146 0.05654899789506155 0.0049490193294854734 -0.05654899789506155 0.0049490193294854734 -0.05654899789506155 0.9950509806705146 0.05654899789506155
3900413.1620067055 0.9952010580562147 0.05531339745849545 0.004798941943785335 -0.05531339745849547 0.004798941943785335 -0.05531339745849547 0.9952010580562147 0.05531339745849545
3979270.0797116193 0.9953452650883905 0.05409918392963074 0.00465473491160936 -0.05409918392963074 0.00465473491160936 -0.05409918392963074 0.9953452650883905 0.05409918392963074
4059721.293510725 0.9954838268422096 0.05290591557499968 0.004516173157790367 -0.0529059155749997 0.004516173157790367 -0.0529059155749997 0.9954838268422096 0.05290591557499968
4141799.0362139 0.9956169598064109 0.0517331564844029 0.004383040193589111 -0.051733156484402895 0.004383040193589111 -0.051733156484402895 0.9956169598064109 0.0517331564844029
4225536.192300457 0.9957448721952447 0.050580476542388696 0.004255127804755395 -0.050580476542388696 0.004255127804755395 -0.050580476542388696 0.9957448721952447 0.050580476542388696
4310966.311094318 0.9958677642497917 0.0494474513938798 0.0041322357502082616 -0.04944745139387979 0.0041322357502082616 -0.04944745139387979 0.9958677642497917 0.0494474513938798
4398123.620205573 0.9959858285289505 0.04833366240437897 0.00401417147104981 -0.04833366240437898 0.00401417147104981 -0.04833366240437898 0.9959858285289505 0.04833366240437897
4487043.0392437745 0.9960992501903707 0.047238696615159496 0.0039007498096291053 -0.047238696615159496 0.0039007498096291053 -0.047238696615159496 0.9960992501903707 0.047238696615159496
4577760.193808502 0.9962082072616248 0.04616214669382222 0.00379179273837526 -0.046162146693822216 0.00379179273837526 -0.046162146693822216 0.9962082072616248 0.04616214669382222
4670311.429762763 0.996312870901878 0.0451036108805791 0.0036871290981219974 -0.0451036108805791 0.0036871290981219974 -0.0451036108805791 0.996312870901878 0.0451036108805791
4764733.827794987 0.9964134056543503 0.044062692930600306 0.0035865943456495158 -0.044062692930600306 0.0035865943456495158 -0.044062692930600306 0.9964134056543503 0.044062692930600306
4861065.218275411 0.9965099696898265 0.04303900205274262 0.003490030310173562 -0.04303900205274262 0.003490030310173562 -0.04303900205274262 0.9965099696898265 0.04303900205274262
4959344.196412832 0.996602715041484 0.04203215284495663 0.003397284958515938 -0.04203215284495662 0.003397284958515938 -0.04203215284495662 0.996602715041484 0.04203215284495663
5059610.137717796 0.9966917878313046 0.04104176522665204 0.0033082121686953347 -0.04104176522665203 0.0033082121686953347 -0.04104176522665203 0.9966917878313046 0.04104176522665204
5161903.213778406 0.9967773284883177 0.04006746436828317 0.003222671511682296 -0.04006746436828318 0.003222671511682296 -0.04006746436828318 0.9967773284883177 0.04006746436828317
5266264.4083550945 0.9968594719589328 0.039108880618399455 0.0031405280410672716 -0.03910888061839946 0.0031405280410672716 -0.03910888061839946 0.9968594719589328 0.039108880618399455
5372735.53380077 0.996938347909604 0.038165649428391 0.0030616520903960255 -0.038165649428391 0.0030616520903960255 -0.038165649428391 0.996938347909604 0.038165649428391
5481359.247812959 0.997014080922068 0.037237411275143247 0.0029859190779320762 -0.03723741127514323 0.0029859190779320762 -0.03723741127514323 0.997014080922068 0.037237411275143247
5592179.070524632 0.9970867906813885 0.03632381158180206 0.002913209318611533 -0.03632381158180207 0.002913209318611533 -0.03632381158180207 0.9970867906813885 0.03632381158180206
5705239.401940555 0.9971565921570388 0.035424500636836054 0.002843407842961253 -0.035424500636836054 0.002843407842961253 -0.035424500636836054 0.9971565921570388 0.035424500636836054
5820585.5397261735 0.997223595777243 0.034539133511570716 0.002776404222757031 -0.03453913351157072 0.002776404222757031 -0.03453913351157072 0.997223595777243 0.034539133511570716
5938263.697356135 0.9972879075967958 0.03366736997635784 0.002712092403204332 -0.03366736997635783 0.002712092403204332 -0.03366736997635783 0.9972879075967958 0.03366736997635784
6058321.022629741 0.9973496294585701 0.03280887441553087 0.0026503705414298055 -0.03280887441553087 0.0026503705414298055 -0.03280887441553087 0.9973496294585701 0.03280887441553087
6180805.616560728 0.9974088591489224 0.031963315741288 0.0025911408510777265 -0.03196331574128801 0.0025911408510777265 -0.03196331574128801 0.9974088591489224 0.031963315741288
6305766.552648956 0.9974656905471888 0.03113036730663324 0.0025343094528112184 -0.03113036730663324 0.0025343094528112184 -0.03113036730663324 0.9974656905471888 0.03113036730663324
6433253.896541728 0.997520213769476 0.030309706817497128 0.002479786230523937 -0.03030970681749713 0.002479786230523937 -0.03030970681749713 0.997520213769476 0.030309706817497128
6563318.726092606 0.9975725153069265 0.0295010162441498 0.002427484693073627 -0.0295010162441498 0.002427484693073627 -0.0295010162441498 0.9975725153069265 0.0295010162441498
6696013.151825785 0.9976226781586455 0.02870398173200987 0.002377321841354615 -0.02870398173200988 0.002377321841354615 -0.02870398173200988 0.9976226781586455 0.02870398173200987
6831390.3378141755 0.9976707819594679 0.027918293511946024 0.0023292180405320158 -0.027918293511946024 0.0023292180405320158 -0.027918293511946024 0.9976707819594679 0.027918293511946024
6969504.522979628 0.9977169031027341 0.02714364581015913 0.002283096897265894 -0.027143645810159128 0.002283096897265894 -0.027143645810159128 0.9977169031027341 0.02714364581015913
7110411.042823766 0.9977611148582408 0.026379736757726913 0.002238885141759192 -0.02637973675772692 0.002238885141759192 -0.02637973675772692 0.9977611148582408 0.026379736757726913
7254166.351598182 0.9978034874855314 0.025626268299886023 0.0021965125144686403 -0.025626268299886023 0.0021965125144686403 -0.025626268299886023 0.9978034874855314 0.025626268299886023
7400828.044922853 0.9978440883426768 0.024882946105119732 0.00215591165732316 -0.024882946105119742 0.00215591165732316 -0.024882946105119742 0.9978440883426768 0.024882946105119732
7550454.882861849 0.9978829819907004 0.024149479474114544 0.002117018009299554 -0.024149479474114544 0.002117018009299554 -0.024149479474114544 0.9978829819907004 0.024149479474114544
7703106.813465575 0.9979202302937896 0.023425581248642243 0.0020797697062104156 -0.023425581248642236 0.0020797697062104156 -0.023425581248642236 0.9979202302937896 0.023425581248642243
7858844.9967889795 0.9979558925154359 0.02271096772041976 0.0020441074845642293 -0.022710967720419768 0.0020441074845642293 -0.022710967720419768 0.9979558925154359 0.02271096772041976
8017731.829395356 0.9979900254106374 0.022005358539993768 0.002009974589362626 -0.02200535853999377 0.002009974589362626 -0.02200535853999377 0.9979900254106374 0.022005358539993768
8179830.96935555 0.9980226833142954 0.02130847662569192 0.0019773166857045815 -0.021308476625691918 0.0019773166857045815 -0.021308476625691918 0.9980226833142954 0.02130847662569192
8345207.361752584 0.9980539182259277 0.020620048072679417 0.0019460817740721494 -0.02062004807267941 0.0019460817740721494 -0.02062004807267941 0.9980539182259277 0.020620048072679417
8513927.264701942 0.9980837798908231 0.019939802062154326 0.0019162201091769257 -0.019939802062154326 0.0019162201091769257 -0.019939802062154326 0.9980837798908231 0.019939802062154326
8686058.275897898 0.998112315877749 0.019267470770712027 0.0018876841222510716 -0.01926747077071202 0.0018876841222510716 -0.01926747077071202 0.998112315877749 0.019267470770712027
