! NFZ32BW6R8HZ11
# Hz S RI R 50
!Freq.(Hz) S11(Real) S11(Imag) S21(Real) S21(Imag) S12(Real) S12(Imag) S22(Real) S22(Imag)
1000000.0 0.0069516595475103094 0.06146172681711539 0.9930483404524896 -0.06146172681711539 0.9930483404524896 -0.06146172681711539 0.0069516595475103094 0.06146172681711539
1020217.5806586457 0.0071566456353563245 0.06263632051011696 0.9928433543646438 -0.06263632051011696 0.9928433543646438 -0.06263632051011696 0.0071566456353563245 0.06263632051011696
1040843.9118849806 0.007367589229084537 0.06383309110921025 0.9926324107709156 -0.06383309110921025 0.9926324107709156 -0.06383309110921025 0.007367589229084537 0.06383309110921025
1061887.2576265757 0.007584695805849641 0.06505248148613056 0.9924153041941504 -0.06505248148613056 0.9924153041941504 -0.06505248148613056 0.007584695805849641 0.06505248148613056
1083356.0489080292 0.007808181279254831 0.06629494298400974 0.9921918187207452 -0.06629494298400974 0.9921918187207452 -0.06629494298400974 0.007808181279254831 0.06629494298400974
1105258.8872088592 0.00803827248715464 0.06756093535326116 0.9919617275128453 -0.06756093535326116 0.9919617275128453 -0.06756093535326116 0.00803827248715464 0.06756093535326116
1127604.5479096894 0.00827520768643368 0.06885092667080743 0.9917247923135664 -0.06885092667080743 0.9917247923135664 -0.06885092667080743 0.00827520768643368 0.06885092667080743
1150401.9838081095 0.00851923705439224 0.07016539324262437 0.9914807629456078 -0.07016539324262437 0.9914807629456078 -0.07016539324262437 0.00851923705439224 0.07016539324262437
1173660.328705616 0.008770623196435984 0.0715048194895975 0.9912293768035642 -0.0715048194895975 0.9912293768035642 -0.0715048194895975 0.008770623196435984 0.0715048194895975
1197388.9010670746 0.009029641659837781 0.07286969781670279 0.9909703583401622 -0.07286969781670279 0.9909703583401622 -0.07286969781670279 0.009029641659837781 0.07286969781670279
1221597.2077541656 0.009296581453413031 0.0742605284655239 0.9907034185465871 -0.0742605284655239 0.9907034185465871 -0.0742605284655239 0.009296581453413031 0.0742605284655239
1246294.947834312 0.00957174557302494 0.07567781935011046 0.990428254426975 -0.07567781935011046 0.990428254426975 -0.07567781935011046 0.00957174557302494 0.07567781935011046
1271492.016466615 0.009855451532911353 0.07712208587616039 0.9901445484670888 -0.07712208587616039 0.9901445484670888 -0.07712208587616039 0.009855451532911353 0.07712208587616039
1297198.5088663532 0.010148031902898449 0.0785938507434775 0.9898519680971015 -0.0785938507434775 0.9898519680971015 -0.0785938507434775 0.010148031902898449 0.0785938507434775
1323424.7243496338 0.010449834851638024 0.08009364373161212 0.9895501651483618 -0.08009364373161211 0.9895501651483618 -0.08009364373161211 0.010449834851638024 0.08009364373161212
1350181.1704598186 0.010761224696072012 0.08162200146853656 0.9892387753039279 -0.08162200146853656 0.9892387753039279 -0.08162200146853656 0.010761224696072012 0.08162200146853656
1377478.5671773748 0.011082582457390138 0.08317946718214275 0.98891741754261 -0.08317946718214275 0.98891741754261 -0.08317946718214275 0.011082582457390138 0.08317946718214275
1405327.8512148394 0.011414306423802012 0.08476659043427305 0.9885856935761979 -0.08476659043427305 0.9885856935761979 -0.08476659043427305 0.011414306423802012 0.08476659043427305
1433740.1803986167 0.0117568127204932 0.08638392683690989 0.9882431872795067 -0.08638392683690987 0.9882431872795067 -0.08638392683690987 0.0117568127204932 0.08638392683690989
1462726.9381393674 0.012110535887174517 0.0880320377500562 0.9878894641128254 -0.0880320377500562 0.9878894641128254 -0.0880320377500562 0.012110535887174517 0.0880320377500562
1492299.737992774 0.01247592946366414 0.08971148996073687 0.987524070536336 -0.08971148996073687 0.987524070536336 -0.08971148996073687 0.01247592946366414 0.08971148996073687
1522470.428312519 0.012853466583962773 0.09142285534244256 0.9871465334160372 -0.09142285534244256 0.9871465334160372 -0.09142285534244256 0.012853466583962773 0.09142285534244256
1553251.0969973304 0.01324364057929149 0.09316671049422216 0.9867563594207085 -0.09316671049422216 0.9867563594207085 -0.09316671049422216 0.01324364057929149 0.09316671049422216
1584654.076334004 0.013646965590561012 0.09494363635851123 0.9863530344094389 -0.09494363635851125 0.9863530344094389 -0.09494363635851125 0.013646965590561012 0.09494363635851123
1616691.9479383389 0.014063977190727899 0.09675421781665942 0.9859360228092721 -0.09675421781665941 0.9859360228092721 -0.09675421781665941 0.014063977190727899 0.09675421781665942
1649377.5477959653 0.01449523301746826 0.09859904326099136 0.985504766982532 -0.09859904326099136 0.985504766982532 -0.09859904326099136 0.01449523301746826 0.09859904326099136
1682723.9714050898 0.0149413134165631 0.10047870414210994 0.985058686583437 -0.10047870414210994 0.985058686583437 -0.10047870414210994 0.0149413134165631 0.10047870414210994
1716744.5790232092 0.015402822096339577 0.10239379449001498 0.9845971779036604 -0.10239379449001498 0.9845971779036604 -0.10239379449001498 0.015402822096339577 0.10239379449001498
1751453.001019904 0.01588038679345136 0.10434491040748389 0.9841196132065486 -0.10434491040748392 0.9841196132065486 -0.10434491040748392 0.01588038679345136 0.10434491040748389
1786863.143337851 0.01637465995020675 0.1063326495340261 0.9836253400497932 -0.10633264953402613 0.9836253400497932 -0.10633264953402613 0.01637465995020675 0.1063326495340261
1822989.1930642454 0.016886319403567294 0.10835761047859661 0.9831136805964327 -0.10835761047859664 0.9831136805964327 -0.10835761047859664 0.016886319403567294 0.10835761047859661
1859845.6241148617 0.017416069085839717 0.11042039221912167 0.9825839309141603 -0.11042039221912167 0.9825839309141603 -0.11042039221912167 0.017416069085839717 0.11042039221912167
1897447.2030330333 0.017964639736973476 0.11252159346676799 0.9820353602630265 -0.11252159346676799 0.9820353602630265 -0.11252159346676799 0.017964639736973476 0.11252159346676799
1935808.994905876 0.01853278962825152 0.114661811992761 0.9814672103717484 -0.11466181199276101 0.9814672103717484 -0.11466181199276101 0.01853278962825152 0.114661811992761
1974946.3694001175 0.019121305297025694 0.11684164391544025 0.9808786947029744 -0.11684164391544025 0.9808786947029744 -0.11684164391544025 0.019121305297025694 0.11684164391544025
2014875.0069199642 0.019731002291999374 0.1190616829451246 0.9802689977080006 -0.1190616829451246 0.9802689977080006 -0.1190616829451246 0.019731002291999374 0.1190616829451246
2055610.904889458 0.0203627259283979 0.12132251958424972 0.979637274071602 -0.1213225195842497 0.979637274071602 -0.1213225195842497 0.0203627259283979 0.12132251958424972
2097170.3841618528 0.021017352052193742 0.12362474028013717 0.9789826479478063 -0.12362474028013717 0.9789826479478063 -0.12362474028013717 0.021017352052193742 0.12362474028013717
2139570.0955585684 0.02169578781236575 0.12596892652765374 0.9783042121876343 -0.12596892652765376 0.9783042121876343 -0.12596892652765376 0.02169578781236575 0.12596892652765374
2182827.0265403506 0.022398972439972333 0.12835565391893045 0.9776010275600278 -0.12835565391893042 0.9776010275600278 -0.12835565391893042 0.022398972439972333 0.12835565391893045
2226958.508013302 0.023127878032604715 0.13078549113722351 0.9768721219673955 -0.13078549113722351 0.9768721219673955 -0.13078549113722351 0.023127878032604715 0.13078549113722351
2271982.2212725184 0.02388351034256058 0.13325899889192686 0.9761164896574395 -0.13325899889192686 0.9761164896574395 -0.13325899889192686 0.02388351034256058 0.13325899889192686
2317916.205086105 0.02466690956683714 0.1357767287916732 0.9753330904331631 -0.1357767287916732 0.9753330904331631 -0.1357767287916732 0.02466690956683714 0.1357767287916732
2364778.8629224156 0.025479151136789707 0.13833922215240915 0.9745208488632103 -0.13833922215240915 0.9745208488632103 -0.13833922215240915 0.025479151136789707 0.13833922215240915
2412588.9703234104 0.02632134650503242 0.1409470087372779 0.9736786534949675 -0.1409470087372779 0.9736786534949675 -0.1409470087372779 0.02632134650503242 0.1409470087372779
2461365.682427083 0.027194643926874807 0.14360060542510908 0.9728053560731252 -0.14360060542510908 0.9728053560731252 -0.14360060542510908 0.027194643926874807 0.14360060542510908
2511128.5416419753 0.028100229233290808 0.1463005148042963 0.9718997707667092 -0.14630051480429626 0.9718997707667092 -0.14630051480429626 0.028100229233290808 0.1463005148042963
2561897.48547685 0.029039326592102264 0.1490472236888288 0.9709606734078977 -0.1490472236888288 0.9709606734078977 -0.1490472236888288 0.029039326592102264 0.1490472236888288
2613692.85452866 0.03001319925373166 0.15184120155325817 0.9699868007462684 -0.1518412015532582 0.9699868007462684 -0.1518412015532582 0.03001319925373166 0.15184120155325817
2666535.4006320196 0.031023150277533766 0.15468289888340017 0.9689768497224663 -0.15468289888340014 0.9689768497224663 -0.15468289888340014 0.031023150277533766 0.15468289888340017
2720446.295173432 0.03207052323435593 0.15757274543961997 0.9679294767656441 -0.15757274543961997 0.9679294767656441 -0.15757274543961997 0.03207052323435593 0.15757274543961997
2775447.137573615 0.03315670288060113 0.16051114842961275 0.9668432971193988 -0.16051114842961275 0.9668432971193988 -0.16051114842961275 0.03315670288060113 0.16051114842961275
2831559.963941318 0.03428311579867562 0.16349849058767776 0.9657168842013244 -0.16349849058767776 0.9657168842013244 -0.16349849058767776 0.03428311579867562 0.16349849058767776
2888807.255902094 0.03545123099829557 0.16653512815760063 0.9645487690017044 -0.16653512815760063 0.9645487690017044 -0.16653512815760063 0.03545123099829557 0.16653512815760063
2947211.9496055758 0.03666256047270531 0.16962138877639812 0.9633374395272949 -0.16962138877639815 0.9633374395272949 -0.16962138877639815 0.03666256047270531 0.16962138877639812
3006797.4449148513 0.03791865970342061 0.1727575692563493 0.9620813402965794 -0.1727575692563493 0.9620813402965794 -0.1727575692563493 0.03791865970342061 0.1727575692563493
3067587.6147816274 0.03922112810666053 0.17594393326294436 0.9607788718933394 -0.17594393326294436 0.9607788718933394 -0.17594393326294436 0.03922112810666053 0.17594393326294436
3129606.8148109377 0.04057160941416583 0.17918070888662002 0.9594283905858342 -0.17918070888662 0.9594283905858342 -0.17918070888662 0.04057160941416583 0.17918070888662002
3192879.893019226 0.04197179198062557 0.1824680861064306 0.9580282080193745 -0.1824680861064306 0.9580282080193745 -0.1824680861064306 0.04197179198062557 0.1824680861064306
3257432.1997897103 0.04342340900944806 0.18580621414412646 0.9565765909905519 -0.18580621414412646 0.9565765909905519 -0.18580621414412646 0.04342340900944806 0.18580621414412646
3323289.598029029 0.0449282386881158 0.18919519870747534 0.9550717613118842 -0.18919519870747534 0.9550717613118842 -0.18919519870747534 0.0449282386881158 0.18919519870747534
3390478.4735292196 0.04648810422386504 0.1926350991220817 0.953511895776135 -0.19263509912208174 0.953511895776135 -0.19263509912208174 0.04648810422386504 0.1926350991220817
3459025.745539199 0.04810487376992567 0.19612592535142576 0.9518951262300743 -0.19612592535142573 0.9518951262300743 -0.19612592535142573 0.04810487376992567 0.19612592535142576
3528958.8775499705 0.04978046023205325 0.19966763490536696 0.9502195397679468 -0.19966763490536696 0.9502195397679468 -0.19966763490536696 0.04978046023205325 0.19966763490536696
3600305.8882978815 0.051516820944586 0.2032601296379468 0.9484831790554141 -0.20326012963794682 0.9484831790554141 -0.20326012963794682 0.051516820944586 0.2032601296379468
3673095.3629903416 0.05331595720476546 0.2069032524359651 0.9466840427952344 -0.2069032524359651 0.9466840427952344 -0.2069032524359651 0.05331595720476546 0.2069032524359651
3747356.4647584967 0.05517991365358257 0.21059678380052618 0.9448200863464175 -0.21059678380052618 0.9448200863464175 -0.21059678380052618 0.05517991365358257 0.21059678380052618
3823118.9463414503 0.05711077749094806 0.21434043832453142 0.9428892225090518 -0.21434043832453142 0.9428892225090518 -0.21434043832453142 0.05711077749094806 0.21434043832453142
3900413.1620067055 0.059110677512550336 0.21813386106995372 0.9408893224874495 -0.21813386106995372 0.9408893224874495 -0.21813386106995372 0.059110677512550336 0.21813386106995372
3979270.0797116193 0.06118178295535925 0.22197662384966493 0.9388182170446407 -0.22197662384966496 0.9388182170446407 -0.22197662384966496 0.06118178295535925 0.22197662384966493
4059721.293510725 0.06332630213836649 0.22586822141959811 0.9366736978616336 -0.22586822141959811 0.9366736978616336 -0.22586822141959811 0.06332630213836649 0.22586822141959811
4141799.0362139 0.06554648088483526 0.2298080675881237 0.9344535191151649 -0.2298080675881237 0.9344535191151649 -0.2298080675881237 0.06554648088483526 0.2298080675881237
4225536.192300457 0.06784460071206717 0.23379549125069085 0.9321553992879328 -0.23379549125069085 0.9321553992879328 -0.23379549125069085 0.06784460071206717 0.23379549125069085
4310966.311094318 0.0702229767744985 0.23782973235905078 0.9297770232255015 -0.23782973235905078 0.9297770232255015 -0.23782973235905078 0.0702229767744985 0.23782973235905078
4398123.620205573 0.07268395554581512 0.24190993783571751 0.9273160444541849 -0.24190993783571757 0.9273160444541849 -0.24190993783571757 0.07268395554581512 0.24190993783571751
4487043.0392437745 0.07522991222574311 0.2460351574457501 0.9247700877742568 -0.2460351574457501 0.9247700877742568 -0.2460351574457501 0.07522991222574311 0.2460351574457501
4577760.193808502 0.07786324785723871 0.25020433963945016 0.9221367521427611 -0.2502043396394501 0.9221367521427611 -0.2502043396394501 0.07786324785723871 0.25020433963945016
4670311.429762763 0.08058638613997725 0.25441632738114733 0.9194136138600227 -0.25441632738114733 0.9194136138600227 -0.25441632738114733 0.08058638613997725 0.25441632738114733
4764733.827794987 0.08340176992635 0.2586698539809165 0.9165982300736502 -0.2586698539809165 0.9165982300736502 -0.2586698539809165 0.08340176992635 0.2586698539809165
4861065.218275411 0.08631185738661376 0.26296353894778257 0.9136881426133864 -0.26296353894778257 0.9136881426133864 -0.26296353894778257 0.08631185738661376 0.26296353894778257
4959344.196412832 0.08931911783044275 0.26729588388477243 0.9106808821695572 -0.26729588388477243 0.9106808821695572 -0.26729588388477243 0.08931911783044275 0.26729588388477243
5059610.137717796 0.09242602717289038 0.27166526844800143 0.9075739728271096 -0.27166526844800143 0.9075739728271096 -0.27166526844800143 0.09242602717289038 0.27166526844800143
5161903.213778406 0.09563506303371892 0.27606994639386684 0.9043649369662811 -0.27606994639386684 0.9043649369662811 -0.27606994639386684 0.09563506303371892 0.27606994639386684
5266264.4083550945 0.09894869946019691 0.28050804174032623 0.9010513005398032 -0.28050804174032623 0.9010513005398032 -0.28050804174032623 0.09894869946019691 0.28050804174032623
5372735.53380077 0.10236940126481806 0.28497754507015527 0.8976305987351821 -0.28497754507015527 0.8976305987351821 -0.28497754507015527 0.10236940126481806 0.28497754507015527
5481359.247812959 0.10589961797097323 0.28947631000599067 0.8941003820290266 -0.28947631000599067 0.8941003820290266 -0.28947631000599067 0.10589961797097323 0.28947631000599067
5592179.070524632 0.10954177736142207 0.2940020498888495 0.890458222638578 -0.2940020498888495 0.890458222638578 -0.2940020498888495 0.10954177736142207 0.2940020498888495
5705239.401940555 0.11329827862646934 0.2985523346936446 0.8867017213735305 -0.29855233469364456 0.8867017213735305 -0.29855233469364456 0.11329827862646934 0.2985523346936446
5820585.5397261735 0.11717148511107597 0.3031245882169821 0.882828514888924 -0.3031245882169822 0.882828514888924 -0.3031245882169822 0.11717148511107597 0.3031245882169821
5938263.697356135 0.1211637166627123 0.3077160855741728 0.8788362833372877 -0.3077160855741728 0.8788362833372877 -0.3077160855741728 0.1211637166627123 0.3077160855741728
6058321.022629741 0.12527724158461914 0.3123239510439128 0.8747227584153808 -0.31232395104391275 0.8747227584153808 -0.31232395104391275 0.12527724158461914 0.3123239510439128
6180805.616560728 0.12951426820226988 0.31694515630044623 0.8704857317977301 -0.31694515630044623 0.8704857317977301 -0.31694515630044623 0.12951426820226988 0.31694515630044623
6305766.552648956 0.13387693605421933 0.32157651907415924 0.8661230639457804 -0.32157651907415924 0.8661230639457804 -0.32157651907415924 0.13387693605421933 0.32157651907415924
6433253.896541728 0.13836730672219774 0.3262147022824798 0.8616326932778023 -0.3262147022824798 0.8616326932778023 -0.3262147022824798 0.13836730672219774 0.3262147022824798
6563318.726092606 0.14298735431922374 0.33085621367357393 0.8570126456807763 -0.33085621367357393 0.8570126456807763 -0.33085621367357393 0.14298735431922374 0.33085621367357393
6696013.151825785 0.14773895565868136 0.3354974060256511 0.8522610443413184 -0.33549740602565115 0.8522610443413184 -0.33549740602565115 0.14773895565868136 0.3354974060256511
6831390.3378141755 0.15262388013169226 0.34013447794463103 0.8473761198683077 -0.3401344779446311 0.8473761198683077 -0.3401344779446311 0.15262388013169226 0.34013447794463103
6969504.522979628 0.15764377932470822 0.3447634753024797 0.8423562206752917 -0.3447634753024797 0.8423562206752917 -0.3447634753024797 0.15764377932470822 0.3447634753024797
7110411.042823766 0.1628001764140062 0.349380293357623 0.8371998235859939 -0.349380293357623 0.8371998235859939 -0.349380293357623 0.1628001764140062 0.349380293357623
7254166.351598182 0.1680944553786586 0.35398067959746987 0.8319055446213415 -0.35398067959746987 0.8319055446213415 -0.35398067959746987 0.1680944553786586 0.35398067959746987
7400828.044922853 0.17352785007853055 0.3585602373411776 0.8264721499214696 -0.3585602373411776 0.8264721499214696 -0.3585602373411776 0.17352785007853055 0.3585602373411776
7550454.882861849 0.17910143324887035 0.36311443013833794 0.8208985667511297 -0.36311443013833805 0.8208985667511297 -0.36311443013833805 0.17910143324887035 0.36311443013833794
7703106.813465575 0.1848161054680577 0.36763858699622953 0.8151838945319423 -0.36763858699622953 0.8151838945319423 -0.36763858699622953 0.1848161054680577 0.36763858699622953
7858844.9967889795 0.19067258415998353 0.37212790846462385 0.8093274158400164 -0.37212790846462385 0.8093274158400164 -0.37212790846462385 0.19067258415998353 0.37212790846462385
8017731.829395356 0.19667139269729614 0.3765774736028649 0.8033286073027041 -0.3765774736028649 0.8033286073027041 -0.3765774736028649 0.19667139269729614 0.3765774736028649
8179830.96935555 0.2028128496762793 0.38098224784901485 0.7971871503237208 -0.38098224784901485 0.7971871503237208 -0.38098224784901485 0.2028128496762793 0.38098224784901485
8345207.361752584 0.20909705843834578 0.38533709180529924 0.7909029415616542 -0.38533709180529924 0.7909029415616542 -0.38533709180529924 0.20909705843834578 0.38533709180529924
8513927.264701942 0.21552389691695742 0.38963677094788407 0.7844761030830426 -0.38963677094788407 0.7844761030830426 -0.38963677094788407 0.21552389691695742 0.38963677094788407
8686058.275897898 0.22209300789212683 0.39387596626219856 0.7779069921078733 -0.39387596626219856 0.7779069921078733 -0.39387596626219856 0.22209300789212683 0.39387596626219856
8861669.359696563 0.22880378973742496 0.3980492857976058 0.7711962102625751 -0.3980492857976058 0.7711962102625751 -0.3980492857976058 0.22880378973742496 0.3980492857976058
9040830.87474648 0.23565538774653244 0.40215127712726867 0.7643446122534675 -0.40215127712726867 0.7643446122534675 -0.40215127712726867 0.23565538774653244 0.40215127712726867
