! NFZ32BW8R4HN11
# Hz S RI R 50
!Freq.(Hz) S11(Real) S11(Imag) S21(Real) S21(Imag) S12(Real) S12(Imag) S22(Real) S22(Imag)
1000000.0 0.006800676784326055 0.07646892775577134 0.9931993232156741 -0.07646892775577134 0.9931993232156741 -0.07646892775577134 0.006800676784326055 0.07646892775577134
1020217.5806586457 0.007056982251989237 0.07799315760042916 0.9929430177480106 -0.07799315760042916 0.9929430177480106 -0.07799315760042916 0.007056982251989237 0.07799315760042916
1040843.9118849806 0.007323601954746567 0.07954686886806922 0.9926763980452534 -0.07954686886806922 0.9926763980452534 -0.07954686886806922 0.007323601954746567 0.07954686886806922
1061887.2576265757 0.007600944455889707 0.08113057640250346 0.9923990555441105 -0.08113057640250346 0.9923990555441105 -0.08113057640250346 0.007600944455889707 0.08113057640250346
1083356.0489080292 0.007889433965475721 0.08274480057754315 0.9921105660345242 -0.08274480057754315 0.9921105660345242 -0.08274480057754315 0.007889433965475721 0.08274480057754315
1105258.8872088592 0.008189510895045778 0.08439006712196345 0.9918104891049543 -0.08439006712196345 0.9918104891049543 -0.08439006712196345 0.008189510895045778 0.08439006712196345
1127604.5479096894 0.00850163242826663 0.08606690692472196 0.9914983675717333 -0.08606690692472195 0.9914983675717333 -0.08606690692472195 0.00850163242826663 0.08606690692472196
1150401.9838081095 0.008826273107621144 0.08777585581918795 0.9911737268923788 -0.08777585581918797 0.9911737268923788 -0.08777585581918797 0.008826273107621144 0.08777585581918795
1173660.328705616 0.009163925437239508 0.08951745434507177 0.9908360745627605 -0.08951745434507179 0.9908360745627605 -0.08951745434507179 0.009163925437239508 0.08951745434507177
1197388.9010670746 0.009515100501925208 0.09129224748668402 0.9904848994980749 -0.09129224748668402 0.9904848994980749 -0.09129224748668402 0.009515100501925208 0.09129224748668402
1221597.2077541656 0.009880328602386843 0.09310078438608535 0.9901196713976134 -0.09310078438608536 0.9901196713976134 -0.09310078438608536 0.009880328602386843 0.09310078438608535
1246294.947834312 0.010260159906639758 0.09494361802962088 0.9897398400933605 -0.0949436180296209 0.9897398400933605 -0.0949436180296209 0.010260159906639758 0.09494361802962088
1271492.016466615 0.010655165117488872 0.09682130490626276 0.989344834882511 -0.09682130490626277 0.989344834882511 -0.09682130490626277 0.010655165117488872 0.09682130490626276
1297198.5088663532 0.011065936155946112 0.09873440463611358 0.9889340638440538 -0.09873440463611358 0.9889340638440538 -0.09873440463611358 0.011065936155946112 0.09873440463611358
1323424.7243496338 0.011493086860371624 0.10068347956734808 0.9885069131396284 -0.10068347956734808 0.9885069131396284 -0.10068347956734808 0.011493086860371624 0.10068347956734808
1350181.1704598186 0.011937253701057993 0.10266909433979907 0.988062746298942 -0.1026690943397991 0.988062746298942 -0.1026690943397991 0.011937253701057993 0.10266909433979907
1377478.5671773748 0.012399096509899135 0.10469181541331468 0.9876009034901009 -0.10469181541331468 0.9876009034901009 -0.10469181541331468 0.012399096509899135 0.10469181541331468
1405327.8512148394 0.01287929922470114 0.10675221055893833 0.9871207007752989 -0.10675221055893833 0.9871207007752989 -0.10675221055893833 0.01287929922470114 0.10675221055893833
1433740.1803986167 0.013378570647600032 0.10885084831088508 0.9866214293524 -0.10885084831088508 0.9866214293524 -0.10885084831088508 0.013378570647600032 0.10885084831088508
1462726.9381393674 0.013897645216951023 0.11098829737721036 0.9861023547830491 -0.11098829737721039 0.9861023547830491 -0.11098829737721039 0.013897645216951023 0.11098829737721036
1492299.737992774 0.014437283791943976 0.11316512600698726 0.9855627162080562 -0.11316512600698729 0.9855627162080562 -0.11316512600698729 0.014437283791943976 0.11316512600698726
1522470.428312519 0.01499827444908149 0.11538190131173283 0.9850017255509185 -0.11538190131173283 0.9850017255509185 -0.11538190131173283 0.01499827444908149 0.11538190131173283
1553251.0969973304 0.015581433289526934 0.11763918853874523 0.9844185667104729 -0.11763918853874522 0.9844185667104729 -0.11763918853874522 0.015581433289526934 0.11763918853874523
1584654.076334004 0.01618760525619061 0.11993755029393822 0.9838123947438092 -0.11993755029393822 0.9838123947438092 -0.11993755029393822 0.01618760525619061 0.11993755029393822
1616691.9479383389 0.016817664959272127 0.12227754571168699 0.9831823350407282 -0.12227754571168702 0.9831823350407282 -0.12227754571168702 0.016817664959272127 0.12227754571168699
1649377.5477959653 0.017472517508814282 0.12465972956912438 0.9825274824911857 -0.12465972956912438 0.9825274824911857 -0.12465972956912438 0.017472517508814282 0.12465972956912438
1682723.9714050898 0.01815309935265095 0.1270846513422656 0.9818469006473491 -0.12708465134226557 0.9818469006473491 -0.12708465134226557 0.01815309935265095 0.1270846513422656
1716744.5790232092 0.018860379117942118 0.12955285420126672 0.9811396208820579 -0.1295528542012667 0.9811396208820579 -0.1295528542012667 0.018860379117942118 0.12955285420126672
1751453.001019904 0.01959535845429087 0.13206487394207259 0.9804046415457092 -0.13206487394207259 0.9804046415457092 -0.13206487394207259 0.01959535845429087 0.13206487394207259
1786863.143337851 0.02035907287622053 0.13462123785165087 0.9796409271237796 -0.1346212378516509 0.9796409271237796 -0.1346212378516509 0.02035907287622053 0.13462123785165087
1822989.1930642454 0.021152592602562328 0.13722246350396763 0.9788474073974377 -0.13722246350396763 0.9788474073974377 -0.13722246350396763 0.021152592602562328 0.13722246350396763
1859845.6241148617 0.021977023390058303 0.13986905748382028 0.9780229766099416 -0.13986905748382025 0.9780229766099416 -0.13986905748382025 0.021977023390058303 0.13986905748382028
1897447.2030330333 0.022833507358225227 0.14256151403561937 0.9771664926417748 -0.14256151403561937 0.9771664926417748 -0.14256151403561937 0.022833507358225227 0.14256151403561937
1935808.994905876 0.02372322380224859 0.1453003136341939 0.9762767761977513 -0.14530031363419388 0.9762767761977513 -0.14530031363419388 0.02372322380224859 0.1453003136341939
1974946.3694001175 0.024647389990383014 0.14808592147469002 0.9753526100096169 -0.14808592147469002 0.9753526100096169 -0.14808592147469002 0.024647389990383014 0.14808592147469002
2014875.0069199642 0.025607261942026945 0.15091878587865004 0.9743927380579731 -0.15091878587865004 0.9743927380579731 -0.15091878587865004 0.025607261942026945 0.15091878587865004
2055610.904889458 0.026604135182312236 0.15379933661338094 0.9733958648176879 -0.15379933661338094 0.9733958648176879 -0.15379933661338094 0.026604135182312236 0.15379933661338094
2097170.3841618528 0.027639345468706472 0.1567279831217731 0.9723606545312935 -0.1567279831217731 0.9723606545312935 -0.1567279831217731 0.027639345468706472 0.1567279831217731
2139570.0955585684 0.028714269484765128 0.1597051126597955 0.971285730515235 -0.15970511265979553 0.971285730515235 -0.15970511265979553 0.028714269484765128 0.1597051126597955
2182827.0265403506 0.02983032549579289 0.16273108833898367 0.9701696745042072 -0.16273108833898367 0.9701696745042072 -0.16273108833898367 0.02983032549579289 0.16273108833898367
2226958.508013302 0.030988973960779827 0.16580624707135477 0.9690110260392202 -0.16580624707135477 0.9690110260392202 -0.16580624707135477 0.030988973960779827 0.16580624707135477
2271982.2212725184 0.03219171809456739 0.16893089741432696 0.9678082819054328 -0.16893089741432696 0.9678082819054328 -0.16893089741432696 0.03219171809456739 0.16893089741432696
2317916.205086105 0.03344010437377287 0.1721053173133944 0.9665598956262271 -0.1721053173133944 0.9665598956262271 -0.1721053173133944 0.03344010437377287 0.1721053173133944
2364778.8629224156 0.03473572297956156 0.17532975174052096 0.9652642770204385 -0.17532975174052096 0.9652642770204385 -0.17532975174052096 0.03473572297956156 0.17532975174052096
2412588.9703234104 0.03608020816990108 0.17860441022645857 0.9639197918300989 -0.17860441022645854 0.9639197918300989 -0.17860441022645854 0.03608020816990108 0.17860441022645857
2461365.682427083 0.03747523857346712 0.18192946428548334 0.962524761426533 -0.18192946428548334 0.962524761426533 -0.18192946428548334 0.03747523857346712 0.18192946428548334
2511128.5416419753 0.03892253739689389 0.18530504473137177 0.9610774626031062 -0.18530504473137177 0.9610774626031062 -0.18530504473137177 0.03892253739689389 0.18530504473137177
2561897.48547685 0.04042387253657958 0.18873123888381524 0.9595761274634205 -0.18873123888381524 0.9595761274634205 -0.18873123888381524 0.04042387253657958 0.18873123888381524
2613692.85452866 0.041981056585767805 0.1922080876648968 0.9580189434142323 -0.1922080876648968 0.9580189434142323 -0.1922080876648968 0.041981056585767805 0.1922080876648968
2666535.4006320196 0.043595946727135536 0.19573558258573567 0.9564040532728645 -0.1957355825857357 0.9564040532728645 -0.1957355825857357 0.043595946727135536 0.19573558258573567
2720446.295173432 0.045270444500628254 0.19931366262394032 0.9547295554993719 -0.19931366262394032 0.9547295554993719 -0.19931366262394032 0.045270444500628254 0.19931366262394032
2775447.137573615 0.04700649543579893 0.20294221099311044 0.9529935045642011 -0.20294221099311044 0.9529935045642011 -0.20294221099311044 0.04700649543579893 0.20294221099311044
2831559.963941318 0.048806088537433914 0.20662105180629325 0.951193911462566 -0.20662105180629325 0.951193911462566 -0.20662105180629325 0.048806088537433914 0.20662105180629325
2888807.255902094 0.050671255612788506 0.21034994663602402 0.9493287443872116 -0.21034994663602402 0.9493287443872116 -0.21034994663602402 0.050671255612788506 0.21034994663602402
2947211.9496055758 0.05260407042831865 0.21412859097439033 0.9473959295716813 -0.21412859097439033 0.9473959295716813 -0.21412859097439033 0.05260407042831865 0.21412859097439033
3006797.4449148513 0.054606647683382734 0.21795661059742658 0.9453933523166174 -0.21795661059742658 0.9453933523166174 -0.21795661059742658 0.054606647683382734 0.21795661059742658
3067587.6147816274 0.05668114178801349 0.22183355783910438 0.9433188582119864 -0.22183355783910438 0.9433188582119864 -0.22183355783910438 0.05668114178801349 0.22183355783910438
3129606.8148109377 0.05882974543152471 0.22575890778121066 0.9411702545684754 -0.22575890778121066 0.9411702545684754 -0.22575890778121066 0.05882974543152471 0.22575890778121066
3192879.893019226 0.061054687928435505 0.2297320543665173 0.9389453120715645 -0.22973205436651734 0.9389453120715645 -0.22973205436651734 0.061054687928435505 0.2297320543665173
3257432.1997897103 0.06335823332797388 0.2337523064438421 0.9366417666720261 -0.23375230644384215 0.9366417666720261 -0.23375230644384215 0.06335823332797388 0.2337523064438421
3323289.598029029 0.06574267827326669 0.23781888375486931 0.9342573217267334 -0.23781888375486931 0.9342573217267334 -0.23781888375486931 0.06574267827326669 0.23781888375486931
3390478.4735292196 0.0682103495962552 0.2419309128739609 0.9317896504037448 -0.24193091287396087 0.9317896504037448 -0.24193091287396087 0.0682103495962552 0.2419309128739609
3459025.745539199 0.07076360163439678 0.2460874231136244 0.9292363983656032 -0.24608742311362442 0.9292363983656032 -0.24608742311362442 0.07076360163439678 0.2460874231136244
3528958.8775499705 0.07340481325533754 0.2502873424098136 0.9265951867446625 -0.2502873424098136 0.9265951867446625 -0.2502873424098136 0.07340481325533754 0.2502873424098136
3600305.8882978815 0.0761363845759895 0.2545294932028346 0.9238636154240105 -0.2545294932028346 0.9238636154240105 -0.2545294932028346 0.0761363845759895 0.2545294932028346
3673095.3629903416 0.07896073336281571 0.25881258833128007 0.9210392666371844 -0.25881258833128007 0.9210392666371844 -0.25881258833128007 0.07896073336281571 0.25881258833128007
3747356.4647584967 0.08188029110064984 0.2631352269581376 0.9181197088993501 -0.2631352269581376 0.9181197088993501 -0.2631352269581376 0.08188029110064984 0.2631352269581376
3823118.9463414503 0.08489749871805323 0.2674958905499933 0.9151025012819467 -0.2674958905499933 0.9151025012819467 -0.2674958905499933 0.08489749871805323 0.2674958905499933
3900413.1620067055 0.08801480195806048 0.27189293893206273 0.9119851980419394 -0.27189293893206273 0.9119851980419394 -0.27189293893206273 0.08801480195806048 0.27189293893206273
3979270.0797116193 0.09123464638420518 0.2763246064436386 0.9087653536157949 -0.2763246064436386 0.9087653536157949 -0.2763246064436386 0.09123464638420518 0.2763246064436386
4059721.293510725 0.09455947201294924 0.2807889982204002 0.9054405279870509 -0.2807889982204002 0.9054405279870509 -0.2807889982204002 0.09455947201294924 0.2807889982204002
4141799.0362139 0.0979917075650941 0.2852840866319049 0.902008292434906 -0.2852840866319049 0.902008292434906 -0.2852840866319049 0.0979917075650941 0.2852840866319049
4225536.192300457 0.10153376433042467 0.28980770790442123 0.8984662356695753 -0.28980770790442123 0.8984662356695753 -0.28980770790442123 0.10153376433042467 0.28980770790442123
4310966.311094318 0.10518802964175249 0.2943575589610738 0.8948119703582474 -0.2943575589610738 0.8948119703582474 -0.2943575589610738 0.10518802964175249 0.2943575589610738
4398123.620205573 0.10895685995668576 0.29893119451301325 0.8910431400433143 -0.29893119451301325 0.8910431400433143 -0.29893119451301325 0.10895685995668576 0.29893119451301325
4487043.0392437745 0.112842573547868 0.30352602443697146 0.887157426452132 -0.30352602443697146 0.887157426452132 -0.30352602443697146 0.112842573547868 0.30352602443697146
4577760.193808502 0.11684744280510889 0.30813931147610124 0.883152557194891 -0.3081393114761012 0.883152557194891 -0.3081393114761012 0.11684744280510889 0.30813931147610124
4670311.429762763 0.12097368615577045 0.3127681693023733 0.8790263138442295 -0.3127681693023733 0.8790263138442295 -0.3127681693023733 0.12097368615577045 0.3127681693023733
4764733.827794987 0.12522345961298073 0.3174095609800039 0.8747765403870194 -0.31740956098000384 0.8747765403870194 -0.31740956098000384 0.12522345961298073 0.3174095609800039
4861065.218275411 0.1295988479647165 0.32206029787035895 0.8704011520352836 -0.32206029787035895 0.8704011520352836 -0.32206029787035895 0.1295988479647165 0.32206029787035895
4959344.196412832 0.13410185562052013 0.32671703901950017 0.8658981443794799 -0.3267170390195002 0.8658981443794799 -0.3267170390195002 0.13410185562052013 0.32671703901950017
5059610.137717796 0.13873439713658067 0.33137629106995603 0.8612656028634192 -0.331376291069956 0.8612656028634192 -0.331376291069956 0.13873439713658067 0.33137629106995603
5161903.213778406 0.14349828744410043 0.3360344087383846 0.8565017125558997 -0.3360344087383845 0.8565017125558997 -0.3360344087383845 0.14349828744410043 0.3360344087383846
5266264.4083550945 0.14839523181026557 0.34068759590050596 0.8516047681897344 -0.34068759590050596 0.8516047681897344 -0.34068759590050596 0.14839523181026557 0.34068759590050596
5372735.53380077 0.15342681556570092 0.3453319073239617 0.846573184434299 -0.34533190732396174 0.846573184434299 -0.34533190732396174 0.15342681556570092 0.3453319073239617
5481359.247812959 0.15859449363701086 0.349963251088604 0.8414055063629892 -0.349963251088604 0.8414055063629892 -0.349963251088604 0.15859449363701086 0.349963251088604
5592179.070524632 0.16389957992780685 0.3545773917320454 0.8361004200721932 -0.3545773917320454 0.8361004200721932 -0.3545773917320454 0.16389957992780685 0.3545773917320454
5705239.401940555 0.16934323659649667 0.35916995415612235 0.8306567634035035 -0.35916995415612235 0.8306567634035035 -0.35916995415612235 0.16934323659649667 0.35916995415612235
5820585.5397261735 0.17492646328397005 0.36373642832716957 0.8250735367160299 -0.36373642832716957 0.8250735367160299 -0.36373642832716957 0.17492646328397005 0.36373642832716957
5938263.697356135 0.1806500863491204 0.36827217479967617 0.8193499136508795 -0.36827217479967617 0.8193499136508795 -0.36827217479967617 0.1806500863491204 0.36827217479967617
6058321.022629741 0.1865147481748247 0.3727724310889499 0.8134852518251753 -0.3727724310889499 0.8134852518251753 -0.3727724310889499 0.1865147481748247 0.3727724310889499
6180805.616560728 0.1925208966114838 0.3772323189138653 0.8074791033885163 -0.3772323189138653 0.8074791033885163 -0.3772323189138653 0.1925208966114838 0.3772323189138653
6305766.552648956 0.1986687746294326 0.38164685232557843 0.8013312253705672 -0.38164685232557843 0.8013312253705672 -0.38164685232557843 0.1986687746294326 0.38164685232557843
6433253.896541728 0.20495841025538458 0.38601094673229447 0.7950415897446155 -0.38601094673229447 0.7950415897446155 -0.38601094673229447 0.20495841025538458 0.38601094673229447
6563318.726092606 0.21138960687148184 0.3903194288237531 0.7886103931285183 -0.3903194288237531 0.7886103931285183 -0.3903194288237531 0.21138960687148184 0.3903194288237531
6696013.151825785 0.21796193395841457 0.394567047392106 0.7820380660415854 -0.39456704739210613 0.7820380660415854 -0.39456704739210613 0.21796193395841457 0.394567047392106
6831390.3378141755 0.22467471836633537 0.398748485038311 0.7753252816336645 -0.398748485038311 0.7753252816336645 -0.398748485038311 0.22467471836633537 0.398748485038311
6969504.522979628 0.2315270361988712 0.402858370745129 0.7684729638011287 -0.4028583707451289 0.7684729638011287 -0.4028583707451289 0.2315270361988712 0.402858370745129
7110411.042823766 0.23851770539631412 0.4068912932893325 0.7614822946036859 -0.4068912932893325 0.7614822946036859 -0.4068912932893325 0.23851770539631412 0.4068912932893325
7254166.351598182 0.2456452791039965 0.41084181545689646 0.7543547208960035 -0.4108418154568965 0.7543547208960035 -0.4108418154568965 0.2456452791039965 0.41084181545689646
7400828.044922853 0.2529080399108354 0.4147044890158354 0.7470919600891646 -0.4147044890158354 0.7470919600891646 -0.4147044890158354 0.2529080399108354 0.4147044890158354
7550454.882861849 0.2603039950410138 0.4184738703920718 0.7396960049589864 -0.41847387039207185 0.7396960049589864 -0.41847387039207185 0.2603039950410138 0.4184738703920718
7703106.813465575 0.2678308725786955 0.42214453698439014 0.7321691274213046 -0.4221445369843901 0.7321691274213046 -0.4221445369843901 0.2678308725786955 0.42214453698439014
7858844.9967889795 0.2754861188015011 0.4257111040452629 0.7245138811984989 -0.42571110404526286 0.7245138811984989 -0.42571110404526286 0.2754861188015011 0.4257111040452629
8017731.829395356 0.2832668966931889 0.4291682420452736 0.7167331033068113 -0.42916824204527365 0.7167331033068113 -0.42916824204527365 0.2832668966931889 0.4291682420452736
8179830.96935555 0.29117008569957115 0.4325106944301419 0.7088299143004289 -0.4325106944301419 0.7088299143004289 -0.4325106944301419 0.29117008569957115 0.4325106944301419
8345207.361752584 0.2991922827841706 0.4357332956711272 0.7008077172158292 -0.4357332956711272 0.7008077172158292 -0.4357332956711272 0.2991922827841706 0.4357332956711272
8513927.264701942 0.30732980483150574 0.43883098950199795 0.692670195168494 -0.438830989501998 0.692670195168494 -0.438830989501998 0.30732980483150574 0.43883098950199795
8686058.275897898 0.31557869243625314 0.44179884722895446 0.6844213075637468 -0.4417988472289544 0.6844213075637468 -0.4417988472289544 0.31557869243625314 0.44179884722895446
8861669.359696563 0.32393471510592076 0.44463208599402476 0.6760652848940791 -0.44463208599402476 0.6760652848940791 -0.44463208599402476 0.32393471510592076 0.44463208599402476
9040830.87474648 0.3323933778932115 0.44732608686767067 0.6676066221067884 -0.44732608686767067 0.6676066221067884 -0.44732608686767067 0.3323933778932115 0.44732608686767067
