! NFZ32BW700HZ10
# Hz S RI R 50
!Freq.(Hz) S11(Real) S11(Imag) S21(Real) S21(Imag) S12(Real) S12(Imag) S22(Real) S22(Imag)
1000000.0 0.2796823000291128 0.4341099793404305 0.7203176999708872 -0.43410997934043055 0.7203176999708872 -0.43410997934043055 0.2796823000291128 0.4341099793404305
1020217.5806586457 0.28743976686423367 0.4378985736120299 0.7125602331357663 -0.4378985736120299 0.7125602331357663 -0.4378985736120299 0.28743976686423367 0.4378985736120299
1040843.9118849806 0.2953316059910885 0.44158252195035436 0.7046683940089113 -0.4415825219503543 0.7046683940089113 -0.4415825219503543 0.2953316059910885 0.44158252195035436
1061887.2576265757 0.30335514190659146 0.44515608945093954 0.6966448580934085 -0.44515608945093954 0.6966448580934085 -0.44515608945093954 0.30335514190659146 0.44515608945093954
1083356.0489080292 0.3115073894740251 0.4486135890777891 0.6884926105259749 -0.4486135890777891 0.6884926105259749 -0.4486135890777891 0.3115073894740251 0.4486135890777891
1105258.8872088592 0.31978505228348275 0.4519494010755236 0.6802149477165174 -0.45194940107552367 0.6802149477165174 -0.45194940107552367 0.31978505228348275 0.4519494010755236
1127604.5479096894 0.328184522401295 0.4551579928319774 0.6718154775987051 -0.4551579928319774 0.6718154775987051 -0.4551579928319774 0.328184522401295 0.4551579928319774
1150401.9838081095 0.3367018815725165 0.4582339390814675 0.6632981184274833 -0.4582339390814675 0.6632981184274833 -0.4582339390814675 0.3367018815725165 0.4582339390814675
1173660.328705616 0.34533290393115385 0.46117194233049336 0.6546670960688463 -0.4611719423304934 0.6546670960688463 -0.4611719423304934 0.34533290393115385 0.46117194233049336
1197388.9010670746 0.3540730602623056 0.46396685338000376 0.6459269397376943 -0.4639668533800038 0.6459269397376943 -0.4639668533800038 0.3540730602623056 0.46396685338000376
1221597.2077541656 0.36291752384880155 0.4666136918117506 0.6370824761511985 -0.4666136918117506 0.6370824761511985 -0.4666136918117506 0.36291752384880155 0.4666136918117506
1246294.947834312 0.37186117792238843 0.4691076663007876 0.6281388220776116 -0.46910766630078765 0.6281388220776116 -0.46910766630078765 0.37186117792238843 0.4691076663007876
1271492.016466615 0.3808986247261537 0.471444194612014 0.6191013752738463 -0.4714441946120139 0.6191013752738463 -0.4714441946120139 0.3808986247261537 0.471444194612014
1297198.5088663532 0.390024196180804 0.47361892313592135 0.609975803819196 -0.47361892313592135 0.609975803819196 -0.47361892313592135 0.390024196180804 0.47361892313592135
1323424.7243496338 0.39923196613284845 0.4756277458175104 0.6007680338671515 -0.4756277458175104 0.6007680338671515 -0.4756277458175104 0.39923196613284845 0.4756277458175104
1350181.1704598186 0.40851576414782215 0.4774668223327681 0.5914842358521779 -0.4774668223327682 0.5914842358521779 -0.4774668223327682 0.40851576414782215 0.4774668223327681
1377478.5671773748 0.41786919079661833 0.47913259536921504 0.5821308092033818 -0.47913259536921504 0.5821308092033818 -0.47913259536921504 0.41786919079661833 0.47913259536921504
1405327.8512148394 0.427285634368039 0.4806218068708837 0.572714365631961 -0.4806218068708838 0.572714365631961 -0.4806218068708838 0.427285634368039 0.4806218068708837
1433740.1803986167 0.4367582889259722 0.48193151311367594 0.5632417110740278 -0.48193151311367594 0.5632417110740278 -0.48193151311367594 0.4367582889259722 0.48193151311367594
1462726.9381393674 0.44628017361544453 0.483059098484352 0.5537198263845556 -0.48305909848435213 0.5537198263845556 -0.48305909848435213 0.44628017361544453 0.483059098484352
1492299.737992774 0.4558441531083588 0.48400228784537713 0.5441558468916411 -0.48400228784537724 0.5441558468916411 -0.48400228784537724 0.4558441531083588 0.48400228784537713
1522470.428312519 0.465442959067261 0.4847591573784048 0.534557040932739 -0.4847591573784048 0.534557040932739 -0.4847591573784048 0.465442959067261 0.4847591573784048
1553251.0969973304 0.47506921249414447 0.4853281438111955 0.5249307875058555 -0.4853281438111955 0.5249307875058555 -0.4853281438111955 0.47506921249414447 0.4853281438111955
1584654.076334004 0.4847154468213494 0.48570805194611844 0.5152845531786505 -0.4857080519461185 0.5152845531786505 -0.4857080519461185 0.4847154468213494 0.48570805194611844
1616691.9479383389 0.49437413159315113 0.4858980604228786 0.505625868406849 -0.4858980604228786 0.505625868406849 -0.4858980604228786 0.49437413159315113 0.4858980604228786
1649377.5477959653 0.5040376965798447 0.48589772566357425 0.49596230342015535 -0.48589772566357425 0.49596230342015535 -0.48589772566357425 0.5040376965798447 0.48589772566357425
1682723.9714050898 0.513698556161147 0.48570698396439743 0.4863014438388529 -0.4857069839643973 0.4863014438388529 -0.4857069839643973 0.513698556161147 0.48570698396439743
1716744.5790232092 0.5233491338125809 0.48532615171500637 0.47665086618741925 -0.4853261517150065 0.47665086618741925 -0.4853261517150065 0.5233491338125809 0.48532615171500637
1751453.001019904 0.5329818865273209 0.48475592374360815 0.46701811347267896 -0.48475592374360804 0.46701811347267896 -0.48475592374360804 0.5329818865273209 0.48475592374360815
1786863.143337851 0.5425893290067244 0.4839973698028081 0.4574106709932757 -0.48399736980280816 0.4574106709932757 -0.48399736980280816 0.5425893290067244 0.4839973698028081
1822989.1930642454 0.5521640574554347 0.4830519292281045 0.4478359425445653 -0.4830519292281045 0.4478359425445653 -0.4830519292281045 0.5521640574554347 0.4830519292281045
1859845.6241148617 0.5616987728215332 0.48192140381725385 0.4383012271784668 -0.48192140381725385 0.4383012271784668 -0.48192140381725385 0.5616987728215332 0.48192140381725385
1897447.2030330333 0.5711863033285773 0.4806079489943944 0.42881369667142255 -0.4806079489943944 0.42881369667142255 -0.4806079489943944 0.5711863033285773 0.4806079489943944
1935808.994905876 0.5806196261544436 0.47911406333756895 0.4193803738455563 -0.47911406333756895 0.4193803738455563 -0.47911406333756895 0.5806196261544436 0.47911406333756895
1974946.3694001175 0.5899918881215178 0.4774425765619232 0.4100081118784823 -0.4774425765619232 0.4100081118784823 -0.4774425765619232 0.5899918881215178 0.4774425765619232
2014875.0069199642 0.5992964252738058 0.4755966360632181 0.4007035747261942 -0.4755966360632181 0.4007035747261942 -0.4755966360632181 0.5992964252738058 0.4755966360632181
2055610.904889458 0.6085267812287608 0.473579692137209 0.3914732187712393 -0.47357969213720896 0.3914732187712393 -0.47357969213720896 0.6085267812287608 0.473579692137209
2097170.3841618528 0.6176767242048624 0.47139548199980746 0.38232327579513775 -0.47139548199980746 0.38232327579513775 -0.47139548199980746 0.6176767242048624 0.47139548199980746
2139570.0955585684 0.6267402626400096 0.46904801274065655 0.37325973735999035 -0.4690480127406566 0.37325973735999035 -0.4690480127406566 0.6267402626400096 0.46904801274065655
2182827.0265403506 0.6357116593303915 0.46654154334874925 0.36428834066960847 -0.46654154334874925 0.36428834066960847 -0.46654154334874925 0.6357116593303915 0.46654154334874925
2226958.508013302 0.6445854440344361 0.4638805659529889 0.3554145559655639 -0.46388056595298877 0.3554145559655639 -0.46388056595298877 0.6445854440344361 0.4638805659529889
2271982.2212725184 0.6533564245015299 0.46106978642311586 0.34664357549847025 -0.4610697864231158 0.34664357549847025 -0.4610697864231158 0.6533564245015299 0.46106978642311586
2317916.205086105 0.662019695900166 0.45811410447725354 0.3379803040998341 -0.4581141044772536 0.3379803040998341 -0.4581141044772536 0.662019695900166 0.45811410447725354
2364778.8629224156 0.6705706486348982 0.4550185934414976 0.3294293513651017 -0.4550185934414976 0.3294293513651017 -0.4550185934414976 0.6705706486348982 0.4550185934414976
2412588.9703234104 0.6790049745556866 0.4517884798045911 0.3209950254443133 -0.4517884798045911 0.3209950254443133 -0.4517884798045911 0.6790049745556866 0.4517884798045911
2461365.682427083 0.687318671576793 0.4484291227068865 0.3126813284232071 -0.44842912270688656 0.3126813284232071 -0.44842912270688656 0.687318671576793 0.4484291227068865
2511128.5416419753 0.6955080467351615 0.44494599349761527 0.3044919532648386 -0.44494599349761527 0.3044919532648386 -0.44494599349761527 0.6955080467351615 0.44494599349761527
2561897.48547685 0.7035697177300578 0.4413446554881149 0.2964302822699422 -0.4413446554881149 0.2964302822699422 -0.4413446554881149 0.7035697177300578 0.4413446554881149
2613692.85452866 0.7115006129965427 0.43763074402124913 0.2884993870034573 -0.43763074402124913 0.2884993870034573 -0.43763074402124913 0.7115006129965427 0.43763074402124913
2666535.4006320196 0.7192979703750442 0.4338099469689499 0.2807020296249559 -0.4338099469689499 0.2807020296249559 -0.4338099469689499 0.7192979703750442 0.4338099469689499
2720446.295173432 0.7269593344477938 0.4298879857607841 0.2730406655522062 -0.4298879857607841 0.2730406655522062 -0.4298879857607841 0.7269593344477938 0.4298879857607841
2775447.137573615 0.7344825526201787 0.42587059703685304 0.2655174473798213 -0.4258705970368531 0.2655174473798213 -0.4258705970368531 0.7344825526201787 0.42587059703685304
2831559.963941318 0.7418657700311193 0.42176351500833725 0.2581342299688806 -0.4217635150083372 0.2581342299688806 -0.4217635150083372 0.7418657700311193 0.42176351500833725
2888807.255902094 0.7491074233814006 0.41757245459875886 0.2508925766185994 -0.41757245459875886 0.2508925766185994 -0.41757245459875886 0.7491074233814006 0.41757245459875886
2947211.9496055758 0.7562062337725133 0.41330309542868177 0.2437937662274866 -0.41330309542868165 0.2437937662274866 -0.41330309542868165 0.7562062337725133 0.41330309542868177
3006797.4449148513 0.7631611986510202 0.4089610666962625 0.23683880134897975 -0.4089610666962625 0.23683880134897975 -0.4089610666962625 0.7631611986510202 0.4089610666962625
3067587.6147816274 0.7699715829548053 0.40455193299591247 0.23002841704519464 -0.40455193299591247 0.23002841704519464 -0.40455193299591247 0.7699715829548053 0.40455193299591247
3129606.8148109377 0.7766369095578823 0.40008118110744884 0.22336309044211758 -0.40008118110744884 0.22336309044211758 -0.40008118110744884 0.7766369095578823 0.40008118110744884
3192879.893019226 0.7831569491097746 0.3955542077786107 0.21684305089022546 -0.3955542077786107 0.21684305089022546 -0.3955542077786107 0.7831569491097746 0.3955542077786107
3257432.1997897103 0.7895317093639439 0.39097630851475657 0.2104682906360561 -0.39097630851475657 0.2104682906360561 -0.39097630851475657 0.7895317093639439 0.39097630851475657
3323289.598029029 0.7957614240874226 0.38635266738103785 0.2042385759125774 -0.3863526673810378 0.2042385759125774 -0.3863526673810378 0.7957614240874226 0.38635266738103785
3390478.4735292196 0.8018465416407707 0.3816883478143973 0.19815345835922923 -0.3816883478143973 0.19815345835922923 -0.3816883478143973 0.8018465416407707 0.3816883478143973
3459025.745539199 0.8077877133138572 0.3769882844354218 0.1922122866861427 -0.3769882844354218 0.1922122866861427 -0.3769882844354218 0.8077877133138572 0.3769882844354218
3528958.8775499705 0.8135857814988194 0.3722572758434143 0.18641421850118056 -0.3722572758434143 0.18641421850118056 -0.3722572758434143 0.8135857814988194 0.3722572758434143
3600305.8882978815 0.8192417677770001 0.36749997837206055 0.18075823222299986 -0.3674999783720605 0.18075823222299986 -0.3674999783720605 0.8192417677770001 0.36749997837206055
3673095.3629903416 0.8247568609917695 0.36272090077774977 0.17524313900823055 -0.36272090077774977 0.17524313900823055 -0.36272090077774977 0.8247568609917695 0.36272090077774977
3747356.4647584967 0.8301324053740009 0.35792439982797536 0.16986759462599912 -0.35792439982797536 0.16986759462599912 -0.35792439982797536 0.8301324053740009 0.35792439982797536
3823118.9463414503 0.8353698887816635 0.35311467675326863 0.1646301112183363 -0.35311467675326863 0.1646301112183363 -0.35311467675326863 0.8353698887816635 0.35311467675326863
3900413.1620067055 0.8404709311095924 0.3482957745227928 0.15952906889040758 -0.3482957745227928 0.15952906889040758 -0.3482957745227928 0.8404709311095924 0.3482957745227928
3979270.0797116193 0.8454372729200531 0.3434715759010154 0.15456272707994684 -0.3434715759010154 0.15456272707994684 -0.3434715759010154 0.8454372729200531 0.3434715759010154
4059721.293510725 0.8502707643393231 0.33864580224076285 0.14972923566067695 -0.3386458022407628 0.14972923566067695 -0.3386458022407628 0.8502707643393231 0.33864580224076285
4141799.0362139 0.8549733542601659 0.3338220129663941 0.14502664573983418 -0.33382201296639413 0.14502664573983418 -0.33382201296639413 0.8549733542601659 0.3338220129663941
4225536.192300457 0.8595470798848877 0.3290036056997857 0.1404529201151123 -0.3290036056997857 0.1404529201151123 -0.3290036056997857 0.8595470798848877 0.3290036056997857
4310966.311094318 0.8639940566386161 0.3241938169812476 0.1360059433613839 -0.3241938169812476 0.1360059433613839 -0.3241938169812476 0.8639940566386161 0.3241938169812476
4398123.620205573 0.8683164684776009 0.3193957235373621 0.1316835315223992 -0.3193957235373622 0.1316835315223992 -0.3193957235373622 0.8683164684776009 0.3193957235373621
4487043.0392437745 0.8725165586127198 0.31461224404799526 0.12748344138728016 -0.31461224404799526 0.12748344138728016 -0.31461224404799526 0.8725165586127198 0.31461224404799526
4577760.193808502 0.8765966206640009 0.3098461413653464 0.12340337933599922 -0.30984614136534633 0.12340337933599922 -0.30984614136534633 0.8765966206640009 0.3098461413653464
4670311.429762763 0.8805589902578491 0.3051000251388385 0.11944100974215088 -0.30510002513883855 0.11944100974215088 -0.30510002513883855 0.8805589902578491 0.3051000251388385
4764733.827794987 0.8844060370748442 0.300376354800851 0.11559396292515589 -0.300376354800851 0.11559396292515589 -0.300376354800851 0.8844060370748442 0.300376354800851
4861065.218275411 0.888140157352393 0.29567744286974496 0.1118598426476069 -0.29567744286974496 0.1118598426476069 -0.29567744286974496 0.888140157352393 0.29567744286974496
4959344.196412832 0.8917637668432655 0.2910054585282782 0.1082362331567344 -0.2910054585282782 0.1082362331567344 -0.2910054585282782 0.8917637668432655 0.2910054585282782
5059610.137717796 0.8952792942280339 0.28636243143731777 0.1047207057719661 -0.28636243143731777 0.1047207057719661 -0.28636243143731777 0.8952792942280339 0.28636243143731777
5161903.213778406 0.898689174976736 0.28175025574671764 0.10131082502326398 -0.2817502557467176 0.10131082502326398 -0.2817502557467176 0.898689174976736 0.28175025574671764
5266264.4083550945 0.9019958456526453 0.27717069426728386 0.0980041543473547 -0.27717069426728386 0.0980041543473547 -0.27717069426728386 0.9019958456526453 0.27717069426728386
5372735.53380077 0.9052017386488707 0.27262538276989606 0.09479826135112938 -0.27262538276989606 0.09479826135112938 -0.27262538276989606 0.9052017386488707 0.27262538276989606
5481359.247812959 0.9083092773466122 0.2681158343800474 0.0916907226533878 -0.2681158343800473 0.0916907226533878 -0.2681158343800473 0.9083092773466122 0.2681158343800474
5592179.070524632 0.9113208716822527 0.263643444038303 0.08867912831774724 -0.263643444038303 0.08867912831774724 -0.263643444038303 0.9113208716822527 0.263643444038303
5705239.401940555 0.9142389141090643 0.25920949299941537 0.08576108589093573 -0.2592094929994153 0.08576108589093573 -0.2592094929994153 0.9142389141090643 0.25920949299941537
5820585.5397261735 0.9170657759381385 0.25481515334507576 0.08293422406186145 -0.25481515334507576 0.08293422406186145 -0.25481515334507576 0.9170657759381385 0.25481515334507576
5938263.697356135 0.9198038040422007 0.25046149248749616 0.08019619595779914 -0.25046149248749616 0.08019619595779914 -0.25046149248749616 0.9198038040422007 0.25046149248749616
6058321.022629741 0.9224553179052212 0.246149477643192 0.07754468209477886 -0.246149477643192 0.07754468209477886 -0.246149477643192 0.9224553179052212 0.246149477643192
6180805.616560728 0.9250226070001891 0.24187998025846155 0.07497739299981086 -0.24187998025846155 0.07497739299981086 -0.24187998025846155 0.9250226070001891 0.24187998025846155
6305766.552648956 0.9275079284770488 0.23765378037011953 0.07249207152295112 -0.23765378037011953 0.07249207152295112 -0.23765378037011953 0.9275079284770488 0.23765378037011953
6433253.896541728 0.9299135051425858 0.23347157088703238 0.07008649485741424 -0.23347157088703238 0.07008649485741424 -0.23347157088703238 0.9299135051425858 0.23347157088703238
6563318.726092606 0.9322415237140135 0.22933396177990398 0.06775847628598655 -0.229333961779904 0.06775847628598655 -0.229333961779904 0.9322415237140135 0.22933396177990398
6696013.151825785 0.9344941333280962 0.22524148416857995 0.06550586667190379 -0.22524148416857995 0.06550586667190379 -0.22524148416857995 0.9344941333280962 0.22524148416857995
6831390.3378141755 0.9366734442878625 0.22119459429785437 0.06332655571213762 -0.22119459429785437 0.06332655571213762 -0.22119459429785437 0.9366734442878625 0.22119459429785437
6969504.522979628 0.9387815270292963 0.21719367739438034 0.06121847297070375 -0.21719367739438034 0.06121847297070375 -0.21719367739438034 0.9387815270292963 0.21719367739438034
7110411.042823766 0.9408204112908257 0.2132390513987993 0.059179588709174356 -0.21323905139879928 0.059179588709174356 -0.21323905139879928 0.9408204112908257 0.2132390513987993
7254166.351598182 0.9427920854689446 0.20933097056860356 0.057207914531055365 -0.2093309705686035 0.057207914531055365 -0.2093309705686035 0.9427920854689446 0.20933097056860356
7400828.044922853 0.9446984961439012 0.20546962894854595 0.05530150385609876 -0.20546962894854595 0.05530150385609876 -0.20546962894854595 0.9446984961439012 0.20546962894854595
7550454.882861849 0.9465415477600402 0.2016551637065892 0.05345845223995989 -0.20165516370658923 0.05345845223995989 -0.20165516370658923 0.9465415477600402 0.2016551637065892
7703106.813465575 0.9483231024460957 0.19788765833446537 0.05167689755390429 -0.19788765833446537 0.05167689755390429 -0.19788765833446537 0.9483231024460957 0.19788765833446537
7858844.9967889795 0.9500449799614806 0.19416714571287966 0.04995502003851939 -0.19416714571287966 0.04995502003851939 -0.19416714571287966 0.9500449799614806 0.19416714571287966
8017731.829395356 0.9517089577553903 0.19049361104225376 0.04829104224460973 -0.19049361104225376 0.04829104224460973 -0.19049361104225376 0.9517089577553903 0.19049361104225376
8179830.96935555 0.9533167711263426 0.18686699464065948 0.0466832288736573 -0.18686699464065945 0.0466832288736573 -0.18686699464065945 0.9533167711263426 0.18686699464065948
8345207.361752584 0.9548701134705783 0.18328719461125 0.04512988652942166 -0.18328719461125 0.04512988652942166 -0.18328719461125 0.9548701134705783 0.18328719461125
8513927.264701942 0.9563706366085539 0.17975406938206004 0.04362936339144593 -0.17975406938206007 0.04362936339144593 -0.17975406938206007 0.9563706366085539 0.17975406938206004
8686058.275897898 0.957819951179568 0.1762674401215154 0.0421800488204321 -0.17626744012151538 0.0421800488204321 -0.17626744012151538 0.957819951179568 0.1762674401215154
8861669.359696563 0.9592196270953404 0.1728270930333809 0.040780372904659586 -0.17282709303338084 0.040780372904659586 -0.17282709303338084 0.9592196270953404 0.1728270930333809
9040830.87474648 0.9605711940441504 0.16943278153518093 0.039428805955849675 -0.1694327815351809 0.039428805955849675 -0.1694327815351809 0.9605711940441504 0.16943278153518093
9223614.602177842 0.9618761420378646 0.1660842283243656 0.038123857962135285 -0.16608422832436556 0.038123857962135285 -0.16608422832436556 0.9618761420378646 0.1660842283243656
