! NFZ32BW650HN11
# Hz S RI R 50
!Freq.(Hz) S11(Real) S11(Imag) S21(Real) S21(Imag) S12(Real) S12(Imag) S22(Real) S22(Imag)
1000000.0 0.3381237516590965 0.4572483896974145 0.6618762483409035 -0.4572483896974145 0.6618762483409035 -0.4572483896974145 0.3381237516590965 0.4572483896974145
1020217.5806586457 0.3467264663774864 0.4599678022349087 0.6532735336225138 -0.4599678022349087 0.6532735336225138 -0.4599678022349087 0.3467264663774864 0.4599678022349087
1040843.9118849806 0.3554239833185787 0.46254417500839007 0.6445760166814213 -0.4625441750083901 0.6445760166814213 -0.4625441750083901 0.3554239833185787 0.46254417500839007
1061887.2576265757 0.36421135868526905 0.4649735419200919 0.635788641314731 -0.4649735419200918 0.635788641314731 -0.4649735419200918 0.36421135868526905 0.4649735419200919
1083356.0489080292 0.37308343722428994 0.4672521451454326 0.62691656277571 -0.4672521451454326 0.62691656277571 -0.4672521451454326 0.37308343722428994 0.4672521451454326
1105258.8872088592 0.38203486388609176 0.46937644846642707 0.6179651361139084 -0.46937644846642707 0.6179651361139084 -0.46937644846642707 0.38203486388609176 0.46937644846642707
1127604.5479096894 0.3910600964742875 0.4713431498003513 0.6089399035257124 -0.47134314980035125 0.6089399035257124 -0.47134314980035125 0.3910600964742875 0.4713431498003513
1150401.9838081095 0.40015341921616027 0.4731491928388684 0.5998465807838398 -0.4731491928388684 0.5998465807838398 -0.4731491928388684 0.40015341921616027 0.4731491928388684
1173660.328705616 0.4093089571773826 0.4747917777198034 0.5906910428226174 -0.4747917777198034 0.5906910428226174 -0.4747917777198034 0.4093089571773826 0.4747917777198034
1197388.9010670746 0.4185206914366043 0.4762683706616754 0.5814793085633958 -0.4762683706616755 0.5814793085633958 -0.4762683706616755 0.4185206914366043 0.4762683706616754
1221597.2077541656 0.427782474929 0.4775767124998359 0.5722175250710001 -0.477576712499836 0.5722175250710001 -0.477576712499836 0.427782474929 0.4775767124998359
1246294.947834312 0.4370880488623645 0.47871482607248544 0.5629119511376356 -0.47871482607248544 0.5629119511376356 -0.47871482607248544 0.4370880488623645 0.47871482607248544
1271492.016466615 0.4464310596049699 0.47968102241482496 0.5535689403950302 -0.47968102241482496 0.5535689403950302 -0.47968102241482496 0.4464310596049699 0.47968102241482496
1297198.5088663532 0.45580507594121455 0.4804739057299659 0.5441949240587856 -0.48047390572996596 0.5441949240587856 -0.48047390572996596 0.45580507594121455 0.4804739057299659
1323424.7243496338 0.46520360658913174 0.48109237711582864 0.5347963934108683 -0.48109237711582864 0.5347963934108683 -0.48109237711582864 0.46520360658913174 0.48109237711582864
1350181.1704598186 0.47462011787312197 0.4815356370379409 0.5253798821268779 -0.4815356370379409 0.5253798821268779 -0.4815356370379409 0.47462011787312197 0.4815356370379409
1377478.5671773748 0.48404805144576696 0.48180318654862964 0.515951948554233 -0.48180318654862964 0.515951948554233 -0.48180318654862964 0.48404805144576696 0.48180318654862964
1405327.8512148394 0.49348084195431136 0.4818948272634399 0.5065191580456887 -0.4818948272634399 0.5065191580456887 -0.4818948272634399 0.49348084195431136 0.4818948272634399
1433740.1803986167 0.5029119345502222 0.48181066011554446 0.4970880654497778 -0.48181066011554446 0.4970880654497778 -0.48181066011554446 0.5029119345502222 0.48181066011554446
1462726.9381393674 0.5123348021441541 0.48155108291831267 0.48766519785584606 -0.48155108291831267 0.48766519785584606 -0.48155108291831267 0.5123348021441541 0.48155108291831267
1492299.737992774 0.5217429623135059 0.481116786774936 0.47825703768649397 -0.481116786774936 0.47825703768649397 -0.481116786774936 0.5217429623135059 0.481116786774936
1522470.428312519 0.5311299937754734 0.4805087513819762 0.4688700062245266 -0.4805087513819762 0.4688700062245266 -0.4805087513819762 0.5311299937754734 0.4805087513819762
1553251.0969973304 0.5404895523449447 0.47972823928081015 0.4595104476550552 -0.47972823928081015 0.4595104476550552 -0.47972823928081015 0.5404895523449447 0.47972823928081015
1584654.076334004 0.5498153863036283 0.47877678911713567 0.4501846136963718 -0.4787767891171358 0.4501846136963718 -0.4787767891171358 0.5498153863036283 0.47877678911713567
1616691.9479383389 0.5591013511142896 0.4776562079739164 0.4408986488857104 -0.47765620797391645 0.4408986488857104 -0.47765620797391645 0.5591013511142896 0.4776562079739164
1649377.5477959653 0.5683414234217821 0.4763685628473774 0.4316585765782178 -0.4763685628473774 0.4316585765782178 -0.4763685628473774 0.5683414234217821 0.4763685628473774
1682723.9714050898 0.5775297142905494 0.4749161713388963 0.42247028570945067 -0.4749161713388963 0.42247028570945067 -0.4749161713388963 0.5775297142905494 0.4749161713388963
1716744.5790232092 0.5866604816362979 0.47330159163789354 0.4133395183637021 -0.4733015916378936 0.4133395183637021 -0.4733015916378936 0.5866604816362979 0.47330159163789354
1751453.001019904 0.5957281418174937 0.47152761187215536 0.4042718581825063 -0.47152761187215536 0.4042718581825063 -0.47152761187215536 0.5957281418174937 0.47152761187215536
1786863.143337851 0.6047272803600918 0.46959723890245075 0.3952727196399081 -0.46959723890245075 0.3952727196399081 -0.46959723890245075 0.6047272803600918 0.46959723890245075
1822989.1930642454 0.6136526617963638 0.4675136866379341 0.38634733820363626 -0.46751368663793413 0.38634733820363626 -0.46751368663793413 0.6136526617963638 0.4675136866379341
1859845.6241148617 0.6224992386057754 0.46528036394769584 0.37750076139422467 -0.4652803639476959 0.37750076139422467 -0.4652803639476959 0.6224992386057754 0.46528036394769584
1897447.2030330333 0.631262159252486 0.46290086224205895 0.368737840747514 -0.46290086224205895 0.368737840747514 -0.46290086224205895 0.631262159252486 0.46290086224205895
1935808.994905876 0.6399367753201746 0.4603789427948754 0.36006322467982554 -0.46037894279487546 0.36006322467982554 -0.46037894279487546 0.6399367753201746 0.4603789427948754
1974946.3694001175 0.6485186477504653 0.4577185238752833 0.3514813522495347 -0.4577185238752832 0.3514813522495347 -0.4577185238752832 0.6485186477504653 0.4577185238752833
2014875.0069199642 0.6570035521962542 0.4549236677542014 0.3429964478037458 -0.4549236677542014 0.3429964478037458 -0.4549236677542014 0.6570035521962542 0.4549236677542014
2055610.904889458 0.6653874835056699 0.45199856764738855 0.33461251649433016 -0.45199856764738855 0.33461251649433016 -0.45199856764738855 0.6653874835056699 0.45199856764738855
2097170.3841618528 0.6736666593562874 0.448947534653233 0.32633334064371256 -0.44894753465323295 0.32633334064371256 -0.44894753465323295 0.6736666593562874 0.448947534653233
2139570.0955585684 0.6818375230625421 0.4457749847396727 0.318162476937458 -0.44577498473967275 0.318162476937458 -0.44577498473967275 0.6818375230625421 0.4457749847396727
2182827.0265403506 0.6898967455821006 0.44248542583082495 0.3101032544178993 -0.44248542583082495 0.3101032544178993 -0.44248542583082495 0.6898967455821006 0.44248542583082495
2226958.508013302 0.697841226749279 0.43908344504010405 0.3021587732507212 -0.4390834450401041 0.3021587732507212 -0.4390834450401041 0.697841226749279 0.43908344504010405
2271982.2212725184 0.7056680957654787 0.4355736960928685 0.2943319042345213 -0.4355736960928685 0.2943319042345213 -0.4355736960928685 0.7056680957654787 0.4355736960928685
2317916.205086105 0.7133747109781183 0.43196088697800766 0.2866252890218816 -0.43196088697800766 0.2866252890218816 -0.43196088697800766 0.7133747109781183 0.43196088697800766
2364778.8629224156 0.7209586589806611 0.42824976786439106 0.27904134101933875 -0.42824976786439095 0.27904134101933875 -0.42824976786439095 0.7209586589806611 0.42824976786439106
2412588.9703234104 0.7284177530672081 0.42444511931476414 0.27158224693279187 -0.42444511931476414 0.27158224693279187 -0.42444511931476414 0.7284177530672081 0.42444511931476414
2461365.682427083 0.7357500310757014 0.42055174082651975 0.2642499689242987 -0.42055174082651975 0.2642499689242987 -0.42055174082651975 0.7357500310757014 0.42055174082651975
2511128.5416419753 0.7429537526541661 0.4165744397257843 0.2570462473458338 -0.4165744397257843 0.2570462473458338 -0.4165744397257843 0.7429537526541661 0.4165744397257843
2561897.48547685 0.7500273959846332 0.4125180204384467 0.24997260401536686 -0.4125180204384467 0.24997260401536686 -0.4125180204384467 0.7500273959846332 0.4125180204384467
2613692.85452866 0.756969653999444 0.4083872741591124 0.24303034600055598 -0.4083872741591125 0.24303034600055598 -0.4083872741591125 0.756969653999444 0.4083872741591124
2666535.4006320196 0.7637794301246147 0.4041869689364687 0.23622056987538523 -0.40418696893646866 0.23622056987538523 -0.40418696893646866 0.7637794301246147 0.4041869689364687
2720446.295173432 0.7704558335847986 0.39992184019119514 0.22954416641520128 -0.39992184019119514 0.22954416641520128 -0.39992184019119514 0.7704558335847986 0.39992184019119514
2775447.137573615 0.776998174304207 0.39559658168031975 0.22300182569579305 -0.39559658168031975 0.22300182569579305 -0.39559658168031975 0.776998174304207 0.39559658168031975
2831559.963941318 0.7834059574375962 0.3912158369197892 0.21659404256240397 -0.3912158369197892 0.21659404256240397 -0.3912158369197892 0.7834059574375962 0.3912158369197892
2888807.255902094 0.7896788775651358 0.3867841910749925 0.21032112243486434 -0.3867841910749926 0.21032112243486434 -0.3867841910749926 0.7896788775651358 0.3867841910749925
2947211.9496055758 0.7958168125846445 0.3823061633269983 0.20418318741535546 -0.3823061633269983 0.20418318741535546 -0.3823061633269983 0.7958168125846445 0.3823061633269983
3006797.4449148513 0.8018198173342912 0.3777861997203686 0.1981801826657088 -0.37778619972036864 0.1981801826657088 -0.37778619972036864 0.8018198173342912 0.3777861997203686
3067587.6147816274 0.8076881169784387 0.37322866649655684 0.1923118830215613 -0.37322866649655684 0.1923118830215613 -0.37322866649655684 0.8076881169784387 0.37322866649655684
3129606.8148109377 0.8134221001888335 0.3686378439150736 0.18657789981116646 -0.3686378439150736 0.18657789981116646 -0.3686378439150736 0.8134221001888335 0.3686378439150736
3192879.893019226 0.8190223121528056 0.36401792056283555 0.1809776878471943 -0.36401792056283555 0.1809776878471943 -0.36401792056283555 0.8190223121528056 0.36401792056283555
3257432.1997897103 0.8244894474395441 0.35937298815036167 0.17551055256045595 -0.35937298815036167 0.17551055256045595 -0.35937298815036167 0.8244894474395441 0.35937298815036167
3323289.598029029 0.8298243427548464 0.35470703679177806 0.17017565724515363 -0.35470703679177806 0.17017565724515363 -0.35470703679177806 0.8298243427548464 0.35470703679177806
3390478.4735292196 0.8350279696139934 0.3500239507639142 0.16497203038600655 -0.3500239507639141 0.16497203038600655 -0.3500239507639141 0.8350279696139934 0.3500239507639142
3459025.745539199 0.8401014269615603 0.3453275047381589 0.1598985730384397 -0.3453275047381589 0.1598985730384397 -0.3453275047381589 0.8401014269615603 0.3453275047381589
3528958.8775499705 0.8450459337660717 0.3406213604771564 0.15495406623392824 -0.34062136047715635 0.15495406623392824 -0.34062136047715635 0.8450459337660717 0.3406213604771564
3600305.8882978815 0.849862821616389 0.33590906398691867 0.15013717838361088 -0.33590906398691867 0.15013717838361088 -0.33590906398691867 0.849862821616389 0.33590906398691867
3673095.3629903416 0.854553527345635 0.33119404311347467 0.14544647265436514 -0.3311940431134746 0.14544647265436514 -0.3311940431134746 0.854553527345635 0.33119404311347467
3747356.4647584967 0.8591195857072688 0.32647960557181854 0.14088041429273127 -0.3264796055718186 0.14088041429273127 -0.3264796055718186 0.8591195857072688 0.32647960557181854
3823118.9463414503 0.8635626221266766 0.3217689373936326 0.13643737787332347 -0.32176893739363255 0.13643737787332347 -0.32176893739363255 0.8635626221266766 0.3217689373936326
3900413.1620067055 0.8678843455502876 0.3170651017790839 0.13211565444971252 -0.3170651017790839 0.13211565444971252 -0.3170651017790839 0.8678843455502876 0.3170651017790839
3979270.0797116193 0.8720865414128278 0.3123710383369235 0.1279134585871721 -0.31237103833692353 0.1279134585871721 -0.31237103833692353 0.8720865414128278 0.3123710383369235
4059721.293510725 0.8761710647418577 0.30768956269614883 0.12382893525814243 -0.30768956269614883 0.12382893525814243 -0.30768956269614883 0.8761710647418577 0.30768956269614883
4141799.0362139 0.8801398334172119 0.30302336647165984 0.11986016658278809 -0.30302336647165984 0.11986016658278809 -0.30302336647165984 0.8801398334172119 0.30302336647165984
4225536.192300457 0.8839948216014217 0.29837501756562207 0.11600517839857818 -0.298375017565622 0.11600517839857818 -0.298375017565622 0.8839948216014217 0.29837501756562207
4310966.311094318 0.8877380533556045 0.2937469607856634 0.11226194664439551 -0.2937469607856634 0.11226194664439551 -0.2937469607856634 0.8877380533556045 0.2937469607856634
4398123.620205573 0.8913715964537221 0.28914151876057836 0.10862840354627788 -0.28914151876057836 0.10862840354627788 -0.28914151876057836 0.8913715964537221 0.28914151876057836
4487043.0392437745 0.8948975564065105 0.28456089313389016 0.10510244359348958 -0.28456089313389016 0.10510244359348958 -0.28456089313389016 0.8948975564065105 0.28456089313389016
4577760.193808502 0.8983180707048013 0.2800071660154155 0.10168192929519869 -0.2800071660154155 0.10168192929519869 -0.2800071660154155 0.8983180707048013 0.2800071660154155
4670311.429762763 0.9016353032903943 0.2754823016709166 0.09836469670960575 -0.2754823016709166 0.09836469670960575 -0.2754823016709166 0.9016353032903943 0.2754823016709166
4764733.827794987 0.9048514392611149 0.2709881484299606 0.09514856073888507 -0.27098814842996055 0.09514856073888507 -0.27098814842996055 0.9048514392611149 0.2709881484299606
4861065.218275411 0.9079686798152111 0.2665264407922769 0.09203132018478893 -0.26652644079227683 0.09203132018478893 -0.26652644079227683 0.9079686798152111 0.2665264407922769
4959344.196412832 0.910989237438812 0.2620988017131689 0.08901076256118798 -0.2620988017131689 0.08901076256118798 -0.2620988017131689 0.910989237438812 0.2620988017131689
5059610.137717796 0.9139153313388133 0.2577067450489054 0.08608466866118666 -0.2577067450489054 0.08608466866118666 -0.2577067450489054 0.9139153313388133 0.2577067450489054
5161903.213778406 0.9167491831222516 0.25335167814347775 0.08325081687774841 -0.25335167814347775 0.08325081687774841 -0.25335167814347775 0.9167491831222516 0.25335167814347775
5266264.4083550945 0.9194930127220178 0.2490349045386506 0.08050698727798218 -0.2490349045386506 0.08050698727798218 -0.2490349045386506 0.9194930127220178 0.2490349045386506
5372735.53380077 0.9221490345676164 0.24475762678984775 0.07785096543238353 -0.24475762678984775 0.07785096543238353 -0.24475762678984775 0.9221490345676164 0.24475762678984775
5481359.247812959 0.9247194539986253 0.24052094937109356 0.07528054600137483 -0.24052094937109356 0.07528054600137483 -0.24052094937109356 0.9247194539986253 0.24052094937109356
5592179.070524632 0.9272064639175414 0.23632588165295793 0.07279353608245859 -0.23632588165295793 0.07279353608245859 -0.23632588165295793 0.9272064639175414 0.23632588165295793
5705239.401940555 0.9296122416778226 0.23217334093823278 0.07038775832217728 -0.23217334093823278 0.07038775832217728 -0.23217334093823278 0.9296122416778226 0.23217334093823278
5820585.5397261735 0.9319389462021377 0.22806415554086967 0.06806105379786224 -0.22806415554086967 0.06806105379786224 -0.22806415554086967 0.9319389462021377 0.22806415554086967
5938263.697356135 0.934188715325139 0.22399906789455254 0.06581128467486101 -0.22399906789455254 0.06581128467486101 -0.22399906789455254 0.934188715325139 0.22399906789455254
6058321.022629741 0.9363636633544552 0.21997873767812307 0.06363633664554479 -0.21997873767812307 0.06363633664554479 -0.21997873767812307 0.9363636633544552 0.21997873767812307
6180805.616560728 0.9384658788430665 0.21600374494594488 0.06153412115693352 -0.21600374494594488 0.06153412115693352 -0.21600374494594488 0.9384658788430665 0.21600374494594488
6305766.552648956 0.940497422565774 0.21207459325215475 0.05950257743422604 -0.21207459325215475 0.05950257743422604 -0.21207459325215475 0.940497422565774 0.21207459325215475
6433253.896541728 0.9424603256921049 0.208191712758608 0.057539674307895056 -0.208191712758608 0.057539674307895056 -0.208191712758608 0.9424603256921049 0.208191712758608
6563318.726092606 0.9443565881476933 0.20435546331717758 0.05564341185230677 -0.20435546331717758 0.05564341185230677 -0.20435546331717758 0.9443565881476933 0.20435546331717758
6696013.151825785 0.9461881771559467 0.200566137517898 0.05381182284405321 -0.200566137517898 0.05381182284405321 -0.200566137517898 0.9461881771559467 0.200566137517898
6831390.3378141755 0.9479570259516505 0.19682396369526098 0.05204297404834944 -0.19682396369526098 0.05204297404834944 -0.19682396369526098 0.9479570259516505 0.19682396369526098
6969504.522979628 0.9496650326580506 0.1931291088857555 0.05033496734194939 -0.19312910888575546 0.05033496734194939 -0.19312910888575546 0.9496650326580506 0.1931291088857555
7110411.042823766 0.9513140593189173 0.1894816817305115 0.04868594068108273 -0.1894816817305115 0.04868594068108273 -0.1894816817305115 0.9513140593189173 0.1894816817305115
7254166.351598182 0.9529059310770915 0.1858817353176308 0.047094068922908384 -0.1858817353176308 0.047094068922908384 -0.1858817353176308 0.9529059310770915 0.1858817353176308
7400828.044922853 0.9544424354910684 0.1823292699594914 0.04555756450893165 -0.18232926995949136 0.04555756450893165 -0.18232926995949136 0.9544424354910684 0.1823292699594914
7550454.882861849 0.9559253219812627 0.17882423590097116 0.04407467801873731 -0.17882423590097116 0.04407467801873731 -0.17882423590097116 0.9559253219812627 0.17882423590097116
7703106.813465575 0.9573563013977364 0.17536653595516716 0.04264369860226355 -0.1753665359551672 0.04264369860226355 -0.1753665359551672 0.9573563013977364 0.17536653595516716
7858844.9967889795 0.9587370457013232 0.17195602806377247 0.04126295429867685 -0.1719560280637725 0.04126295429867685 -0.1719560280637725 0.9587370457013232 0.17195602806377247
8017731.829395356 0.9600691877502806 0.16859252777983105 0.039930812249719276 -0.16859252777983103 0.039930812249719276 -0.16859252777983103 0.9600691877502806 0.16859252777983105
8179830.96935555 0.9613543211848172 0.16527581067110383 0.03864567881518281 -0.1652758106711039 0.03864567881518281 -0.1652758106711039 0.9613543211848172 0.16527581067110383
8345207.361752584 0.9625940004020693 0.162005614642761 0.03740599959793077 -0.162005614642761 0.03740599959793077 -0.162005614642761 0.9625940004020693 0.162005614642761
8513927.264701942 0.9637897406143681 0.15878164217855645 0.03621025938563176 -0.15878164217855645 0.03621025938563176 -0.15878164217855645 0.9637897406143681 0.15878164217855645
8686058.275897898 0.9649430179838939 0.15560356250005136 0.035056982016106054 -0.1556035625000514 0.035056982016106054 -0.1556035625000514 0.9649430179838939 0.15560356250005136
8861669.359696563 0.9660552698270938 0.15247101364382634 0.03394473017290618 -0.1524710136438263 0.03394473017290618 -0.1524710136438263 0.9660552698270938 0.15247101364382634
9040830.87474648 0.967127894882534 0.14938360445695867 0.03287210511746598 -0.1493836044569587 0.03287210511746598 -0.1493836044569587 0.967127894882534 0.14938360445695867
9223614.602177842 0.9681622536361366 0.14634091651135742 0.031837746363863446 -0.1463409165113574 0.031837746363863446 -0.1463409165113574 0.9681622536361366 0.14634091651135742
