! NFZ32BW621HN10
# Hz S RI R 50
!Freq.(Hz) S11(Real) S11(Imag) S21(Real) S21(Imag) S12(Real) S12(Imag) S22(Real) S22(Imag)
1000000.0 0.968381771733012 0.16515859218553905 0.03161822826698811 -0.16515859218553908 0.03161822826698811 -0.16515859218553908 0.968381771733012 0.16515859218553905
1020217.5806586457 0.9695417966632665 0.16206921229097973 0.030458203336733616 -0.16206921229097973 0.030458203336733616 -0.16206921229097973 0.9695417966632665 0.16206921229097973
1040843.9118849806 0.9706594471286304 0.15902830779735286 0.029340552871369576 -0.15902830779735286 0.029340552871369576 -0.15902830779735286 0.9706594471286304 0.15902830779735286
1061887.2576265757 0.9717361583631309 0.15603554942951012 0.028263841636869062 -0.15603554942951012 0.028263841636869062 -0.15603554942951012 0.9717361583631309 0.15603554942951012
1083356.0489080292 0.9727733252225389 0.15309058158165237 0.0272266747774612 -0.15309058158165237 0.0272266747774612 -0.15309058158165237 0.9727733252225389 0.15309058158165237
1105258.8872088592 0.9737723027021122 0.15019302430133963 0.026227697297887684 -0.15019302430133963 0.026227697297887684 -0.15019302430133963 0.9737723027021122 0.15019302430133963
1127604.5479096894 0.9747344065000424 0.14734247518375387 0.025265593499957602 -0.14734247518375387 0.025265593499957602 -0.14734247518375387 0.9747344065000424 0.14734247518375387
1150401.9838081095 0.9756609136212664 0.1445385111782204 0.02433908637873366 -0.1445385111782204 0.02433908637873366 -0.1445385111782204 0.9756609136212664 0.1445385111782204
1173660.328705616 0.9765530630166599 0.14178069030912357 0.023446936983340078 -0.14178069030912357 0.023446936983340078 -0.14178069030912357 0.9765530630166599 0.14178069030912357
1197388.9010670746 0.9774120562529457 0.13906855331346804 0.022587943747054338 -0.13906855331346804 0.022587943747054338 -0.13906855331346804 0.9774120562529457 0.13906855331346804
1221597.2077541656 0.9782390582089736 0.13640162519742036 0.021760941791026403 -0.13640162519742033 0.021760941791026403 -0.13640162519742033 0.9782390582089736 0.13640162519742036
1246294.947834312 0.9790351977943353 0.13377941671423924 0.020964802205664816 -0.13377941671423924 0.020964802205664816 -0.13377941671423924 0.9790351977943353 0.13377941671423924
1271492.016466615 0.979801568686562 0.13120142576605412 0.020198431313438237 -0.13120142576605412 0.020198431313438237 -0.13120142576605412 0.979801568686562 0.13120142576605412
1297198.5088663532 0.9805392300834388 0.12866713873198565 0.019460769916561378 -0.12866713873198565 0.019460769916561378 -0.12866713873198565 0.9805392300834388 0.12866713873198565
1323424.7243496338 0.9812492074672298 0.12617603172512673 0.01875079253277026 -0.12617603172512676 0.01875079253277026 -0.12617603172512676 0.9812492074672298 0.12617603172512673
1350181.1704598186 0.9819324933778615 0.12372757178090897 0.018067506622138463 -0.12372757178090897 0.018067506622138463 -0.12372757178090897 0.9819324933778615 0.12372757178090897
1377478.5671773748 0.9825900481923525 0.12132121797937738 0.017409951807647563 -0.12132121797937738 0.017409951807647563 -0.12132121797937738 0.9825900481923525 0.12132121797937738
1405327.8512148394 0.9832228009080022 0.11895642250388372 0.016777199091997912 -0.11895642250388372 0.016777199091997912 -0.11895642250388372 0.9832228009080022 0.11895642250388372
1433740.1803986167 0.9838316499270677 0.11663263163868613 0.016168350072932304 -0.11663263163868613 0.016168350072932304 -0.11663263163868613 0.9838316499270677 0.11663263163868613
1462726.9381393674 0.984417463840857 0.11434928670791271 0.015582536159142915 -0.11434928670791271 0.015582536159142915 -0.11434928670791271 0.984417463840857 0.11434928670791271
1492299.737992774 0.9849810822113576 0.11210582495831034 0.015018917788642297 -0.11210582495831034 0.015018917788642297 -0.11210582495831034 0.9849810822113576 0.11210582495831034
1522470.428312519 0.9855233163486996 0.10990168038815559 0.014476683651300304 -0.10990168038815558 0.014476683651300304 -0.10990168038815558 0.9855233163486996 0.10990168038815559
1553251.0969973304 0.9860449500829177 0.10773628452465947 0.013955049917082279 -0.10773628452465947 0.013955049917082279 -0.10773628452465947 0.9860449500829177 0.10773628452465947
1584654.076334004 0.9865467405286339 0.10560906715214123 0.013453259471366153 -0.10560906715214122 0.013453259471366153 -0.10560906715214122 0.9865467405286339 0.10560906715214123
1616691.9479383389 0.9870294188414291 0.10351945699319419 0.012970581158570858 -0.10351945699319419 0.012970581158570858 -0.10351945699319419 0.9870294188414291 0.10351945699319419
1649377.5477959653 0.9874936909648087 0.10146688234500618 0.012506309035191324 -0.10146688234500617 0.012506309035191324 -0.10146688234500617 0.9874936909648087 0.10146688234500618
1682723.9714050898 0.9879402383667918 0.0994507716729342 0.012059761633208285 -0.0994507716729342 0.012059761633208285 -0.0994507716729342 0.9879402383667918 0.0994507716729342
1716744.5790232092 0.9883697187652764 0.09747055416337348 0.011630281234723618 -0.09747055416337347 0.011630281234723618 -0.09747055416337347 0.9883697187652764 0.09747055416337348
1751453.001019904 0.9887827668414381 0.09552566023789363 0.011217233158561931 -0.09552566023789363 0.011217233158561931 -0.09552566023789363 0.9887827668414381 0.09552566023789363
1786863.143337851 0.9891799949405221 0.09361552203055042 0.010820005059477842 -0.09361552203055042 0.010820005059477842 -0.09361552203055042 0.9891799949405221 0.09361552203055042
1822989.1930642454 0.9895619937594851 0.09173957383021596 0.010438006240515045 -0.09173957383021597 0.010438006240515045 -0.09173957383021597 0.9895619937594851 0.09173957383021596
1859845.6241148617 0.9899293330210234 0.08989725248970443 0.010070666978976477 -0.08989725248970443 0.010070666978976477 -0.08989725248970443 0.9899293330210234 0.08989725248970443
1897447.2030330333 0.9902825621336143 0.08808799780340415 0.009717437866385835 -0.08808799780340414 0.009717437866385835 -0.08808799780340414 0.9902825621336143 0.08808799780340415
1935808.994905876 0.9906222108372528 0.08631125285506118 0.009377789162747245 -0.0863112528550612 0.009377789162747245 -0.0863112528550612 0.9906222108372528 0.08631125285506118
1974946.3694001175 0.9909487898346564 0.08456646433729748 0.009051210165343583 -0.08456646433729748 0.009051210165343583 -0.08456646433729748 0.9909487898346564 0.08456646433729748
2014875.0069199642 0.991262791407748 0.08285308284437802 0.008737208592252056 -0.08285308284437803 0.008737208592252056 -0.08285308284437803 0.991262791407748 0.08285308284437802
2055610.904889458 0.9915646900192991 0.08117056313968476 0.00843530998070074 -0.08117056313968476 0.00843530998070074 -0.08117056313968476 0.9915646900192991 0.08117056313968476
2097170.3841618528 0.9918549428996619 0.0795183643992879 0.008145057100338223 -0.07951836439928792 0.008145057100338223 -0.07951836439928792 0.9918549428996619 0.0795183643992879
2139570.0955585684 0.9921339906185569 0.07789595043294924 0.007866009381443136 -0.07789595043294924 0.007866009381443136 -0.07789595043294924 0.9921339906185569 0.07789595043294924
2182827.0265403506 0.9924022576419417 0.07630278988383095 0.007597742358058325 -0.07630278988383095 0.007597742358058325 -0.07630278988383095 0.9924022576419417 0.07630278988383095
2226958.508013302 0.9926601528740029 0.07473835640812738 0.007339847125997143 -0.0747383564081274 0.007339847125997143 -0.0747383564081274 0.9926601528740029 0.07473835640812738
2271982.2212725184 0.9929080701843646 0.07320212883578064 0.007091929815635402 -0.07320212883578064 0.007091929815635402 -0.07320212883578064 0.9929080701843646 0.07320212883578064
2317916.205086105 0.9931463889206273 0.071693591313388 0.006853611079372711 -0.07169359131338801 0.006853611079372711 -0.07169359131338801 0.9931463889206273 0.071693591313388
2364778.8629224156 0.9933754744063803 0.07021223343035639 0.0066245255936196994 -0.07021223343035639 0.0066245255936196994 -0.07021223343035639 0.9933754744063803 0.07021223343035639
2412588.9703234104 0.993595678424856 0.06875755032930793 0.006404321575144057 -0.06875755032930794 0.006404321575144057 -0.06875755032930794 0.993595678424856 0.06875755032930793
2461365.682427083 0.9938073396884128 0.0673290428016924 0.006192660311587132 -0.0673290428016924 0.006192660311587132 -0.0673290428016924 0.9938073396884128 0.0673290428016924
2511128.5416419753 0.9940107842940551 0.06592621736951614 0.005989215705944746 -0.06592621736951614 0.005989215705944746 -0.06592621736951614 0.9940107842940551 0.06592621736951614
2561897.48547685 0.9942063261652105 0.06454858635404903 0.0057936738347894 -0.06454858635404903 0.0057936738347894 -0.06454858635404903 0.9942063261652105 0.06454858635404903
2613692.85452866 0.9943942674800021 0.06319566793233063 0.005605732519997802 -0.06319566793233063 0.005605732519997802 -0.06319566793233063 0.9943942674800021 0.06319566793233063
2666535.4006320196 0.9945748990862644 0.06186698618225179 0.005425100913735438 -0.06186698618225179 0.005425100913735438 -0.06186698618225179 0.9945748990862644 0.06186698618225179
2720446.295173432 0.9947485009035597 0.06056207111694992 0.00525149909644035 -0.06056207111694991 0.00525149909644035 -0.06056207111694991 0.9947485009035597 0.06056207111694992
2775447.137573615 0.9949153423124601 0.05928045870921576 0.005084657687539831 -0.05928045870921576 0.005084657687539831 -0.05928045870921576 0.9949153423124601 0.05928045870921576
2831559.963941318 0.9950756825313728 0.05802169090657385 0.0049243174686273575 -0.05802169090657385 0.0049243174686273575 -0.05802169090657385 0.9950756825313728 0.05802169090657385
2888807.255902094 0.9952297709811784 0.05678531563766213 0.004770229018821655 -0.05678531563766213 0.004770229018821655 -0.05678531563766213 0.9952297709811784 0.05678531563766213
2947211.9496055758 0.995377847637974 0.05557088681050345 0.004622152362026045 -0.055570886810503456 0.004622152362026045 -0.055570886810503456 0.995377847637974 0.05557088681050345
3006797.4449148513 0.9955201433741966 0.05437796430322844 0.004479856625803403 -0.05437796430322844 0.004479856625803403 -0.05437796430322844 0.9955201433741966 0.05437796430322844
3067587.6147816274 0.9956568802884197 0.05320611394777852 0.004343119711580354 -0.05320611394777852 0.004343119711580354 -0.05320611394777852 0.9956568802884197 0.05320611394777852
3129606.8148109377 0.9957882720241064 0.052054907507088355 0.004211727975893697 -0.05205490750708837 0.004211727975893697 -0.05205490750708837 0.9957882720241064 0.052054907507088355
3192879.893019226 0.9959145240776078 0.05092392264621923 0.0040854759223921564 -0.05092392264621923 0.0040854759223921564 -0.05092392264621923 0.9959145240776078 0.05092392264621923
3257432.1997897103 0.9960358340956926 0.04981274289788668 0.003964165904307433 -0.049812742897886675 0.003964165904307433 -0.049812742897886675 0.9960358340956926 0.04981274289788668
3323289.598029029 0.9961523921628896 0.048720957622802326 0.0038476078371102846 -0.04872095762280235 0.0038476078371102846 -0.04872095762280235 0.9961523921628896 0.048720957622802326
3390478.4735292196 0.9962643810789307 0.0476481619652232 0.0037356189210694664 -0.0476481619652232 0.0037356189210694664 -0.0476481619652232 0.9962643810789307 0.0476481619652232
3459025.745539199 0.9963719766265657 0.04659395680408024 0.003628023373434247 -0.046593956804080246 0.003628023373434247 -0.046593956804080246 0.9963719766265657 0.04659395680408024
3528958.8775499705 0.9964753478300357 0.04555794870003539 0.0035246521699644653 -0.04555794870003539 0.0035246521699644653 -0.04555794870003539 0.9964753478300357 0.04555794870003539
3600305.8882978815 0.9965746572044643 0.044539749838795224 0.0034253427955358304 -0.044539749838795224 0.0034253427955358304 -0.044539749838795224 0.9965746572044643 0.044539749838795224
3673095.3629903416 0.996670060996448 0.04353897797098969 0.003329939003552176 -0.04353897797098969 0.003329939003552176 -0.04353897797098969 0.996670060996448 0.04353897797098969
3747356.4647584967 0.9967617094160991 0.04255525634890582 0.003238290583900915 -0.042555256348905834 0.003238290583900915 -0.042555256348905834 0.9967617094160991 0.04255525634890582
3823118.9463414503 0.9968497468608075 0.04158821366034805 0.003150253139192511 -0.04158821366034805 0.003150253139192511 -0.04158821366034805 0.9968497468608075 0.04158821366034805
3900413.1620067055 0.9969343121309703 0.040637483959879574 0.00306568786902974 -0.040637483959879574 0.00306568786902974 -0.040637483959879574 0.9969343121309703 0.040637483959879574
3979270.0797116193 0.9970155386379423 0.03970270659768443 0.0029844613620577244 -0.03970270659768443 0.0029844613620577244 -0.03970270659768443 0.9970155386379423 0.03970270659768443
4059721.293510725 0.9970935546044493 0.038783526146272715 0.0029064453955508383 -0.03878352614627272 0.0029064453955508383 -0.03878352614627272 0.9970935546044493 0.038783526146272715
4141799.0362139 0.9971684832577018 0.03787959232523904 0.0028315167422982047 -0.03787959232523904 0.0028315167422982047 -0.03787959232523904 0.9971684832577018 0.03787959232523904
4225536.192300457 0.9972404430154451 0.03699055992426901 0.0027595569845548624 -0.03699055992426901 0.0027595569845548624 -0.03699055992426901 0.9972404430154451 0.03699055992426901
4310966.311094318 0.9973095476651687 0.03611608872457679 0.002690452334831396 -0.03611608872457679 0.002690452334831396 -0.03611608872457679 0.9973095476651687 0.03611608872457679
4398123.620205573 0.9973759065366996 0.03525584341894375 0.002624093463300431 -0.03525584341894374 0.002624093463300431 -0.03525584341894374 0.9973759065366996 0.03525584341894375
4487043.0392437745 0.997439624668396 0.034409493530517414 0.0025603753316041297 -0.034409493530517414 0.0025603753316041297 -0.034409493530517414 0.997439624668396 0.034409493530517414
4577760.193808502 0.9975008029671477 0.03357671333051813 0.0024991970328524615 -0.03357671333051813 0.0024991970328524615 -0.03357671333051813 0.9975008029671477 0.03357671333051813
4670311.429762763 0.9975595383623922 0.032757181754991684 0.0024404616376078755 -0.032757181754991684 0.0024404616376078755 -0.032757181754991684 0.9975595383623922 0.032757181754991684
4764733.827794987 0.9976159239543424 0.03195058232073521 0.0023840760456575114 -0.0319505823207352 0.0023840760456575114 -0.0319505823207352 0.9976159239543424 0.03195058232073521
4861065.218275411 0.99767004915662 0.031156603040515343 0.002329950843379917 -0.031156603040515343 0.002329950843379917 -0.031156603040515343 0.99767004915662 0.031156603040515343
4959344.196412832 0.9977219998334812 0.030374936337688643 0.0022780001665187537 -0.030374936337688643 0.0022780001665187537 -0.030374936337688643 0.9977219998334812 0.030374936337688643
5059610.137717796 0.9977718584318185 0.029605278960325998 0.00222814156818161 -0.029605278960326005 0.00222814156818161 -0.029605278960326005 0.9977718584318185 0.029605278960325998
5161903.213778406 0.9978197041081126 0.028847331894935296 0.0021802958918875036 -0.028847331894935296 0.0021802958918875036 -0.028847331894935296 0.9978197041081126 0.028847331894935296
5266264.4083550945 0.9978656128505078 0.028100800279869005 0.0021343871494921367 -0.028100800279869005 0.0021343871494921367 -0.028100800279869005 0.9978656128505078 0.028100800279869005
5372735.53380077 0.9979096575961747 0.027365393318496863 0.0020903424038252925 -0.027365393318496866 0.0020903424038252925 -0.027365393318496866 0.9979096575961747 0.027365393318496863
5481359.247812959 0.99795190834412 0.026640824192217045 0.0020480916558800796 -0.026640824192217045 0.0020480916558800796 -0.026640824192217045 0.99795190834412 0.026640824192217045
5592179.070524632 0.9979924322636011 0.025926809973373252 0.0020075677363989007 -0.025926809973373256 0.0020075677363989007 -0.025926809973373256 0.9979924322636011 0.025926809973373252
5705239.401940555 0.9980312937982939 0.025223071538139564 0.0019687062017061307 -0.02522307153813956 0.0019687062017061307 -0.02522307153813956 0.9980312937982939 0.025223071538139564
5820585.5397261735 0.9980685547663575 0.02452933347942914 0.0019314452336425198 -0.024529333479429136 0.0019314452336425198 -0.024529333479429136 0.9980685547663575 0.02452933347942914
5938263.697356135 0.9981042744565389 0.023845324019878322 0.0018957255434612073 -0.023845324019878322 0.0018957255434612073 -0.023845324019878322 0.9981042744565389 0.023845324019878322
6058321.022629741 0.9981385097204499 0.02317077492495213 0.001861490279550069 -0.023170774924952137 0.001861490279550069 -0.023170774924952137 0.9981385097204499 0.02317077492495213
6180805.616560728 0.9981713150611502 0.022505421416213665 0.00182868493884985 -0.022505421416213672 0.00182868493884985 -0.022505421416213672 0.9981713150611502 0.022505421416213665
6305766.552648956 0.9982027427181579 0.02184900208479467 0.001797257281842087 -0.021849002084794664 0.001797257281842087 -0.021849002084794664 0.9982027427181579 0.02184900208479467
6433253.896541728 0.9982328427490147 0.02120125880510128 0.001767157250985389 -0.02120125880510128 0.001767157250985389 -0.02120125880510128 0.9982328427490147 0.02120125880510128
6563318.726092606 0.998261663107517 0.020561936648785088 0.001738336892482998 -0.02056193664878509 0.001738336892482998 -0.02056193664878509 0.998261663107517 0.020561936648785088
6696013.151825785 0.9982892497187311 0.01993078379900564 0.0017107502812688813 -0.019930783799005636 0.0017107502812688813 -0.019930783799005636 0.9982892497187311 0.01993078379900564
6831390.3378141755 0.9983156465508961 0.01930755146500821 0.001684353449103805 -0.019307551465008205 0.001684353449103805 -0.019307551465008205 0.9983156465508961 0.01930755146500821
6969504.522979628 0.9983408956843232 0.018691993797036427 0.0016591043156768898 -0.01869199379703643 0.0016591043156768898 -0.01869199379703643 0.9983408956843232 0.018691993797036427
7110411.042823766 0.9983650373773877 0.018083867801597493 0.0016349626226122057 -0.018083867801597497 0.0016349626226122057 -0.018083867801597497 0.9983650373773877 0.018083867801597493
7254166.351598182 0.9983881101297162 0.017482933257094165 0.0016118898702838157 -0.01748293325709417 0.0016118898702838157 -0.01748293325709417 0.9983881101297162 0.017482933257094165
7400828.044922853 0.9984101507426535 0.0168889526298358 0.0015898492573464852 -0.016888952629835804 0.0015898492573464852 -0.016888952629835804 0.9984101507426535 0.0168889526298358
7550454.882861849 0.9984311943771071 0.016301690990437837 0.0015688056228929878 -0.016301690990437843 0.0015688056228929878 -0.016301690990437843 0.9984311943771071 0.016301690990437837
7703106.813465575 0.9984512746088475 0.015720915930617273 0.0015487253911525278 -0.01572091593061728 0.0015487253911525278 -0.01572091593061728 0.9984512746088475 0.015720915930617273
7858844.9967889795 0.9984704234813516 0.015146397480389233 0.0015295765186483395 -0.01514639748038924 0.0015295765186483395 -0.01514639748038924 0.9984704234813516 0.015146397480389233
8017731.829395356 0.9984886715562641 0.014577908025668168 0.0015113284437359299 -0.014577908025668173 0.0015113284437359299 -0.014577908025668173 0.9984886715562641 0.014577908025668168
8179830.96935555 0.9985060479615532 0.01401522222627483 0.0014939520384467712 -0.014015222226274845 0.0014939520384467712 -0.014015222226274845 0.9985060479615532 0.01401522222627483
8345207.361752584 0.9985225804374345 0.01345811693434933 0.0014774195625655378 -0.013458116934349312 0.0014774195625655378 -0.013458116934349312 0.9985225804374345 0.01345811693434933
8513927.264701942 0.998538295380128 0.012906371113167472 0.0014617046198720995 -0.012906371113167479 0.0014617046198720995 -0.012906371113167479 0.998538295380128 0.012906371113167472
8686058.275897898 0.9985532178835174 0.01235976575635848 0.001446782116482636 -0.012359765756358474 0.001446782116482636 -0.012359765756358474 0.9985532178835174 0.01235976575635848
