! NFZ32SW901HN10
# Hz S RI R 50
!Freq.(Hz) S11(Real) S11(Imag) S21(Real) S21(Imag) S12(Real) S12(Imag) S22(Real) S22(Imag)
1000000.0 0.006933270310476505 0.0649863112036654 0.9930667296895235 -0.0649863112036654 0.9930667296895235 -0.0649863112036654 0.006933270310476505 0.0649863112036654
1020217.5806586457 0.007154649526078381 0.06624369180941404 0.9928453504739218 -0.06624369180941404 0.9928453504739218 -0.06624369180941404 0.007154649526078381 0.06624369180941404
1040843.9118849806 0.007383203749269951 0.06752477516040636 0.9926167962507301 -0.06752477516040636 0.9926167962507301 -0.06752477516040636 0.007383203749269951 0.06752477516040636
1061887.2576265757 0.007619181248517925 0.06883000935900138 0.9923808187514822 -0.0688300093590014 0.9923808187514822 -0.0688300093590014 0.007619181248517925 0.06883000935900138
1083356.0489080292 0.00786284132896964 0.0701598505391982 0.9921371586710303 -0.07015985053919821 0.9921371586710303 -0.07015985053919821 0.00786284132896964 0.0701598505391982
1105258.8872088592 0.008114454859336002 0.07151476282102912 0.991885545140664 -0.07151476282102912 0.991885545140664 -0.07151476282102912 0.008114454859336002 0.07151476282102912
1127604.5479096894 0.008374304811749538 0.07289521824523239 0.9916256951882504 -0.07289521824523237 0.9916256951882504 -0.07289521824523237 0.008374304811749538 0.07289521824523239
1150401.9838081095 0.008642686814085629 0.07430169668751475 0.9913573131859145 -0.07430169668751474 0.9913573131859145 -0.07430169668751474 0.008642686814085629 0.07430169668751475
1173660.328705616 0.008919909714238639 0.07573468575175137 0.9910800902857614 -0.07573468575175137 0.9910800902857614 -0.07573468575175137 0.008919909714238639 0.07573468575175137
1197388.9010670746 0.00920629615585493 0.07719468064150169 0.9907937038441451 -0.07719468064150169 0.9907937038441451 -0.07719468064150169 0.00920629615585493 0.07719468064150169
1221597.2077541656 0.009502183165042047 0.0786821840092488 0.9904978168349581 -0.0786821840092488 0.9904978168349581 -0.0786821840092488 0.009502183165042047 0.0786821840092488
1246294.947834312 0.009807922747595553 0.08019770578278948 0.9901920772524044 -0.08019770578278948 0.9901920772524044 -0.08019770578278948 0.009807922747595553 0.08019770578278948
1271492.016466615 0.010123882496312474 0.08174176296821616 0.9898761175036878 -0.08174176296821616 0.9898761175036878 -0.08174176296821616 0.010123882496312474 0.08174176296821616
1297198.5088663532 0.010450446207991192 0.08331487942893735 0.9895495537920088 -0.08331487942893735 0.9895495537920088 -0.08331487942893735 0.010450446207991192 0.08331487942893735
1323424.7243496338 0.010788014509751342 0.0849175856401806 0.9892119854902487 -0.0849175856401806 0.9892119854902487 -0.0849175856401806 0.010788014509751342 0.0849175856401806
1350181.1704598186 0.011137005494342302 0.08655041841840849 0.9888629945056578 -0.0865504184184085 0.9888629945056578 -0.0865504184184085 0.011137005494342302 0.08655041841840849
1377478.5671773748 0.011497855364143944 0.08821392062505644 0.9885021446358558 -0.08821392062505644 0.9885021446358558 -0.08821392062505644 0.011497855364143944 0.08821392062505644
1405327.8512148394 0.011871019083597218 0.08990864084396862 0.9881289809164028 -0.08990864084396862 0.9881289809164028 -0.08990864084396862 0.011871019083597218 0.08990864084396862
1433740.1803986167 0.012256971039833647 0.09163513303186593 0.9877430289601663 -0.09163513303186593 0.9877430289601663 -0.09163513303186593 0.012256971039833647 0.09163513303186593
1462726.9381393674 0.012656205711300102 0.09339395614112807 0.9873437942886998 -0.09339395614112805 0.9873437942886998 -0.09339395614112805 0.012656205711300102 0.09339395614112807
1492299.737992774 0.013069238344197287 0.09518567371410833 0.9869307616558027 -0.09518567371410833 0.9869307616558027 -0.09518567371410833 0.013069238344197287 0.09518567371410833
1522470.428312519 0.013496605636566109 0.09701085344813028 0.9865033943634338 -0.09701085344813028 0.9865033943634338 -0.09701085344813028 0.013496605636566109 0.09701085344813028
1553251.0969973304 0.013938866429863644 0.09887006673023385 0.9860611335701366 -0.09887006673023385 0.9860611335701366 -0.09887006673023385 0.013938866429863644 0.09887006673023385
1584654.076334004 0.014396602407869052 0.10076388814065032 0.9856033975921308 -0.10076388814065032 0.9856033975921308 -0.10076388814065032 0.014396602407869052 0.10076388814065032
1616691.9479383389 0.01487041880274827 0.10269289492389053 0.9851295811972517 -0.10269289492389053 0.9851295811972517 -0.10269289492389053 0.01487041880274827 0.10269289492389053
1649377.5477959653 0.015360945108083498 0.10465766642622716 0.9846390548919165 -0.10465766642622717 0.9846390548919165 -0.10465766642622717 0.015360945108083498 0.10465766642622716
1682723.9714050898 0.015868835798638948 0.10665878349824694 0.9841311642013609 -0.10665878349824691 0.9841311642013609 -0.10665878349824691 0.015868835798638948 0.10665878349824694
1716744.5790232092 0.01639477105658575 0.10869682786103227 0.9836052289434143 -0.10869682786103227 0.9836052289434143 -0.10869682786103227 0.01639477105658575 0.10869682786103227
1751453.001019904 0.016939457503847902 0.11077238143442049 0.9830605424961523 -0.11077238143442052 0.9830605424961523 -0.11077238143442052 0.016939457503847902 0.11077238143442049
1786863.143337851 0.017503628940154857 0.11288602562566857 0.9824963710598452 -0.11288602562566857 0.9824963710598452 -0.11288602562566857 0.017503628940154857 0.11288602562566857
1822989.1930642454 0.018088047086295186 0.11503834057673312 0.9819119529137048 -0.11503834057673312 0.9819119529137048 -0.11503834057673312 0.018088047086295186 0.11503834057673312
1859845.6241148617 0.018693502331959398 0.11722990436825725 0.9813064976680407 -0.11722990436825725 0.9813064976680407 -0.11722990436825725 0.018693502331959398 0.11722990436825725
1897447.2030330333 0.01932081448743742 0.11946129217823792 0.9806791855125627 -0.11946129217823792 0.9806791855125627 -0.11946129217823792 0.01932081448743742 0.11946129217823792
1935808.994905876 0.01997083353829793 0.12173307539323429 0.980029166461702 -0.12173307539323426 0.980029166461702 -0.12173307539323426 0.01997083353829793 0.12173307539323429
1974946.3694001175 0.020644440402021118 0.12404582066986519 0.9793555595979788 -0.12404582066986516 0.9793555595979788 -0.12404582066986516 0.020644440402021118 0.12404582066986519
2014875.0069199642 0.02134254768538532 0.12640008894424132 0.9786574523146145 -0.12640008894424132 0.9786574523146145 -0.12640008894424132 0.02134254768538532 0.12640008894424132
2055610.904889458 0.022066100441218706 0.12879643438687663 0.9779338995587813 -0.12879643438687666 0.9779338995587813 -0.12879643438687666 0.022066100441218706 0.12879643438687663
2097170.3841618528 0.022816076922921855 0.13123540330053401 0.9771839230770781 -0.13123540330053401 0.9771839230770781 -0.13123540330053401 0.022816076922921855 0.13123540330053401
2139570.0955585684 0.02359348933494482 0.13371753295838007 0.9764065106650551 -0.13371753295838007 0.9764065106650551 -0.13371753295838007 0.02359348933494482 0.13371753295838007
2182827.0265403506 0.02439938457716166 0.13624335037975044 0.9756006154228384 -0.13624335037975044 0.9756006154228384 -0.13624335037975044 0.02439938457716166 0.13624335037975044
2226958.508013302 0.02523484498082971 0.13881337104077104 0.9747651550191704 -0.13881337104077104 0.9747651550191704 -0.13881337104077104 0.02523484498082971 0.13881337104077104
2271982.2212725184 0.026100989033546657 0.1414280975170348 0.9738990109664536 -0.1414280975170348 0.9738990109664536 -0.1414280975170348 0.026100989033546657 0.1414280975170348
2317916.205086105 0.026998972090328328 0.14408801805550434 0.9730010279096716 -0.14408801805550434 0.9730010279096716 -0.14408801805550434 0.026998972090328328 0.14408801805550434
2364778.8629224156 0.027929987067622074 0.14679360507279526 0.972070012932378 -0.14679360507279526 0.972070012932378 -0.14679360507279526 0.027929987067622074 0.14679360507279526
2412588.9703234104 0.028895265116748284 0.14954531357700532 0.9711047348832516 -0.1495453135770053 0.9711047348832516 -0.1495453135770053 0.028895265116748284 0.14954531357700532
2461365.682427083 0.029896076272921464 0.15234357951027533 0.9701039237270787 -0.15234357951027533 0.9701039237270787 -0.15234357951027533 0.029896076272921464 0.15234357951027533
2511128.5416419753 0.030933730075647054 0.15518881800931805 0.9690662699243529 -0.15518881800931805 0.9690662699243529 -0.15518881800931805 0.030933730075647054 0.15518881800931805
2561897.48547685 0.03200957615591953 0.15808142158122393 0.9679904238440803 -0.15808142158122393 0.9679904238440803 -0.15808142158122393 0.03200957615591953 0.15808142158122393
2613692.85452866 0.03312500478526062 0.16102175819194722 0.9668749952147394 -0.16102175819194722 0.9668749952147394 -0.16102175819194722 0.03312500478526062 0.16102175819194722
2666535.4006320196 0.03428144738123774 0.16401016926500744 0.9657185526187622 -0.16401016926500747 0.9657185526187622 -0.16401016926500747 0.03428144738123774 0.16401016926500744
2720446.295173432 0.035480376963689005 0.16704696758809381 0.9645196230363109 -0.16704696758809381 0.9645196230363109 -0.16704696758809381 0.035480376963689005 0.16704696758809381
2775447.137573615 0.036723308555456594 0.17013243512545312 0.9632766914445435 -0.17013243512545312 0.9632766914445435 -0.17013243512545312 0.036723308555456594 0.17013243512545312
2831559.963941318 0.03801179952099461 0.17326682073416722 0.9619882004790054 -0.17326682073416722 0.9619882004790054 -0.17326682073416722 0.03801179952099461 0.17326682073416722
2888807.255902094 0.03934744983577292 0.17645033778269162 0.9606525501642269 -0.17645033778269162 0.9606525501642269 -0.17645033778269162 0.03934744983577292 0.17645033778269162
2947211.9496055758 0.0407319022789457 0.17968316167032988 0.9592680977210543 -0.17968316167032988 0.9592680977210543 -0.17968316167032988 0.0407319022789457 0.17968316167032988
3006797.4449148513 0.04216684254129667 0.18296542724667145 0.9578331574587033 -0.18296542724667142 0.9578331574587033 -0.18296542724667142 0.04216684254129667 0.18296542724667145
3067587.6147816274 0.04365399924001277 0.18629722613041533 0.9563460007599872 -0.1862972261304153 0.9563460007599872 -0.1862972261304153 0.04365399924001277 0.18629722613041533
3129606.8148109377 0.045195143831378126 0.1896786039274496 0.9548048561686218 -0.1896786039274496 0.9548048561686218 -0.1896786039274496 0.045195143831378126 0.1896786039274496
3192879.893019226 0.04679209041202301 0.19310955734855476 0.9532079095879771 -0.19310955734855478 0.9532079095879771 -0.19310955734855478 0.04679209041202301 0.19310955734855476
3257432.1997897103 0.04844669539891485 0.19659003122765734 0.9515533046010852 -0.19659003122765734 0.9515533046010852 -0.19659003122765734 0.04844669539891485 0.19659003122765734
3323289.598029029 0.05016085707783832 0.2001199154421701 0.9498391429221616 -0.20011991544217014 0.9498391429221616 -0.20011991544217014 0.05016085707783832 0.2001199154421701
3390478.4735292196 0.051936515009691375 0.20369904173763512 0.9480634849903087 -0.20369904173763512 0.9480634849903087 -0.20369904173763512 0.051936515009691375 0.20369904173763512
3459025.745539199 0.0537756492835232 0.20732718045962226 0.9462243507164769 -0.20732718045962226 0.9462243507164769 -0.20732718045962226 0.0537756492835232 0.20732718045962226
3528958.8775499705 0.05568027960486619 0.21100403719664296 0.9443197203951337 -0.21100403719664296 0.9443197203951337 -0.21100403719664296 0.05568027960486619 0.21100403719664296
3600305.8882978815 0.05765246420757718 0.21472924933871682 0.9423475357924227 -0.21472924933871682 0.9423475357924227 -0.21472924933871682 0.05765246420757718 0.21472924933871682
3673095.3629903416 0.05969429857710066 0.21850238255716628 0.9403057014228995 -0.21850238255716628 0.9403057014228995 -0.21850238255716628 0.05969429857710066 0.21850238255716628
3747356.4647584967 0.06180791397282169 0.22232292721224053 0.9381920860271783 -0.22232292721224053 0.9381920860271783 -0.22232292721224053 0.06180791397282169 0.22232292721224053
3823118.9463414503 0.06399547573697958 0.2261902946962514 0.9360045242630205 -0.2261902946962514 0.9360045242630205 -0.2261902946962514 0.06399547573697958 0.2261902946962514
3900413.1620067055 0.06625918137748753 0.23010381372106584 0.9337408186225126 -0.23010381372106584 0.9337408186225126 -0.23010381372106584 0.06625918137748753 0.23010381372106584
3979270.0797116193 0.06860125841195439 0.23406272656003838 0.9313987415880458 -0.23406272656003838 0.9313987415880458 -0.23406272656003838 0.06860125841195439 0.23406272656003838
4059721.293510725 0.07102396196023474 0.23806618525575723 0.9289760380397655 -0.2380661852557573 0.9289760380397655 -0.2380661852557573 0.07102396196023474 0.23806618525575723
4141799.0362139 0.07352957207296933 0.24211324780635984 0.9264704279270306 -0.24211324780635984 0.9264704279270306 -0.24211324780635984 0.07352957207296933 0.24211324780635984
4225536.192300457 0.07612039078381275 0.24620287434459465 0.9238796092161872 -0.24620287434459465 0.9238796092161872 -0.24620287434459465 0.07612039078381275 0.24620287434459465
4310966.311094318 0.07879873887340633 0.2503339233253051 0.9212012611265936 -0.25033392332530513 0.9212012611265936 -0.25033392332530513 0.07879873887340633 0.2503339233253051
4398123.620205573 0.08156695233364229 0.2545051477385485 0.9184330476663577 -0.2545051477385485 0.9184330476663577 -0.2545051477385485 0.08156695233364229 0.2545051477385485
4487043.0392437745 0.08442737852139871 0.25871519136715043 0.9155726214786014 -0.25871519136715043 0.9155726214786014 -0.25871519136715043 0.08442737852139871 0.25871519136715043
4577760.193808502 0.08738237199171382 0.26296258510911463 0.9126176280082863 -0.2629625851091147 0.9126176280082863 -0.2629625851091147 0.08738237199171382 0.26296258510911463
4670311.429762763 0.0904342900013241 0.26724574338695084 0.9095657099986759 -0.2672457433869508 0.9095657099986759 -0.2672457433869508 0.0904342900013241 0.26724574338695084
4764733.827794987 0.09358548767462722 0.27156296066763164 0.906414512325373 -0.27156296066763164 0.906414512325373 -0.27156296066763164 0.09358548767462722 0.27156296066763164
4861065.218275411 0.09683831282545573 0.2759124081185375 0.9031616871745444 -0.2759124081185375 0.9031616871745444 -0.2759124081185375 0.09683831282545573 0.2759124081185375
4959344.196412832 0.10019510042957544 0.28029213042636547 0.8998048995704246 -0.28029213042636547 0.8998048995704246 -0.28029213042636547 0.10019510042957544 0.28029213042636547
5059610.137717796 0.10365816674455879 0.2847000428075567 0.8963418332554414 -0.2847000428075567 0.8963418332554414 -0.2847000428075567 0.10365816674455879 0.2847000428075567
5161903.213778406 0.10722980307563806 0.28913392824030826 0.8927701969243619 -0.28913392824030826 0.8927701969243619 -0.28913392824030826 0.10722980307563806 0.28913392824030826
5266264.4083550945 0.11091226918831944 0.29359143494965473 0.8890877308116804 -0.2935914349496547 0.8890877308116804 -0.2935914349496547 0.11091226918831944 0.29359143494965473
5372735.53380077 0.11470778637094795 0.29807007417841475 0.8852922136290521 -0.29807007417841475 0.8852922136290521 -0.29807007417841475 0.11470778637094795 0.29807007417841475
5481359.247812959 0.11861853015304345 0.3025672182779583 0.8813814698469565 -0.3025672182779583 0.8813814698469565 -0.3025672182779583 0.11861853015304345 0.3025672182779583
5592179.070524632 0.12264662268809175 0.30708009915374057 0.8773533773119083 -0.3070800991537405 0.8773533773119083 -0.3070800991537405 0.12264662268809175 0.30708009915374057
5705239.401940555 0.1267941248125568 0.3116058071013344 0.8732058751874432 -0.31160580710133434 0.8732058751874432 -0.31160580710133434 0.1267941248125568 0.3116058071013344
5820585.5397261735 0.13106302779617957 0.3161412900692407 0.8689369722038205 -0.3161412900692407 0.8689369722038205 -0.3161412900692407 0.13106302779617957 0.3161412900692407
5938263.697356135 0.1354552448021244 0.3206833533850323 0.8645447551978754 -0.3206833533850323 0.8645447551978754 -0.3206833533850323 0.1354552448021244 0.3206833533850323
6058321.022629741 0.13997260207922066 0.3252286599813622 0.8600273979207793 -0.32522865998136213 0.8600273979207793 -0.32522865998136213 0.13997260207922066 0.3252286599813622
6180805.616560728 0.14461682991238814 0.3297737311579939 0.8553831700876118 -0.32977373115799385 0.8553831700876118 -0.32977373115799385 0.14461682991238814 0.3297737311579939
6305766.552648956 0.14938955336131637 0.3343149479152787 0.8506104466386837 -0.3343149479152787 0.8506104466386837 -0.3343149479152787 0.14938955336131637 0.3343149479152787
6433253.896541728 0.1542922828215533 0.33884855289335625 0.8457077171784468 -0.33884855289335625 0.8457077171784468 -0.33884855289335625 0.1542922828215533 0.33884855289335625
6563318.726092606 0.1593264044463022 0.34337065294977465 0.8406735955536978 -0.34337065294977465 0.8406735955536978 -0.34337065294977465 0.1593264044463022 0.34337065294977465
6696013.151825785 0.16449317047140133 0.34787722240618957 0.8355068295285986 -0.34787722240618957 0.8355068295285986 -0.34787722240618957 0.16449317047140133 0.34787722240618957
6831390.3378141755 0.16979368949009951 0.35236410699226534 0.8302063105099005 -0.35236410699226534 0.8302063105099005 -0.35236410699226534 0.16979368949009951 0.35236410699226534
6969504.522979628 0.17522891672830934 0.35682702851187875 0.8247710832716906 -0.35682702851187875 0.8247710832716906 -0.35682702851187875 0.17522891672830934 0.35682702851187875
7110411.042823766 0.1807996443749404 0.3612615902531679 0.8192003556250599 -0.3612615902531679 0.8192003556250599 -0.3612615902531679 0.1807996443749404 0.3612615902531679
7254166.351598182 0.18650649202563652 0.3656632831598925 0.8134935079743635 -0.3656632831598925 0.8134935079743635 -0.3656632831598925 0.18650649202563652 0.3656632831598925
7400828.044922853 0.1923498973016957 0.37002749277697594 0.8076501026983043 -0.37002749277697594 0.8076501026983043 -0.37002749277697594 0.1923498973016957 0.37002749277697594
7550454.882861849 0.19833010670906004 0.3743495069779764 0.8016698932909401 -0.3743495069779764 0.8016698932909401 -0.3743495069779764 0.19833010670906004 0.3743495069779764
7703106.813465575 0.204447166804966 0.3786245244766212 0.795552833195034 -0.3786245244766212 0.795552833195034 -0.3786245244766212 0.204447166804966 0.3786245244766212
7858844.9967889795 0.21070091574206104 0.38284766411845794 0.789299084257939 -0.38284766411845794 0.789299084257939 -0.38284766411845794 0.21070091574206104 0.38284766411845794
8017731.829395356 0.21709097526144586 0.3870139749421479 0.7829090247385543 -0.3870139749421479 0.7829090247385543 -0.3870139749421479 0.21709097526144586 0.3870139749421479
8179830.96935555 0.22361674320714112 0.39111844699304205 0.7763832567928588 -0.39111844699304205 0.7763832567928588 -0.39111844699304205 0.22361674320714112 0.39111844699304205
8345207.361752584 0.23027738663480188 0.3951560228644435 0.7697226133651983 -0.39515602286444357 0.7697226133651983 -0.39515602286444357 0.23027738663480188 0.3951560228644435
8513927.264701942 0.2370718355870916 0.3991216099344984 0.7629281644129084 -0.3991216099344984 0.7629281644129084 -0.3991216099344984 0.2370718355870916 0.3991216099344984
8686058.275897898 0.24399877760688932 0.4030100932590075 0.7560012223931106 -0.40301009325900755 0.7560012223931106 -0.40301009325900755 0.24399877760688932 0.4030100932590075
8861669.359696563 0.2510566530574148 0.4068163490727339 0.7489433469425852 -0.4068163490727339 0.7489433469425852 -0.4068163490727339 0.2510566530574148 0.4068163490727339
9040830.87474648 0.2582436513153787 0.41053525884408415 0.7417563486846213 -0.4105352588440841 0.7417563486846213 -0.4105352588440841 0.2582436513153787 0.41053525884408415
