! NFZ32BW520HN11
# Hz S RI R 50
!Freq.(Hz) S11(Real) S11(Imag) S21(Real) S21(Imag) S12(Real) S12(Imag) S22(Real) S22(Imag)
1000000.0 0.19531219051642304 0.3795908302446087 0.804687809483577 -0.3795908302446087 0.804687809483577 -0.3795908302446087 0.19531219051642304 0.3795908302446087
1020217.5806586457 0.20135350968788135 0.3840208013674087 0.7986464903121185 -0.3840208013674087 0.7986464903121185 -0.3840208013674087 0.20135350968788135 0.3840208013674087
1040843.9118849806 0.2075293517667025 0.3884065603832345 0.7924706482332974 -0.3884065603832345 0.7924706482332974 -0.3884065603832345 0.2075293517667025 0.3884065603832345
1061887.2576265757 0.21383958412070855 0.3927435820320819 0.7861604158792913 -0.3927435820320819 0.7861604158792913 -0.3927435820320819 0.21383958412070855 0.3927435820320819
1083356.0489080292 0.22028388730132192 0.3970272800561042 0.7797161126986781 -0.3970272800561042 0.7797161126986781 -0.3970272800561042 0.22028388730132192 0.3970272800561042
1105258.8872088592 0.22686174935021744 0.4012530156015915 0.7731382506497825 -0.40125301560159143 0.7731382506497825 -0.40125301560159143 0.22686174935021744 0.4012530156015915
1127604.5479096894 0.23357246052405822 0.4054161060795192 0.7664275394759418 -0.4054161060795192 0.7664275394759418 -0.4054161060795192 0.23357246052405822 0.4054161060795192
1150401.9838081095 0.24041510847322134 0.4095118344615254 0.7595848915267787 -0.4095118344615254 0.7595848915267787 -0.4095118344615254 0.24041510847322134 0.4095118344615254
1173660.328705616 0.24738857390878993 0.41353545898529087 0.7526114260912101 -0.41353545898529087 0.7526114260912101 -0.41353545898529087 0.24738857390878993 0.41353545898529087
1197388.9010670746 0.2544915267902033 0.41748222324058154 0.7455084732097967 -0.41748222324058154 0.7455084732097967 -0.41748222324058154 0.2544915267902033 0.41748222324058154
1221597.2077541656 0.2617224230638511 0.4213473666046983 0.7382775769361488 -0.4213473666046983 0.7382775769361488 -0.4213473666046983 0.2617224230638511 0.4213473666046983
1246294.947834312 0.2690795019805937 0.42512613499378216 0.7309204980194063 -0.42512613499378216 0.7309204980194063 -0.42512613499378216 0.2690795019805937 0.42512613499378216
1271492.016466615 0.27656078401773 0.4288137918943656 0.7234392159822699 -0.4288137918943656 0.7234392159822699 -0.4288137918943656 0.27656078401773 0.4288137918943656
1297198.5088663532 0.28416406942834344 0.43240562963774953 0.7158359305716566 -0.43240562963774953 0.7158359305716566 -0.43240562963774953 0.28416406942834344 0.43240562963774953
1323424.7243496338 0.2918869374382673 0.4358969808782155 0.7081130625617327 -0.4358969808782155 0.7081130625617327 -0.4358969808782155 0.2918869374382673 0.4358969808782155
1350181.1704598186 0.2997267461081792 0.4392832302347773 0.7002732538918208 -0.4392832302347773 0.7002732538918208 -0.4392832302347773 0.2997267461081792 0.4392832302347773
1377478.5671773748 0.3076806328755529 0.44255982605509064 0.6923193671244471 -0.44255982605509064 0.6923193671244471 -0.44255982605509064 0.3076806328755529 0.44255982605509064
1405327.8512148394 0.3157455157884375 0.4457222922592953 0.6842544842115625 -0.4457222922592953 0.6842544842115625 -0.4457222922592953 0.3157455157884375 0.4457222922592953
1433740.1803986167 0.3239180954402928 0.4487662402209195 0.6760819045597072 -0.4487662402209195 0.6760819045597072 -0.4487662402209195 0.3239180954402928 0.4487662402209195
1462726.9381393674 0.3321948576124174 0.45168738064151653 0.6678051423875826 -0.45168738064151653 0.6678051423875826 -0.45168738064151653 0.3321948576124174 0.45168738064151653
1492299.737992774 0.3405720766278794 0.454481535375409 0.6594279233721205 -0.4544815353754089 0.6594279233721205 -0.4544815353754089 0.3405720766278794 0.454481535375409
1522470.428312519 0.3490458194182965 0.4571446491607419 0.6509541805817036 -0.4571446491607419 0.6509541805817036 -0.4571446491607419 0.3490458194182965 0.4571446491607419
1553251.0969973304 0.3576119503023263 0.4596728012129916 0.6423880496976738 -0.45967280121299164 0.6423880496976738 -0.45967280121299164 0.3576119503023263 0.4596728012129916
1584654.076334004 0.36626613647230255 0.46206221663708874 0.6337338635276974 -0.46206221663708874 0.6337338635276974 -0.46206221663708874 0.36626613647230255 0.46206221663708874
1616691.9479383389 0.37500385418307836 0.46430927761438795 0.6249961458169216 -0.464309277614388 0.6249961458169216 -0.464309277614388 0.37500385418307836 0.46430927761438795
1649377.5477959653 0.3838203956348 0.46641053432082763 0.6161796043651998 -0.4664105343208276 0.6161796043651998 -0.4664105343208276 0.3838203956348 0.46641053432082763
1682723.9714050898 0.39271087653901166 0.46836271553275455 0.6072891234609884 -0.4683627155327546 0.6072891234609884 -0.4683627155327546 0.39271087653901166 0.46836271553275455
1716744.5790232092 0.4016702443551406 0.4701627388770385 0.5983297556448595 -0.47016273887703847 0.5983297556448595 -0.47016273887703847 0.4016702443551406 0.4701627388770385
1751453.001019904 0.4106932871820331 0.471807720682271 0.5893067128179671 -0.471807720682271 0.5893067128179671 -0.471807720682271 0.4106932871820331 0.471807720682271
1786863.143337851 0.419774643286743 0.4732949853880357 0.580225356713257 -0.4732949853880357 0.580225356713257 -0.4732949853880357 0.419774643286743 0.4732949853880357
1822989.1930642454 0.42890881125021546 0.4746220744694782 0.5710911887497845 -0.4746220744694782 0.5710911887497845 -0.4746220744694782 0.42890881125021546 0.4746220744694782
1859845.6241148617 0.43809016070681345 0.47578675483471167 0.5619098392931865 -0.47578675483471156 0.5619098392931865 -0.47578675483471156 0.43809016070681345 0.47578675483471167
1897447.2030330333 0.4473129436517991 0.4767870266530078 0.552687056348201 -0.4767870266530078 0.552687056348201 -0.4767870266530078 0.4473129436517991 0.4767870266530078
1935808.994905876 0.4565713062878867 0.4776211305722802 0.5434286937121133 -0.4776211305722802 0.5434286937121133 -0.4776211305722802 0.4565713062878867 0.4776211305722802
1974946.3694001175 0.46585930137881076 0.47828755428510716 0.5341406986211893 -0.47828755428510705 0.5341406986211893 -0.47828755428510705 0.46585930137881076 0.47828755428510716
2014875.0069199642 0.4751709010745433 0.47878503840352876 0.5248290989254567 -0.47878503840352865 0.5248290989254567 -0.47878503840352865 0.4751709010745433 0.47878503840352876
2055610.904889458 0.48450001016931565 0.47911258160412107 0.5154999898306842 -0.47911258160412107 0.5154999898306842 -0.47911258160412107 0.48450001016931565 0.47911258160412107
2097170.3841618528 0.4938404797500213 0.4792694450064566 0.5061595202499788 -0.47926944500645646 0.5061595202499788 -0.47926944500645646 0.4938404797500213 0.4792694450064566
2139570.0955585684 0.5031861211889093 0.4792551557500579 0.49681387881109085 -0.4792551557500579 0.49681387881109085 -0.4792551557500579 0.5031861211889093 0.4792551557500579
2182827.0265403506 0.5125307204307799 0.47906950973737444 0.48746927956922026 -0.47906950973737444 0.48746927956922026 -0.47906950973737444 0.5125307204307799 0.47906950973737444
2226958.508013302 0.521868052521232 0.478712573513194 0.4781319474787679 -0.478712573513194 0.4781319474787679 -0.478712573513194 0.521868052521232 0.478712573513194
2271982.2212725184 0.5311918963189292 0.47818468525427804 0.4688081036810708 -0.47818468525427793 0.4688081036810708 -0.47818468525427793 0.5311918963189292 0.47818468525427804
2317916.205086105 0.5404960493314592 0.4774864548468875 0.45950395066854066 -0.4774864548468875 0.45950395066854066 -0.4774864548468875 0.5404960493314592 0.4774864548468875
2364778.8629224156 0.5497743426112021 0.476618763034248 0.45022565738879794 -0.476618763034248 0.45022565738879794 -0.476618763034248 0.5497743426112021 0.476618763034248
2412588.9703234104 0.5590206556448089 0.475582759620874 0.4409793443551912 -0.475582759620874 0.4409793443551912 -0.475582759620874 0.5590206556448089 0.475582759620874
2461365.682427083 0.5682289311674816 0.4743798607260192 0.43177106883251837 -0.47437986072601923 0.43177106883251837 -0.47437986072601923 0.5682289311674816 0.4743798607260192
2511128.5416419753 0.5773931898313455 0.4730117450842777 0.42260681016865465 -0.4730117450842777 0.42260681016865465 -0.4730117450842777 0.5773931898313455 0.4730117450842777
2561897.48547685 0.5865075446558526 0.4714803493974982 0.4134924553441474 -0.47148034939749817 0.4134924553441474 -0.47148034939749817 0.5865075446558526 0.4714803493974982
2613692.85452866 0.5955662151874686 0.46978786274860634 0.4044337848125314 -0.46978786274860646 0.4044337848125314 -0.46978786274860646 0.5955662151874686 0.46978786274860634
2666535.4006320196 0.6045635412958719 0.4679367200945822 0.39543645870412814 -0.4679367200945822 0.39543645870412814 -0.4679367200945822 0.6045635412958719 0.4679367200945822
2720446.295173432 0.6134939965346314 0.46592959486261953 0.3865060034653687 -0.4659295948626196 0.3865060034653687 -0.4659295948626196 0.6134939965346314 0.46592959486261953
2775447.137573615 0.6223522009958188 0.46376939068031237 0.3776477990041811 -0.46376939068031237 0.3776477990041811 -0.46376939068031237 0.6223522009958188 0.46376939068031237
2831559.963941318 0.6311329335902959 0.46145923227743885 0.3688670664097042 -0.46145923227743885 0.3688670664097042 -0.46145923227743885 0.6311329335902959 0.46145923227743885
2888807.255902094 0.6398311436884617 0.45900245560348274 0.36016885631153833 -0.45900245560348274 0.36016885631153833 -0.45900245560348274 0.6398311436884617 0.45900245560348274
2947211.9496055758 0.648441962060088 0.45640259721129134 0.3515580379399121 -0.45640259721129134 0.3515580379399121 -0.45640259721129134 0.648441962060088 0.45640259721129134
3006797.4449148513 0.6569607110563866 0.45366338296315467 0.34303928894361335 -0.45366338296315467 0.34303928894361335 -0.45366338296315467 0.6569607110563866 0.45366338296315467
3067587.6147816274 0.6653829139827113 0.4507887161209772 0.3346170860172885 -0.4507887161209772 0.3346170860172885 -0.4507887161209772 0.6653829139827113 0.4507887161209772
3129606.8148109377 0.6737043036161053 0.4477826648870285 0.32629569638389466 -0.44778266488702856 0.32629569638389466 -0.44778266488702856 0.6737043036161053 0.4477826648870285
3192879.893019226 0.681920829828292 0.4446494494659128 0.31807917017170795 -0.4446494494659128 0.31807917017170795 -0.4446494494659128 0.681920829828292 0.4446494494659128
3257432.1997897103 0.6900286662815288 0.44139342872182935 0.3099713337184713 -0.44139342872182935 0.3099713337184713 -0.44139342872182935 0.6900286662815288 0.44139342872182935
3323289.598029029 0.6980242161718914 0.4380190865078529 0.30197578382810875 -0.4380190865078528 0.30197578382810875 -0.4380190865078528 0.6980242161718914 0.4380190865078529
3390478.4735292196 0.7059041170019905 0.43453101774580105 0.2940958829980095 -0.434531017745801 0.2940958829980095 -0.434531017745801 0.7059041170019905 0.43453101774580105
3459025.745539199 0.7136652443726595 0.430933914336263 0.28633475562734045 -0.430933914336263 0.28633475562734045 -0.430933914336263 0.7136652443726595 0.430933914336263
3528958.8775499705 0.7213047147907301 0.4272325509785245 0.27869528520926984 -0.4272325509785245 0.27869528520926984 -0.4272325509785245 0.7213047147907301 0.4272325509785245
3600305.8882978815 0.7288198874975291 0.42343177097945234 0.2711801125024709 -0.42343177097945234 0.2711801125024709 -0.42343177097945234 0.7288198874975291 0.42343177097945234
3673095.3629903416 0.7362083653300332 0.41953647212892586 0.2637916346699667 -0.4195364721289258 0.2637916346699667 -0.4195364721289258 0.7362083653300332 0.41953647212892586
3747356.4647584967 0.7434679946336756 0.4155515927171462 0.25653200536632437 -0.4155515927171462 0.25653200536632437 -0.4155515927171462 0.7434679946336756 0.4155515927171462
3823118.9463414503 0.7505968642524669 0.4114820977661897 0.24940313574753317 -0.4114820977661897 0.24940313574753317 -0.4114820977661897 0.7505968642524669 0.4114820977661897
3900413.1620067055 0.7575933036283234 0.40733296554454007 0.2424066963716766 -0.40733296554454007 0.2424066963716766 -0.40733296554454007 0.7575933036283234 0.40733296554454007
3979270.0797116193 0.7644558800472122 0.403109174429116 0.23554411995278784 -0.403109174429116 0.23554411995278784 -0.403109174429116 0.7644558800472122 0.403109174429116
4059721.293510725 0.7711833950748472 0.39881569017459106 0.22881660492515277 -0.39881569017459106 0.22881660492515277 -0.39881569017459106 0.7711833950748472 0.39881569017459106
4141799.0362139 0.7777748802292076 0.394457453644642 0.22222511977079237 -0.394457453644642 0.22222511977079237 -0.394457453644642 0.7777748802292076 0.394457453644642
4225536.192300457 0.7842295919409978 0.39003936905427317 0.21577040805900213 -0.39003936905427317 0.21577040805900213 -0.39003936905427317 0.7842295919409978 0.39003936905427317
4310966.311094318 0.7905470058563822 0.38556629276661203 0.20945299414361793 -0.3855662927666121 0.20945299414361793 -0.3855662927666121 0.7905470058563822 0.38556629276661203
4398123.620205573 0.7967268105388225 0.3810430226816636 0.20327318946117737 -0.3810430226816637 0.20327318946117737 -0.3810430226816637 0.7967268105388225 0.3810430226816636
4487043.0392437745 0.8027689006287092 0.37647428824850504 0.19723109937129088 -0.376474288248505 0.19723109937129088 -0.376474288248505 0.8027689006287092 0.37647428824850504
4577760.193808502 0.8086733695206303 0.371864741126405 0.19132663047936968 -0.37186474112640494 0.19132663047936968 -0.37186474112640494 0.8086733695206303 0.371864741126405
4670311.429762763 0.8144405016186834 0.3672189465144294 0.1855594983813166 -0.3672189465144294 0.1855594983813166 -0.3672189465144294 0.8144405016186834 0.3672189465144294
4764733.827794987 0.8200707642301523 0.36254137516329693 0.17992923576984765 -0.36254137516329693 0.17992923576984765 -0.36254137516329693 0.8200707642301523 0.36254137516329693
4861065.218275411 0.8255647991572469 0.35783639607767825 0.174435200842753 -0.35783639607767825 0.174435200842753 -0.35783639607767825 0.8255647991572469 0.35783639607767825
4959344.196412832 0.8309234140454422 0.3531082699117978 0.16907658595455768 -0.3531082699117978 0.16907658595455768 -0.3531082699117978 0.8309234140454422 0.3531082699117978
5059610.137717796 0.8361475735453315 0.34836114305617866 0.16385242645466855 -0.34836114305617866 0.16385242645466855 -0.34836114305617866 0.8361475735453315 0.34836114305617866
5161903.213778406 0.8412383903428494 0.34359904240869954 0.15876160965715058 -0.34359904240869954 0.15876160965715058 -0.34359904240869954 0.8412383903428494 0.34359904240869954
5266264.4083550945 0.8461971161103269 0.3388258708188113 0.15380288388967311 -0.3388258708188113 0.15380288388967311 -0.3388258708188113 0.8461971161103269 0.3388258708188113
5372735.53380077 0.8510251324280945 0.334045403189866 0.1489748675719054 -0.334045403189866 0.1489748675719054 -0.334045403189866 0.8510251324280945 0.334045403189866
5481359.247812959 0.8557239417233959 0.32926128322099507 0.14427605827660414 -0.32926128322099507 0.14427605827660414 -0.32926128322099507 0.8557239417233959 0.32926128322099507
5592179.070524632 0.860295158270183 0.3244770207668935 0.13970484172981706 -0.3244770207668935 0.13970484172981706 -0.3244770207668935 0.860295158270183 0.3244770207668935
5705239.401940555 0.8647404992900466 0.31969598979119745 0.13525950070995335 -0.3196959897911974 0.13525950070995335 -0.3196959897911974 0.8647404992900466 0.31969598979119745
5820585.5397261735 0.8690617761911108 0.31492142688688146 0.13093822380888917 -0.31492142688688146 0.13093822380888917 -0.31492142688688146 0.8690617761911108 0.31492142688688146
5938263.697356135 0.8732608859782424 0.3101564303352525 0.1267391140217577 -0.3101564303352525 0.1267391140217577 -0.3101564303352525 0.8732608859782424 0.3101564303352525
6058321.022629741 0.877339802864442 0.3054039596736464 0.12266019713555804 -0.30540395967364636 0.12266019713555804 -0.30540395967364636 0.877339802864442 0.3054039596736464
6180805.616560728 0.8813005701098258 0.3006668357408366 0.11869942989017421 -0.3006668357408366 0.11869942989017421 -0.3006668357408366 0.8813005701098258 0.3006668357408366
6305766.552648956 0.8851452921112071 0.29594774116841027 0.11485470788879291 -0.29594774116841027 0.11485470788879291 -0.29594774116841027 0.8851452921112071 0.29594774116841027
6433253.896541728 0.8888761267619859 0.2912492212859455 0.11112387323801409 -0.29124922128594544 0.11112387323801409 -0.29124922128594544 0.8888761267619859 0.2912492212859455
6563318.726092606 0.8924952780988683 0.2865736854076877 0.10750472190113161 -0.2865736854076877 0.10750472190113161 -0.2865736854076877 0.8924952780988683 0.2865736854076877
6696013.151825785 0.8960049892488913 0.28192340846856745 0.10399501075110865 -0.2819234084685674 0.10399501075110865 -0.2819234084685674 0.8960049892488913 0.28192340846856745
6831390.3378141755 0.8994075356873366 0.2773005329777869 0.10059246431266353 -0.2773005329777869 0.10059246431266353 -0.2773005329777869 0.8994075356873366 0.2773005329777869
6969504.522979628 0.9027052188144014 0.27270707125880345 0.09729478118559862 -0.27270707125880345 0.09729478118559862 -0.27270707125880345 0.9027052188144014 0.27270707125880345
7110411.042823766 0.905900359855957 0.26814490794532636 0.09409964014404304 -0.26814490794532636 0.09409964014404304 -0.26814490794532636 0.905900359855957 0.26814490794532636
7254166.351598182 0.9089952940913675 0.2636158027038995 0.0910047059086325 -0.2636158027038995 0.0910047059086325 -0.2636158027038995 0.9089952940913675 0.2636158027038995
7400828.044922853 0.9119923654091942 0.2591213931547279 0.0880076345908057 -0.2591213931547279 0.0880076345908057 -0.2591213931547279 0.9119923654091942 0.2591213931547279
7550454.882861849 0.9148939211896344 0.2546631979636093 0.08510607881036551 -0.2546631979636093 0.08510607881036551 -0.2546631979636093 0.9148939211896344 0.2546631979636093
7703106.813465575 0.9177023075107706 0.2502426200791274 0.08229769248922936 -0.2502426200791274 0.08229769248922936 -0.2502426200791274 0.9177023075107706 0.2502426200791274
7858844.9967889795 0.9204198646741232 0.24586095009061287 0.07958013532587693 -0.24586095009061287 0.07958013532587693 -0.24586095009061287 0.9204198646741232 0.24586095009061287
8017731.829395356 0.9230489230435859 0.24151936968380103 0.07695107695641405 -0.24151936968380103 0.07695107695641405 -0.24151936968380103 0.9230489230435859 0.24151936968380103
8179830.96935555 0.9255917991906036 0.23721895517254338 0.07440820080939618 -0.23721895517254338 0.07440820080939618 -0.23721895517254338 0.9255917991906036 0.23721895517254338
8345207.361752584 0.9280507923373835 0.23296068108638912 0.0719492076626164 -0.23296068108638912 0.0719492076626164 -0.23296068108638912 0.9280507923373835 0.23296068108638912
8513927.264701942 0.9304281810890349 0.22874542379530852 0.06957181891096502 -0.22874542379530852 0.06957181891096502 -0.22874542379530852 0.9304281810890349 0.22874542379530852
8686058.275897898 0.9327262204447831 0.22457396515427044 0.06727377955521678 -0.22457396515427047 0.06727377955521678 -0.22457396515427047 0.9327262204447831 0.22457396515427044
8861669.359696563 0.9349471390777874 0.22044699615180655 0.06505286092221256 -0.2204469961518066 0.06505286092221256 -0.2204469961518066 0.9349471390777874 0.22044699615180655
9040830.87474648 0.9370931368726189 0.2163651205480803 0.06290686312738109 -0.21636512054808027 0.06290686312738109 -0.21636512054808027 0.9370931368726189 0.2163651205480803
9223614.602177842 0.939166382709092 0.21232885848932567 0.06083361729090798 -0.21232885848932567 0.06083361729090798 -0.21232885848932567 0.939166382709092 0.21232885848932567
9410093.774361636 0.9411690124808929 0.20833865008681898 0.05883098751910711 -0.208338650086819 0.05883098751910711 -0.208338650086819 0.9411690124808929 0.20833865008681898
