! NFZ32BW9R8HZ11
# Hz S RI R 50
!Freq.(Hz) S11(Real) S11(Imag) S21(Real) S21(Imag) S12(Real) S12(Imag) S22(Real) S22(Imag)
1000000.0 0.014325942901358128 0.09933564897448235 0.9856740570986419 -0.09933564897448235 0.9856740570986419 -0.09933564897448235 0.014325942901358128 0.09933564897448235
1020217.5806586457 0.01481269742114988 0.10121735959086982 0.98518730257885 -0.10121735959086982 0.98518730257885 -0.10121735959086982 0.01481269742114988 0.10121735959086982
1040843.9118849806 0.01531547147749445 0.10313230286810354 0.9846845285225055 -0.10313230286810354 0.9846845285225055 -0.10313230286810354 0.01531547147749445 0.10313230286810354
1061887.2576265757 0.01583478298540098 0.10508101151070123 0.984165217014599 -0.10508101151070123 0.984165217014599 -0.10508101151070123 0.01583478298540098 0.10508101151070123
1083356.0489080292 0.016371169821461817 0.10706402491569222 0.9836288301785384 -0.10706402491569222 0.9836288301785384 -0.10706402491569222 0.016371169821461817 0.10706402491569222
1105258.8872088592 0.016925190778873514 0.1090818888976132 0.9830748092211267 -0.10908188889761322 0.9830748092211267 -0.10908188889761322 0.016925190778873514 0.1090818888976132
1127604.5479096894 0.017497426551131703 0.1111351553618284 0.9825025734488682 -0.11113515536182839 0.9825025734488682 -0.11113515536182839 0.017497426551131703 0.1111351553618284
1150401.9838081095 0.01808848074258995 0.11322438192301855 0.98191151925741 -0.11322438192301855 0.98191151925741 -0.11322438192301855 0.01808848074258995 0.11322438192301855
1173660.328705616 0.01869898090385822 0.11535013146574236 0.9813010190961418 -0.11535013146574236 0.9813010190961418 -0.11535013146574236 0.01869898090385822 0.11535013146574236
1197388.9010670746 0.019329579589810762 0.11751297164405032 0.9806704204101893 -0.11751297164405032 0.9806704204101893 -0.11751297164405032 0.019329579589810762 0.11751297164405032
1221597.2077541656 0.019980955437775394 0.11971347431721635 0.9800190445622246 -0.11971347431721635 0.9800190445622246 -0.11971347431721635 0.019980955437775394 0.11971347431721635
1246294.947834312 0.020653814263289414 0.12195221491874905 0.9793461857367106 -0.12195221491874905 0.9793461857367106 -0.12195221491874905 0.020653814263289414 0.12195221491874905
1271492.016466615 0.021348890170631293 0.12422977175595118 0.9786511098293688 -0.12422977175595118 0.9786511098293688 -0.12422977175595118 0.021348890170631293 0.12422977175595118
1297198.5088663532 0.022066946675171898 0.12654672523740418 0.9779330533248279 -0.12654672523740418 0.9779330533248279 -0.12654672523740418 0.022066946675171898 0.12654672523740418
1323424.7243496338 0.02280877783443539 0.12890365702587145 0.9771912221655648 -0.12890365702587148 0.9771912221655648 -0.12890365702587148 0.02280877783443539 0.12890365702587145
1350181.1704598186 0.0235752093846167 0.13130114911422897 0.9764247906153836 -0.131301149114229 0.9764247906153836 -0.131301149114229 0.0235752093846167 0.13130114911422897
1377478.5671773748 0.024367099879167936 0.13373978282214555 0.9756329001208321 -0.13373978282214555 0.9756329001208321 -0.13373978282214555 0.024367099879167936 0.13373978282214555
1405327.8512148394 0.02518534182594245 0.13622013771135252 0.9748146581740573 -0.13622013771135252 0.9748146581740573 -0.13622013771135252 0.02518534182594245 0.13622013771135252
1433740.1803986167 0.02603086281926495 0.13874279041744456 0.9739691371807351 -0.13874279041744456 0.9739691371807351 -0.13874279041744456 0.02603086281926495 0.13874279041744456
1462726.9381393674 0.026904626663183755 0.14130831339626104 0.9730953733368161 -0.14130831339626104 0.9730953733368161 -0.14130831339626104 0.026904626663183755 0.14130831339626104
1492299.737992774 0.027807634482048708 0.14391727358298984 0.9721923655179513 -0.14391727358298984 0.9721923655179513 -0.14391727358298984 0.027807634482048708 0.14391727358298984
1522470.428312519 0.028740925814448016 0.14657023096222496 0.971259074185552 -0.14657023096222493 0.971259074185552 -0.14657023096222493 0.028740925814448016 0.14657023096222496
1553251.0969973304 0.029705579686421544 0.149267737047287 0.9702944203135786 -0.149267737047287 0.9702944203135786 -0.149267737047287 0.029705579686421544 0.149267737047287
1584654.076334004 0.03070271565974883 0.15201033326718882 0.9692972843402513 -0.15201033326718885 0.9692972843402513 -0.15201033326718885 0.03070271565974883 0.15201033326718882
1616691.9479383389 0.031733494850981134 0.15479854925969336 0.9682665051490188 -0.15479854925969339 0.9682665051490188 -0.15479854925969339 0.031733494850981134 0.15479854925969336
1649377.5477959653 0.032799120916744605 0.1576329010689643 0.9672008790832552 -0.1576329010689643 0.9672008790832552 -0.1576329010689643 0.032799120916744605 0.1576329010689643
1682723.9714050898 0.0339008410006893 0.16051388924637214 0.9660991589993106 -0.16051388924637214 0.9660991589993106 -0.16051388924637214 0.0339008410006893 0.16051388924637214
1716744.5790232092 0.03503994663728202 0.16344199685305802 0.964960053362718 -0.16344199685305802 0.964960053362718 -0.16344199685305802 0.03503994663728202 0.16344199685305802
1751453.001019904 0.036217774607451785 0.1664176873629186 0.9637822253925483 -0.16641768736291862 0.9637822253925483 -0.16641768736291862 0.036217774607451785 0.1664176873629186
1786863.143337851 0.03743570774087922 0.16944140246472233 0.962564292259121 -0.16944140246472233 0.962564292259121 -0.16944140246472233 0.03743570774087922 0.16944140246472233
1822989.1930642454 0.038695175659482474 0.17251355976213106 0.9613048243405176 -0.17251355976213106 0.9613048243405176 -0.17251355976213106 0.038695175659482474 0.17251355976213106
1859845.6241148617 0.03999765545638702 0.17563455037047118 0.9600023445436129 -0.17563455037047118 0.9600023445436129 -0.17563455037047118 0.03999765545638702 0.17563455037047118
1897447.2030330333 0.04134467230437345 0.1788047364091834 0.9586553276956264 -0.17880473640918337 0.9586553276956264 -0.17880473640918337 0.04134467230437345 0.1788047364091834
1935808.994905876 0.0427377999874779 0.1820244483889868 0.9572622000125218 -0.1820244483889868 0.9572622000125218 -0.1820244483889868 0.0427377999874779 0.1820244483889868
1974946.3694001175 0.04417866134906999 0.18529398249291995 0.9558213386509302 -0.18529398249291992 0.9558213386509302 -0.18529398249291992 0.04417866134906999 0.18529398249291995
2014875.0069199642 0.0456689286493585 0.18861359775058226 0.9543310713506414 -0.18861359775058226 0.9543310713506414 -0.18861359775058226 0.0456689286493585 0.18861359775058226
2055610.904889458 0.047210323824870046 0.19198351310508935 0.9527896761751299 -0.19198351310508935 0.9527896761751299 -0.19198351310508935 0.047210323824870046 0.19198351310508935
2097170.3841618528 0.04880461864202024 0.1954039043724923 0.9511953813579797 -0.1954039043724923 0.9511953813579797 -0.1954039043724923 0.04880461864202024 0.1954039043724923
2139570.0955585684 0.050453634736442494 0.19887490109368405 0.9495463652635575 -0.19887490109368405 0.9495463652635575 -0.19887490109368405 0.050453634736442494 0.19887490109368405
2182827.0265403506 0.05215924352927108 0.20239658327915072 0.9478407564707291 -0.20239658327915072 0.9478407564707291 -0.20239658327915072 0.05215924352927108 0.20239658327915072
2226958.508013302 0.053923366011084106 0.20596897804730666 0.9460766339889158 -0.20596897804730666 0.9460766339889158 -0.20596897804730666 0.053923366011084106 0.20596897804730666
2271982.2212725184 0.05574797238371305 0.2095920561576016 0.9442520276162871 -0.20959205615760162 0.9442520276162871 -0.20959205615760162 0.05574797238371305 0.2095920561576016
2317916.205086105 0.057635081549614525 0.21326572844009964 0.9423649184503855 -0.21326572844009964 0.9423649184503855 -0.21326572844009964 0.057635081549614525 0.21326572844009964
2364778.8629224156 0.05958676043799224 0.21698984212381953 0.9404132395620077 -0.21698984212381953 0.9404132395620077 -0.21698984212381953 0.05958676043799224 0.21698984212381953
2412588.9703234104 0.06160512315634686 0.22076417706678414 0.9383948768436532 -0.22076417706678414 0.9383948768436532 -0.22076417706678414 0.06160512315634686 0.22076417706678414
2461365.682427083 0.06369232995563852 0.22458844189147176 0.9363076700443616 -0.22458844189147179 0.9363076700443616 -0.22458844189147179 0.06369232995563852 0.22458844189147176
2511128.5416419753 0.06585058599677002 0.2284622700301929 0.93414941400323 -0.2284622700301929 0.93414941400323 -0.2284622700301929 0.06585058599677002 0.2284622700301929
2561897.48547685 0.06808213990564906 0.2323852156858292 0.9319178600943511 -0.2323852156858292 0.9319178600943511 -0.2323852156858292 0.06808213990564906 0.2323852156858292
2613692.85452866 0.07038928210367654 0.2363567497143824 0.9296107178963234 -0.23635674971438242 0.9296107178963234 -0.23635674971438242 0.07038928210367654 0.2363567497143824
2666535.4006320196 0.07277434290014419 0.2403762554368835 0.9272256570998557 -0.2403762554368835 0.9272256570998557 -0.2403762554368835 0.07277434290014419 0.2403762554368835
2720446.295173432 0.07523969033271745 0.24444302438941148 0.9247603096672826 -0.24444302438941148 0.9247603096672826 -0.24444302438941148 0.07523969033271745 0.24444302438941148
2775447.137573615 0.07778772774194101 0.24855625202125942 0.9222122722580589 -0.24855625202125947 0.9222122722580589 -0.24855625202125947 0.07778772774194101 0.24855625202125942
2831559.963941318 0.08042089106555322 0.25271503335268714 0.9195791089344468 -0.25271503335268714 0.9195791089344468 -0.25271503335268714 0.08042089106555322 0.25271503335268714
2888807.255902094 0.08314164583832977 0.2569183586051689 0.9168583541616703 -0.2569183586051689 0.9168583541616703 -0.2569183586051689 0.08314164583832977 0.2569183586051689
2947211.9496055758 0.0859524838832316 0.2611651088186382 0.9140475161167682 -0.2611651088186382 0.9140475161167682 -0.2611651088186382 0.0859524838832316 0.2611651088186382
3006797.4449148513 0.0888559196797976 0.265454051471881 0.9111440803202024 -0.26545405147188095 0.9111440803202024 -0.26545405147188095 0.0888559196797976 0.265454051471881
3067587.6147816274 0.09185448639603665 0.2697838361239867 0.9081455136039633 -0.26978383612398665 0.9081455136039633 -0.26978383612398665 0.09185448639603665 0.2697838361239867
3129606.8148109377 0.09495073157053215 0.2741529900965843 0.9050492684294679 -0.2741529900965843 0.9050492684294679 -0.2741529900965843 0.09495073157053215 0.2741529900965843
3192879.893019226 0.09814721243210447 0.2785599142184802 0.9018527875678957 -0.27855991421848025 0.9018527875678957 -0.27855991421848025 0.09814721243210447 0.2785599142184802
3257432.1997897103 0.10144649084519008 0.28300287865626095 0.8985535091548099 -0.28300287865626095 0.8985535091548099 -0.28300287865626095 0.10144649084519008 0.28300287865626095
3323289.598029029 0.10485112787011154 0.2874800188564099 0.8951488721298885 -0.2874800188564099 0.8951488721298885 -0.2874800188564099 0.10485112787011154 0.2874800188564099
3390478.4735292196 0.10836367792863871 0.2919893316265025 0.8916363220713613 -0.2919893316265025 0.8916363220713613 -0.2919893316265025 0.10836367792863871 0.2919893316265025
3459025.745539199 0.11198668256670305 0.2965286713850688 0.888013317433297 -0.2965286713850688 0.888013317433297 -0.2965286713850688 0.11198668256670305 0.2965286713850688
3528958.8775499705 0.11572266380782513 0.30109574661172384 0.884277336192175 -0.30109574661172384 0.884277336192175 -0.30109574661172384 0.11572266380782513 0.30109574661172384
3600305.8882978815 0.1195741170927768 0.30568811653115 0.8804258829072231 -0.3056881165311501 0.8804258829072231 -0.3056881165311501 0.1195741170927768 0.30568811653115
3673095.3629903416 0.12354350380322227 0.31030318806643187 0.8764564961967777 -0.3103031880664319 0.8764564961967777 -0.3103031880664319 0.12354350380322227 0.31030318806643187
3747356.4647584967 0.12763324336958748 0.3149382130990811 0.8723667566304125 -0.3149382130990811 0.8723667566304125 -0.3149382130990811 0.12763324336958748 0.3149382130990811
3823118.9463414503 0.13184570496619263 0.3195902860748037 0.8681542950338071 -0.31959028607480366 0.8681542950338071 -0.31959028607480366 0.13184570496619263 0.3195902860748037
3900413.1620067055 0.13618319879975974 0.3242563419956248 0.8638168012002403 -0.3242563419956248 0.8638168012002403 -0.3242563419956248 0.13618319879975974 0.3242563419956248
3979270.0797116193 0.14064796700077214 0.32893315484036334 0.8593520329992279 -0.3289331548403634 0.8593520329992279 -0.3289331548403634 0.14064796700077214 0.32893315484036334
4059721.293510725 0.1452421741308193 0.3336173364566016 0.8547578258691806 -0.3336173364566016 0.8547578258691806 -0.3336173364566016 0.1452421741308193 0.3336173364566016
4141799.0362139 0.14996789732298865 0.3383053359681739 0.8500321026770112 -0.33830533596817386 0.8500321026770112 -0.33830533596817386 0.14996789732298865 0.3383053359681739
4225536.192300457 0.1548271160765799 0.3429934397427844 0.8451728839234202 -0.3429934397427844 0.8451728839234202 -0.3429934397427844 0.1548271160765799 0.3429934397427844
4310966.311094318 0.159821701731865 0.34767777196458133 0.8401782982681352 -0.3476777719645814 0.8401782982681352 -0.3476777719645814 0.159821701731865 0.34767777196458133
4398123.620205573 0.16495340665531302 0.3523542958563539 0.8350465933446869 -0.3523542958563538 0.8350465933446869 -0.3523542958563538 0.16495340665531302 0.3523542958563539
4487043.0392437745 0.1702238531705834 0.3570188155954073 0.8297761468294166 -0.3570188155954073 0.8297761468294166 -0.3570188155954073 0.1702238531705834 0.3570188155954073
4577760.193808502 0.17563452227565762 0.3616669789660915 0.8243654777243423 -0.3616669789660915 0.8243654777243423 -0.3616669789660915 0.17563452227565762 0.3616669789660915
4670311.429762763 0.18118674219165568 0.36629428079034104 0.8188132578083444 -0.36629428079034104 0.8188132578083444 -0.36629428079034104 0.18118674219165568 0.36629428079034104
4764733.827794987 0.1868816767941536 0.3708960671754242 0.8131183232058464 -0.37089606717542417 0.8131183232058464 -0.37089606717542417 0.1868816767941536 0.3708960671754242
4861065.218275411 0.1927203139831008 0.375467540615329 0.8072796860168993 -0.375467540615329 0.8072796860168993 -0.375467540615329 0.1927203139831008 0.375467540615329
4959344.196412832 0.198703454052681 0.38000376597882535 0.8012965459473189 -0.38000376597882535 0.8012965459473189 -0.38000376597882535 0.198703454052681 0.38000376597882535
5059610.137717796 0.20483169812759913 0.38449967741319957 0.7951683018724007 -0.38449967741319957 0.7951683018724007 -0.38449967741319957 0.20483169812759913 0.38449967741319957
5161903.213778406 0.21110543673722376 0.38895008618794913 0.7888945632627763 -0.38895008618794913 0.7888945632627763 -0.38895008618794913 0.21110543673722376 0.38895008618794913
5266264.4083550945 0.21752483860370547 0.39334968949733795 0.7824751613962944 -0.39334968949733795 0.7824751613962944 -0.39334968949733795 0.21752483860370547 0.39334968949733795
5372735.53380077 0.22408983972451965 0.39769308023464817 0.7759101602754804 -0.39769308023464817 0.7759101602754804 -0.39769308023464817 0.22408983972451965 0.39769308023464817
5481359.247812959 0.2308001328337725 0.4019747577442284 0.7691998671662276 -0.4019747577442284 0.7691998671662276 -0.4019747577442284 0.2308001328337725 0.4019747577442284
5592179.070524632 0.23765515732996687 0.4061891395500707 0.7623448426700332 -0.40618913955007074 0.7623448426700332 -0.40618913955007074 0.23765515732996687 0.4061891395500707
5705239.401940555 0.24465408976064168 0.4103305740516516 0.7553459102393585 -0.4103305740516516 0.7553459102393585 -0.4103305740516516 0.24465408976064168 0.4103305740516516
5820585.5397261735 0.25179583495630087 0.4143933541692328 0.7482041650436991 -0.41439335416923273 0.7482041650436991 -0.41439335416923273 0.25179583495630087 0.4143933541692328
5938263.697356135 0.25907901790722865 0.4183717319117663 0.7409209820927714 -0.41837173191176635 0.7409209820927714 -0.41837173191176635 0.25907901790722865 0.4183717319117663
6058321.022629741 0.26650197647706486 0.4222599338310784 0.7334980235229351 -0.4222599338310784 0.7334980235229351 -0.4222599338310784 0.26650197647706486 0.4222599338310784
6180805.616560728 0.2740627550463026 0.4260521773162015 0.7259372449536975 -0.4260521773162015 0.7259372449536975 -0.4260521773162015 0.2740627550463026 0.4260521773162015
6305766.552648956 0.2817590991771049 0.42974268767169566 0.7182409008228952 -0.42974268767169566 0.7182409008228952 -0.42974268767169566 0.2817590991771049 0.42974268767169566
6433253.896541728 0.28958845138795125 0.4333257159136578 0.7104115486120486 -0.4333257159136579 0.7104115486120486 -0.4333257159136579 0.28958845138795125 0.4333257159136578
6563318.726092606 0.29754794812255475 0.4367955572069881 0.7024520518774453 -0.4367955572069881 0.7024520518774453 -0.4367955572069881 0.29754794812255475 0.4367955572069881
6696013.151825785 0.3056344179922464 0.44014656985752976 0.6943655820077537 -0.4401465698575298 0.6943655820077537 -0.4401465698575298 0.3056344179922464 0.44014656985752976
6831390.3378141755 0.31384438136452814 0.44337319476303955 0.686155618635472 -0.44337319476303955 0.686155618635472 -0.44337319476303955 0.31384438136452814 0.44337319476303955
6969504.522979628 0.32217405136281385 0.44646997521775755 0.6778259486371861 -0.4464699752177575 0.6778259486371861 -0.4464699752177575 0.32217405136281385 0.44646997521775755
7110411.042823766 0.33061933633349044 0.4494315769567887 0.6693806636665095 -0.44943157695678865 0.6693806636665095 -0.44943157695678865 0.33061933633349044 0.4494315769567887
7254166.351598182 0.3391758438264017 0.45225280831872733 0.6608241561735982 -0.4522528083187273 0.6608241561735982 -0.4522528083187273 0.3391758438264017 0.45225280831872733
7400828.044922853 0.34783888612377134 0.45492864039813147 0.6521611138762285 -0.45492864039813147 0.6521611138762285 -0.45492864039813147 0.34783888612377134 0.45492864039813147
7550454.882861849 0.35660348734049246 0.4574542270537214 0.6433965126595075 -0.4574542270537214 0.6433965126595075 -0.4574542270537214 0.35660348734049246 0.4574542270537214
7703106.813465575 0.3654643921057822 0.45982492463369007 0.6345356078942177 -0.45982492463369007 0.6345356078942177 -0.45982492463369007 0.3654643921057822 0.45982492463369007
7858844.9967889795 0.3744160758225315 0.4620363112763987 0.6255839241774683 -0.4620363112763987 0.6255839241774683 -0.4620363112763987 0.3744160758225315 0.4620363112763987
8017731.829395356 0.3834527564864542 0.46408420564310604 0.6165472435135457 -0.46408420564310604 0.6165472435135457 -0.46408420564310604 0.3834527564864542 0.46408420564310604
8179830.96935555 0.39256840803252896 0.4659646849393356 0.6074315919674709 -0.4659646849393357 0.6074315919674709 -0.4659646849393357 0.39256840803252896 0.4659646849393356
8345207.361752584 0.40175677516141 0.4676741020830966 0.5982432248385899 -0.4676741020830967 0.5982432248385899 -0.4676741020830967 0.40175677516141 0.4676741020830966
8513927.264701942 0.41101138958369743 0.46920910188147974 0.5889886104163027 -0.46920910188147974 0.5889886104163027 -0.46920910188147974 0.41101138958369743 0.46920910188147974
8686058.275897898 0.4203255876053793 0.47056663608218113 0.5796744123946206 -0.47056663608218113 0.5796744123946206 -0.47056663608218113 0.4203255876053793 0.47056663608218113
8861669.359696563 0.42969252896364485 0.4717439771732321 0.570307471036355 -0.4717439771732321 0.570307471036355 -0.4717439771732321 0.42969252896364485 0.4717439771732321
9040830.87474648 0.4391052168088012 0.4727387308126028 0.5608947831911988 -0.4727387308126027 0.5608947831911988 -0.4727387308126027 0.4391052168088012 0.4727387308126028
9223614.602177842 0.4485565187154681 0.4735488467793291 0.5514434812845319 -0.473548846779329 0.5514434812845319 -0.473548846779329 0.4485565187154681 0.4735488467793291
