! NFZ32BW9R0HN10
# Hz S RI R 50
!Freq.(Hz) S11(Real) S11(Imag) S21(Real) S21(Imag) S12(Real) S12(Imag) S22(Real) S22(Imag)
1000000.0 0.012444464910170209 0.0937387881747967 0.9875555350898299 -0.0937387881747967 0.9875555350898299 -0.0937387881747967 0.012444464910170209 0.0937387881747967
1020217.5806586457 0.012867798991786352 0.0955371729692357 0.9871322010082136 -0.0955371729692357 0.9871322010082136 -0.0955371729692357 0.012867798991786352 0.0955371729692357
1040843.9118849806 0.013305658758814893 0.0973683730785698 0.986694341241185 -0.0973683730785698 0.986694341241185 -0.0973683730785698 0.013305658758814893 0.0973683730785698
1061887.2576265757 0.013758558400205326 0.09923293867888566 0.9862414415997948 -0.09923293867888566 0.9862414415997948 -0.09923293867888566 0.013758558400205326 0.09923293867888566
1083356.0489080292 0.014227032946691979 0.10113142562534251 0.985772967053308 -0.10113142562534251 0.985772967053308 -0.10113142562534251 0.014227032946691979 0.10113142562534251
1105258.8872088592 0.014711639122707353 0.10306439506051059 0.9852883608772929 -0.10306439506051059 0.9852883608772929 -0.10306439506051059 0.014711639122707353 0.10306439506051059
1127604.5479096894 0.015212956213452915 0.10503241297760386 0.9847870437865471 -0.10503241297760389 0.9847870437865471 -0.10503241297760389 0.015212956213452915 0.10503241297760386
1150401.9838081095 0.015731586945691434 0.10703604973683448 0.9842684130543085 -0.10703604973683446 0.9842684130543085 -0.10703604973683446 0.015731586945691434 0.10703604973683448
1173660.328705616 0.01626815838075556 0.10907587953314529 0.9837318416192443 -0.1090758795331453 0.9837318416192443 -0.1090758795331453 0.01626815838075556 0.10907587953314529
1197388.9010670746 0.016823322818204294 0.11115247981361322 0.9831766771817957 -0.11115247981361322 0.9831766771817957 -0.11115247981361322 0.016823322818204294 0.11115247981361322
1221597.2077541656 0.017397758708498245 0.11326643064283612 0.9826022412915016 -0.11326643064283612 0.9826022412915016 -0.11326643064283612 0.017397758708498245 0.11326643064283612
1246294.947834312 0.01799217157300732 0.115418314014641 0.9820078284269925 -0.115418314014641 0.9820078284269925 -0.115418314014641 0.01799217157300732 0.115418314014641
1271492.016466615 0.018607294929607894 0.1176087131084613 0.9813927050703922 -0.1176087131084613 0.9813927050703922 -0.1176087131084613 0.018607294929607894 0.1176087131084613
1297198.5088663532 0.019243891222069858 0.11983821148873967 0.9807561087779304 -0.11983821148873967 0.9807561087779304 -0.11983821148873967 0.019243891222069858 0.11983821148873967
1323424.7243496338 0.019902752751374174 0.12210739224570888 0.9800972472486257 -0.12210739224570888 0.9800972472486257 -0.12210739224570888 0.019902752751374174 0.12210739224570888
1350181.1704598186 0.020584702607039457 0.12441683707589683 0.9794152973929604 -0.12441683707589682 0.9794152973929604 -0.12441683707589682 0.020584702607039457 0.12441683707589683
1377478.5671773748 0.021290595596465643 0.1267671253006791 0.9787094044035345 -0.1267671253006791 0.9787094044035345 -0.1267671253006791 0.021290595596465643 0.1267671253006791
1405327.8512148394 0.022021319170226355 0.12915883282118162 0.9779786808297738 -0.12915883282118165 0.9779786808297738 -0.12915883282118165 0.022021319170226355 0.12915883282118162
1433740.1803986167 0.022777794341153935 0.13159253100780033 0.977222205658846 -0.1315925310078003 0.977222205658846 -0.1315925310078003 0.022777794341153935 0.13159253100780033
1462726.9381393674 0.02356097659496138 0.13406878552256574 0.9764390234050386 -0.13406878552256574 0.9764390234050386 -0.13406878552256574 0.02356097659496138 0.13406878552256574
1492299.737992774 0.02437185679003206 0.13658815507253755 0.9756281432099679 -0.13658815507253755 0.9756281432099679 -0.13658815507253755 0.02437185679003206 0.13658815507253755
1522470.428312519 0.02521146204387841 0.13915119009236454 0.9747885379561216 -0.13915119009236454 0.9747885379561216 -0.13915119009236454 0.02521146204387841 0.13915119009236454
1553251.0969973304 0.026080856603623217 0.14175843135409558 0.9739191433963769 -0.1417584313540956 0.9739191433963769 -0.1417584313540956 0.026080856603623217 0.14175843135409558
1584654.076334004 0.026981142697690527 0.14441040850227815 0.9730188573023095 -0.14441040850227815 0.9730188573023095 -0.14441040850227815 0.026981142697690527 0.14441040850227815
1616691.9479383389 0.027913461365705577 0.14710763851233205 0.9720865386342944 -0.14710763851233202 0.9720865386342944 -0.14710763851233202 0.027913461365705577 0.14710763851233205
1649377.5477959653 0.02887899326339311 0.14985062407014296 0.9711210067366071 -0.14985062407014296 0.9711210067366071 -0.14985062407014296 0.02887899326339311 0.14985062407014296
1682723.9714050898 0.029878959439031173 0.15263985187078563 0.9701210405609688 -0.15263985187078563 0.9701210405609688 -0.15263985187078563 0.029878959439031173 0.15263985187078563
1716744.5790232092 0.03091462207775986 0.1554757908342595 0.9690853779222403 -0.1554757908342595 0.9690853779222403 -0.1554757908342595 0.03091462207775986 0.1554757908342595
1751453.001019904 0.03198728520976375 0.158358890236108 0.9680127147902362 -0.158358890236108 0.9680127147902362 -0.158358890236108 0.03198728520976375 0.158358890236108
1786863.143337851 0.033098295378040675 0.16128957775079794 0.9669017046219592 -0.16128957775079797 0.9669017046219592 -0.16128957775079797 0.033098295378040675 0.16128957775079794
1822989.1930642454 0.034249042261138125 0.16426825740575723 0.9657509577388619 -0.16426825740575723 0.9657509577388619 -0.16426825740575723 0.034249042261138125 0.16426825740575723
1859845.6241148617 0.0354409592458839 0.1672953074440182 0.9645590407541159 -0.1672953074440182 0.9645590407541159 -0.1672953074440182 0.0354409592458839 0.1672953074440182
1897447.2030330333 0.036675523944758356 0.1703710780934876 0.9633244760552415 -0.1703710780934876 0.9633244760552415 -0.1703710780934876 0.036675523944758356 0.1703710780934876
1935808.994905876 0.03795425865215331 0.17349588924096823 0.9620457413478465 -0.1734958892409682 0.9620457413478465 -0.1734958892409682 0.03795425865215331 0.17349588924096823
1974946.3694001175 0.03927873073333949 0.1766700280091966 0.9607212692666606 -0.17667002800919657 0.9607212692666606 -0.17667002800919657 0.03927873073333949 0.1766700280091966
2014875.0069199642 0.04065055293952023 0.17989374623533647 0.9593494470604796 -0.17989374623533647 0.9593494470604796 -0.17989374623533647 0.04065055293952023 0.17989374623533647
2055610.904889458 0.04207138364188806 0.18316725784958848 0.9579286163581119 -0.18316725784958848 0.9579286163581119 -0.18316725784958848 0.04207138364188806 0.18316725784958848
2097170.3841618528 0.04354292697712327 0.18649073615283818 0.9564570730228767 -0.18649073615283815 0.9564570730228767 -0.18649073615283815 0.04354292697712327 0.18649073615283818
2139570.0955585684 0.04506693289628277 0.18986431099257844 0.9549330671037173 -0.18986431099257847 0.9549330671037173 -0.18986431099257847 0.04506693289628277 0.18986431099257844
2182827.0265403506 0.04664519710852829 0.19328806583670902 0.9533548028914718 -0.19328806583670902 0.9533548028914718 -0.19328806583670902 0.04664519710852829 0.19328806583670902
2226958.508013302 0.04827956091063664 0.19676203474523957 0.9517204390893633 -0.19676203474523957 0.9517204390893633 -0.19676203474523957 0.04827956091063664 0.19676203474523957
2271982.2212725184 0.049971910892726325 0.2002861992404064 0.9500280891072739 -0.20028619924040644 0.9500280891072739 -0.20028619924040644 0.049971910892726325 0.2002861992404064
2317916.205086105 0.05172417851012923 0.20386048507625995 0.9482758214898709 -0.20386048507625995 0.9482758214898709 -0.20386048507625995 0.05172417851012923 0.20386048507625995
2364778.8629224156 0.05353833951083863 0.2074847589093985 0.9464616604891612 -0.20748475890939852 0.9464616604891612 -0.20748475890939852 0.05353833951083863 0.2074847589093985
2412588.9703234104 0.05541641320747903 0.2111588248732086 0.9445835867925211 -0.2111588248732086 0.9445835867925211 -0.2111588248732086 0.05541641320747903 0.2111588248732086
2461365.682427083 0.0573604615822799 0.21488242105873448 0.9426395384177202 -0.21488242105873448 0.9426395384177202 -0.21488242105873448 0.0573604615822799 0.21488242105873448
2511128.5416419753 0.059372588213094254 0.21865521590613507 0.9406274117869057 -0.21865521590613507 0.9406274117869057 -0.21865521590613507 0.059372588213094254 0.21865521590613507
2561897.48547685 0.06145493700810049 0.22247680451160665 0.9385450629918997 -0.2224768045116067 0.9385450629918997 -0.2224768045116067 0.06145493700810049 0.22247680451160665
2613692.85452866 0.06360969073646039 0.22634670485564223 0.9363903092635397 -0.22634670485564223 0.9363903092635397 -0.22634670485564223 0.06360969073646039 0.22634670485564223
2666535.4006320196 0.06583906934189669 0.2302643539595857 0.9341609306581032 -0.2302643539595857 0.9341609306581032 -0.2302643539595857 0.06583906934189669 0.2302643539595857
2720446.295173432 0.068145328025898 0.23422910397859548 0.931854671974102 -0.23422910397859548 0.931854671974102 -0.23422910397859548 0.068145328025898 0.23422910397859548
2775447.137573615 0.07053075508707965 0.2382402182403839 0.9294692449129204 -0.2382402182403839 0.9294692449129204 -0.2382402182403839 0.07053075508707965 0.2382402182403839
2831559.963941318 0.07299766950312742 0.24229686724042868 0.9270023304968729 -0.24229686724042868 0.9270023304968729 -0.24229686724042868 0.07299766950312742 0.24229686724042868
2888807.255902094 0.07554841824174098 0.24639812460575927 0.9244515817582591 -0.24639812460575927 0.9244515817582591 -0.24639812460575927 0.07554841824174098 0.24639812460575927
2947211.9496055758 0.07818537328709212 0.2505429630409156 0.9218146267129079 -0.2505429630409156 0.9218146267129079 -0.2505429630409156 0.07818537328709212 0.2505429630409156
3006797.4449148513 0.08091092836852401 0.25473025027123547 0.9190890716314759 -0.2547302502712355 0.9190890716314759 -0.2547302502712355 0.08091092836852401 0.25473025027123547
3067587.6147816274 0.0837274953785617 0.2589587450002639 0.9162725046214383 -0.25895874500026395 0.9162725046214383 -0.25895874500026395 0.0837274953785617 0.2589587450002639
3129606.8148109377 0.08663750046778922 0.2632270928997656 0.9133624995322107 -0.2632270928997656 0.9133624995322107 -0.2632270928997656 0.08663750046778922 0.2632270928997656
3192879.893019226 0.08964337980479319 0.2675338226525785 0.9103566201952068 -0.26753382265257847 0.9103566201952068 -0.26753382265257847 0.08964337980479319 0.2675338226525785
3257432.1997897103 0.09274757499018565 0.27187734207032893 0.9072524250098144 -0.2718773420703289 0.9072524250098144 -0.2718773420703289 0.09274757499018565 0.27187734207032893
3323289.598029029 0.095952528114718 0.27625593430985795 0.904047471885282 -0.27625593430985795 0.904047471885282 -0.27625593430985795 0.095952528114718 0.27625593430985795
3390478.4735292196 0.0992606764526937 0.2806677542140436 0.9007393235473063 -0.2806677542140436 0.9007393235473063 -0.2806677542140436 0.0992606764526937 0.2806677542140436
3459025.745539199 0.10267444678329375 0.2851108248045437 0.8973255532167062 -0.28511082480454364 0.8973255532167062 -0.28511082480454364 0.10267444678329375 0.2851108248045437
3528958.8775499705 0.10619624933405943 0.2895830339558057 0.8938037506659406 -0.2895830339558057 0.8938037506659406 -0.2895830339558057 0.10619624933405943 0.2895830339558057
3600305.8882978815 0.10982847134263748 0.29408213128146726 0.8901715286573625 -0.29408213128146726 0.8901715286573625 -0.29408213128146726 0.10982847134263748 0.29408213128146726
3673095.3629903416 0.11357347023500224 0.2986057252659925 0.8864265297649977 -0.2986057252659925 0.8864265297649977 -0.2986057252659925 0.11357347023500224 0.2986057252659925
3747356.4647584967 0.11743356642072202 0.3031512806760099 0.8825664335792779 -0.3031512806760099 0.8825664335792779 -0.3031512806760099 0.11743356642072202 0.3031512806760099
3823118.9463414503 0.12141103570845403 0.3077161162873328 0.8785889642915461 -0.3077161162873328 0.8785889642915461 -0.3077161162873328 0.12141103570845403 0.3077161162873328
3900413.1620067055 0.12550810134772103 0.3122974029649978 0.8744918986522792 -0.31229740296499775 0.8744918986522792 -0.31229740296499775 0.12550810134772103 0.3122974029649978
3979270.0797116193 0.12972692570615826 0.3168921621348388 0.8702730742938417 -0.3168921621348388 0.8702730742938417 -0.3168921621348388 0.12972692570615826 0.3168921621348388
4059721.293510725 0.13406960159480258 0.3214972646860719 0.8659303984051974 -0.3214972646860719 0.8659303984051974 -0.3214972646860719 0.13406960159480258 0.3214972646860719
4141799.0362139 0.1385381432576325 0.3261094303450759 0.8614618567423674 -0.32610943034507583 0.8614618567423674 -0.32610943034507583 0.1385381432576325 0.3261094303450759
4225536.192300457 0.1431344770454406 0.3307252275609688 0.8568655229545594 -0.3307252275609688 0.8568655229545594 -0.3307252275609688 0.1431344770454406 0.3307252275609688
4310966.311094318 0.14786043179820332 0.3353410739436651 0.8521395682017966 -0.3353410739436651 0.8521395682017966 -0.3353410739436651 0.14786043179820332 0.3353410739436651
4398123.620205573 0.15271772896441038 0.3399532372948216 0.8472822710355895 -0.3399532372948216 0.8472822710355895 -0.3399532372948216 0.15271772896441038 0.3399532372948216
4487043.0392437745 0.1577079724902589 0.3445578372713764 0.8422920275097411 -0.3445578372713764 0.8422920275097411 -0.3445578372713764 0.1577079724902589 0.3445578372713764
4577760.193808502 0.16283263851622246 0.3491508477202633 0.8371673614837776 -0.3491508477202633 0.8371673614837776 -0.3491508477202633 0.16283263851622246 0.3491508477202633
4670311.429762763 0.16809306492318082 0.3537280997212521 0.8319069350768192 -0.353728099721252 0.8319069350768192 -0.353728099721252 0.16809306492318082 0.3537280997212521
4764733.827794987 0.17349044077504333 0.3582852853727407 0.8265095592249566 -0.3582852853727407 0.8265095592249566 -0.3582852853727407 0.17349044077504333 0.3582852853727407
4861065.218275411 0.17902579570952046 0.3628179623526358 0.8209742042904794 -0.3628179623526358 0.8209742042904794 -0.3628179623526358 0.17902579570952046 0.3628179623526358
4959344.196412832 0.18469998933338588 0.3673215592832209 0.8153000106666141 -0.36732155928322086 0.8153000106666141 -0.36732155928322086 0.18469998933338588 0.3673215592832209
5059610.137717796 0.19051370068310383 0.37179138192506156 0.809486299316896 -0.37179138192506156 0.809486299316896 -0.37179138192506156 0.19051370068310383 0.37179138192506156
5161903.213778406 0.19646741781605492 0.37622262022056385 0.8035325821839452 -0.3762226202205638 0.8035325821839452 -0.3762226202205638 0.19646741781605492 0.37622262022056385
5266264.4083550945 0.20256142760167134 0.38061035620275036 0.7974385723983287 -0.3806103562027503 0.7974385723983287 -0.3806103562027503 0.20256142760167134 0.38061035620275036
5372735.53380077 0.20879580578551837 0.38494957277917213 0.7912041942144814 -0.3849495727791722 0.7912041942144814 -0.3849495727791722 0.20879580578551837 0.38494957277917213
5481359.247812959 0.21517040740266052 0.38923516339463343 0.7848295925973394 -0.38923516339463343 0.7848295925973394 -0.38923516339463343 0.21517040740266052 0.38923516339463343
5592179.070524632 0.22168485761942494 0.39346194256960765 0.778315142380575 -0.39346194256960765 0.778315142380575 -0.39346194256960765 0.22168485761942494 0.39346194256960765
5705239.401940555 0.22833854308485832 0.3976246573038961 0.7716614569151417 -0.3976246573038961 0.7716614569151417 -0.3976246573038961 0.22833854308485832 0.3976246573038961
5820585.5397261735 0.23513060387466306 0.4017179993272745 0.7648693961253368 -0.4017179993272745 0.7648693961253368 -0.4017179993272745 0.23513060387466306 0.4017179993272745
5938263.697356135 0.2420599261111277 0.4057366181706544 0.7579400738888724 -0.4057366181706544 0.7579400738888724 -0.4057366181706544 0.2420599261111277 0.4057366181706544
6058321.022629741 0.24912513534245262 0.40967513502272396 0.7508748646575473 -0.40967513502272396 0.7508748646575473 -0.40967513502272396 0.24912513534245262 0.40967513502272396
6180805.616560728 0.25632459076384717 0.41352815732822257 0.7436754092361527 -0.41352815732822257 0.7436754092361527 -0.41352815732822257 0.25632459076384717 0.41352815732822257
6305766.552648956 0.2636563803607715 0.4172902940750247 0.7363436196392285 -0.4172902940750247 0.7363436196392285 -0.4172902940750247 0.2636563803607715 0.4172902940750247
6433253.896541728 0.2711183170516861 0.4209561717082109 0.7288816829483139 -0.4209561717082109 0.7288816829483139 -0.4209561717082109 0.2711183170516861 0.4209561717082109
6563318.726092606 0.278707935903581 0.42452045060035465 0.721292064096419 -0.42452045060035465 0.721292064096419 -0.42452045060035465 0.278707935903581 0.42452045060035465
6696013.151825785 0.28642249248841306 0.42797784199854255 0.7135775075115871 -0.42797784199854255 0.7135775075115871 -0.42797784199854255 0.28642249248841306 0.42797784199854255
6831390.3378141755 0.29425896244231725 0.431323125360255 0.7057410375576827 -0.431323125360255 0.7057410375576827 -0.431323125360255 0.29425896244231725 0.431323125360255
6969504.522979628 0.302214042282158 0.4345511659823533 0.697785957717842 -0.4345511659823533 0.697785957717842 -0.4345511659823533 0.302214042282158 0.4345511659823533
7110411.042823766 0.3102841515256111 0.43765693282015045 0.6897158484743889 -0.43765693282015045 0.6897158484743889 -0.43765693282015045 0.3102841515256111 0.43765693282015045
7254166.351598182 0.3184654361516427 0.4406355163870736 0.6815345638483573 -0.4406355163870736 0.6815345638483573 -0.4406355163870736 0.3184654361516427 0.4406355163870736
7400828.044922853 0.32675377342796685 0.44348214661984875 0.673246226572033 -0.4434821466198487 0.673246226572033 -0.4434821466198487 0.32675377342796685 0.44348214661984875
7550454.882861849 0.3351447781210205 0.4461922105896344 0.6648552218789796 -0.4461922105896344 0.6648552218789796 -0.4461922105896344 0.3351447781210205 0.4461922105896344
7703106.813465575 0.3436338100921841 0.4487612699361809 0.6563661899078158 -0.4487612699361809 0.6563661899078158 -0.4487612699361809 0.3436338100921841 0.4487612699361809
7858844.9967889795 0.3522159832716611 0.451185077900045 0.6477840167283389 -0.4511850779000449 0.6477840167283389 -0.4511850779000449 0.3522159832716611 0.451185077900045
8017731.829395356 0.3608861759886445 0.4534595958271965 0.6391138240113556 -0.4534595958271966 0.6391138240113556 -0.4534595958271966 0.3608861759886445 0.4534595958271965
8179830.96935555 0.3696390426234159 0.4555810090211369 0.6303609573765843 -0.4555810090211369 0.6303609573765843 -0.4555810090211369 0.3696390426234159 0.4555810090211369
8345207.361752584 0.37846902653393494 0.4575457418199077 0.621530973466065 -0.45754574181990765 0.621530973466065 -0.45754574181990765 0.37846902653393494 0.4575457418199077
8513927.264701942 0.3873703741965458 0.45935047177917865 0.6126296258034543 -0.45935047177917865 0.6126296258034543 -0.45935047177917865 0.3873703741965458 0.45935047177917865
8686058.275897898 0.39633715048779894 0.46099214284792145 0.6036628495122011 -0.46099214284792145 0.6036628495122011 -0.46099214284792145 0.39633715048779894 0.46099214284792145
8861669.359696563 0.40536325502229287 0.46246797743001067 0.5946367449777071 -0.4624679774300107 0.5946367449777071 -0.4624679774300107 0.40536325502229287 0.46246797743001067
9040830.87474648 0.41444243945005893 0.4637754872333617 0.5855575605499411 -0.4637754872333617 0.5855575605499411 -0.4637754872333617 0.41444243945005893 0.4637754872333617
9223614.602177842 0.4235683256065429 0.4649124828178471 0.576431674393457 -0.4649124828178471 0.576431674393457 -0.4649124828178471 0.4235683256065429 0.4649124828178471
