! NFZ5BBW220LZ10
# Hz S RI R 50
!Freq.(Hz) S11(Real) S11(Imag) S21(Real) S21(Imag) S12(Real) S12(Imag) S22(Real) S22(Imag)
1000000.0 0.0471031518371661 0.18732477024616306 0.9528968481628339 -0.18732477024616304 0.9528968481628339 -0.18732477024616304 0.0471031518371661 0.18732477024616306
1020217.5806586457 0.048637037776035785 0.19059504149810824 0.9513629622239643 -0.19059504149810824 0.9513629622239643 -0.19059504149810824 0.048637037776035785 0.19059504149810824
1040843.9118849806 0.05021917487009561 0.19391333734230004 0.9497808251299044 -0.1939133373423001 0.9497808251299044 -0.1939133373423001 0.05021917487009561 0.19391333734230004
1061887.2576265757 0.051851149252554844 0.1972799493878903 0.9481488507474451 -0.1972799493878903 0.9481488507474451 -0.1972799493878903 0.051851149252554844 0.1972799493878903
1083356.0489080292 0.05353459995857398 0.20069513490632435 0.9464654000414261 -0.2006951349063243 0.9464654000414261 -0.2006951349063243 0.05353459995857398 0.20069513490632435
1105258.8872088592 0.05527121950263845 0.2041591135419958 0.9447287804973614 -0.20415911354199578 0.9447287804973614 -0.20415911354199578 0.05527121950263845 0.2041591135419958
1127604.5479096894 0.057062754320167726 0.2076720638851448 0.9429372456798323 -0.2076720638851448 0.9429372456798323 -0.2076720638851448 0.057062754320167726 0.2076720638851448
1150401.9838081095 0.05891100506247469 0.21123411990969032 0.9410889949375254 -0.21123411990969032 0.9410889949375254 -0.21123411990969032 0.05891100506247469 0.21123411990969032
1173660.328705616 0.0608178267339974 0.21484536727920756 0.9391821732660026 -0.21484536727920756 0.9391821732660026 -0.21484536727920756 0.0608178267339974 0.21484536727920756
1197388.9010670746 0.06278512866052065 0.2185058395247941 0.9372148713394792 -0.2185058395247941 0.9372148713394792 -0.2185058395247941 0.06278512866052065 0.2185058395247941
1221597.2077541656 0.06481487427689696 0.22221551409913837 0.9351851257231031 -0.22221551409913842 0.9351851257231031 -0.22221551409913842 0.06481487427689696 0.22221551409913837
1246294.947834312 0.06690908072255625 0.22597430831170173 0.9330909192774436 -0.22597430831170168 0.9330909192774436 -0.22597430831170168 0.06690908072255625 0.22597430831170173
1271492.016466615 0.06906981823287363 0.22978207515057344 0.9309301817671263 -0.22978207515057344 0.9309301817671263 -0.22978207515057344 0.06906981823287363 0.22978207515057344
1297198.5088663532 0.07129920931423557 0.23363859899724443 0.9287007906857645 -0.2336385989972444 0.9287007906857645 -0.2336385989972444 0.07129920931423557 0.23363859899724443
1323424.7243496338 0.07359942769042206 0.2375435912412933 0.926400572309578 -0.23754359124129332 0.926400572309578 -0.23754359124129332 0.07359942769042206 0.2375435912412933
1350181.1704598186 0.0759726970077039 0.24149668580279 0.9240273029922961 -0.24149668580279 0.9240273029922961 -0.24149668580279 0.0759726970077039 0.24149668580279
1377478.5671773748 0.07842128928585039 0.2454974345710958 0.9215787107141497 -0.2454974345710958 0.9215787107141497 -0.2454974345710958 0.07842128928585039 0.2454974345710958
1405327.8512148394 0.08094752310205999 0.2495453027696959 0.9190524768979399 -0.2495453027696959 0.9190524768979399 -0.2495453027696959 0.08094752310205999 0.2495453027696959
1433740.1803986167 0.08355376149467379 0.2536396642577296 0.9164462385053262 -0.25363966425772966 0.9164462385053262 -0.25363966425772966 0.08355376149467379 0.2536396642577296
1462726.9381393674 0.08624240957342426 0.2577797967800068 0.9137575904265759 -0.2577797967800068 0.9137575904265759 -0.2577797967800068 0.08624240957342426 0.2577797967800068
1492299.737992774 0.08901591182291144 0.2619648771785007 0.9109840881770884 -0.2619648771785007 0.9109840881770884 -0.2619648771785007 0.08901591182291144 0.2619648771785007
1522470.428312519 0.09187674908601355 0.2661939765796144 0.9081232509139864 -0.2661939765796144 0.9081232509139864 -0.2661939765796144 0.09187674908601355 0.2661939765796144
1553251.0969973304 0.094827435214026 0.27046605557290043 0.905172564785974 -0.27046605557290043 0.905172564785974 -0.27046605557290043 0.094827435214026 0.27046605557290043
1584654.076334004 0.09787051337051314 0.27477995939840355 0.902129486629487 -0.27477995939840355 0.902129486629487 -0.27477995939840355 0.09787051337051314 0.27477995939840355
1616691.9479383389 0.10100855197615617 0.2791344131613688 0.8989914480238438 -0.2791344131613688 0.8989914480238438 -0.2791344131613688 0.10100855197615617 0.2791344131613688
1649377.5477959653 0.10424414028230868 0.28352801709471254 0.8957558597176912 -0.2835280170947125 0.8957558597176912 -0.2835280170947125 0.10424414028230868 0.28352801709471254
1682723.9714050898 0.1075798835615502 0.28795924189140043 0.8924201164384497 -0.28795924189140043 0.8924201164384497 -0.28795924189140043 0.1075798835615502 0.28795924189140043
1716744.5790232092 0.11101839790426236 0.29242642413067627 0.8889816020957376 -0.29242642413067627 0.8889816020957376 -0.29242642413067627 0.11101839790426236 0.29242642413067627
1751453.001019904 0.11456230461118348 0.2969277618239668 0.8854376953888164 -0.29692776182396674 0.8854376953888164 -0.29692776182396674 0.11456230461118348 0.2969277618239668
1786863.143337851 0.11821422417301236 0.30146131010819627 0.8817857758269878 -0.30146131010819627 0.8817857758269878 -0.30146131010819627 0.11821422417301236 0.30146131010819627
1822989.1930642454 0.12197676982947701 0.30602497711619425 0.878023230170523 -0.3060249771161942 0.878023230170523 -0.3060249771161942 0.12197676982947701 0.30602497711619425
1859845.6241148617 0.12585254070185975 0.3106165200558406 0.8741474592981403 -0.3106165200558406 0.8741474592981403 -0.3106165200558406 0.12585254070185975 0.3106165200558406
1897447.2030330333 0.12984411449479158 0.31523354153153665 0.8701558855052083 -0.31523354153153665 0.8701558855052083 -0.31523354153153665 0.12984411449479158 0.31523354153153665
1935808.994905876 0.13395403976522421 0.31987348614350675 0.8660459602347759 -0.3198734861435067 0.8660459602347759 -0.3198734861435067 0.13395403976522421 0.31987348614350675
1974946.3694001175 0.13818482775884822 0.3245336374022803 0.8618151722411517 -0.3245336374022803 0.8618151722411517 -0.3245336374022803 0.13818482775884822 0.3245336374022803
2014875.0069199642 0.1425389438168876 0.3292111149974659 0.8574610561831122 -0.3292111149974659 0.8574610561831122 -0.3292111149974659 0.1425389438168876 0.3292111149974659
2055610.904889458 0.14701879835914053 0.3339028724615451 0.8529812016408593 -0.3339028724615451 0.8529812016408593 -0.3339028724615451 0.14701879835914053 0.3339028724615451
2097170.3841618528 0.15162673745239216 0.3386056952708884 0.8483732625476078 -0.33860569527088846 0.8483732625476078 -0.33860569527088846 0.15162673745239216 0.3386056952708884
2139570.0955585684 0.1563650329768641 0.3433161994274457 0.8436349670231358 -0.3433161994274457 0.8436349670231358 -0.3433161994274457 0.1563650329768641 0.3433161994274457
2182827.0265403506 0.1612358724072141 0.34803083056558215 0.838764127592786 -0.3480308305655821 0.838764127592786 -0.3480308305655821 0.1612358724072141 0.34803083056558215
2226958.508013302 0.1662413482287213 0.35274586362925336 0.8337586517712787 -0.35274586362925336 0.8337586517712787 -0.35274586362925336 0.1662413482287213 0.35274586362925336
2271982.2212725184 0.1713834470137034 0.35745740316511215 0.8286165529862967 -0.35745740316511215 0.8286165529862967 -0.35745740316511215 0.1713834470137034 0.35745740316511215
2317916.205086105 0.17666403818785975 0.3621613842771461 0.8233359618121403 -0.3621613842771461 0.8233359618121403 -0.3621613842771461 0.17666403818785975 0.3621613842771461
2364778.8629224156 0.18208486252112316 0.3668535742880421 0.8179151374788767 -0.36685357428804216 0.8179151374788767 -0.36685357428804216 0.18208486252112316 0.3668535742880421
2412588.9703234104 0.18764752038268304 0.371529575151592 0.812352479617317 -0.371529575151592 0.812352479617317 -0.371529575151592 0.18764752038268304 0.371529575151592
2461365.682427083 0.19335345980507435 0.3761848266590556 0.8066465401949258 -0.3761848266590556 0.8066465401949258 -0.3761848266590556 0.19335345980507435 0.3761848266590556
2511128.5416419753 0.19920396440757734 0.3808146104804557 0.8007960355924227 -0.3808146104804557 0.8007960355924227 -0.3808146104804557 0.19920396440757734 0.3808146104804557
2561897.48547685 0.2052001412345696 0.38541405507922233 0.7947998587654305 -0.3854140550792223 0.7947998587654305 -0.3854140550792223 0.2052001412345696 0.38541405507922233
2613692.85452866 0.2113429085698701 0.3899781415354391 0.7886570914301301 -0.3899781415354391 0.7886570914301301 -0.3899781415354391 0.2113429085698701 0.3899781415354391
2666535.4006320196 0.2176329837934376 0.39450171030910314 0.7823670162065626 -0.3945017103091032 0.7823670162065626 -0.3945017103091032 0.2176329837934376 0.39450171030910314
2720446.295173432 0.2240708713519565 0.3989794689702979 0.7759291286480435 -0.3989794689702979 0.7759291286480435 -0.3989794689702979 0.2240708713519565 0.3989794689702979
2775447.137573615 0.2306568509197864 0.40340600091796597 0.7693431490802137 -0.40340600091796597 0.7693431490802137 -0.40340600091796597 0.2306568509197864 0.40340600091796597
2831559.963941318 0.23739096583138022 0.4077757751030632 0.7626090341686197 -0.4077757751030632 0.7626090341686197 -0.4077757751030632 0.23739096583138022 0.4077757751030632
2888807.255902094 0.24427301187048242 0.4120831567652604 0.7557269881295177 -0.4120831567652604 0.7557269881295177 -0.4120831567652604 0.24427301187048242 0.4120831567652604
2947211.9496055758 0.2513025265051415 0.41632241918508645 0.7486974734948585 -0.41632241918508645 0.7486974734948585 -0.41632241918508645 0.2513025265051415 0.41632241918508645
3006797.4449148513 0.25847877866066493 0.4204877564454639 0.7415212213393351 -0.4204877564454639 0.7415212213393351 -0.4204877564454639 0.25847877866066493 0.4204877564454639
3067587.6147816274 0.265800759125067 0.4245732971880584 0.734199240874933 -0.4245732971880584 0.734199240874933 -0.4245732971880584 0.265800759125067 0.4245732971880584
3129606.8148109377 0.27326717168316056 0.42857311934077397 0.7267328283168394 -0.42857311934077397 0.7267328283168394 -0.42857311934077397 0.27326717168316056 0.42857311934077397
3192879.893019226 0.2808764250761661 0.4324812657831609 0.7191235749238339 -0.4324812657831609 0.7191235749238339 -0.4324812657831609 0.2808764250761661 0.4324812657831609
3257432.1997897103 0.28862662588346455 0.4362917609065599 0.7113733741165355 -0.4362917609065599 0.7113733741165355 -0.4362917609065599 0.28862662588346455 0.4362917609065599
3323289.598029029 0.2965155724217869 0.4399986280155545 0.7034844275782132 -0.43999862801555456 0.7034844275782132 -0.43999862801555456 0.2965155724217869 0.4399986280155545
3390478.4735292196 0.30454074975471207 0.4435959075068985 0.695459250245288 -0.4435959075068985 0.695459250245288 -0.4435959075068985 0.30454074975471207 0.4435959075068985
3459025.745539199 0.3126993259017043 0.4470776757516231 0.6873006740982956 -0.44707767575162316 0.6873006740982956 -0.44707767575162316 0.3126993259017043 0.4470776757516231
3528958.8775499705 0.3209881493310697 0.45043806459566527 0.6790118506689303 -0.45043806459566527 0.6790118506689303 -0.45043806459566527 0.3209881493310697 0.45043806459566527
3600305.8882978815 0.3294037478151144 0.453671281384243 0.6705962521848856 -0.453671281384243 0.6705962521848856 -0.453671281384243 0.3294037478151144 0.453671281384243
3673095.3629903416 0.3379423287184162 0.4567716294054917 0.6620576712815838 -0.45677162940549176 0.6620576712815838 -0.45677162940549176 0.3379423287184162 0.4567716294054917
3747356.4647584967 0.3465997807815231 0.45973352863972977 0.6534002192184768 -0.45973352863972977 0.6534002192184768 -0.45973352863972977 0.3465997807815231 0.45973352863972977
3823118.9463414503 0.3553716774525837 0.46255153669231436 0.6446283225474163 -0.46255153669231436 0.6446283225474163 -0.46255153669231436 0.3553716774525837 0.46255153669231436
3900413.1620067055 0.3642532818084635 0.46522036978053927 0.6357467181915365 -0.46522036978053927 0.6357467181915365 -0.46522036978053927 0.3642532818084635 0.46522036978053927
3979270.0797116193 0.37323955309489626 0.46773492363857994 0.6267604469051037 -0.46773492363858 0.6267604469051037 -0.46773492363858 0.37323955309489626 0.46773492363857994
4059721.293510725 0.38232515490225955 0.4700902941992564 0.6176748450977405 -0.47009029419925635 0.6176748450977405 -0.47009029419925635 0.38232515490225955 0.4700902941992564
4141799.0362139 0.39150446497980357 0.4722817979075158 0.6084955350201966 -0.47228179790751584 0.6084955350201966 -0.47228179790751584 0.39150446497980357 0.4722817979075158
4225536.192300457 0.40077158667671586 0.47430499151813904 0.5992284133232841 -0.4743049915181391 0.5992284133232841 -0.4743049915181391 0.40077158667671586 0.47430499151813904
4310966.311094318 0.4101203619835053 0.47615569122937923 0.5898796380164947 -0.47615569122937923 0.5898796380164947 -0.47615569122937923 0.4101203619835053 0.47615569122937923
4398123.620205573 0.41954438613196715 0.4778299910051141 0.5804556138680328 -0.4778299910051141 0.5804556138680328 -0.4778299910051141 0.41954438613196715 0.4778299910051141
4487043.0392437745 0.42903702369669966 0.4793242799407038 0.5709629763033004 -0.4793242799407039 0.5709629763033004 -0.4793242799407039 0.42903702369669966 0.4793242799407038
4577760.193808502 0.4385914261259872 0.48063525853212546 0.5614085738740129 -0.4806352585321256 0.5614085738740129 -0.4806352585321256 0.4385914261259872 0.48063525853212546
4670311.429762763 0.4482005506150501 0.48175995371409736 0.55179944938495 -0.48175995371409736 0.55179944938495 -0.48175995371409736 0.4482005506150501 0.48175995371409736
4764733.827794987 0.45785718022045024 0.4826957325407898 0.5421428197795499 -0.4826957325407898 0.5421428197795499 -0.4826957325407898 0.45785718022045024 0.4826957325407898
4861065.218275411 0.4675539451010351 0.48344031439228036 0.5324460548989648 -0.48344031439228036 0.5324460548989648 -0.48344031439228036 0.4675539451010351 0.48344031439228036
4959344.196412832 0.4772833447584096 0.4839917816010484 0.5227166552415905 -0.4839917816010485 0.5227166552415905 -0.4839917816010485 0.4772833447584096 0.4839917816010484
5059610.137717796 0.4870377711387997 0.4843485884054009 0.5129622288612004 -0.4843485884054009 0.5129622288612004 -0.4843485884054009 0.4870377711387997 0.4843485884054009
5161903.213778406 0.4968095324484213 0.4845095681506285 0.5031904675515787 -0.4845095681506285 0.5031904675515787 -0.4845095681506285 0.4968095324484213 0.4845095681506285
5266264.4083550945 0.5065908775263557 0.4844739386737028 0.4934091224736444 -0.4844739386737028 0.4934091224736444 -0.4844739386737028 0.5065908775263557 0.4844739386737028
5372735.53380077 0.5163740206125008 0.48424130582327973 0.48362597938749896 -0.48424130582327973 0.48362597938749896 -0.48424130582327973 0.5163740206125008 0.48424130582327973
5481359.247812959 0.526151166343632 0.4838116650834043 0.473848833656368 -0.4838116650834044 0.473848833656368 -0.4838116650834044 0.526151166343632 0.4838116650834043
5592179.070524632 0.5359145348079365 0.4831854012864125 0.4640854651920634 -0.4831854012864125 0.4640854651920634 -0.4831854012864125 0.5359145348079365 0.4831854012864125
5705239.401940555 0.5456563864877348 0.48236328641783477 0.4543436135122652 -0.4823632864178347 0.4543436135122652 -0.4823632864178347 0.5456563864877348 0.48236328641783477
5820585.5397261735 0.5553690469214076 0.48134647553337356 0.4446309530785924 -0.48134647553337356 0.4446309530785924 -0.48134647553337356 0.5553690469214076 0.48134647553337356
5938263.697356135 0.5650449309188139 0.4801365008250061 0.4349550690811859 -0.4801365008250061 0.4349550690811859 -0.4801365008250061 0.5650449309188139 0.4801365008250061
6058321.022629741 0.5746765661696644 0.4787352638897009 0.4253234338303356 -0.4787352638897009 0.4253234338303356 -0.4787352638897009 0.5746765661696644 0.4787352638897009
6180805.616560728 0.5842566160912908 0.47714502626991423 0.4157433839087092 -0.47714502626991423 0.4157433839087092 -0.47714502626991423 0.5842566160912908 0.47714502626991423
6305766.552648956 0.5937779017709282 0.47536839834971406 0.40622209822907196 -0.47536839834971406 0.40622209822907196 -0.47536839834971406 0.5937779017709282 0.47536839834971406
6433253.896541728 0.6032334228678304 0.47340832670388183 0.3967665771321696 -0.4734083267038819 0.3967665771321696 -0.4734083267038819 0.6032334228678304 0.47340832670388183
6563318.726092606 0.6126163773521178 0.4712680800094912 0.38738362264788234 -0.4712680800094912 0.38738362264788234 -0.4712680800094912 0.6126163773521178 0.4712680800094912
6696013.151825785 0.6219201799699934 0.46895123364010394 0.3780798200300066 -0.468951233640104 0.3780798200300066 -0.468951233640104 0.6219201799699934 0.46895123364010394
6831390.3378141755 0.6311384793386762 0.4664616530717595 0.3688615206613238 -0.4664616530717595 0.3688615206613238 -0.4664616530717595 0.6311384793386762 0.4664616530717595
6969504.522979628 0.6402651735888328 0.4638034762372578 0.3597348264111673 -0.4638034762372578 0.3597348264111673 -0.4638034762372578 0.6402651735888328 0.4638034762372578
7110411.042823766 0.6492944244872564 0.460981094970818 0.3507055755127437 -0.460981094970818 0.3507055755127437 -0.460981094970818 0.6492944244872564 0.460981094970818
7254166.351598182 0.6582206699877735 0.4579991356889994 0.3417793300122265 -0.45799913568899936 0.3417793300122265 -0.45799913568899936 0.6582206699877735 0.4579991356889994
7400828.044922853 0.6670386351736788 0.45486243945581467 0.33296136482632116 -0.45486243945581467 0.33296136482632116 -0.45486243945581467 0.6670386351736788 0.45486243945581467
7550454.882861849 0.6757433415701327 0.4515760415802945 0.3242566584298674 -0.4515760415802945 0.3242566584298674 -0.4515760415802945 0.6757433415701327 0.4515760415802945
7703106.813465575 0.6843301148197756 0.44814515089342466 0.3156698851802244 -0.44814515089342466 0.3156698851802244 -0.44814515089342466 0.6843301148197756 0.44814515089342466
7858844.9967889795 0.6927945907290464 0.44457512884849915 0.3072054092709536 -0.4445751288484992 0.3072054092709536 -0.4445751288484992 0.6927945907290464 0.44457512884849915
8017731.829395356 0.7011327197062497 0.44087146858458554 0.29886728029375026 -0.4408714685845855 0.29886728029375026 -0.4408714685845855 0.7011327197062497 0.44087146858458554
8179830.96935555 0.7093407696250886 0.4370397740871543 0.2906592303749113 -0.4370397740871543 0.2906592303749113 -0.4370397740871543 0.7093407696250886 0.4370397740871543
8345207.361752584 0.7174153271590822 0.433085739573099 0.28258467284091787 -0.43308573957309904 0.28258467284091787 -0.43308573957309904 0.7174153271590822 0.433085739573099
8513927.264701942 0.7253532976428891 0.4290151292195408 0.27464670235711086 -0.4290151292195408 0.27464670235711086 -0.4290151292195408 0.7253532976428891 0.4290151292195408
8686058.275897898 0.7331519035260112 0.4248337573471251 0.2668480964739887 -0.4248337573471251 0.2668480964739887 -0.4248337573471251 0.7331519035260112 0.4248337573471251
8861669.359696563 0.7408086814925601 0.4205474691591514 0.25919131850744 -0.4205474691591514 0.25919131850744 -0.4205474691591514 0.7408086814925601 0.4205474691591514
9040830.87474648 0.7483214783277556 0.4161621221279887 0.25167852167224436 -0.4161621221279887 0.25167852167224436 -0.4161621221279887 0.7483214783277556 0.4161621221279887
9223614.602177842 0.7556884456175362 0.411683568109985 0.2443115543824639 -0.4116835681099851 0.2443115543824639 -0.4116835681099851 0.7556884456175362 0.411683568109985
9410093.774361636 0.7629080333721198 0.4071176362596408 0.2370919666278803 -0.4071176362596408 0.2370919666278803 -0.4071176362596408 0.7629080333721198 0.4071176362596408
