! NFZ5BBW100LN10
# Hz S RI R 50
!Freq.(Hz) S11(Real) S11(Imag) S21(Real) S21(Imag) S12(Real) S12(Imag) S22(Real) S22(Imag)
1000000.0 0.013232364168720237 0.09676751590151095 0.9867676358312798 -0.09676751590151096 0.9867676358312798 -0.09676751590151096 0.013232364168720237 0.09676751590151095
1020217.5806586457 0.013661616189064533 0.09861293619524923 0.9863383838109354 -0.09861293619524923 0.9863383838109354 -0.09861293619524923 0.013661616189064533 0.09861293619524923
1040843.9118849806 0.014105202938859139 0.10049272850175094 0.985894797061141 -0.10049272850175094 0.985894797061141 -0.10049272850175094 0.014105202938859139 0.10049272850175094
1061887.2576265757 0.01456367585195388 0.10240750072443998 0.985436324148046 -0.10240750072443998 0.985436324148046 -0.10240750072443998 0.01456367585195388 0.10240750072443998
1083356.0489080292 0.015037610048910303 0.10435786565590804 0.9849623899510896 -0.10435786565590804 0.9849623899510896 -0.10435786565590804 0.015037610048910303 0.10435786565590804
1105258.8872088592 0.015527605124850236 0.10634444045554148 0.9844723948751498 -0.1063444404555415 0.9844723948751498 -0.1063444404555415 0.015527605124850236 0.10634444045554148
1127604.5479096894 0.0160342859444156 0.10836784609176502 0.9839657140555844 -0.10836784609176502 0.9839657140555844 -0.10836784609176502 0.0160342859444156 0.10836784609176502
1150401.9838081095 0.01655830344363918 0.1104287067478612 0.9834416965563608 -0.1104287067478612 0.9834416965563608 -0.1104287067478612 0.01655830344363918 0.1104287067478612
1173660.328705616 0.01710033543852817 0.11252764919021255 0.9828996645614717 -0.11252764919021255 0.9828996645614717 -0.11252764919021255 0.01710033543852817 0.11252764919021255
1197388.9010670746 0.01766108744015156 0.11466530209769238 0.9823389125598483 -0.11466530209769236 0.9823389125598483 -0.11466530209769236 0.01766108744015156 0.11466530209769238
1221597.2077541656 0.018241293475997098 0.11684229535080246 0.9817587065240029 -0.11684229535080246 0.9817587065240029 -0.11684229535080246 0.018241293475997098 0.11684229535080246
1246294.947834312 0.01884171691732238 0.11905925927901896 0.9811582830826775 -0.11905925927901896 0.9811582830826775 -0.11905925927901896 0.01884171691732238 0.11905925927901896
1271492.016466615 0.019463151312167297 0.12131682386466784 0.9805368486878326 -0.12131682386466784 0.9805368486878326 -0.12131682386466784 0.019463151312167297 0.12131682386466784
1297198.5088663532 0.02010642122361986 0.12361561790150516 0.9798935787763802 -0.12361561790150517 0.9798935787763802 -0.12361561790150517 0.02010642122361986 0.12361561790150516
1323424.7243496338 0.02077238307283364 0.12595626810603044 0.9792276169271664 -0.12595626810603044 0.9792276169271664 -0.12595626810603044 0.02077238307283364 0.12595626810603044
1350181.1704598186 0.021461925986183454 0.12833939817941356 0.9785380740138166 -0.1283393981794136 0.9785380740138166 -0.1283393981794136 0.021461925986183454 0.12833939817941356
1377478.5671773748 0.022175972645813 0.13076562781776535 0.977824027354187 -0.13076562781776535 0.977824027354187 -0.13076562781776535 0.022175972645813 0.13076562781776535
1405327.8512148394 0.022915480142677615 0.13323557166834024 0.9770845198573224 -0.13323557166834024 0.9770845198573224 -0.13323557166834024 0.022915480142677615 0.13323557166834024
1433740.1803986167 0.023681440831011612 0.135749838229112 0.9763185591689882 -0.135749838229112 0.9763185591689882 -0.135749838229112 0.023681440831011612 0.135749838229112
1462726.9381393674 0.024474883182958495 0.13830902868903225 0.9755251168170416 -0.13830902868903225 0.9755251168170416 -0.13830902868903225 0.024474883182958495 0.13830902868903225
1492299.737992774 0.025296872641887718 0.1409137357061476 0.9747031273581124 -0.14091373570614757 0.9747031273581124 -0.14091373570614757 0.025296872641887718 0.1409137357061476
1522470.428312519 0.02614851247268795 0.14356454212063233 0.9738514875273119 -0.14356454212063233 0.9738514875273119 -0.14356454212063233 0.02614851247268795 0.14356454212063233
1553251.0969973304 0.027030944607070888 0.146262019599682 0.9729690553929292 -0.146262019599682 0.9729690553929292 -0.146262019599682 0.027030944607070888 0.146262019599682
1584654.076334004 0.027945350481643344 0.1490067272111124 0.9720546495183564 -0.1490067272111124 0.9720546495183564 -0.1490067272111124 0.027945350481643344 0.1490067272111124
1616691.9479383389 0.028892951866208563 0.15179920992242815 0.9711070481337917 -0.15179920992242818 0.9711070481337917 -0.15179920992242818 0.028892951866208563 0.15179920992242815
1649377.5477959653 0.02987501167943748 0.15463999702204606 0.9701249883205625 -0.15463999702204606 0.9701249883205625 -0.15463999702204606 0.02987501167943748 0.15463999702204606
1682723.9714050898 0.03089283478871374 0.15752960045931608 0.9691071652112863 -0.15752960045931608 0.9691071652112863 -0.15752960045931608 0.03089283478871374 0.15752960045931608
1716744.5790232092 0.03194776879059375 0.16046851309993843 0.9680522312094061 -0.16046851309993843 0.9680522312094061 -0.16046851309993843 0.03194776879059375 0.16046851309993843
1751453.001019904 0.03304120476794443 0.16345720689337032 0.9669587952320555 -0.1634572068933703 0.9669587952320555 -0.1634572068933703 0.03304120476794443 0.16345720689337032
1786863.143337851 0.03417457801941923 0.16649613094882065 0.9658254219805809 -0.16649613094882065 0.9658254219805809 -0.16649613094882065 0.03417457801941923 0.16649613094882065
1822989.1930642454 0.03534936875651288 0.1695857095164688 0.964650631243487 -0.16958570951646879 0.964650631243487 -0.16958570951646879 0.03534936875651288 0.1695857095164688
1859845.6241148617 0.03656710276299487 0.17272633987060557 0.9634328972370053 -0.17272633987060557 0.9634328972370053 -0.17272633987060557 0.03656710276299487 0.17272633987060557
1897447.2030330333 0.03782935201106254 0.17591839009148608 0.9621706479889374 -0.17591839009148608 0.9621706479889374 -0.17591839009148608 0.03782935201106254 0.17591839009148608
1935808.994905876 0.03913773522807819 0.17916219674281306 0.9608622647719219 -0.17916219674281306 0.9608622647719219 -0.17916219674281306 0.03913773522807819 0.17916219674281306
1974946.3694001175 0.04049391840725813 0.1824580624419227 0.9595060815927419 -0.1824580624419227 0.9595060815927419 -0.1824580624419227 0.04049391840725813 0.1824580624419227
2014875.0069199642 0.04189961525517383 0.18580625331995312 0.9581003847448262 -0.1858062533199531 0.9581003847448262 -0.1858062533199531 0.04189961525517383 0.18580625331995312
2055610.904889458 0.043356587568396325 0.18920699636950553 0.9566434124316037 -0.18920699636950553 0.9566434124316037 -0.18920699636950553 0.043356587568396325 0.18920699636950553
2097170.3841618528 0.04486664553107825 0.192660476677599 0.9551333544689217 -0.192660476677599 0.9551333544689217 -0.192660476677599 0.04486664553107825 0.192660476677599
2139570.0955585684 0.04643164792471672 0.19616683454204997 0.9535683520752831 -0.19616683454204997 0.9535683520752831 -0.19616683454204997 0.04643164792471672 0.19616683454204997
2182827.0265403506 0.04805350224077899 0.19972616246978664 0.9519464977592212 -0.19972616246978664 0.9519464977592212 -0.19972616246978664 0.04805350224077899 0.19972616246978664
2226958.508013302 0.04973416468630844 0.20333850205605258 0.9502658353136914 -0.20333850205605258 0.9502658353136914 -0.20333850205605258 0.04973416468630844 0.20333850205605258
2271982.2212725184 0.05147564007205565 0.20700384074394387 0.9485243599279444 -0.20700384074394387 0.9485243599279444 -0.20700384074394387 0.05147564007205565 0.20700384074394387
2317916.205086105 0.05327998157211045 0.2107221084642856 0.9467200184278897 -0.21072210846428563 0.9467200184278897 -0.21072210846428563 0.05327998157211045 0.2107221084642856
2364778.8629224156 0.0551492903434419 0.21449317415647537 0.9448507096565582 -0.2144931741564754 0.9448507096565582 -0.2144931741564754 0.0551492903434419 0.21449317415647537
2412588.9703234104 0.057085714993197284 0.21831684217161942 0.9429142850068025 -0.21831684217161942 0.9429142850068025 -0.21831684217161942 0.057085714993197284 0.21831684217161942
2461365.682427083 0.059091450881062046 0.22219284856004703 0.9409085491189381 -0.2221928485600471 0.9409085491189381 -0.2221928485600471 0.059091450881062046 0.22219284856004703
2511128.5416419753 0.06116873924346019 0.2261208572461405 0.9388312607565399 -0.2261208572461405 0.9388312607565399 -0.2261208572461405 0.06116873924346019 0.2261208572461405
2561897.48547685 0.0633198661258724 0.23010045609433855 0.9366801338741276 -0.23010045609433855 0.9366801338741276 -0.23010045609433855 0.0633198661258724 0.23010045609433855
2613692.85452866 0.06554716110908224 0.23413115287118072 0.9344528388909177 -0.23413115287118072 0.9344528388909177 -0.23413115287118072 0.06554716110908224 0.23413115287118072
2666535.4006320196 0.06785299581473489 0.238212371109354 0.9321470041852652 -0.238212371109354 0.9321470041852652 -0.238212371109354 0.06785299581473489 0.238212371109354
2720446.295173432 0.07023978217521618 0.2423434458808893 0.9297602178247838 -0.2423434458808893 0.9297602178247838 -0.2423434458808893 0.07023978217521618 0.2423434458808893
2775447.137573615 0.07270997045254317 0.24652361948792834 0.9272900295474568 -0.24652361948792834 0.9272900295474568 -0.24652361948792834 0.07270997045254317 0.24652361948792834
2831559.963941318 0.0752660469907101 0.2507520370808466 0.9247339530092901 -0.2507520370808466 0.9247339530092901 -0.2507520370808466 0.0752660469907101 0.2507520370808466
2888807.255902094 0.07791053168576802 0.2550277422149806 0.9220894683142321 -0.25502774221498065 0.9220894683142321 -0.25502774221498065 0.07791053168576802 0.2550277422149806
2947211.9496055758 0.08064597515784401 0.25934967235875506 0.919354024842156 -0.25934967235875506 0.919354024842156 -0.25934967235875506 0.08064597515784401 0.25934967235875506
3006797.4449148513 0.08347495560933964 0.263716654367647 0.9165250443906605 -0.2637166543676471 0.9165250443906605 -0.2637166543676471 0.08347495560933964 0.263716654367647
3067587.6147816274 0.08640007535370203 0.2681273999401545 0.9135999246462978 -0.2681273999401545 0.9135999246462978 -0.2681273999401545 0.08640007535370203 0.2681273999401545
3129606.8148109377 0.08942395699944856 0.27258050107374393 0.9105760430005516 -0.27258050107374393 0.9105760430005516 -0.27258050107374393 0.08942395699944856 0.27258050107374393
3192879.893019226 0.09254923927456299 0.2770744255406421 0.907450760725437 -0.2770744255406421 0.907450760725437 -0.2770744255406421 0.09254923927456299 0.2770744255406421
3257432.1997897103 0.09577857247698371 0.28160751240529763 0.9042214275230164 -0.28160751240529763 0.9042214275230164 -0.28160751240529763 0.09577857247698371 0.28160751240529763
3323289.598029029 0.0991146135376841 0.28617796760734887 0.9008853864623158 -0.28617796760734887 0.9008853864623158 -0.28617796760734887 0.0991146135376841 0.28617796760734887
3390478.4735292196 0.10256002068382403 0.29078385963600833 0.8974399793161758 -0.29078385963600833 0.8974399793161758 -0.29078385963600833 0.10256002068382403 0.29078385963600833
3459025.745539199 0.10611744769064338 0.2954231153238728 0.8938825523093566 -0.2954231153238728 0.8938825523093566 -0.2954231153238728 0.10611744769064338 0.2954231153238728
3528958.8775499705 0.10978953771217907 0.3000935157902813 0.890210462287821 -0.3000935157902813 0.890210462287821 -0.3000935157902813 0.10978953771217907 0.3000935157902813
3600305.8882978815 0.11357891668255674 0.30479269256647634 0.8864210833174434 -0.3047926925664764 0.8864210833174434 -0.3047926925664764 0.11357891668255674 0.30479269256647634
3673095.3629903416 0.11748818628151411 0.30951812393690253 0.882511813718486 -0.3095181239369025 0.882511813718486 -0.3095181239369025 0.11748818628151411 0.30951812393690253
3747356.4647584967 0.12151991646000695 0.31426713153304203 0.878480083539993 -0.31426713153304203 0.878480083539993 -0.31426713153304203 0.12151991646000695 0.31426713153304203
3823118.9463414503 0.1256766375242119 0.31903687721815704 0.8743233624757881 -0.31903687721815704 0.8743233624757881 -0.31903687721815704 0.1256766375242119 0.31903687721815704
3900413.1620067055 0.12996083177899376 0.3238243603031763 0.8700391682210062 -0.3238243603031763 0.8700391682210062 -0.3238243603031763 0.12996083177899376 0.3238243603031763
3979270.0797116193 0.13437492473496743 0.328626415135715 0.8656250752650326 -0.328626415135715 0.8656250752650326 -0.328626415135715 0.13437492473496743 0.328626415135715
4059721.293510725 0.13892127588662842 0.3334397091057656 0.8610787241133715 -0.3334397091057656 0.8610787241133715 -0.3334397091057656 0.13892127588662842 0.3334397091057656
4141799.0362139 0.14360216907268641 0.3382607411129619 0.8563978309273135 -0.3382607411129619 0.8563978309273135 -0.3382607411129619 0.14360216907268641 0.3382607411129619
4225536.192300457 0.1484198024336876 0.3430858405414194 0.8515801975663123 -0.34308584054141933 0.8515801975663123 -0.34308584054141933 0.1484198024336876 0.3430858405414194
4310966.311094318 0.15337627798625048 0.3479111667889672 0.8466237220137495 -0.3479111667889672 0.8466237220137495 -0.3479111667889672 0.15337627798625048 0.3479111667889672
4398123.620205573 0.15847359083775614 0.35273270939805973 0.841526409162244 -0.3527327093980597 0.841526409162244 -0.3527327093980597 0.15847359083775614 0.35273270939805973
4487043.0392437745 0.16371361807010473 0.35754628883574807 0.8362863819298952 -0.357546288835748 0.8362863819298952 -0.357546288835748 0.16371361807010473 0.35754628883574807
4577760.193808502 0.1690981073261589 0.36234755796976015 0.8309018926738412 -0.36234755796976015 0.8309018926738412 -0.36234755796976015 0.1690981073261589 0.36234755796976015
4670311.429762763 0.17462866513768602 0.36713200428692044 0.8253713348623138 -0.36713200428692044 0.8253713348623138 -0.36713200428692044 0.17462866513768602 0.36713200428692044
4764733.827794987 0.18030674503899055 0.37189495289882657 0.8196932549610094 -0.37189495289882646 0.8196932549610094 -0.37189495289882646 0.18030674503899055 0.37189495289882657
4861065.218275411 0.18613363551589177 0.37663157037779915 0.8138663644841083 -0.37663157037779915 0.8138663644841083 -0.37663157037779915 0.18613363551589177 0.37663157037779915
4959344.196412832 0.19211044784525705 0.38133686946365253 0.807889552154743 -0.38133686946365253 0.807889552154743 -0.38133686946365253 0.19211044784525705 0.38133686946365253
5059610.137717796 0.1982381038858384 0.3860057146786997 0.8017618961141614 -0.3860057146786997 0.8017618961141614 -0.3860057146786997 0.1982381038858384 0.3860057146786997
5161903.213778406 0.2045173238866396 0.39063282888462925 0.7954826761133604 -0.39063282888462925 0.7954826761133604 -0.39063282888462925 0.2045173238866396 0.39063282888462925
5266264.4083550945 0.21094861438438237 0.39521280081041626 0.7890513856156175 -0.39521280081041626 0.7890513856156175 -0.39521280081041626 0.21094861438438237 0.39521280081041626
5372735.53380077 0.21753225626676084 0.3997400935752564 0.782467743733239 -0.3997400935752564 0.782467743733239 -0.3997400935752564 0.21753225626676084 0.3997400935752564
5481359.247812959 0.22426829308297497 0.40420905422461767 0.775731706917025 -0.4042090542246176 0.775731706917025 -0.4042090542246176 0.22426829308297497 0.40420905422461767
5592179.070524632 0.231156519687458 0.40861392429092047 0.7688434803125418 -0.40861392429092047 0.7688434803125418 -0.40861392429092047 0.231156519687458 0.40861392429092047
5705239.401940555 0.2381964713066128 0.41294885138305826 0.7618035286933873 -0.41294885138305826 0.7618035286933873 -0.41294885138305826 0.2381964713066128 0.41294885138305826
5820585.5397261735 0.24538741312170753 0.41720790180102885 0.7546125868782926 -0.41720790180102885 0.7546125868782926 -0.41720790180102885 0.24538741312170753 0.41720790180102885
5938263.697356135 0.2527283304637011 0.4213850741633634 0.7472716695362989 -0.4213850741633634 0.7472716695362989 -0.4213850741633634 0.2527283304637011 0.4213850741633634
6058321.022629741 0.2602179197176095 0.4254743140258985 0.7397820802823905 -0.4254743140258985 0.7397820802823905 -0.4254743140258985 0.2602179197176095 0.4254743140258985
6180805.616560728 0.267854580034976 0.42946952946078815 0.7321454199650239 -0.42946952946078826 0.7321454199650239 -0.42946952946078826 0.267854580034976 0.42946952946078815
6305766.552648956 0.2756364059529822 0.4333646075545965 0.7243635940470179 -0.43336460755459655 0.7243635940470179 -0.43336460755459655 0.2756364059529822 0.4333646075545965
6433253.896541728 0.28356118101765804 0.4371534317739342 0.716438818982342 -0.43715343177393423 0.716438818982342 -0.43715343177393423 0.28356118101765804 0.4371534317739342
6563318.726092606 0.2916263725064257 0.44082990013652773 0.7083736274935745 -0.44082990013652773 0.7083736274935745 -0.44082990013652773 0.2916263725064257 0.44082990013652773
6696013.151825785 0.29982912734180994 0.44438794411495625 0.70017087265819 -0.4443879441149563 0.70017087265819 -0.4443879441149563 0.29982912734180994 0.44438794411495625
6831390.3378141755 0.30816626928349994 0.4478215481897133 0.6918337307165001 -0.4478215481897133 0.6918337307165001 -0.4478215481897133 0.30816626928349994 0.4478215481897133
6969504.522979628 0.3166342974800307 0.45112476995787854 0.6833657025199694 -0.4511247699578786 0.6833657025199694 -0.4511247699578786 0.3166342974800307 0.45112476995787854
7110411.042823766 0.3252293864541615 0.45429176069369565 0.6747706135458384 -0.4542917606936956 0.6747706135458384 -0.4542917606936956 0.3252293864541615 0.45429176069369565
7254166.351598182 0.3339473875875693 0.45731678624790234 0.6660526124124306 -0.45731678624790234 0.6660526124124306 -0.45731678624790234 0.3339473875875693 0.45731678624790234
7400828.044922853 0.34278383216078284 0.46019424816392057 0.6572161678392172 -0.46019424816392057 0.6572161678392172 -0.46019424816392057 0.34278383216078284 0.46019424816392057
7550454.882861849 0.3517339359934108 0.4629187048811466 0.6482660640065891 -0.46291870488114656 0.6482660640065891 -0.46291870488114656 0.3517339359934108 0.4629187048811466
7703106.813465575 0.36079260571775856 0.4654848928887709 0.6392073942822414 -0.4654848928887708 0.6392073942822414 -0.4654848928887708 0.36079260571775856 0.4654848928887709
7858844.9967889795 0.3699544467059702 0.46788774768793245 0.6300455532940298 -0.46788774768793245 0.6300455532940298 -0.46788774768793245 0.3699544467059702 0.46788774768793245
8017731.829395356 0.37921377265701667 0.47012242441574587 0.6207862273429833 -0.47012242441574587 0.6207862273429833 -0.47012242441574587 0.37921377265701667 0.47012242441574587
8179830.96935555 0.38856461683533794 0.4721843179819485 0.6114353831646621 -0.47218431798194843 0.6114353831646621 -0.47218431798194843 0.38856461683533794 0.4721843179819485
8345207.361752584 0.39800074493787974 0.4740690825677174 0.6019992550621203 -0.47406908256771746 0.6019992550621203 -0.47406908256771746 0.39800074493787974 0.4740690825677174
8513927.264701942 0.4075156695508768 0.47577265033669636 0.592484330449123 -0.47577265033669636 0.592484330449123 -0.47577265033669636 0.4075156695508768 0.47577265033669636
8686058.275897898 0.41710266614219543 0.47729124921050836 0.5828973338578045 -0.47729124921050836 0.5828973338578045 -0.47729124921050836 0.41710266614219543 0.47729124921050836
8861669.359696563 0.4267547905195987 0.4786214195650599 0.5732452094804014 -0.4786214195650599 0.5732452094804014 -0.4786214195650599 0.4267547905195987 0.4786214195650599
9040830.87474648 0.43646489767016605 0.479760029709771 0.563535102329834 -0.47976002970977094 0.563535102329834 -0.47976002970977094 0.43646489767016605 0.479760029709771
9223614.602177842 0.4462256618814979 0.4807042900194638 0.5537743381185021 -0.4807042900194638 0.5537743381185021 -0.4807042900194638 0.4462256618814979 0.4807042900194638
