! NFZ5BBW2R9LZ10
# Hz S RI R 50
!Freq.(Hz) S11(Real) S11(Imag) S21(Real) S21(Imag) S12(Real) S12(Imag) S22(Real) S22(Imag)
1000000.0 0.001364855899087723 0.02776389531974466 0.9986351441009121 -0.02776389531974466 0.9986351441009121 -0.02776389531974466 0.001364855899087723 0.02776389531974466
1020217.5806586457 0.0014019951500636695 0.028320551586976314 0.9985980048499361 -0.02832055158697631 0.9985980048499361 -0.02832055158697631 0.0014019951500636695 0.028320551586976314
1040843.9118849806 0.0014405814555950426 0.02888844096905267 0.998559418544405 -0.02888844096905267 0.998559418544405 -0.02888844096905267 0.0014405814555950426 0.02888844096905267
1061887.2576265757 0.0014806758038151434 0.029467785861567015 0.9985193241961849 -0.02946778586156701 0.9985193241961849 -0.02946778586156701 0.0014806758038151434 0.029467785861567015
1083356.0489080292 0.0015223415982953243 0.030058812840705388 0.9984776584017045 -0.030058812840705388 0.9984776584017045 -0.030058812840705388 0.0015223415982953243 0.030058812840705388
1105258.8872088592 0.001565644754922347 0.030661752732864523 0.9984343552450776 -0.030661752732864516 0.9984343552450776 -0.030661752732864516 0.001565644754922347 0.030661752732864523
1127604.5479096894 0.0016106538026884835 0.0312768406845593 0.9983893461973116 -0.031276840684559305 0.9983893461973116 -0.031276840684559305 0.0016106538026884835 0.0312768406845593
1150401.9838081095 0.0016574399885323035 0.031904316232560403 0.9983425600114678 -0.031904316232560403 0.9983425600114678 -0.031904316232560403 0.0016574399885323035 0.031904316232560403
1173660.328705616 0.001706077386373064 0.032544423374198085 0.998293922613627 -0.032544423374198085 0.998293922613627 -0.032544423374198085 0.001706077386373064 0.032544423374198085
1197388.9010670746 0.001756643010486736 0.03319741063776376 0.9982433569895133 -0.03319741063776376 0.9982433569895133 -0.03319741063776376 0.001756643010486736 0.03319741063776376
1221597.2077541656 0.0018092169333769057 0.03386353115293514 0.9981907830666231 -0.03386353115293514 0.9981907830666231 -0.03386353115293514 0.0018092169333769057 0.03386353115293514
1246294.947834312 0.0018638824082991435 0.034543042721145355 0.9981361175917007 -0.034543042721145355 0.9981361175917007 -0.034543042721145355 0.0018638824082991435 0.034543042721145355
1271492.016466615 0.001920725996602887 0.03523620788581078 0.998079274003397 -0.03523620788581078 0.998079274003397 -0.03523620788581078 0.001920725996602887 0.03523620788581078
1297198.5088663532 0.0019798377000604345 0.035943294002325224 0.9980201622999395 -0.035943294002325224 0.9980201622999395 -0.035943294002325224 0.0019798377000604345 0.035943294002325224
1323424.7243496338 0.0020413110983582656 0.036664573307721396 0.9979586889016419 -0.0366645733077214 0.9979586889016419 -0.0366645733077214 0.0020413110983582656 0.036664573307721396
1350181.1704598186 0.002105243491931719 0.03740032298989382 0.9978947565080682 -0.037400322989893826 0.9978947565080682 -0.037400322989893826 0.002105243491931719 0.03740032298989382
1377478.5671773748 0.0021717360503297764 0.038150825256268284 0.9978282639496702 -0.03815082525626829 0.9978282639496702 -0.03815082525626829 0.0021717360503297764 0.038150825256268284
1405327.8512148394 0.0022408939663026723 0.03891636740179588 0.9977591060336972 -0.03891636740179588 0.9977591060336972 -0.03891636740179588 0.0022408939663026723 0.03891636740179588
1433740.1803986167 0.0023128266158109253 0.03969724187613944 0.9976871733841891 -0.03969724187613943 0.9976871733841891 -0.03969724187613943 0.0023128266158109253 0.03969724187613944
1462726.9381393674 0.0023876477241604526 0.04049374634991191 0.9976123522758394 -0.04049374634991191 0.9976123522758394 -0.04049374634991191 0.0023876477241604526 0.04049374634991191
1492299.737992774 0.002465475538474352 0.041306183779815 0.9975345244615257 -0.04130618377981501 0.9975345244615257 -0.04130618377981501 0.002465475538474352 0.041306183779815
1522470.428312519 0.002546433006718112 0.0421348624725167 0.997453566993282 -0.0421348624725167 0.997453566993282 -0.0421348624725167 0.002546433006718112 0.0421348624725167
1553251.0969973304 0.0026306479635008896 0.04298009614709362 0.9973693520364991 -0.042980096147093624 0.9973693520364991 -0.042980096147093624 0.0026306479635008896 0.04298009614709362
1584654.076334004 0.0027182533228817056 0.043842203995853764 0.9972817466771183 -0.043842203995853764 0.9972817466771183 -0.043842203995853764 0.0027182533228817056 0.043842203995853764
1616691.9479383389 0.0028093872784152505 0.04472151074334071 0.9971906127215847 -0.044721510743340714 0.9971906127215847 -0.044721510743340714 0.0028093872784152505 0.04472151074334071
1649377.5477959653 0.002904193510677998 0.045618346703307645 0.9970958064893223 -0.045618346703307645 0.9970958064893223 -0.045618346703307645 0.002904193510677998 0.045618346703307645
1682723.9714050898 0.0030028214025211806 0.046533047833435294 0.9969971785974787 -0.046533047833435294 0.9969971785974787 -0.046533047833435294 0.0030028214025211806 0.046533047833435294
1716744.5790232092 0.003105426262302901 0.0474659557875523 0.9968945737376971 -0.0474659557875523 0.9968945737376971 -0.0474659557875523 0.003105426262302901 0.0474659557875523
1751453.001019904 0.003212169555357224 0.048417417965100004 0.9967878304446427 -0.048417417965100004 0.9967878304446427 -0.048417417965100004 0.003212169555357224 0.048417417965100004
1786863.143337851 0.0033232191439636284 0.04938778755756832 0.9966767808560363 -0.04938778755756831 0.9966767808560363 -0.04938778755756831 0.0033232191439636284 0.04938778755756832
1822989.1930642454 0.003438749536085238 0.05037742359160874 0.9965612504639146 -0.05037742359160874 0.9965612504639146 -0.05037742359160874 0.003438749536085238 0.05037742359160874
1859845.6241148617 0.0035589421431494 0.05138669096851422 0.9964410578568508 -0.05138669096851422 0.9964410578568508 -0.05138669096851422 0.0035589421431494 0.05138669096851422
1897447.2030330333 0.0036839855471487294 0.052415960499733585 0.9963160144528513 -0.052415960499733585 0.9963160144528513 -0.052415960499733585 0.0036839855471487294 0.052415960499733585
1935808.994905876 0.003814075777345102 0.053465608938068364 0.9961859242226551 -0.05346560893806835 0.9961859242226551 -0.05346560893806835 0.003814075777345102 0.053465608938068364
1974946.3694001175 0.003949416596862989 0.05453601900417627 0.9960505834031369 -0.05453601900417627 0.9960505834031369 -0.05453601900417627 0.003949416596862989 0.05453601900417627
2014875.0069199642 0.004090219799462083 0.055627579407983914 0.9959097802005379 -0.055627579407983914 0.9959097802005379 -0.055627579407983914 0.004090219799462083 0.055627579407983914
2055610.904889458 0.004236705516781972 0.05674068486458415 0.995763294483218 -0.05674068486458415 0.995763294483218 -0.05674068486458415 0.004236705516781972 0.05674068486458415
2097170.3841618528 0.004389102536354145 0.05787573610416982 0.9956108974636457 -0.05787573610416982 0.9956108974636457 -0.05787573610416982 0.004389102536354145 0.05787573610416982
2139570.0955585684 0.004547648630678233 0.05903313987552636 0.9954523513693219 -0.05903313987552636 0.9954523513693219 -0.05903313987552636 0.004547648630678233 0.05903313987552636
2182827.0265403506 0.004712590897660387 0.06021330894257802 0.9952874091023396 -0.06021330894257801 0.9952874091023396 -0.06021330894257801 0.004712590897660387 0.06021330894257802
2226958.508013302 0.004884186112711811 0.06141666207345152 0.9951158138872883 -0.06141666207345152 0.9951158138872883 -0.06141666207345152 0.004884186112711811 0.06141666207345152
2271982.2212725184 0.005062701092804705 0.06264362402148943 0.9949372989071955 -0.06264362402148943 0.9949372989071955 -0.06264362402148943 0.005062701092804705 0.06264362402148943
2317916.205086105 0.005248413072781042 0.06389462549761198 0.994751586927219 -0.06389462549761196 0.994751586927219 -0.06389462549761196 0.005248413072781042 0.06389462549761198
2364778.8629224156 0.005441610094206578 0.06517010313339108 0.9945583899057934 -0.06517010313339108 0.9945583899057934 -0.06517010313339108 0.005441610094206578 0.06517010313339108
2412588.9703234104 0.005642591407058359 0.06647049943416364 0.9943574085929416 -0.06647049943416364 0.9943574085929416 -0.06647049943416364 0.005642591407058359 0.06647049943416364
2461365.682427083 0.0058516678845282576 0.0677962627214723 0.9941483321154719 -0.06779626272147228 0.9941483321154719 -0.06779626272147228 0.0058516678845282576 0.0677962627214723
2511128.5416419753 0.006069162451217967 0.06914784706408265 0.9939308375487819 -0.06914784706408265 0.9939308375487819 -0.06914784706408265 0.006069162451217967 0.06914784706408265
2561897.48547685 0.006295410524991934 0.07052571219678243 0.9937045894750082 -0.07052571219678241 0.9937045894750082 -0.07052571219678241 0.006295410524991934 0.07052571219678243
2613692.85452866 0.006530760472744045 0.0719303234261249 0.9934692395272561 -0.0719303234261249 0.9934692395272561 -0.0719303234261249 0.006530760472744045 0.0719303234261249
2666535.4006320196 0.006775574080321146 0.07336215152223392 0.993224425919679 -0.07336215152223394 0.993224425919679 -0.07336215152223394 0.006775574080321146 0.07336215152223392
2720446.295173432 0.007030227036831329 0.07482167259573785 0.9929697729631688 -0.07482167259573785 0.9929697729631688 -0.07482167259573785 0.007030227036831329 0.07482167259573785
2775447.137573615 0.007295109433547656 0.07630936795885175 0.9927048905664524 -0.07630936795885175 0.9927048905664524 -0.07630936795885175 0.007295109433547656 0.07630936795885175
2831559.963941318 0.007570626277597944 0.07782572396957545 0.9924293737224023 -0.07782572396957545 0.9924293737224023 -0.07782572396957545 0.007570626277597944 0.07782572396957545
2888807.255902094 0.007857198020607989 0.07937123185791918 0.9921428019793921 -0.07937123185791917 0.9921428019793921 -0.07937123185791917 0.007857198020607989 0.07937123185791918
2947211.9496055758 0.008155261102440062 0.08094638753301603 0.99184473889756 -0.08094638753301601 0.99184473889756 -0.08094638753301601 0.008155261102440062 0.08094638753301603
3006797.4449148513 0.008465268510138412 0.08255169136991886 0.9915347314898616 -0.08255169136991886 0.9915347314898616 -0.08255169136991886 0.008465268510138412 0.08255169136991886
3067587.6147816274 0.008787690352160954 0.08418764797482305 0.9912123096478391 -0.08418764797482305 0.9912123096478391 -0.08418764797482305 0.008787690352160954 0.08418764797482305
3129606.8148109377 0.009123014447938643 0.08585476592739118 0.9908769855520612 -0.08585476592739116 0.9908769855520612 -0.08585476592739116 0.009123014447938643 0.08585476592739118
3192879.893019226 0.009471746932763156 0.08755355749879538 0.9905282530672367 -0.08755355749879538 0.9905282530672367 -0.08755355749879538 0.009471746932763156 0.08755355749879538
3257432.1997897103 0.009834412877957017 0.08928453834402483 0.990165587122043 -0.08928453834402483 0.990165587122043 -0.08928453834402483 0.009834412877957017 0.08928453834402483
3323289.598029029 0.010211556926229437 0.09104822716693935 0.9897884430737706 -0.09104822716693935 0.9897884430737706 -0.09104822716693935 0.010211556926229437 0.09104822716693935
3390478.4735292196 0.010603743942064812 0.0928451453564819 0.989396256057935 -0.0928451453564819 0.989396256057935 -0.0928451453564819 0.010603743942064812 0.0928451453564819
3459025.745539199 0.011011559676928528 0.09467581659239081 0.9889884403230714 -0.09467581659239081 0.9889884403230714 -0.09467581659239081 0.011011559676928528 0.09467581659239081
3528958.8775499705 0.011435611449006325 0.09654076641868073 0.9885643885509938 -0.09654076641868073 0.9885643885509938 -0.09654076641868073 0.011435611449006325 0.09654076641868073
3600305.8882978815 0.011876528837118757 0.0984405217830892 0.9881234711628812 -0.0984405217830892 0.9881234711628812 -0.0984405217830892 0.011876528837118757 0.0984405217830892
3673095.3629903416 0.012334964388370066 0.10037561054061063 0.98766503561163 -0.10037561054061062 0.98766503561163 -0.10037561054061062 0.012334964388370066 0.10037561054061063
3747356.4647584967 0.012811594339001127 0.10234656091916394 0.987188405660999 -0.10234656091916394 0.987188405660999 -0.10234656091916394 0.012811594339001127 0.10234656091916394
3823118.9463414503 0.013307119347818839 0.10435390094536676 0.9866928806521812 -0.10435390094536676 0.9866928806521812 -0.10435390094536676 0.013307119347818839 0.10435390094536676
3900413.1620067055 0.01382226524146775 0.10639815782831112 0.9861777347585322 -0.10639815782831114 0.9861777347585322 -0.10639815782831114 0.01382226524146775 0.10639815782831112
3979270.0797116193 0.014357783770694778 0.1084798572991629 0.9856422162293055 -0.1084798572991629 0.9856422162293055 -0.1084798572991629 0.014357783770694778 0.1084798572991629
4059721.293510725 0.014914453376632882 0.11059952290433119 0.9850855466233671 -0.11059952290433119 0.9850855466233671 -0.11059952290433119 0.014914453376632882 0.11059952290433119
4141799.0362139 0.015493079965994378 0.11275767524988183 0.9845069200340055 -0.11275767524988185 0.9845069200340055 -0.11275767524988185 0.015493079965994378 0.11275767524988183
4225536.192300457 0.016094497693918852 0.114954831194797 0.9839055023060811 -0.11495483119479698 0.9839055023060811 -0.11495483119479698 0.016094497693918852 0.114954831194797
4310966.311094318 0.016719569753063497 0.11719150299061505 0.9832804302469363 -0.11719150299061505 0.9832804302469363 -0.11719150299061505 0.016719569753063497 0.11719150299061505
4398123.620205573 0.017369189167354585 0.11946819736491991 0.9826308108326454 -0.11946819736491991 0.9826308108326454 -0.11946819736491991 0.017369189167354585 0.11946819736491991
4487043.0392437745 0.01804427958863705 0.12178541454608512 0.9819557204113629 -0.12178541454608514 0.9819557204113629 -0.12178541454608514 0.01804427958863705 0.12178541454608512
4577760.193808502 0.0187457960942648 0.12414364722662447 0.9812542039057353 -0.12414364722662449 0.9812542039057353 -0.12414364722662449 0.0187457960942648 0.12414364722662447
4670311.429762763 0.019474725983465828 0.12654337946244817 0.9805252740165342 -0.12654337946244817 0.9805252740165342 -0.12654337946244817 0.019474725983465828 0.12654337946244817
4764733.827794987 0.020232089570093897 0.1289850855052808 0.9797679104299061 -0.1289850855052808 0.9797679104299061 -0.1289850855052808 0.020232089570093897 0.1289850855052808
4861065.218275411 0.021018940969141336 0.13146922856546156 0.9789810590308586 -0.13146922856546156 0.9789810590308586 -0.13146922856546156 0.021018940969141336 0.13146922856546156
4959344.196412832 0.021836368874135027 0.13399625950232116 0.9781636311258649 -0.13399625950232116 0.9781636311258649 -0.13399625950232116 0.021836368874135027 0.13399625950232116
5059610.137717796 0.02268549732227002 0.13656661543931464 0.9773145026777299 -0.13656661543931464 0.9773145026777299 -0.13656661543931464 0.02268549732227002 0.13656661543931464
5161903.213778406 0.023567486443850594 0.13918071830108683 0.9764325135561494 -0.13918071830108683 0.9764325135561494 -0.13918071830108683 0.023567486443850594 0.13918071830108683
5266264.4083550945 0.02448353319230909 0.1418389732696584 0.9755164668076909 -0.1418389732696584 0.9755164668076909 -0.1418389732696584 0.02448353319230909 0.1418389732696584
5372735.53380077 0.02543487205075496 0.14454176715694772 0.9745651279492451 -0.1445417671569477 0.9745651279492451 -0.1445417671569477 0.02543487205075496 0.14454176715694772
5481359.247812959 0.02642277571067363 0.14728946669088863 0.9735772242893265 -0.14728946669088863 0.9735772242893265 -0.14728946669088863 0.02642277571067363 0.14728946669088863
5592179.070524632 0.027448555718044144 0.15008241671247136 0.9725514442819557 -0.15008241671247136 0.9725514442819557 -0.15008241671247136 0.027448555718044144 0.15008241671247136
5705239.401940555 0.028513563081777535 0.15292093828111797 0.9714864369182225 -0.15292093828111797 0.9714864369182225 -0.15292093828111797 0.028513563081777535 0.15292093828111797
5820585.5397261735 0.029619188838994524 0.15580532668591923 0.9703808111610056 -0.15580532668591923 0.9703808111610056 -0.15580532668591923 0.029619188838994524 0.15580532668591923
5938263.697356135 0.03076686457126217 0.1587358493603969 0.9692331354287377 -0.1587358493603969 0.9692331354287377 -0.1587358493603969 0.03076686457126217 0.1587358493603969
6058321.022629741 0.031958062865494526 0.16171274369862584 0.9680419371345055 -0.16171274369862584 0.9680419371345055 -0.16171274369862584 0.031958062865494526 0.16171274369862584
6180805.616560728 0.03319429771279322 0.16473621477075193 0.9668057022872067 -0.1647362147707519 0.9668057022872067 -0.1647362147707519 0.03319429771279322 0.16473621477075193
6305766.552648956 0.0344771248380623 0.1678064329361791 0.9655228751619377 -0.16780643293617908 0.9655228751619377 -0.16780643293617908 0.0344771248380623 0.1678064329361791
6433253.896541728 0.03580814195277775 0.17092353135297741 0.9641918580472223 -0.17092353135297741 0.9641918580472223 -0.17092353135297741 0.03580814195277775 0.17092353135297741
6563318.726092606 0.03718898892282728 0.1740876033823791 0.9628110110771728 -0.1740876033823791 0.9628110110771728 -0.1740876033823791 0.03718898892282728 0.1740876033823791
6696013.151825785 0.03862134784286571 0.17729869988759772 0.9613786521571344 -0.17729869988759772 0.9613786521571344 -0.17729869988759772 0.03862134784286571 0.17729869988759772
6831390.3378141755 0.04010694300815212 0.18055682642661602 0.9598930569918481 -0.18055682642661605 0.9598930569918481 -0.18055682642661605 0.04010694300815212 0.18055682642661602
6969504.522979628 0.041647540774356034 0.18386194033905318 0.9583524592256439 -0.18386194033905318 0.9583524592256439 -0.18386194033905318 0.041647540774356034 0.18386194033905318
7110411.042823766 0.04324494929534117 0.18721394772774605 0.9567550507046588 -0.18721394772774605 0.9567550507046588 -0.18721394772774605 0.04324494929534117 0.18721394772774605
7254166.351598182 0.04490101812845882 0.19061270033625466 0.9550989818715413 -0.19061270033625466 0.9550989818715413 -0.19061270033625466 0.04490101812845882 0.19061270033625466
7400828.044922853 0.046617637696420224 0.19405799232415036 0.9533823623035798 -0.19405799232415036 0.9533823623035798 -0.19405799232415036 0.046617637696420224 0.19405799232415036
7550454.882861849 0.04839673859436406 0.1975495569426509 0.9516032614056358 -0.1975495569426509 0.9516032614056358 -0.1975495569426509 0.04839673859436406 0.1975495569426509
7703106.813465575 0.050240290730304143 0.20108706311394572 0.9497597092696961 -0.20108706311394572 0.9497597092696961 -0.20108706311394572 0.050240290730304143 0.20108706311394572
7858844.9967889795 0.052150302286737116 0.2046701119184064 0.947849697713263 -0.2046701119184064 0.947849697713263 -0.2046701119184064 0.052150302286737116 0.2046701119184064
8017731.829395356 0.05412881849081607 0.20829823299480155 0.9458711815091839 -0.2082982329948015 0.9458711815091839 -0.2082982329948015 0.05412881849081607 0.20829823299480155
8179830.96935555 0.05617792018016511 0.21197088085963933 0.9438220798198348 -0.21197088085963933 0.9438220798198348 -0.21197088085963933 0.05617792018016511 0.21197088085963933
8345207.361752584 0.05829972215112374 0.21568743115284011 0.9417002778488761 -0.21568743115284011 0.9417002778488761 -0.21568743115284011 0.05829972215112374 0.21568743115284011
8513927.264701942 0.06049637127598664 0.21944717681810672 0.9395036287240134 -0.21944717681810672 0.9395036287240134 -0.21944717681810672 0.06049637127598664 0.21944717681810672
8686058.275897898 0.06277004437564303 0.2232493242275983 0.937229955624357 -0.2232493242275983 0.937229955624357 -0.2232493242275983 0.06277004437564303 0.2232493242275983
