! NFZ5BBW520LZ10
# Hz S RI R 50
!Freq.(Hz) S11(Real) S11(Imag) S21(Real) S21(Imag) S12(Real) S12(Imag) S22(Real) S22(Imag)
1000000.0 0.22430489933924105 0.39117356877002757 0.775695100660759 -0.39117356877002757 0.775695100660759 -0.39117356877002757 0.22430489933924105 0.39117356877002757
1020217.5806586457 0.23063392151589154 0.3952319984777666 0.7693660784841085 -0.3952319984777665 0.7693660784841085 -0.3952319984777665 0.23063392151589154 0.3952319984777666
1040843.9118849806 0.23708550666971953 0.3992402754570778 0.7629144933302805 -0.3992402754570779 0.7629144933302805 -0.3992402754570779 0.23708550666971953 0.3992402754570778
1061887.2576265757 0.24365947160524887 0.40319445473558907 0.7563405283947511 -0.403194454735589 0.7563405283947511 -0.403194454735589 0.24365947160524887 0.40319445473558907
1083356.0489080292 0.25035549203006596 0.4070905200005584 0.7496445079699341 -0.4070905200005585 0.7496445079699341 -0.4070905200005585 0.25035549203006596 0.4070905200005584
1105258.8872088592 0.25717309549277145 0.41092438751087934 0.7428269045072285 -0.4109243875108794 0.7428269045072285 -0.4109243875108794 0.25717309549277145 0.41092438751087934
1127604.5479096894 0.26411165423768745 0.41469191059842453 0.7358883457623125 -0.4146919105984245 0.7358883457623125 -0.4146919105984245 0.26411165423768745 0.41469191059842453
1150401.9838081095 0.27117037802217986 0.4183888847959537 0.7288296219778201 -0.4183888847959537 0.7288296219778201 -0.4183888847959537 0.27117037802217986 0.4183888847959537
1173660.328705616 0.2783483069485013 0.4220110536255382 0.7216516930514987 -0.42201105362553815 0.7216516930514987 -0.42201105362553815 0.2783483069485013 0.4220110536255382
1197388.9010670746 0.28564430436792815 0.42555411507733426 0.7143556956320719 -0.4255541150773342 0.7143556956320719 -0.4255541150773342 0.28564430436792815 0.42555411507733426
1221597.2077541656 0.29305704992054765 0.42901372880357314 0.7069429500794523 -0.42901372880357314 0.7069429500794523 -0.42901372880357314 0.29305704992054765 0.42901372880357314
1246294.947834312 0.30058503277922044 0.4323855240468223 0.6994149672207797 -0.43238552404682223 0.6994149672207797 -0.43238552404682223 0.30058503277922044 0.4323855240468223
1271492.016466615 0.3082265451708873 0.4356651083149577 0.6917734548291127 -0.4356651083149577 0.6917734548291127 -0.4356651083149577 0.3082265451708873 0.4356651083149577
1297198.5088663532 0.3159796762523872 0.4388480768079058 0.6840203237476127 -0.4388480768079058 0.6840203237476127 -0.4388480768079058 0.3159796762523872 0.4388480768079058
1323424.7243496338 0.3238423064211838 0.4419300225931263 0.6761576935788162 -0.4419300225931263 0.6761576935788162 -0.4419300225931263 0.3238423064211838 0.4419300225931263
1350181.1704598186 0.3318121021437607 0.4449065475181092 0.6681878978562393 -0.4449065475181092 0.6681878978562393 -0.4449065475181092 0.3318121021437607 0.4449065475181092
1377478.5671773748 0.3398865113858373 0.44777327383892523 0.6601134886141627 -0.4477732738389253 0.6601134886141627 -0.4477732738389253 0.3398865113858373 0.44777327383892523
1405327.8512148394 0.3480627597288774 0.45052585653423427 0.6519372402711225 -0.45052585653423427 0.6519372402711225 -0.45052585653423427 0.3480627597288774 0.45052585653423427
1433740.1803986167 0.35633784725654905 0.4531599962642258 0.643662152743451 -0.4531599962642258 0.643662152743451 -0.4531599962642258 0.35633784725654905 0.4531599962642258
1462726.9381393674 0.3647085462927784 0.45567145292390326 0.6352914537072216 -0.45567145292390326 0.6352914537072216 -0.45567145292390326 0.3647085462927784 0.45567145292390326
1492299.737992774 0.3731714000697737 0.45805605973005536 0.6268285999302265 -0.4580560597300554 0.6268285999302265 -0.4580560597300554 0.3731714000697737 0.45805605973005536
1522470.428312519 0.38172272239986565 0.46030973777136974 0.6182772776001343 -0.46030973777136974 0.6182772776001343 -0.46030973777136974 0.38172272239986565 0.46030973777136974
1553251.0969973304 0.3903585984192018 0.46242851094157794 0.6096414015807984 -0.46242851094157794 0.6096414015807984 -0.46242851094157794 0.3903585984192018 0.46242851094157794
1584654.076334004 0.39907488646428235 0.46440852116646847 0.6009251135357175 -0.46440852116646847 0.6009251135357175 -0.46440852116646847 0.39907488646428235 0.46440852116646847
1616691.9479383389 0.40786722113405965 0.46624604382721846 0.5921327788659404 -0.46624604382721846 0.5921327788659404 -0.46624604382721846 0.40786722113405965 0.46624604382721846
1649377.5477959653 0.41673101758091485 0.46793750327494726 0.583268982419085 -0.46793750327494726 0.583268982419085 -0.46793750327494726 0.41673101758091485 0.46793750327494726
1682723.9714050898 0.425661477063389 0.4694794883248561 0.5743385229366109 -0.4694794883248561 0.5743385229366109 -0.4694794883248561 0.425661477063389 0.4694794883248561
1716744.5790232092 0.43465359378214563 0.4708687676129074 0.5653464062178544 -0.4708687676129074 0.5653464062178544 -0.4708687676129074 0.43465359378214563 0.4708687676129074
1751453.001019904 0.44370216300847976 0.47210230469389153 0.5562978369915202 -0.47210230469389153 0.5562978369915202 -0.47210230469389153 0.44370216300847976 0.47210230469389153
1786863.143337851 0.45280179050185754 0.47317727275699617 0.5471982094981425 -0.4731772727569961 0.5471982094981425 -0.4731772727569961 0.45280179050185754 0.47317727275699617
1822989.1930642454 0.4619469031996961 0.47409106883378077 0.5380530968003041 -0.47409106883378077 0.5380530968003041 -0.47409106883378077 0.4619469031996961 0.47409106883378077
1859845.6241148617 0.4711317611490391 0.4748413273737917 0.5288682388509609 -0.4748413273737917 0.5288682388509609 -0.4748413273737917 0.4711317611490391 0.4748413273737917
1897447.2030330333 0.48035047063614505 0.47542593306501624 0.519649529363855 -0.47542593306501624 0.519649529363855 -0.47542593306501624 0.48035047063614505 0.47542593306501624
1935808.994905876 0.4895969984565258 0.4758430327799614 0.5104030015434742 -0.4758430327799614 0.5104030015434742 -0.4758430327799614 0.4895969984565258 0.4758430327799614
1974946.3694001175 0.49886518725481505 0.4760910465333601 0.501134812745185 -0.47609104653336004 0.501134812745185 -0.47609104653336004 0.49886518725481505 0.4760910465333601
2014875.0069199642 0.5081487718512705 0.47616867734430374 0.4918512281487296 -0.47616867734430374 0.4918512281487296 -0.47616867734430374 0.5081487718512705 0.47616867734430374
2055610.904889458 0.5174413964598936 0.47607491990391165 0.4825586035401064 -0.4760749199039116 0.4825586035401064 -0.4760749199039116 0.5174413964598936 0.47607491990391165
2097170.3841618528 0.5267366326922921 0.47580906795937683 0.473263367307708 -0.47580906795937683 0.473263367307708 -0.47580906795937683 0.5267366326922921 0.47580906795937683
2139570.0955585684 0.536027998231711 0.4753707203362421 0.46397200176828896 -0.4753707203362422 0.46397200176828896 -0.4753707203362422 0.536027998231711 0.4753707203362421
2182827.0265403506 0.5453089760532472 0.47475978553291914 0.4546910239467528 -0.47475978553291914 0.4546910239467528 -0.47475978553291914 0.5453089760532472 0.47475978553291914
2226958.508013302 0.5545730340593353 0.4739764848345735 0.4454269659406648 -0.4739764848345735 0.4454269659406648 -0.4739764848345735 0.5545730340593353 0.4739764848345735
2271982.2212725184 0.5638136449942007 0.4730213539074006 0.43618635500579916 -0.4730213539074006 0.43618635500579916 -0.4730213539074006 0.5638136449942007 0.4730213539074006
2317916.205086105 0.5730243064972768 0.4718952428487584 0.4269756935027232 -0.4718952428487584 0.4269756935027232 -0.4718952428487584 0.5730243064972768 0.4718952428487584
2364778.8629224156 0.5821985611535736 0.47059931468342914 0.41780143884642645 -0.47059931468342914 0.41780143884642645 -0.47059931468342914 0.5821985611535736 0.47059931468342914
2412588.9703234104 0.5913300163987543 0.46913504231119707 0.40866998360124573 -0.46913504231119707 0.40866998360124573 -0.46913504231119707 0.5913300163987543 0.46913504231119707
2461365.682427083 0.6004123641381556 0.4675042039257426 0.39958763586184437 -0.4675042039257426 0.39958763586184437 -0.4675042039257426 0.6004123641381556 0.4675042039257426
2511128.5416419753 0.6094393999422015 0.46570887693933977 0.3905606000577986 -0.4657088769393397 0.3905606000577986 -0.4657088769393397 0.6094393999422015 0.46570887693933977
2561897.48547685 0.618405041685508 0.4637514304617865 0.38159495831449197 -0.4637514304617865 0.38159495831449197 -0.4637514304617865 0.618405041685508 0.4637514304617865
2613692.85452866 0.6273033475033691 0.46163451639520087 0.37269665249663075 -0.46163451639520087 0.37269665249663075 -0.46163451639520087 0.6273033475033691 0.46163451639520087
2666535.4006320196 0.6361285329471443 0.45936105921858933 0.3638714670528556 -0.4593610592185892 0.3638714670528556 -0.4593610592185892 0.6361285329471443 0.45936105921858933
2720446.295173432 0.64487498722918 0.4569342445472776 0.35512501277082004 -0.45693424454727766 0.35512501277082004 -0.45693424454727766 0.64487498722918 0.4569342445472776
2775447.137573615 0.6535372884581263 0.4543575065622514 0.3464627115418737 -0.4543575065622514 0.3464627115418737 -0.4543575065622514 0.6535372884581263 0.4543575065622514
2831559.963941318 0.6621102177767061 0.4516345144130502 0.3378897822232938 -0.4516345144130502 0.3378897822232938 -0.4516345144130502 0.6621102177767061 0.4516345144130502
2888807.255902094 0.670588772325908 0.4487691577050398 0.3294112276740921 -0.4487691577050398 0.3294112276740921 -0.4487691577050398 0.670588772325908 0.4487691577050398
2947211.9496055758 0.6789681769720904 0.44576553118755474 0.3210318230279094 -0.4457655311875547 0.3210318230279094 -0.4457655311875547 0.6789681769720904 0.44576553118755474
3006797.4449148513 0.6872438947463264 0.44262791876355995 0.31275610525367364 -0.44262791876355995 0.31275610525367364 -0.44262791876355995 0.6872438947463264 0.44262791876355995
3067587.6147816274 0.6954116359583352 0.4393607769440919 0.3045883640416647 -0.4393607769440919 0.3045883640416647 -0.4393607769440919 0.6954116359583352 0.4393607769440919
3129606.8148109377 0.7034673659603462 0.4359687178718575 0.2965326340396539 -0.4359687178718575 0.2965326340396539 -0.4359687178718575 0.7034673659603462 0.4359687178718575
3192879.893019226 0.7114073115489951 0.432456492038018 0.28859268845100483 -0.43245649203801795 0.28859268845100483 -0.43245649203801795 0.7114073115489951 0.432456492038018
3257432.1997897103 0.7192279660057657 0.4288289708144468 0.2807720339942343 -0.42882897081444676 0.2807720339942343 -0.42882897081444676 0.7192279660057657 0.4288289708144468
3323289.598029029 0.7269260927883223 0.4250911289207124 0.2730739072116778 -0.4250911289207125 0.2730739072116778 -0.4250911289207125 0.7269260927883223 0.4250911289207124
3390478.4735292196 0.7344987278962721 0.4212480269408104 0.26550127210372787 -0.4212480269408104 0.26550127210372787 -0.4212480269408104 0.7344987278962721 0.4212480269408104
3459025.745539199 0.741943180945272 0.4173047939993637 0.258056819054728 -0.4173047939993637 0.258056819054728 -0.4173047939993637 0.741943180945272 0.4173047939993637
3528958.8775499705 0.7492570349928802 0.41326661070077364 0.2507429650071197 -0.41326661070077375 0.2507429650071197 -0.41326661070077375 0.7492570349928802 0.41326661070077364
3600305.8882978815 0.7564381451680875 0.4091386924277632 0.24356185483191253 -0.4091386924277632 0.24356185483191253 -0.4091386924277632 0.7564381451680875 0.4091386924277632
3673095.3629903416 0.7634846361639396 0.40492627308805235 0.23651536383606045 -0.40492627308805235 0.23651536383606045 -0.40492627308805235 0.7634846361639396 0.40492627308805235
3747356.4647584967 0.7703948986591113 0.4006345893897018 0.2296051013408889 -0.4006345893897017 0.2296051013408889 -0.4006345893897017 0.7703948986591113 0.4006345893897018
3823118.9463414503 0.7771675847396351 0.3962688657170679 0.22283241526036499 -0.3962688657170679 0.22283241526036499 -0.3962688657170679 0.7771675847396351 0.3962688657170679
3900413.1620067055 0.7838016023962702 0.3918342996705084 0.21619839760372975 -0.3918342996705084 0.21619839760372975 -0.3918342996705084 0.7838016023962702 0.3918342996705084
3979270.0797116193 0.7902961091762183 0.387336048324047 0.20970389082378174 -0.3873360483240469 0.20970389082378174 -0.3873360483240469 0.7902961091762183 0.387336048324047
4059721.293510725 0.79665050507009 0.38277921524631453 0.20334949492990997 -0.38277921524631453 0.20334949492990997 -0.38277921524631453 0.79665050507009 0.38277921524631453
4141799.0362139 0.8028644247162496 0.3781688383213174 0.1971355752837503 -0.3781688383213174 0.1971355752837503 -0.3781688383213174 0.8028644247162496 0.3781688383213174
4225536.192300457 0.8089377290049721 0.37350987839704197 0.19106227099502787 -0.37350987839704197 0.19106227099502787 -0.37350987839704197 0.8089377290049721 0.37350987839704197
4310966.311094318 0.8148704961643 0.36880720878170486 0.1851295038357001 -0.36880720878170486 0.1851295038357001 -0.36880720878170486 0.8148704961643 0.36880720878170486
4398123.620205573 0.8206630124081772 0.3640656055996333 0.17933698759182273 -0.3640656055996333 0.17933698759182273 -0.3640656055996333 0.8206630124081772 0.3640656055996333
4487043.0392437745 0.8263157622254184 0.35928973901141664 0.17368423777458167 -0.35928973901141664 0.17368423777458167 -0.35928973901141664 0.8263157622254184 0.35928973901141664
4577760.193808502 0.8318294183854474 0.3544841652961263 0.16817058161455262 -0.3544841652961263 0.16817058161455262 -0.3544841652961263 0.8318294183854474 0.3544841652961263
4670311.429762763 0.8372048317335935 0.3496533197871155 0.16279516826640655 -0.34965331978711556 0.16279516826640655 -0.34965331978711556 0.8372048317335935 0.3496533197871155
4764733.827794987 0.8424430208451226 0.34480151064720094 0.15755697915487737 -0.34480151064720094 0.15755697915487737 -0.34480151064720094 0.8424430208451226 0.34480151064720094
4861065.218275411 0.8475451616032363 0.33993291346390914 0.15245483839676358 -0.3399329134639092 0.15245483839676358 -0.3399329134639092 0.8475451616032363 0.33993291346390914
4959344.196412832 0.8525125767620136 0.3350515666409605 0.1474874232379864 -0.3350515666409605 0.1474874232379864 -0.3350515666409605 0.8525125767620136 0.3350515666409605
5059610.137717796 0.8573467255508254 0.3301613675582397 0.14265327444917475 -0.33016136755823977 0.14265327444917475 -0.33016136755823977 0.8573467255508254 0.3301613675582397
5161903.213778406 0.8620491933721619 0.32526606946917125 0.13795080662783799 -0.3252660694691713 0.13795080662783799 -0.3252660694691713 0.8620491933721619 0.32526606946917125
5266264.4083550945 0.8666216816401472 0.32036927910165147 0.13337831835985287 -0.32036927910165147 0.13337831835985287 -0.32036927910165147 0.8666216816401472 0.32036927910165147
5372735.53380077 0.8710659978023325 0.31547445492646936 0.12893400219766749 -0.3154744549264693 0.12893400219766749 -0.3154744549264693 0.8710659978023325 0.31547445492646936
5481359.247812959 0.8753840455827369 0.31058490605544 0.12461595441726321 -0.31058490605544004 0.12461595441726321 -0.31058490605544004 0.8753840455827369 0.31058490605544
5592179.070524632 0.8795778154795333 0.30570379173024903 0.1204221845204668 -0.30570379173024903 0.1204221845204668 -0.30570379173024903 0.8795778154795333 0.30570379173024903
5705239.401940555 0.8836493755463649 0.3008341213622348 0.11635062445363502 -0.3008341213622348 0.11635062445363502 -0.3008341213622348 0.8836493755463649 0.3008341213622348
5820585.5397261735 0.8876008624820054 0.2959787550829636 0.11239913751799455 -0.2959787550829636 0.11239913751799455 -0.2959787550829636 0.8876008624820054 0.2959787550829636
5938263.697356135 0.8914344730490001 0.2911404047654609 0.10856552695099993 -0.2911404047654609 0.10856552695099993 -0.2911404047654609 0.8914344730490001 0.2911404047654609
6058321.022629741 0.8951524558380664 0.28632163547630046 0.10484754416193363 -0.28632163547630046 0.10484754416193363 -0.28632163547630046 0.8951524558380664 0.28632163547630046
6180805.616560728 0.8987571033913889 0.2815248673193859 0.10124289660861109 -0.2815248673193859 0.10124289660861109 -0.2815248673193859 0.8987571033913889 0.2815248673193859
6305766.552648956 0.9022507446945583 0.27675237763314986 0.09774925530544164 -0.27675237763314986 0.09774925530544164 -0.27675237763314986 0.9022507446945583 0.27675237763314986
6433253.896541728 0.9056357380437587 0.27200630350400473 0.09436426195624134 -0.27200630350400473 0.09436426195624134 -0.27200630350400473 0.9056357380437587 0.27200630350400473
6563318.726092606 0.9089144642919186 0.2672886445601809 0.0910855357080814 -0.2672886445601809 0.0910855357080814 -0.2672886445601809 0.9089144642919186 0.2672886445601809
6696013.151825785 0.9120893204749113 0.26260126601153266 0.08791067952508862 -0.26260126601153266 0.08791067952508862 -0.26260126601153266 0.9120893204749113 0.26260126601153266
6831390.3378141755 0.9151627138165078 0.2579459019024648 0.08483728618349227 -0.25794590190246486 0.08483728618349227 -0.25794590190246486 0.9151627138165078 0.2579459019024648
6969504.522979628 0.9181370561086527 0.2533241585468015 0.08186294389134725 -0.2533241585468015 0.08186294389134725 -0.2533241585468015 0.9181370561086527 0.2533241585468015
7110411.042823766 0.9210147584617456 0.2487375181151481 0.07898524153825448 -0.2487375181151481 0.07898524153825448 -0.2487375181151481 0.9210147584617456 0.2487375181151481
7254166.351598182 0.9237982264179412 0.24418734234707226 0.07620177358205885 -0.2441873423470722 0.07620177358205885 -0.2441873423470722 0.9237982264179412 0.24418734234707226
7400828.044922853 0.9264898554190504 0.23967487636223572 0.07351014458094975 -0.23967487636223572 0.07351014458094975 -0.23967487636223572 0.9264898554190504 0.23967487636223572
7550454.882861849 0.9290920266193815 0.2352012525464031 0.07090797338061852 -0.2352012525464031 0.07090797338061852 -0.2352012525464031 0.9290920266193815 0.2352012525464031
7703106.813465575 0.9316071030328353 0.23076749449004705 0.06839289696716466 -0.23076749449004705 0.06839289696716466 -0.23076749449004705 0.9316071030328353 0.23076749449004705
7858844.9967889795 0.9340374260027016 0.2263745209590339 0.0659625739972984 -0.2263745209590339 0.0659625739972984 -0.2263745209590339 0.9340374260027016 0.2263745209590339
8017731.829395356 0.9363853119819318 0.2220231498785899 0.06361468801806813 -0.2220231498785899 0.06361468801806813 -0.2220231498785899 0.9363853119819318 0.2220231498785899
8179830.96935555 0.9386530496111255 0.21771410231342528 0.06134695038887462 -0.21771410231342522 0.06134695038887462 -0.21771410231342522 0.9386530496111255 0.21771410231342528
8345207.361752584 0.9408428970810816 0.2134480064285075 0.059157102918918444 -0.21344800642850745 0.059157102918918444 -0.21344800642850745 0.9408428970810816 0.2134480064285075
8513927.264701942 0.9429570797665149 0.209225401416519 0.05704292023348508 -0.209225401416519 0.05704292023348508 -0.209225401416519 0.9429570797665149 0.209225401416519
8686058.275897898 0.9449977881173836 0.20504674137951814 0.055002211882616316 -0.2050467413795181 0.055002211882616316 -0.2050467413795181 0.9449977881173836 0.20504674137951814
8861669.359696563 0.9469671757942465 0.20091239915372142 0.05303282420575347 -0.20091239915372136 0.05303282420575347 -0.20091239915372136 0.9469671757942465 0.20091239915372142
9040830.87474648 0.9488673580341149 0.19682267006765414 0.05113264196588512 -0.19682267006765417 0.05113264196588512 -0.19682267006765417 0.9488673580341149 0.19682267006765414
9223614.602177842 0.9507004102334006 0.19277777562516255 0.049299589766599365 -0.19277777562516255 0.049299589766599365 -0.19277777562516255 0.9507004102334006 0.19277777562516255
