! NFZ5BBW450LN10
# Hz S RI R 50
!Freq.(Hz) S11(Real) S11(Imag) S21(Real) S21(Imag) S12(Real) S12(Imag) S22(Real) S22(Imag)
1000000.0 0.15684471787719054 0.3375056548761623 0.8431552821228094 -0.3375056548761623 0.8431552821228094 -0.3375056548761623 0.15684471787719054 0.3375056548761623
1020217.5806586457 0.16159816029604793 0.34191520329740316 0.8384018397039522 -0.34191520329740316 0.8384018397039522 -0.34191520329740316 0.16159816029604793 0.34191520329740316
1040843.9118849806 0.166467583629894 0.3463237675765545 0.8335324163701059 -0.3463237675765545 0.8335324163701059 -0.3463237675765545 0.166467583629894 0.3463237675765545
1061887.2576265757 0.1714545621649244 0.3507285355765825 0.8285454378350756 -0.3507285355765825 0.8285454378350756 -0.3507285355765825 0.1714545621649244 0.3507285355765825
1083356.0489080292 0.17656061674780765 0.35512656873276394 0.8234393832521923 -0.35512656873276394 0.8234393832521923 -0.35512656873276394 0.17656061674780765 0.35512656873276394
1105258.8872088592 0.18178720721430963 0.35951479985285517 0.8182127927856904 -0.35951479985285517 0.8182127927856904 -0.35951479985285517 0.18178720721430963 0.35951479985285517
1127604.5479096894 0.18713572435329567 0.36389003131359626 0.8128642756467044 -0.3638900313135962 0.8128642756467044 -0.3638900313135962 0.18713572435329567 0.36389003131359626
1150401.9838081095 0.19260748141942124 0.3682489337081179 0.8073925185805788 -0.3682489337081179 0.8073925185805788 -0.3682489337081179 0.19260748141942124 0.3682489337081179
1173660.328705616 0.1982037052134202 0.3725880449995807 0.8017962947865798 -0.3725880449995807 0.8017962947865798 -0.3725880449995807 0.1982037052134202 0.3725880449995807
1197388.9010670746 0.2039255267547637 0.37690377023660077 0.7960744732452363 -0.37690377023660077 0.7960744732452363 -0.37690377023660077 0.2039255267547637 0.37690377023660077
1221597.2077541656 0.2097739715775313 0.3811923818856544 0.7902260284224688 -0.3811923818856544 0.7902260284224688 -0.3811923818856544 0.2097739715775313 0.3811923818856544
1246294.947834312 0.21574994968658115 0.38545002083467916 0.7842500503134189 -0.38545002083467916 0.7842500503134189 -0.38545002083467916 0.21574994968658115 0.38545002083467916
1271492.016466615 0.22185424521743544 0.38967269812044597 0.7781457547825645 -0.38967269812044597 0.7781457547825645 -0.38967269812044597 0.22185424521743544 0.38967269812044597
1297198.5088663532 0.22808750584967227 0.39385629742994765 0.7719124941503278 -0.39385629742994765 0.7719124941503278 -0.39385629742994765 0.22808750584967227 0.39385629742994765
1323424.7243496338 0.2344502320299583 0.3979965784230132 0.7655497679700417 -0.3979965784230132 0.7655497679700417 -0.3979965784230132 0.2344502320299583 0.3979965784230132
1350181.1704598186 0.24094276606707685 0.40208918091956736 0.7590572339329232 -0.4020891809195674 0.7590572339329232 -0.4020891809195674 0.24094276606707685 0.40208918091956736
1377478.5671773748 0.24756528116734638 0.4061296299904434 0.7524347188326537 -0.4061296299904434 0.7524347188326537 -0.4061296299904434 0.24756528116734638 0.4061296299904434
1405327.8512148394 0.2543177704845818 0.41011334198537375 0.7456822295154183 -0.4101133419853737 0.7456822295154183 -0.4101133419853737 0.2543177704845818 0.41011334198537375
1433740.1803986167 0.26120003626414395 0.41403563152577183 0.7387999637358561 -0.41403563152577183 0.7387999637358561 -0.41403563152577183 0.26120003626414395 0.41403563152577183
1462726.9381393674 0.26821167916556116 0.4178917194831728 0.7317883208344388 -0.4178917194831728 0.7317883208344388 -0.4178917194831728 0.26821167916556116 0.4178917194831728
1492299.737992774 0.2753520878525935 0.4216767419567493 0.7246479121474065 -0.4216767419567493 0.7246479121474065 -0.4216767419567493 0.2753520878525935 0.4216767419567493
1522470.428312519 0.28262042894335704 0.4253857602552153 0.7173795710566431 -0.42538576025521524 0.7173795710566431 -0.42538576025521524 0.28262042894335704 0.4253857602552153
1553251.0969973304 0.29001563741613123 0.4290137718796957 0.7099843625838685 -0.4290137718796957 0.7099843625838685 -0.4290137718796957 0.29001563741613123 0.4290137718796957
1584654.076334004 0.29753640756866667 0.432555722494875 0.7024635924313334 -0.43255572249487506 0.7024635924313334 -0.43255572249487506 0.29753640756866667 0.432555722494875
1616691.9479383389 0.3051811846300698 0.4360065188659699 0.6948188153699301 -0.4360065188659699 0.6948188153699301 -0.4360065188659699 0.3051811846300698 0.4360065188659699
1649377.5477959653 0.31294815712463586 0.439361042728943 0.687051842875364 -0.43936104272894305 0.687051842875364 -0.43936104272894305 0.31294815712463586 0.439361042728943
1682723.9714050898 0.3208352500862116 0.44261416555093497 0.6791647499137885 -0.44261416555093497 0.6791647499137885 -0.44261416555093497 0.3208352500862116 0.44261416555093497
1716744.5790232092 0.3288401192197581 0.4457607641272938 0.6711598807802419 -0.4457607641272938 0.6711598807802419 -0.4457607641272938 0.3288401192197581 0.4457607641272938
1751453.001019904 0.3369601461037046 0.44879573695092645 0.6630398538962955 -0.44879573695092645 0.6630398538962955 -0.44879573695092645 0.3369601461037046 0.44879573695092645
1786863.143337851 0.3451924345223698 0.45171402127912497 0.6548075654776302 -0.45171402127912497 0.6548075654776302 -0.45171402127912497 0.3451924345223698 0.45171402127912497
1822989.1930642454 0.35353380801220163 0.4545106108126889 0.6464661919877983 -0.4545106108126889 0.6464661919877983 -0.4545106108126889 0.35353380801220163 0.4545106108126889
1859845.6241148617 0.36198080869879645 0.45718057389219957 0.6380191913012033 -0.45718057389219957 0.6380191913012033 -0.45718057389219957 0.36198080869879645 0.45718057389219957
1897447.2030330333 0.37052969749366915 0.4597190721068833 0.6294703025063307 -0.4597190721068833 0.6294703025063307 -0.4597190721068833 0.37052969749366915 0.4597190721068833
1935808.994905876 0.37917645571054004 0.46212137920276875 0.6208235442894598 -0.46212137920276875 0.6208235442894598 -0.46212137920276875 0.37917645571054004 0.46212137920276875
1974946.3694001175 0.38791678815060815 0.4643829001689724 0.6120832118493917 -0.4643829001689724 0.6120832118493917 -0.4643829001689724 0.38791678815060815 0.4643829001689724
2014875.0069199642 0.39674612769488715 0.4664991903740624 0.6032538723051128 -0.46649919037406234 0.6032538723051128 -0.46649919037406234 0.39674612769488715 0.4664991903740624
2055610.904889458 0.40565964142937994 0.4684659746187379 0.5943403585706201 -0.4684659746187379 0.5943403585706201 -0.4684659746187379 0.40565964142937994 0.4684659746187379
2097170.3841618528 0.414652238315724 0.47027916596662406 0.585347761684276 -0.47027916596662417 0.585347761684276 -0.47027916596662417 0.414652238315724 0.47027916596662406
2139570.0955585684 0.4237185784061146 0.47193488421195245 0.5762814215938855 -0.47193488421195257 0.5762814215938855 -0.47193488421195257 0.4237185784061146 0.47193488421195245
2182827.0265403506 0.4328530835869788 0.47342947384139283 0.5671469164130211 -0.47342947384139283 0.5671469164130211 -0.47342947384139283 0.4328530835869788 0.47342947384139283
2226958.508013302 0.4420499498212058 0.4747595213473836 0.5579500501787941 -0.4747595213473836 0.5579500501787941 -0.4747595213473836 0.4420499498212058 0.4747595213473836
2271982.2212725184 0.45130316084391364 0.47592187175205947 0.5486968391560862 -0.47592187175205947 0.5486968391560862 -0.47592187175205947 0.45130316084391364 0.47592187175205947
2317916.205086105 0.46060650325200164 0.4769136442043169 0.5393934967479983 -0.47691364420431687 0.5393934967479983 -0.47691364420431687 0.46060650325200164 0.4769136442043169
2364778.8629224156 0.46995358291324263 0.4777322465177028 0.5300464170867574 -0.4777322465177028 0.5300464170867574 -0.4777322465177028 0.46995358291324263 0.4777322465177028
2412588.9703234104 0.4793378426067169 0.47837538852364553 0.5206621573932831 -0.4783753885236456 0.5206621573932831 -0.4783753885236456 0.4793378426067169 0.47837538852364553
2461365.682427083 0.48875258079309597 0.4788410941229988 0.511247419206904 -0.4788410941229987 0.511247419206904 -0.4788410941229987 0.48875258079309597 0.4788410941229988
2511128.5416419753 0.49819097140094587 0.4791277119288807 0.501809028599054 -0.4791277119288806 0.501809028599054 -0.4791277119288806 0.49819097140094587 0.4791277119288807
2561897.48547685 0.507646084503975 0.4792339244052385 0.4923539154960249 -0.47923392440523854 0.4923539154960249 -0.47923392440523854 0.507646084503975 0.4792339244052385
2613692.85452866 0.5171109077542133 0.47915875541830727 0.4828890922457867 -0.47915875541830727 0.4828890922457867 -0.47915875541830727 0.5171109077542133 0.47915875541830727
2666535.4006320196 0.5265783684276374 0.47890157613201717 0.47342163157236256 -0.47890157613201717 0.47342163157236256 -0.47890157613201717 0.5265783684276374 0.47890157613201717
2720446.295173432 0.5360413559318808 0.4784621091932327 0.46395864406811926 -0.4784621091932327 0.46395864406811926 -0.4784621091932327 0.5360413559318808 0.4784621091932327
2775447.137573615 0.5454927446205301 0.47784043116827046 0.45450725537946995 -0.4778404311682705 0.45450725537946995 -0.4778404311682705 0.5454927446205301 0.47784043116827046
2831559.963941318 0.5549254167551537 0.4770369732082434 0.4450745832448463 -0.47703697320824345 0.4450745832448463 -0.47703697320824345 0.5549254167551537 0.4770369732082434
2888807.255902094 0.5643322854547395 0.4760525199371474 0.43566771454526065 -0.4760525199371474 0.43566771454526065 -0.4760525199371474 0.5643322854547395 0.4760525199371474
2947211.9496055758 0.573706317472621 0.4748882065730449 0.4262936825273791 -0.4748882065730449 0.4262936825273791 -0.4748882065730449 0.573706317472621 0.4748882065730449
3006797.4449148513 0.5830405556432452 0.47354551430893715 0.41695944435675475 -0.47354551430893715 0.41695944435675475 -0.47354551430893715 0.5830405556432452 0.47354551430893715
3067587.6147816274 0.5923281408452429 0.472026263995737 0.4076718591547571 -0.472026263995737 0.4076718591547571 -0.472026263995737 0.5923281408452429 0.472026263995737
3129606.8148109377 0.6015623333331223 0.4703326081849267 0.3984376666668777 -0.4703326081849268 0.3984376666668777 -0.4703326081849268 0.6015623333331223 0.4703326081849267
3192879.893019226 0.6107365332974143 0.4684670216028001 0.3892634667025857 -0.4684670216028001 0.3892634667025857 -0.4684670216028001 0.6107365332974143 0.4684670216028001
3257432.1997897103 0.6198443005221127 0.46643229014144805 0.38015569947788735 -0.46643229014144805 0.38015569947788735 -0.46643229014144805 0.6198443005221127 0.46643229014144805
3323289.598029029 0.6288793730186361 0.4642314984636871 0.3711206269813639 -0.4642314984636871 0.3711206269813639 -0.4642314984636871 0.6288793730186361 0.4642314984636871
3390478.4735292196 0.6378356845270926 0.46186801632980024 0.3621643154729075 -0.4618680163298003 0.3621643154729075 -0.4618680163298003 0.6378356845270926 0.46186801632980024
3459025.745539199 0.646707380788167 0.4593454837631368 0.35329261921183297 -0.45934548376313683 0.35329261921183297 -0.45934548376313683 0.646707380788167 0.4593454837631368
3528958.8775499705 0.6554888345022828 0.4566677951792257 0.3445111654977172 -0.4566677951792257 0.3445111654977172 -0.4566677951792257 0.6554888345022828 0.4566677951792257
3600305.8882978815 0.664174658906568 0.45383908260901623 0.33582534109343204 -0.45383908260901623 0.33582534109343204 -0.45383908260901623 0.664174658906568 0.45383908260901623
3673095.3629903416 0.6727597199144174 0.45086369815115646 0.3272402800855826 -0.4508636981511564 0.3272402800855826 -0.4508636981511564 0.6727597199144174 0.45086369815115646
3747356.4647584967 0.6812391467768083 0.447746195790851 0.31876085322319164 -0.44774619579085106 0.31876085322319164 -0.44774619579085106 0.6812391467768083 0.447746195790851
3823118.9463414503 0.6896083412388662 0.44449131272382136 0.3103916587611339 -0.44449131272382136 0.3103916587611339 -0.44449131272382136 0.6896083412388662 0.44449131272382136
3900413.1620067055 0.6978629851792181 0.44110395032329935 0.3021370148207819 -0.4411039503232993 0.3021370148207819 -0.4411039503232993 0.6978629851792181 0.44110395032329935
3979270.0797116193 0.705999046733302 0.43758915488587885 0.2940009532666979 -0.4375891548858789 0.2940009532666979 -0.4375891548858789 0.705999046733302 0.43758915488587885
4059721.293510725 0.7140127849147888 0.43395209828853964 0.2859872150852112 -0.43395209828853964 0.2859872150852112 -0.43395209828853964 0.7140127849147888 0.43395209828853964
4141799.0362139 0.7219007527615287 0.4301980586843602 0.2780992472384714 -0.4301980586843602 0.2780992472384714 -0.4301980586843602 0.7219007527615287 0.4301980586843602
4225536.192300457 0.7296597990437982 0.4263324013584838 0.27034020095620176 -0.4263324013584838 0.27034020095620176 -0.4263324013584838 0.7296597990437982 0.4263324013584838
4310966.311094318 0.7372870685829939 0.42236055985893634 0.26271293141700613 -0.42236055985893634 0.26271293141700613 -0.42236055985893634 0.7372870685829939 0.42236055985893634
4398123.620205573 0.744780001238229 0.41828801750906797 0.2552199987617709 -0.41828801750906786 0.2552199987617709 -0.41828801750906786 0.744780001238229 0.41828801750906797
4487043.0392437745 0.752136329626465 0.41412028939987 0.24786367037353488 -0.41412028939987 0.24786367037353488 -0.41412028939987 0.752136329626465 0.41412028939987
4577760.193808502 0.7593540756488262 0.40986290495133126 0.24064592435117396 -0.40986290495133126 0.24064592435117396 -0.40986290495133126 0.7593540756488262 0.40986290495133126
4670311.429762763 0.7664315459015679 0.40552139112253943 0.23356845409843222 -0.40552139112253943 0.23356845409843222 -0.40552139112253943 0.7664315459015679 0.40552139112253943
4764733.827794987 0.773367326054836 0.40110125634051347 0.22663267394516384 -0.40110125634051347 0.22663267394516384 -0.40110125634051347 0.773367326054836 0.40110125634051347
4861065.218275411 0.7801602742858381 0.3966079752079408 0.21983972571416197 -0.3966079752079408 0.21983972571416197 -0.3966079752079408 0.7801602742858381 0.3966079752079408
4959344.196412832 0.7868095138554351 0.3920469740402093 0.21319048614456504 -0.3920469740402092 0.21319048614456504 -0.3920469740402092 0.7868095138554351 0.3920469740402093
5059610.137717796 0.7933144249184896 0.3874236172724883 0.20668557508151053 -0.3874236172724883 0.20668557508151053 -0.3874236172724883 0.7933144249184896 0.3874236172724883
5161903.213778406 0.7996746356586018 0.38274319476824836 0.2003253643413983 -0.38274319476824836 0.2003253643413983 -0.38274319476824836 0.7996746356586018 0.38274319476824836
5266264.4083550945 0.8058900128372762 0.37801091005158854 0.19410998716272382 -0.37801091005158854 0.19410998716272382 -0.37801091005158854 0.8058900128372762 0.37801091005158854
5372735.53380077 0.8119606518461019 0.373231869477171 0.18803934815389806 -0.373231869477171 0.18803934815389806 -0.373231869477171 0.8119606518461019 0.373231869477171
5481359.247812959 0.817886866348318 0.36841107234349696 0.1821131336516821 -0.36841107234349696 0.1821131336516821 -0.36841107234349696 0.817886866348318 0.36841107234349696
5592179.070524632 0.8236691775932699 0.36355340194774743 0.1763308224067302 -0.3635534019477475 0.1763308224067302 -0.3635534019477475 0.8236691775932699 0.36355340194774743
5705239.401940555 0.8293083034838004 0.35866361757352677 0.17069169651619956 -0.3586636175735267 0.17069169651619956 -0.3586636175735267 0.8293083034838004 0.35866361757352677
5820585.5397261735 0.8348051474726961 0.35374634739656385 0.16519485252730404 -0.3537463473965639 0.16519485252730404 -0.3537463473965639 0.8348051474726961 0.35374634739656385
5938263.697356135 0.8401607873599705 0.3488060822878263 0.1598392126400295 -0.3488060822878262 0.1598392126400295 -0.3488060822878262 0.8401607873599705 0.3488060822878263
6058321.022629741 0.845376464058143 0.3438471704885282 0.154623535941857 -0.34384717048852825 0.154623535941857 -0.34384717048852825 0.845376464058143 0.3438471704885282
6180805.616560728 0.8504535703877902 0.338873813127217 0.14954642961220974 -0.338873813127217 0.14954642961220974 -0.338873813127217 0.8504535703877902 0.338873813127217
6305766.552648956 0.8553936399606504 0.33389006054544484 0.14460636003934965 -0.33389006054544484 0.14460636003934965 -0.33389006054544484 0.8553936399606504 0.33389006054544484
6433253.896541728 0.8601983362024572 0.32889980939549096 0.1398016637975426 -0.32889980939549096 0.1398016637975426 -0.32889980939549096 0.8601983362024572 0.32889980939549096
6563318.726092606 0.864869441562576 0.3239068004711431 0.13513055843742422 -0.3239068004711431 0.13513055843742422 -0.3239068004711431 0.864869441562576 0.3239068004711431
6696013.151825785 0.8694088469524435 0.31891461723065245 0.13059115304755653 -0.31891461723065245 0.13059115304755653 -0.31891461723065245 0.8694088469524435 0.31891461723065245
6831390.3378141755 0.873818541449853 0.31392668496961634 0.12618145855014704 -0.31392668496961634 0.12618145855014704 -0.31392668496961634 0.873818541449853 0.31392668496961634
6969504.522979628 0.8781006023012727 0.3089462706006595 0.12189939769872728 -0.3089462706006595 0.12189939769872728 -0.3089462706006595 0.8781006023012727 0.3089462706006595
7110411.042823766 0.8822571852497401 0.3039764829963653 0.11774281475025991 -0.3039764829963653 0.11774281475025991 -0.3039764829963653 0.8822571852497401 0.3039764829963653
7254166.351598182 0.8862905152114143 0.29902027385187346 0.1137094847885857 -0.2990202738518735 0.1137094847885857 -0.2990202738518735 0.8862905152114143 0.29902027385187346
7400828.044922853 0.8902028773196424 0.29408043902391556 0.10979712268035763 -0.29408043902391556 0.10979712268035763 -0.29408043902391556 0.8902028773196424 0.29408043902391556
7550454.882861849 0.893996608351424 0.28915962030371223 0.10600339164857601 -0.28915962030371223 0.10600339164857601 -0.28915962030371223 0.893996608351424 0.28915962030371223
7703106.813465575 0.8976740885474446 0.2842603075821085 0.10232591145255546 -0.2842603075821085 0.10232591145255546 -0.2842603075821085 0.8976740885474446 0.2842603075821085
7858844.9967889795 0.9012377338334095 0.2793848413665055 0.09876226616659044 -0.2793848413665055 0.09876226616659044 -0.2793848413665055 0.9012377338334095 0.2793848413665055
8017731.829395356 0.904689988447248 0.2745354156105387 0.09531001155275204 -0.27453541561053874 0.09531001155275204 -0.27453541561053874 0.904689988447248 0.2745354156105387
8179830.96935555 0.9080333179738695 0.2697140808190103 0.09196668202613052 -0.2697140808190103 0.09196668202613052 -0.2697140808190103 0.9080333179738695 0.2697140808190103
8345207.361752584 0.9112702027865477 0.26492274739227567 0.08872979721345226 -0.26492274739227567 0.08872979721345226 -0.26492274739227567 0.9112702027865477 0.26492274739227567
8513927.264701942 0.9144031318916641 0.26016318917607734 0.085596868108336 -0.26016318917607734 0.085596868108336 -0.26016318917607734 0.9144031318916641 0.26016318917607734
8686058.275897898 0.9174345971714607 0.25543704718469384 0.0825654028285394 -0.25543704718469384 0.0825654028285394 -0.25543704718469384 0.9174345971714607 0.25543704718469384
8861669.359696563 0.9203670880176328 0.2507458334671844 0.07963291198236723 -0.2507458334671844 0.07963291198236723 -0.2507458334671844 0.9203670880176328 0.2507458334671844
9040830.87474648 0.9232030863469914 0.24609093508846042 0.07679691365300853 -0.24609093508846042 0.07679691365300853 -0.24609093508846042 0.9232030863469914 0.24609093508846042
9223614.602177842 0.9259450619890744 0.2414736181988611 0.07405493801092555 -0.2414736181988611 0.07405493801092555 -0.2414736181988611 0.9259450619890744 0.2414736181988611
9410093.774361636 0.9285954684344313 0.2368950321678488 0.07140453156556878 -0.2368950321678488 0.07140453156556878 -0.2368950321678488 0.9285954684344313 0.2368950321678488
