! NFZ5BBW4R5LN10
# Hz S RI R 50
!Freq.(Hz) S11(Real) S11(Imag) S21(Real) S21(Imag) S12(Real) S12(Imag) S22(Real) S22(Imag)
1000000.0 0.002514253418865071 0.046620102427271354 0.9974857465811348 -0.046620102427271354 0.9974857465811348 -0.046620102427271354 0.002514253418865071 0.046620102427271354
1020217.5806586457 0.0026105643814074344 0.04755770025211073 0.9973894356185926 -0.04755770025211073 0.9973894356185926 -0.04755770025211073 0.0026105643814074344 0.04755770025211073
1040843.9118849806 0.002710787837436559 0.0485139489463979 0.9972892121625634 -0.0485139489463979 0.9972892121625634 -0.0485139489463979 0.002710787837436559 0.0485139489463979
1061887.2576265757 0.0028150818269394805 0.04948920682178058 0.9971849181730603 -0.04948920682178058 0.9971849181730603 -0.04948920682178058 0.0028150818269394805 0.04948920682178058
1083356.0489080292 0.0029236106989932644 0.05048383828515581 0.9970763893010068 -0.05048383828515581 0.9970763893010068 -0.05048383828515581 0.0029236106989932644 0.05048383828515581
1105258.8872088592 0.0030365453574140128 0.05149821389208108 0.996963454642586 -0.05149821389208108 0.996963454642586 -0.05149821389208108 0.0030365453574140128 0.05149821389208108
1127604.5479096894 0.003154063515450969 0.05253271039707838 0.996845936484549 -0.05253271039707838 0.996845936484549 -0.05253271039707838 0.003154063515450969 0.05253271039707838
1150401.9838081095 0.003276349959814741 0.053587710800523006 0.9967236500401853 -0.053587710800523006 0.9967236500401853 -0.053587710800523006 0.003276349959814741 0.053587710800523006
1173660.328705616 0.0034035968243339787 0.054663604391789036 0.9965964031756663 -0.054663604391789036 0.9965964031756663 -0.054663604391789036 0.0034035968243339787 0.054663604391789036
1197388.9010670746 0.003536003873539897 0.055760786788302256 0.9964639961264601 -0.05576078678830224 0.9964639961264601 -0.05576078678830224 0.003536003873539897 0.055760786788302256
1221597.2077541656 0.003673778796482837 0.056879659970129864 0.9963262212035172 -0.056879659970129864 0.9963262212035172 -0.056879659970129864 0.003673778796482837 0.056879659970129864
1246294.947834312 0.0038171375110891657 0.058020632309710884 0.9961828624889109 -0.058020632309710884 0.9961828624889109 -0.058020632309710884 0.0038171375110891657 0.058020632309710884
1271492.016466615 0.003966304479370993 0.0591841185963093 0.9960336955206289 -0.05918411859630929 0.9960336955206289 -0.05918411859630929 0.003966304479370993 0.0591841185963093
1297198.5088663532 0.004121513033804176 0.060370540054742954 0.9958784869661959 -0.060370540054742954 0.9958784869661959 -0.060370540054742954 0.004121513033804176 0.060370540054742954
1323424.7243496338 0.004283005715193139 0.06158032435791627 0.9957169942848069 -0.06158032435791627 0.9957169942848069 -0.06158032435791627 0.004283005715193139 0.06158032435791627
1350181.1704598186 0.004451034622342907 0.06281390563265445 0.995548965377657 -0.06281390563265445 0.995548965377657 -0.06281390563265445 0.004451034622342907 0.06281390563265445
1377478.5671773748 0.004625861773860159 0.06407172445830704 0.9953741382261398 -0.06407172445830706 0.9953741382261398 -0.06407172445830706 0.004625861773860159 0.06407172445830704
1405327.8512148394 0.0048077594824055695 0.06535422785755704 0.9951922405175946 -0.06535422785755705 0.9951922405175946 -0.06535422785755705 0.0048077594824055695 0.06535422785755704
1433740.1803986167 0.004997010741719224 0.06666186927883762 0.9950029892582808 -0.06666186927883762 0.9950029892582808 -0.06666186927883762 0.004997010741719224 0.06666186927883762
1462726.9381393674 0.00519390962673935 0.06799510856972427 0.9948060903732606 -0.06799510856972425 0.9948060903732606 -0.06799510856972425 0.00519390962673935 0.06799510856972427
1492299.737992774 0.005398761707131879 0.069354411940632 0.9946012382928682 -0.06935441194063198 0.9946012382928682 -0.06935441194063198 0.005398761707131879 0.069354411940632
1522470.428312519 0.0056118844745444195 0.07074025191811026 0.9943881155254555 -0.07074025191811026 0.9943881155254555 -0.07074025191811026 0.0056118844745444195 0.07074025191811026
1553251.0969973304 0.005833607783892608 0.07215310728698605 0.9941663922161073 -0.07215310728698605 0.9941663922161073 -0.07215310728698605 0.005833607783892608 0.07215310728698605
1584654.076334004 0.0060642743089799325 0.07359346302056408 0.99393572569102 -0.07359346302056406 0.99393572569102 -0.07359346302056406 0.0060642743089799325 0.07359346302056408
1616691.9479383389 0.0063042400127432145 0.07506181019804921 0.9936957599872567 -0.07506181019804921 0.9936957599872567 -0.07506181019804921 0.0063042400127432145 0.07506181019804921
1649377.5477959653 0.00655387463240521 0.07655864590830817 0.9934461253675948 -0.07655864590830817 0.9934461253675948 -0.07655864590830817 0.00655387463240521 0.07655864590830817
1682723.9714050898 0.006813562179803097 0.07808447313904165 0.9931864378201968 -0.07808447313904165 0.9931864378201968 -0.07808447313904165 0.006813562179803097 0.07808447313904165
1716744.5790232092 0.0070837014571462865 0.07963980065038483 0.9929162985428536 -0.07963980065038484 0.9929162985428536 -0.07963980065038484 0.0070837014571462865 0.07963980065038483
1751453.001019904 0.007364706588439578 0.08122514283190461 0.9926352934115605 -0.08122514283190461 0.9926352934115605 -0.08122514283190461 0.007364706588439578 0.08122514283190461
1786863.143337851 0.007657007566787004 0.08284101954190412 0.9923429924332129 -0.0828410195419041 0.9923429924332129 -0.0828410195419041 0.007657007566787004 0.08284101954190412
1822989.1930642454 0.007961050817768732 0.08448795592789175 0.9920389491822313 -0.08448795592789175 0.9920389491822313 -0.08448795592789175 0.007961050817768732 0.08448795592789175
1859845.6241148617 0.008277299779056231 0.08616648222700918 0.9917227002209439 -0.08616648222700918 0.9917227002209439 -0.08616648222700918 0.008277299779056231 0.08616648222700918
1897447.2030330333 0.00860623549640135 0.08787713354515539 0.9913937645035986 -0.0878771335451554 0.9913937645035986 -0.0878771335451554 0.00860623549640135 0.08787713354515539
1935808.994905876 0.008948357236100444 0.08962044961347763 0.9910516427638993 -0.08962044961347763 0.9910516427638993 -0.08962044961347763 0.008948357236100444 0.08962044961347763
1974946.3694001175 0.009304183113996889 0.09139697452083605 0.9906958168860031 -0.09139697452083605 0.9906958168860031 -0.09139697452083605 0.009304183113996889 0.09139697452083605
2014875.0069199642 0.009674250741042782 0.09320725642078212 0.9903257492589571 -0.09320725642078212 0.9903257492589571 -0.09320725642078212 0.009674250741042782 0.09320725642078212
2055610.904889458 0.010059117885392833 0.09505184721151902 0.9899408821146072 -0.09505184721151903 0.9899408821146072 -0.09505184721151903 0.010059117885392833 0.09505184721151902
2097170.3841618528 0.010459363150951357 0.09693130218724363 0.9895406368490489 -0.09693130218724362 0.9895406368490489 -0.09693130218724362 0.010459363150951357 0.09693130218724363
2139570.0955585684 0.010875586672234783 0.0988461796591946 0.989124413327765 -0.09884617965919458 0.989124413327765 -0.09884617965919458 0.010875586672234783 0.0988461796591946
2182827.0265403506 0.011308410825347861 0.10079704054465662 0.9886915891746523 -0.10079704054465662 0.9886915891746523 -0.10079704054465662 0.011308410825347861 0.10079704054465662
2226958.508013302 0.011758480954801354 0.10278444792209485 0.9882415190451985 -0.10278444792209485 0.9882415190451985 -0.10278444792209485 0.011758480954801354 0.10278444792209485
2271982.2212725184 0.012226466115821268 0.10480896655051535 0.9877735338841788 -0.10480896655051535 0.9877735338841788 -0.10480896655051535 0.012226466115821268 0.10480896655051535
2317916.205086105 0.012713059831714793 0.10687116235106844 0.9872869401682852 -0.10687116235106844 0.9872869401682852 -0.10687116235106844 0.012713059831714793 0.10687116235106844
2364778.8629224156 0.013218980865765282 0.10897160184883213 0.9867810191342349 -0.10897160184883213 0.9867810191342349 -0.10897160184883213 0.013218980865765282 0.10897160184883213
2412588.9703234104 0.013744974007027663 0.11111085157263292 0.9862550259929724 -0.11111085157263292 0.9862550259929724 -0.11111085157263292 0.013744974007027663 0.11111085157263292
2461365.682427083 0.014291810869285054 0.1132894774106802 0.9857081891307149 -0.1132894774106802 0.9857081891307149 -0.1132894774106802 0.014291810869285054 0.1132894774106802
2511128.5416419753 0.01486029070230811 0.11550804391970966 0.9851397092976918 -0.11550804391970966 0.9851397092976918 -0.11550804391970966 0.01486029070230811 0.11550804391970966
2561897.48547685 0.015451241214428887 0.11776711358525403 0.984548758785571 -0.11776711358525403 0.984548758785571 -0.11776711358525403 0.015451241214428887 0.11776711358525403
2613692.85452866 0.016065519405300172 0.12006724603057663 0.9839344805946998 -0.1200672460305766 0.9839344805946998 -0.1200672460305766 0.016065519405300172 0.12006724603057663
2666535.4006320196 0.016704012407560438 0.12240899717173208 0.9832959875924396 -0.12240899717173208 0.9832959875924396 -0.12240899717173208 0.016704012407560438 0.12240899717173208
2720446.295173432 0.017367638335960108 0.12479291831613952 0.98263236166404 -0.12479291831613952 0.98263236166404 -0.12479291831613952 0.017367638335960108 0.12479291831613952
2775447.137573615 0.018057347142329337 0.12721955520198475 0.9819426528576705 -0.12721955520198475 0.9819426528576705 -0.12721955520198475 0.018057347142329337 0.12721955520198475
2831559.963941318 0.018774121474578756 0.12968944697570292 0.9812258785254212 -0.12968944697570295 0.9812258785254212 -0.12968944697570295 0.018774121474578756 0.12968944697570292
2888807.255902094 0.019518977537720573 0.1322031251047261 0.9804810224622795 -0.13220312510472607 0.9804810224622795 -0.13220312510472607 0.019518977537720573 0.1322031251047261
2947211.9496055758 0.020292965954681812 0.13476111222262985 0.9797070340453183 -0.13476111222262985 0.9797070340453183 -0.13476111222262985 0.020292965954681812 0.13476111222262985
3006797.4449148513 0.021097172624448254 0.13736392090376068 0.9789028273755517 -0.13736392090376068 0.9789028273755517 -0.13736392090376068 0.021097172624448254 0.13736392090376068
3067587.6147816274 0.021932719574830655 0.14001205236438571 0.9780672804251693 -0.14001205236438574 0.9780672804251693 -0.14001205236438574 0.021932719574830655 0.14001205236438571
3129606.8148109377 0.022800765806881243 0.14270599508737716 0.9771992341931188 -0.14270599508737716 0.9771992341931188 -0.14270599508737716 0.022800765806881243 0.14270599508737716
3192879.893019226 0.023702508127708567 0.14544622336742197 0.9762974918722914 -0.14544622336742197 0.9762974918722914 -0.14544622336742197 0.023702508127708567 0.14544622336742197
3257432.1997897103 0.02463918196814177 0.14823319577374225 0.9753608180318583 -0.14823319577374228 0.9753608180318583 -0.14823319577374228 0.02463918196814177 0.14823319577374225
3323289.598029029 0.025612062181381408 0.15106735352731754 0.9743879378186187 -0.15106735352731754 0.9743879378186187 -0.15106735352731754 0.025612062181381408 0.15106735352731754
3390478.4735292196 0.026622463818442594 0.15394911878962655 0.9733775361815573 -0.15394911878962653 0.9733775361815573 -0.15394911878962653 0.026622463818442594 0.15394911878962655
3459025.745539199 0.02767174287584644 0.15687889285996603 0.9723282571241535 -0.15687889285996603 0.9723282571241535 -0.15687889285996603 0.02767174287584644 0.15687889285996603
3528958.8775499705 0.02876129701064909 0.1598570542784684 0.9712387029893511 -0.1598570542784684 0.9712387029893511 -0.1598570542784684 0.02876129701064909 0.1598570542784684
3600305.8882978815 0.029892566217513322 0.16288395683202728 0.9701074337824868 -0.1628839568320273 0.9701074337824868 -0.1628839568320273 0.029892566217513322 0.16288395683202728
3673095.3629903416 0.031067033462125027 0.16595992746044896 0.9689329665378749 -0.16595992746044896 0.9689329665378749 -0.16595992746044896 0.031067033462125027 0.16595992746044896
3747356.4647584967 0.03228622526483862 0.1690852640602903 0.9677137747351613 -0.1690852640602903 0.9677137747351613 -0.1690852640602903 0.03228622526483862 0.1690852640602903
3823118.9463414503 0.033551712227999395 0.17226023318401212 0.9664482877720006 -0.17226023318401212 0.9664482877720006 -0.17226023318401212 0.033551712227999395 0.17226023318401212
3900413.1620067055 0.03486510949994088 0.17548506763228364 0.9651348905000592 -0.17548506763228364 0.9651348905000592 -0.17548506763228364 0.03486510949994088 0.17548506763228364
3979270.0797116193 0.03622807716818974 0.17875996393751406 0.9637719228318103 -0.17875996393751406 0.9637719228318103 -0.17875996393751406 0.03622807716818974 0.17875996393751406
4059721.293510725 0.03764232057393346 0.1820850797369714 0.9623576794260665 -0.1820850797369714 0.9623576794260665 -0.1820850797369714 0.03764232057393346 0.1820850797369714
4141799.0362139 0.03910959053931594 0.18546053103417126 0.9608904094606842 -0.18546053103417123 0.9608904094606842 -0.18546053103417123 0.03910959053931594 0.18546053103417126
4225536.192300457 0.04063168349862993 0.1888863893475954 0.9593683165013701 -0.1888863893475954 0.9593683165013701 -0.1888863893475954 0.04063168349862993 0.1888863893475954
4310966.311094318 0.042210441523969945 0.19236267874622234 0.95778955847603 -0.19236267874622237 0.95778955847603 -0.19236267874622237 0.042210441523969945 0.19236267874622234
4398123.620205573 0.04384775223540174 0.19588937277182994 0.9561522477645984 -0.19588937277182994 0.9561522477645984 -0.19588937277182994 0.04384775223540174 0.19588937277182994
4487043.0392437745 0.045545548585196896 0.19946639124856702 0.9544544514148031 -0.199466391248567 0.9544544514148031 -0.199466391248567 0.045545548585196896 0.19946639124856702
4577760.193808502 0.047305808505178605 0.20309359698089322 0.9526941914948214 -0.20309359698089322 0.9526941914948214 -0.20309359698089322 0.047305808505178605 0.20309359698089322
4670311.429762763 0.04913055440572761 0.20677079234164375 0.9508694455942726 -0.2067707923416438 0.9508694455942726 -0.2067707923416438 0.04913055440572761 0.20677079234164375
4764733.827794987 0.05102185251451908 0.21049771575271636 0.9489781474854809 -0.21049771575271642 0.9489781474854809 -0.21049771575271642 0.05102185251451908 0.21049771575271636
4861065.218275411 0.052981812042596804 0.21427403806167816 0.9470181879574031 -0.21427403806167816 0.9470181879574031 -0.21427403806167816 0.052981812042596804 0.21427403806167816
4959344.196412832 0.05501258416495757 0.21809935881847398 0.9449874158350425 -0.21809935881847398 0.9449874158350425 -0.21809935881847398 0.05501258416495757 0.21809935881847398
5059610.137717796 0.05711636080241558 0.22197320245737814 0.9428836391975844 -0.2219732024573782 0.9428836391975844 -0.2219732024573782 0.05711636080241558 0.22197320245737814
5161903.213778406 0.05929537319115446 0.22589501439037046 0.9407046268088456 -0.22589501439037046 0.9407046268088456 -0.22589501439037046 0.05929537319115446 0.22589501439037046
5266264.4083550945 0.061551890226064526 0.22986415701924304 0.9384481097739354 -0.22986415701924298 0.9384481097739354 -0.22986415701924298 0.061551890226064526 0.22986415701924304
5372735.53380077 0.06388821656370895 0.23387990567495265 0.9361117834362911 -0.23387990567495265 0.9361117834362911 -0.23387990567495265 0.06388821656370895 0.23387990567495265
5481359.247812959 0.06630669047057917 0.2379414444940251 0.933693309529421 -0.2379414444940251 0.933693309529421 -0.2379414444940251 0.06630669047057917 0.2379414444940251
5592179.070524632 0.06880968140219798 0.24204786224319996 0.931190318597802 -0.24204786224319996 0.931190318597802 -0.24204786224319996 0.06880968140219798 0.24204786224319996
5705239.401940555 0.0713995872986153 0.2461981481049633 0.9286004127013847 -0.2461981481049633 0.9286004127013847 -0.2461981481049633 0.0713995872986153 0.2461981481049633
5820585.5397261735 0.07407883158193619 0.2503911874381626 0.9259211684180637 -0.2503911874381625 0.9259211684180637 -0.2503911874381625 0.07407883158193619 0.2503911874381626
5938263.697356135 0.07684985984172957 0.25462575752952127 0.9231501401582702 -0.25462575752952127 0.9231501401582702 -0.25462575752952127 0.07684985984172957 0.25462575752952127
6058321.022629741 0.07971513619450678 0.2589005233535663 0.9202848638054932 -0.2589005233535662 0.9202848638054932 -0.2589005233535662 0.07971513619450678 0.2589005233535663
6180805.616560728 0.0826771393039452 0.2632140333602463 0.9173228606960546 -0.2632140333602463 0.9173228606960546 -0.2632140333602463 0.0826771393039452 0.2632140333602463
6305766.552648956 0.0857383580491763 0.2675647153113455 0.9142616419508238 -0.2675647153113455 0.9142616419508238 -0.2675647153113455 0.0857383580491763 0.2675647153113455
6433253.896541728 0.08890128682927666 0.2719508721886662 0.9110987131707233 -0.2719508721886662 0.9110987131707233 -0.2719508721886662 0.08890128682927666 0.2719508721886662
6563318.726092606 0.09216842049310633 0.2763706781988693 0.9078315795068939 -0.27637067819886935 0.9078315795068939 -0.27637067819886935 0.09216842049310633 0.2763706781988693
6696013.151825785 0.09554224888485083 0.28082217490179473 0.9044577511151491 -0.2808221749017948 0.9044577511151491 -0.2808221749017948 0.09554224888485083 0.28082217490179473
6831390.3378141755 0.09902525099704876 0.28530326749102614 0.9009747490029513 -0.28530326749102614 0.9009747490029513 -0.28530326749102614 0.09902525099704876 0.28530326749102614
6969504.522979628 0.10261988872454607 0.28981172125739546 0.8973801112754538 -0.28981172125739546 0.8973801112754538 -0.28981172125739546 0.10261988872454607 0.28981172125739546
7110411.042823766 0.10632860021471596 0.29434515826801827 0.893671399785284 -0.29434515826801827 0.893671399785284 -0.29434515826801827 0.10632860021471596 0.29434515826801827
7254166.351598182 0.11015379281144162 0.2989010542952952 0.8898462071885583 -0.2989010542952951 0.8898462071885583 -0.2989010542952951 0.11015379281144162 0.2989010542952952
7400828.044922853 0.11409783559277374 0.3034767360320685 0.8859021644072261 -0.3034767360320685 0.8859021644072261 -0.3034767360320685 0.11409783559277374 0.3034767360320685
7550454.882861849 0.11816305150486253 0.3080693786307672 0.8818369484951376 -0.3080693786307672 0.8818369484951376 -0.3080693786307672 0.11816305150486253 0.3080693786307672
7703106.813465575 0.12235170909772933 0.3126760036058767 0.8776482909022706 -0.31267600360587666 0.8776482909022706 -0.31267600360587666 0.12235170909772933 0.3126760036058767
7858844.9967889795 0.12666601387167975 0.31729347714038586 0.8733339861283201 -0.31729347714038586 0.8733339861283201 -0.31729347714038586 0.12666601387167975 0.31729347714038586
8017731.829395356 0.13110809924667655 0.3219185088379764 0.8688919007533235 -0.32191850883797646 0.8688919007533235 -0.32191850883797646 0.13110809924667655 0.3219185088379764
8179830.96935555 0.13568001717077094 0.32654765096356486 0.8643199828292291 -0.32654765096356486 0.8643199828292291 -0.32654765096356486 0.13568001717077094 0.32654765096356486
8345207.361752584 0.14038372838773353 0.331177298215372 0.8596162716122664 -0.33117729821537206 0.8596162716122664 -0.33117729821537206 0.14038372838773353 0.331177298215372
8513927.264701942 0.14522109238831096 0.3358036880719199 0.854778907611689 -0.3358036880719199 0.854778907611689 -0.3358036880719199 0.14522109238831096 0.3358036880719199
8686058.275897898 0.15019385707403585 0.3404229017571985 0.8498061429259641 -0.3404229017571985 0.8498061429259641 -0.3404229017571985 0.15019385707403585 0.3404229017571985
8861669.359696563 0.1553036481672246 0.3450308658666822 0.8446963518327755 -0.3450308658666822 0.8446963518327755 -0.3450308658666822 0.1553036481672246 0.3450308658666822
