! NFZ5BBW970LZ10
# Hz S RI R 50
!Freq.(Hz) S11(Real) S11(Imag) S21(Real) S21(Imag) S12(Real) S12(Imag) S22(Real) S22(Imag)
1000000.0 0.46705534641094076 0.4759925932482947 0.5329446535890592 -0.4759925932482947 0.5329446535890592 -0.4759925932482947 0.46705534641094076 0.4759925932482947
1020217.5806586457 0.47623693824666713 0.4763976860299198 0.5237630617533329 -0.4763976860299198 0.5237630617533329 -0.4763976860299198 0.47623693824666713 0.4763976860299198
1040843.9118849806 0.4854281125445162 0.47663989394144646 0.5145718874554839 -0.47663989394144646 0.5145718874554839 -0.47663989394144646 0.4854281125445162 0.47663989394144646
1061887.2576265757 0.49462313375441824 0.4767191404591456 0.5053768662455816 -0.4767191404591455 0.5053768662455816 -0.4767191404591455 0.49462313375441824 0.4767191404591456
1083356.0489080292 0.5038162858055227 0.4766355866581561 0.49618371419447715 -0.4766355866581561 0.49618371419447715 -0.4766355866581561 0.5038162858055227 0.4766355866581561
1105258.8872088592 0.5130018840854785 0.4763896281289027 0.4869981159145216 -0.4763896281289027 0.4869981159145216 -0.4763896281289027 0.5130018840854785 0.4763896281289027
1127604.5479096894 0.5221742870305165 0.47598189125065415 0.4778257129694834 -0.4759818912506542 0.4778257129694834 -0.4759818912506542 0.5221742870305165 0.47598189125065415
1150401.9838081095 0.5313279072941275 0.4754132288704905 0.46867209270587257 -0.4754132288704905 0.46867209270587257 -0.4754132288704905 0.5313279072941275 0.4754132288704905
1173660.328705616 0.5404572224682774 0.47468471543657337 0.45954277753172257 -0.47468471543657337 0.45954277753172257 -0.47468471543657337 0.5404572224682774 0.47468471543657337
1197388.9010670746 0.5495567853370045 0.47379764163445004 0.4504432146629955 -0.4737976416344501 0.4504432146629955 -0.4737976416344501 0.5495567853370045 0.47379764163445004
1221597.2077541656 0.5586212336478069 0.47275350857418913 0.4413787663521931 -0.47275350857418913 0.4413787663521931 -0.47275350857418913 0.5586212336478069 0.47275350857418913
1246294.947834312 0.5676452993913531 0.47155402157458354 0.43235470060864695 -0.47155402157458354 0.43235470060864695 -0.47155402157458354 0.5676452993913531 0.47155402157458354
1271492.016466615 0.5766238175846573 0.4702010835885062 0.4233761824153427 -0.4702010835885062 0.4233761824153427 -0.4702010835885062 0.5766238175846573 0.4702010835885062
1297198.5088663532 0.5855517345568823 0.4686967883109139 0.41444826544311764 -0.4686967883109139 0.41444826544311764 -0.4686967883109139 0.5855517345568823 0.4686967883109139
1323424.7243496338 0.5944241157403449 0.46704341300804414 0.405575884259655 -0.46704341300804414 0.405575884259655 -0.46704341300804414 0.5944241157403449 0.46704341300804414
1350181.1704598186 0.6032361529720567 0.4652434111031783 0.3967638470279432 -0.4652434111031783 0.3967638470279432 -0.4652434111031783 0.6032361529720567 0.4652434111031783
1377478.5671773748 0.6119831713132483 0.4632994045510431 0.38801682868675164 -0.4632994045510432 0.38801682868675164 -0.4632994045510432 0.6119831713132483 0.4632994045510431
1405327.8512148394 0.6206606353958181 0.46121417602961495 0.379339364604182 -0.46121417602961495 0.379339364604182 -0.46121417602961495 0.6206606353958181 0.46121417602961495
1433740.1803986167 0.6292641553055252 0.4589906609748723 0.37073584469447474 -0.45899066097487234 0.37073584469447474 -0.45899066097487234 0.6292641553055252 0.4589906609748723
1462726.9381393674 0.6377894920121115 0.4566319394810039 0.36221050798788845 -0.45663193948100395 0.36221050798788845 -0.45663193948100395 0.6377894920121115 0.4566319394810039
1492299.737992774 0.6462325623563611 0.4541412280858046 0.353767437643639 -0.4541412280858046 0.353767437643639 -0.4541412280858046 0.6462325623563611 0.4541412280858046
1522470.428312519 0.6545894436035878 0.45152187145853817 0.34541055639641227 -0.45152187145853817 0.34541055639641227 -0.45152187145853817 0.6545894436035878 0.45152187145853817
1553251.0969973304 0.6628563775721246 0.44877733400547803 0.3371436224278754 -0.4487773340054781 0.3371436224278754 -0.4487773340054781 0.6628563775721246 0.44877733400547803
1584654.076334004 0.6710297743442728 0.4459111914066673 0.3289702256557272 -0.4459111914066673 0.3289702256557272 -0.4459111914066673 0.6710297743442728 0.4459111914066673
1616691.9479383389 0.6791062155658615 0.44292712209621293 0.3208937844341386 -0.442927122096213 0.3208937844341386 -0.442927122096213 0.6791062155658615 0.44292712209621293
1649377.5477959653 0.6870824573392054 0.439828898697627 0.3129175426607947 -0.4398288986976269 0.3129175426607947 -0.4398288986976269 0.6870824573392054 0.439828898697627
1682723.9714050898 0.6949554327128912 0.4366203794253402 0.30504456728710894 -0.4366203794253402 0.30504456728710894 -0.4366203794253402 0.6949554327128912 0.4366203794253402
1716744.5790232092 0.7027222537705351 0.43330549946353725 0.29727774622946496 -0.43330549946353725 0.29727774622946496 -0.43330549946353725 0.7027222537705351 0.43330549946353725
1751453.001019904 0.7103802133195485 0.4298882623338186 0.28961978668045146 -0.4298882623338186 0.28961978668045146 -0.4298882623338186 0.7103802133195485 0.4298882623338186
1786863.143337851 0.7179267861800253 0.4263727312638794 0.2820732138199747 -0.4263727312638794 0.2820732138199747 -0.4263727312638794 0.7179267861800253 0.4263727312638794
1822989.1930642454 0.7253596300732216 0.4227630205703196 0.2746403699267785 -0.4227630205703196 0.2746403699267785 -0.4227630205703196 0.7253596300732216 0.4227630205703196
1859845.6241148617 0.7326765861087425 0.41906328706981627 0.2673234138912575 -0.41906328706981616 0.2673234138912575 -0.41906328706981616 0.7326765861087425 0.41906328706981627
1897447.2030330333 0.7398756788695147 0.41527772153413745 0.2601243211304852 -0.41527772153413745 0.2601243211304852 -0.41527772153413745 0.7398756788695147 0.41527772153413745
1935808.994905876 0.7469551160939167 0.41141054020577544 0.25304488390608326 -0.41141054020577544 0.25304488390608326 -0.41141054020577544 0.7469551160939167 0.41141054020577544
1974946.3694001175 0.7539132879550612 0.4074659763922762 0.24608671204493882 -0.40746597639227616 0.24608671204493882 -0.40746597639227616 0.7539132879550612 0.4074659763922762
2014875.0069199642 0.7607487659381691 0.4034482721585735 0.2392512340618309 -0.40344827215857343 0.2392512340618309 -0.40344827215857343 0.7607487659381691 0.4034482721585735
2055610.904889458 0.7674603013181995 0.39936167013774126 0.23253969868180044 -0.39936167013774126 0.23253969868180044 -0.39936167013774126 0.7674603013181995 0.39936167013774126
2097170.3841618528 0.7740468232414093 0.39521040548150727 0.22595317675859072 -0.39521040548150727 0.22595317675859072 -0.39521040548150727 0.7740468232414093 0.39521040548150727
2139570.0955585684 0.7805074364162287 0.3909986979725875 0.21949256358377134 -0.39099869797258746 0.21949256358377134 -0.39099869797258746 0.7805074364162287 0.3909986979725875
2182827.0265403506 0.7868414184207544 0.3867307443213568 0.21315858157924575 -0.3867307443213568 0.21315858157924575 -0.3867307443213568 0.7868414184207544 0.3867307443213568
2226958.508013302 0.7930482166361934 0.3824107106695546 0.2069517833638066 -0.3824107106695546 0.2069517833638066 -0.3824107106695546 0.7930482166361934 0.3824107106695546
2271982.2212725184 0.7991274448177176 0.37804272532360744 0.20087255518228236 -0.37804272532360744 0.20087255518228236 -0.37804272532360744 0.7991274448177176 0.37804272532360744
2317916.205086105 0.8050788793163394 0.3736308717397299 0.19492112068366063 -0.3736308717397299 0.19492112068366063 -0.3736308717397299 0.8050788793163394 0.3736308717397299
2364778.8629224156 0.8109024549675596 0.3691791817822459 0.1890975450324403 -0.3691791817822459 0.1890975450324403 -0.3691791817822459 0.8109024549675596 0.3691791817822459
2412588.9703234104 0.8165982606646098 0.3646916292755484 0.1834017393353902 -0.3646916292755484 0.1834017393353902 -0.3646916292755484 0.8165982606646098 0.3646916292755484
2461365.682427083 0.8221665346360661 0.36017212386882735 0.1778334653639339 -0.36017212386882735 0.1778334653639339 -0.36017212386882735 0.8221665346360661 0.36017212386882735
2511128.5416419753 0.8276076594494327 0.3556245052311347 0.17239234055056726 -0.3556245052311347 0.17239234055056726 -0.3556245052311347 0.8276076594494327 0.3556245052311347
2561897.48547685 0.8329221567639078 0.3510525375925829 0.16707784323609215 -0.351052537592583 0.16707784323609215 -0.351052537592583 0.8329221567639078 0.3510525375925829
2613692.85452866 0.8381106818569607 0.3464599046454923 0.1618893181430393 -0.3464599046454923 0.1618893181430393 -0.3464599046454923 0.8381106818569607 0.3464599046454923
2666535.4006320196 0.8431740179505219 0.3418502048171638 0.15682598204947817 -0.3418502048171638 0.15682598204947817 -0.3418502048171638 0.8431740179505219 0.3418502048171638
2720446.295173432 0.8481130703635021 0.33722694692369776 0.15188692963649786 -0.33722694692369776 0.15188692963649786 -0.33722694692369776 0.8481130703635021 0.33722694692369776
2775447.137573615 0.8529288605180118 0.332593546211927 0.1470711394819881 -0.332593546211927 0.1470711394819881 -0.332593546211927 0.8529288605180118 0.332593546211927
2831559.963941318 0.8576225198270356 0.32795332079413775 0.1423774801729644 -0.3279533207941377 0.1423774801729644 -0.3279533207941377 0.8576225198270356 0.32795332079413775
2888807.255902094 0.8621952834914239 0.32330948847785224 0.13780471650857626 -0.32330948847785224 0.13780471650857626 -0.32330948847785224 0.8621952834914239 0.32330948847785224
2947211.9496055758 0.8666484842339254 0.3186651639905564 0.1333515157660746 -0.3186651639905564 0.1333515157660746 -0.3186651639905564 0.8666484842339254 0.3186651639905564
3006797.4449148513 0.8709835459975741 0.3140233565969404 0.12901645400242592 -0.3140233565969404 0.12901645400242592 -0.3140233565969404 0.8709835459975741 0.3140233565969404
3067587.6147816274 0.8752019776351085 0.30938696810397814 0.12479802236489156 -0.30938696810397814 0.12479802236489156 -0.30938696810397814 0.8752019776351085 0.30938696810397814
3129606.8148109377 0.8793053666152504 0.30475879124704985 0.12069463338474949 -0.30475879124704985 0.12069463338474949 -0.30475879124704985 0.8793053666152504 0.30475879124704985
3192879.893019226 0.8832953727706129 0.3001415084483239 0.11670462722938718 -0.3001415084483239 0.11670462722938718 -0.3001415084483239 0.8832953727706129 0.3001415084483239
3257432.1997897103 0.887173722110775 0.2955376909367832 0.11282627788922493 -0.2955376909367832 0.11282627788922493 -0.2955376909367832 0.887173722110775 0.2955376909367832
3323289.598029029 0.8909422007226963 0.2909497982176171 0.10905779927730362 -0.2909497982176171 0.10905779927730362 -0.2909497982176171 0.8909422007226963 0.2909497982176171
3390478.4735292196 0.8946026487791253 0.2863801778772171 0.10539735122087467 -0.2863801778772171 0.10539735122087467 -0.2863801778772171 0.8946026487791253 0.2863801778772171
3459025.745539199 0.8981569546740679 0.28183106570872496 0.10184304532593211 -0.2818310657087249 0.10184304532593211 -0.2818310657087249 0.8981569546740679 0.28183106570872496
3528958.8775499705 0.9016070493026949 0.2773045861419768 0.09839295069730503 -0.27730458614197667 0.09839295069730503 -0.27730458614197667 0.9016070493026949 0.2773045861419768
3600305.8882978815 0.9049549005013479 0.272802752960778 0.0950450994986521 -0.27280275296077794 0.0950450994986521 -0.27280275296077794 0.9049549005013479 0.272802752960778
3673095.3629903416 0.9082025076615403 0.26832747028972825 0.09179749233845971 -0.26832747028972825 0.09179749233845971 -0.26832747028972825 0.9082025076615403 0.26832747028972825
3747356.4647584967 0.9113518965300966 0.2638805338322788 0.08864810346990343 -0.2638805338322787 0.08864810346990343 -0.2638805338322787 0.9113518965300966 0.2638805338322788
3823118.9463414503 0.9144051142058203 0.2594636323413484 0.08559488579417969 -0.25946363234134845 0.08559488579417969 -0.25946363234134845 0.9144051142058203 0.2594636323413484
3900413.1620067055 0.9173642243413657 0.25507834930364326 0.08263577565863439 -0.25507834930364326 0.08263577565863439 -0.25507834930364326 0.9173642243413657 0.25507834930364326
3979270.0797116193 0.9202313025573217 0.25072616481878596 0.07976869744267824 -0.2507261648187859 0.07976869744267824 -0.2507261648187859 0.9202313025573217 0.25072616481878596
4059721.293510725 0.9230084320739077 0.24640845765448718 0.07699156792609224 -0.24640845765448718 0.07699156792609224 -0.24640845765448718 0.9230084320739077 0.24640845765448718
4141799.0362139 0.9256976995641422 0.24212650745923597 0.07430230043585788 -0.24212650745923597 0.07430230043585788 -0.24212650745923597 0.9256976995641422 0.24212650745923597
4225536.192300457 0.9283011912308985 0.23788149711435685 0.07169880876910165 -0.23788149711435685 0.07169880876910165 -0.23788149711435685 0.9283011912308985 0.23788149711435685
4310966.311094318 0.9308209891088951 0.2336745152077567 0.0691790108911048 -0.2336745152077567 0.0691790108911048 -0.2336745152077567 0.9308209891088951 0.2336745152077567
4398123.620205573 0.9332591675914008 0.22950655861225608 0.0667408324085991 -0.22950655861225608 0.0667408324085991 -0.22950655861225608 0.9332591675914008 0.22950655861225608
4487043.0392437745 0.9356177901802654 0.22537853515204126 0.0643822098197347 -0.22537853515204126 0.0643822098197347 -0.22537853515204126 0.9356177901802654 0.22537853515204126
4577760.193808502 0.937898906456826 0.22129126634149196 0.06210109354317391 -0.2212912663414919 0.06210109354317391 -0.2212912663414919 0.937898906456826 0.22129126634149196
4670311.429762763 0.9401045492702725 0.21724549018140207 0.05989545072972751 -0.21724549018140207 0.05989545072972751 -0.21724549018140207 0.9401045492702725 0.21724549018140207
4764733.827794987 0.942236732139189 0.21324186399842093 0.05776326786081094 -0.21324186399842093 0.05776326786081094 -0.21324186399842093 0.942236732139189 0.21324186399842093
4861065.218275411 0.9442974468612414 0.20928096731437784 0.05570255313875861 -0.20928096731437784 0.05570255313875861 -0.20928096731437784 0.9442974468612414 0.20928096731437784
4959344.196412832 0.9462886613253034 0.20536330473301387 0.05371133867469668 -0.20536330473301387 0.05371133867469668 -0.20536330473301387 0.9462886613253034 0.20536330473301387
5059610.137717796 0.9482123175197572 0.20148930883250887 0.05178768248024279 -0.20148930883250887 0.05178768248024279 -0.20148930883250887 0.9482123175197572 0.20148930883250887
5161903.213778406 0.9500703297302221 0.19765934305306396 0.04992967026977798 -0.19765934305306396 0.04992967026977798 -0.19765934305306396 0.9500703297302221 0.19765934305306396
5266264.4083550945 0.9518645829195721 0.19387370456966108 0.048135417080428 -0.19387370456966105 0.048135417080428 -0.19387370456966105 0.9518645829195721 0.19387370456966108
5372735.53380077 0.9535969312827963 0.1901326271409776 0.04640306871720364 -0.1901326271409776 0.04640306871720364 -0.1901326271409776 0.9535969312827963 0.1901326271409776
5481359.247812959 0.9552691969690176 0.18643628392625755 0.04473080303098241 -0.18643628392625755 0.04473080303098241 -0.18643628392625755 0.9552691969690176 0.18643628392625755
5592179.070524632 0.9568831689628163 0.1827847902627599 0.0431168310371837 -0.18278479026275987 0.0431168310371837 -0.18278479026275987 0.9568831689628163 0.1827847902627599
5705239.401940555 0.9584406021169104 0.17917820639717882 0.04155939788308966 -0.17917820639717885 0.04155939788308966 -0.17917820639717885 0.9584406021169104 0.17917820639717882
5820585.5397261735 0.9599432163281916 0.17561654016518397 0.040056783671808545 -0.17561654016518397 0.040056783671808545 -0.17561654016518397 0.9599432163281916 0.17561654016518397
5938263.697356135 0.9613926958491302 0.17209974961394434 0.03860730415086975 -0.1720997496139443 0.03860730415086975 -0.1720997496139443 0.9613926958491302 0.17209974961394434
6058321.022629741 0.962790688726617 0.1686277455631802 0.03720931127338303 -0.16862774556318016 0.03720931127338303 -0.16862774556318016 0.962790688726617 0.1686277455631802
6180805.616560728 0.9641388063604015 0.1652003941009298 0.03586119363959847 -0.1652003941009298 0.03586119363959847 -0.1652003941009298 0.9641388063604015 0.1652003941009298
6305766.552648956 0.9654386231734315 0.16181751901082134 0.03456137682656855 -0.16181751901082134 0.03456137682656855 -0.16181751901082134 0.9654386231734315 0.16181751901082134
6433253.896541728 0.9666916763865501 0.15847890412820814 0.03330832361344982 -0.15847890412820814 0.03330832361344982 -0.15847890412820814 0.9666916763865501 0.15847890412820814
6563318.726092606 0.9678994658902126 0.15518429562304864 0.032100534109787346 -0.1551842956230486 0.032100534109787346 -0.1551842956230486 0.9678994658902126 0.15518429562304864
6696013.151825785 0.9690634542060886 0.1519334042079042 0.03093654579391129 -0.1519334042079042 0.03093654579391129 -0.1519334042079042 0.9690634542060886 0.1519334042079042
6831390.3378141755 0.9701850665316608 0.14872590726987325 0.029814933468339144 -0.14872590726987325 0.029814933468339144 -0.14872590726987325 0.9701850665316608 0.14872590726987325
6969504.522979628 0.971265690861171 0.1455614509256967 0.02873430913882908 -0.1455614509256967 0.02873430913882908 -0.1455614509256967 0.971265690861171 0.1455614509256967
7110411.042823766 0.9723066781765318 0.14243965199964406 0.027693321823468096 -0.14243965199964406 0.027693321823468096 -0.14243965199964406 0.9723066781765318 0.14243965199964406
7254166.351598182 0.9733093427020912 0.13936009992413226 0.026690657297908864 -0.13936009992413223 0.026690657297908864 -0.13936009992413223 0.9733093427020912 0.13936009992413226
7400828.044922853 0.9742749622174057 0.1363223585633376 0.02572503778259419 -0.13632235856333763 0.02572503778259419 -0.13632235856333763 0.9742749622174057 0.1363223585633376
7550454.882861849 0.9752047784224719 0.13332596796033805 0.024795221577528143 -0.13332596796033802 0.024795221577528143 -0.13332596796033802 0.9752047784224719 0.13332596796033805
7703106.813465575 0.976099997350126 0.13037044600856987 0.02390000264987402 -0.1303704460085699 0.02390000264987402 -0.1303704460085699 0.976099997350126 0.13037044600856987
7858844.9967889795 0.9769617898206208 0.1274552900486017 0.0230382101793793 -0.12745529004860173 0.0230382101793793 -0.12745529004860173 0.9769617898206208 0.1274552900486017
8017731.829395356 0.9777912919336487 0.1245799783914182 0.02220870806635135 -0.1245799783914182 0.02220870806635135 -0.1245799783914182 0.9777912919336487 0.1245799783914182
8179830.96935555 0.9785896055933639 0.12174397176957616 0.0214103944066359 -0.12174397176957616 0.0214103944066359 -0.12174397176957616 0.9785896055933639 0.12174397176957616
8345207.361752584 0.979357799062218 0.11894671471773498 0.020642200937782018 -0.11894671471773495 0.020642200937782018 -0.11894671471773495 0.979357799062218 0.11894671471773498
8513927.264701942 0.9800969075396824 0.11618763688418725 0.019903092460317705 -0.11618763688418725 0.019903092460317705 -0.11618763688418725 0.9800969075396824 0.11618763688418725
8686058.275897898 0.9808079337621932 0.11346615427511765 0.019192066237806664 -0.11346615427511765 0.019192066237806664 -0.11346615427511765 0.9808079337621932 0.11346615427511765
8861669.359696563 0.9814918486208887 0.1107816704333993 0.018508151379111437 -0.1107816704333993 0.018508151379111437 -0.1107816704333993 0.9814918486208887 0.1107816704333993
9040830.87474648 0.9821495917939483 0.10813357755380479 0.017850408206051754 -0.1081335775538048 0.017850408206051754 -0.1081335775538048 0.9821495917939483 0.10813357755380479
9223614.602177842 0.98278207239058 0.1055212575365603 0.017217927609419932 -0.1055212575365603 0.017217927609419932 -0.1055212575365603 0.98278207239058 0.1055212575365603
