! NFZ5BBW610LZ10
# Hz S RI R 50
!Freq.(Hz) S11(Real) S11(Imag) S21(Real) S21(Imag) S12(Real) S12(Imag) S22(Real) S22(Imag)
1000000.0 0.27231672905277976 0.419055531667671 0.7276832709472202 -0.41905553166767096 0.7276832709472202 -0.41905553166767096 0.27231672905277976 0.419055531667671
1020217.5806586457 0.2795211830613479 0.4226307105093893 0.7204788169386521 -0.4226307105093893 0.7204788169386521 -0.4226307105093893 0.2795211830613479 0.4226307105093893
1040843.9118849806 0.28684064757026995 0.42612485162070474 0.71315935242973 -0.42612485162070474 0.71315935242973 -0.42612485162070474 0.28684064757026995 0.42612485162070474
1061887.2576265757 0.29427363098504133 0.4295338178810336 0.7057263690149588 -0.4295338178810336 0.7057263690149588 -0.4295338178810336 0.29427363098504133 0.4295338178810336
1083356.0489080292 0.30181846619677644 0.432853457258342 0.6981815338032235 -0.432853457258342 0.6981815338032235 -0.432853457258342 0.30181846619677644 0.432853457258342
1105258.8872088592 0.30947330560898906 0.4360796102374696 0.6905266943910109 -0.4360796102374697 0.6905266943910109 -0.4360796102374697 0.30947330560898906 0.4360796102374696
1127604.5479096894 0.3172361164029328 0.4392081178423144 0.6827638835970672 -0.4392081178423144 0.6827638835970672 -0.4392081178423144 0.3172361164029328 0.4392081178423144
1150401.9838081095 0.3251046761041834 0.4422348302607591 0.6748953238958165 -0.44223483026075916 0.6748953238958165 -0.44223483026075916 0.3251046761041834 0.4422348302607591
1173660.328705616 0.33307656851683826 0.4451556160746203 0.6669234314831618 -0.44515561607462034 0.6669234314831618 -0.44515561607462034 0.33307656851683826 0.4451556160746203
1197388.9010670746 0.3411491800947121 0.4479663720896203 0.6588508199052878 -0.44796637208962026 0.6588508199052878 -0.44796637208962026 0.3411491800947121 0.4479663720896203
1221597.2077541656 0.3493196968210709 0.45066303375248773 0.650680303178929 -0.4506630337524877 0.650680303178929 -0.4506630337524877 0.3493196968210709 0.45066303375248773
1246294.947834312 0.357585101669688 0.4532415861338843 0.642414898330312 -0.4532415861338843 0.642414898330312 -0.4532415861338843 0.357585101669688 0.4532415861338843
1271492.016466615 0.3659421727202554 0.45569807544704904 0.6340578272797446 -0.455698075447049 0.6340578272797446 -0.455698075447049 0.3659421727202554 0.45569807544704904
1297198.5088663532 0.3743874820002925 0.4580286210629632 0.6256125179997074 -0.45802862106296316 0.6256125179997074 -0.45802862106296316 0.3743874820002925 0.4580286210629632
1323424.7243496338 0.3829173951236985 0.4602294279736328 0.6170826048763016 -0.4602294279736328 0.6170826048763016 -0.4602294279736328 0.3829173951236985 0.4602294279736328
1350181.1704598186 0.391528071792863 0.4622967996458835 0.6084719282071369 -0.46229679964588355 0.6084719282071369 -0.46229679964588355 0.391528071792863 0.4622967996458835
1377478.5671773748 0.40021546722683043 0.4642271511990606 0.5997845327731696 -0.4642271511990606 0.5997845327731696 -0.4642271511990606 0.40021546722683043 0.4642271511990606
1405327.8512148394 0.40897533457235696 0.4660170228313549 0.591024665427643 -0.466017022831355 0.591024665427643 -0.466017022831355 0.40897533457235696 0.4660170228313549
1433740.1803986167 0.41780322834787137 0.46766309341134027 0.5821967716521286 -0.46766309341134027 0.5821967716521286 -0.46766309341134027 0.41780322834787137 0.46766309341134027
1462726.9381393674 0.4266945089623794 0.4691621941438413 0.5733054910376206 -0.4691621941438413 0.5733054910376206 -0.4691621941438413 0.4266945089623794 0.4691621941438413
1492299.737992774 0.435644348342309 0.47051132221264036 0.5643556516576909 -0.47051132221264025 0.5643556516576909 -0.47051132221264025 0.435644348342309 0.47051132221264036
1522470.428312519 0.4446477366893024 0.4717076542969225 0.5553522633106974 -0.4717076542969225 0.5553522633106974 -0.4717076542969225 0.4446477366893024 0.4717076542969225
1553251.0969973304 0.45369949038111657 0.4727485598538859 0.5463005096188835 -0.4727485598538859 0.5463005096188835 -0.4727485598538859 0.45369949038111657 0.4727485598538859
1584654.076334004 0.46279426101625215 0.47363161405674253 0.5372057389837479 -0.47363161405674253 0.5372057389837479 -0.47363161405674253 0.46279426101625215 0.47363161405674253
1616691.9479383389 0.4719265455908568 0.4743546102755075 0.5280734544091431 -0.4743546102755074 0.5280734544091431 -0.4743546102755074 0.4719265455908568 0.4743546102755075
1649377.5477959653 0.481090697784011 0.47491557198759626 0.518909302215989 -0.47491557198759626 0.518909302215989 -0.47491557198759626 0.481090697784011 0.47491557198759626
1682723.9714050898 0.4902809403149042 0.47531276400639344 0.5097190596850957 -0.47531276400639344 0.5097190596850957 -0.47531276400639344 0.4902809403149042 0.47531276400639344
1716744.5790232092 0.49949137832283996 0.47554470291863776 0.5005086216771599 -0.47554470291863776 0.5005086216771599 -0.47554470291863776 0.49949137832283996 0.47554470291863776
1751453.001019904 0.5087160137086739 0.4756101666257025 0.4912839862913261 -0.4756101666257025 0.4912839862913261 -0.4756101666257025 0.5087160137086739 0.4756101666257025
1786863.143337851 0.5179487603644118 0.47550820288960133 0.48205123963558827 -0.47550820288960133 0.48205123963558827 -0.47550820288960133 0.5179487603644118 0.47550820288960133
1822989.1930642454 0.5271834602064432 0.47523813679176735 0.4728165397935566 -0.47523813679176735 0.4728165397935566 -0.47523813679176735 0.5271834602064432 0.47523813679176735
1859845.6241148617 0.5364138999175073 0.4747995770212491 0.46358610008249274 -0.4747995770212491 0.46358610008249274 -0.4747995770212491 0.5364138999175073 0.4747995770212491
1897447.2030330333 0.5456338282930874 0.4741924209188278 0.4543661717069126 -0.4741924209188278 0.4543661717069126 -0.4741924209188278 0.5456338282930874 0.4741924209188278
1935808.994905876 0.5548369740797745 0.4734168582145571 0.4451630259202255 -0.4734168582145571 0.4451630259202255 -0.4734168582145571 0.5548369740797745 0.4734168582145571
1974946.3694001175 0.5640170641862532 0.4724733734081775 0.4359829358137468 -0.4724733734081776 0.4359829358137468 -0.4724733734081776 0.5640170641862532 0.4724733734081775
2014875.0069199642 0.5731678421421827 0.47136274675461254 0.4268321578578173 -0.47136274675461265 0.4268321578578173 -0.47136274675461265 0.5731678421421827 0.47136274675461254
2055610.904889458 0.5822830866763747 0.47008605383008706 0.41771691332362526 -0.47008605383008706 0.41771691332362526 -0.47008605383008706 0.5822830866763747 0.47008605383008706
2097170.3841618528 0.5913566302834247 0.4686446636681365 0.4086433697165753 -0.46864466366813645 0.4086433697165753 -0.46864466366813645 0.5913566302834247 0.4686446636681365
2139570.0955585684 0.6003823776473496 0.46704023546866835 0.3996176223526503 -0.46704023546866835 0.3996176223526503 -0.46704023546866835 0.6003823776473496 0.46704023546866835
2182827.0265403506 0.6093543237918323 0.4652747138970902 0.39064567620816765 -0.4652747138970902 0.39064567620816765 -0.4652747138970902 0.6093543237918323 0.4652747138970902
2226958.508013302 0.6182665718293361 0.46335032300411 0.3817334281706639 -0.46335032300410994 0.3817334281706639 -0.46335032300410994 0.6182665718293361 0.46335032300411
2271982.2212725184 0.6271133501856017 0.4612695588099427 0.37288664981439845 -0.46126955880994275 0.37288664981439845 -0.46126955880994275 0.6271133501856017 0.4612695588099427
2317916.205086105 0.6358890291817406 0.45903518060912807 0.3641109708182593 -0.45903518060912807 0.3641109708182593 -0.45903518060912807 0.6358890291817406 0.45903518060912807
2364778.8629224156 0.6445881368632497 0.45665020106379167 0.35541186313675033 -0.45665020106379167 0.35541186313675033 -0.45665020106379167 0.6445881368632497 0.45665020106379167
2412588.9703234104 0.6532053739735935 0.45411787516381474 0.3467946260264064 -0.45411787516381474 0.3467946260264064 -0.45411787516381474 0.6532053739735935 0.45411787516381474
2461365.682427083 0.661735627979434 0.4514416881418715 0.33826437202056603 -0.4514416881418716 0.33826437202056603 -0.4514416881418716 0.661735627979434 0.4514416881418715
2511128.5416419753 0.6701739860649323 0.4486253424395326 0.32982601393506766 -0.4486253424395326 0.32982601393506766 -0.4486253424395326 0.6701739860649323 0.4486253424395326
2561897.48547685 0.6785157470236381 0.44567274382753697 0.3214842529763619 -0.4456727438275369 0.3214842529763619 -0.4456727438275369 0.6785157470236381 0.44567274382753697
2613692.85452866 0.6867564319881384 0.4425879867888288 0.3132435680118617 -0.4425879867888288 0.3132435680118617 -0.4425879867888288 0.6867564319881384 0.4425879867888288
2666535.4006320196 0.69489179394965 0.4393753392770265 0.30510820605035 -0.4393753392770265 0.30510820605035 -0.4393753392770265 0.69489179394965 0.4393753392770265
2720446.295173432 0.7029178260319507 0.43603922696559755 0.2970821739680493 -0.43603922696559755 0.2970821739680493 -0.43603922696559755 0.7029178260319507 0.43603922696559755
2775447.137573615 0.7108307684962358 0.43258421710421413 0.2891692315037642 -0.4325842171042141 0.2891692315037642 -0.4325842171042141 0.7108307684962358 0.43258421710421413
2831559.963941318 0.7186271144655105 0.429015002098566 0.28137288553448947 -0.4290150020985661 0.28137288553448947 -0.4290150020985661 0.7186271144655105 0.429015002098566
2888807.255902094 0.7263036143688124 0.4253363829283943 0.2736963856311874 -0.4253363829283943 0.2736963856311874 -0.4253363829283943 0.7263036143688124 0.4253363829283943
2947211.9496055758 0.7338572791167489 0.4215532525157511 0.266142720883251 -0.4215532525157511 0.266142720883251 -0.4215532525157511 0.7338572791167489 0.4215532525157511
3006797.4449148513 0.7412853820303952 0.41767057915161104 0.2587146179696047 -0.41767057915161104 0.2587146179696047 -0.41767057915161104 0.7412853820303952 0.41767057915161104
3067587.6147816274 0.7485854595554412 0.4136933900840315 0.2514145404445588 -0.4136933900840315 0.2514145404445588 -0.4136933900840315 0.7485854595554412 0.4136933900840315
3129606.8148109377 0.7557553108024583 0.409626755365251 0.2442446891975416 -0.409626755365251 0.2442446891975416 -0.409626755365251 0.7557553108024583 0.409626755365251
3192879.893019226 0.7627929959622568 0.40547577204852303 0.23720700403774336 -0.40547577204852303 0.23720700403774336 -0.40547577204852303 0.7627929959622568 0.40547577204852303
3257432.1997897103 0.7696968336524163 0.40124554881826396 0.23030316634758363 -0.40124554881826396 0.23030316634758363 -0.40124554881826396 0.7696968336524163 0.40124554881826396
3323289.598029029 0.7764653972572035 0.39694119112937376 0.2235346027427965 -0.39694119112937376 0.2235346027427965 -0.39694119112937376 0.7764653972572035 0.39694119112937376
3390478.4735292196 0.7830975103281848 0.392567786923503 0.21690248967181527 -0.392567786923503 0.21690248967181527 -0.392567786923503 0.7830975103281848 0.392567786923503
3459025.745539199 0.789592241116933 0.38813039298173135 0.2104077588830669 -0.38813039298173135 0.2104077588830669 -0.38813039298173135 0.789592241116933 0.38813039298173135
3528958.8775499705 0.7959488963143098 0.38363402196469326 0.20405110368569024 -0.3836340219646933 0.20405110368569024 -0.3836340219646933 0.7959488963143098 0.38363402196469326
3600305.8882978815 0.8021670140729127 0.3790836301827848 0.19783298592708723 -0.3790836301827848 0.19783298592708723 -0.3790836301827848 0.8021670140729127 0.3790836301827848
3673095.3629903416 0.8082463563904753 0.3744841061307818 0.19175364360952474 -0.37448410613078187 0.19175364360952474 -0.37448410613078187 0.8082463563904753 0.3744841061307818
3747356.4647584967 0.814186900932304 0.36984025981313035 0.185813099067696 -0.3698402598131303 0.185813099067696 -0.3698402598131303 0.814186900932304 0.36984025981313035
3823118.9463414503 0.819988832370365 0.36515681287838025 0.18001116762963487 -0.36515681287838025 0.18001116762963487 -0.36515681287838025 0.819988832370365 0.36515681287838025
3900413.1620067055 0.8256525333153808 0.36043838957383606 0.17434746668461917 -0.36043838957383606 0.17434746668461917 -0.36043838957383606 0.8256525333153808 0.36043838957383606
3979270.0797116193 0.8311785749164178 0.3556895085245161 0.16882142508358228 -0.3556895085245161 0.16882142508358228 -0.3556895085245161 0.8311785749164178 0.3556895085245161
4059721.293510725 0.8365677071999572 0.35091457533403053 0.16343229280004287 -0.3509145753340305 0.16343229280004287 -0.3509145753340305 0.8365677071999572 0.35091457533403053
4141799.0362139 0.841820849217462 0.34611787599901517 0.15817915078253808 -0.34611787599901517 0.15817915078253808 -0.34611787599901517 0.841820849217462 0.34611787599901517
4225536.192300457 0.8469390790670425 0.34130357112333637 0.15306092093295764 -0.34130357112333637 0.15306092093295764 -0.34130357112333637 0.8469390790670425 0.34130357112333637
4310966.311094318 0.8519236238510612 0.33647569091342716 0.1480763761489387 -0.33647569091342716 0.1480763761489387 -0.33647569091342716 0.8519236238510612 0.33647569091342716
4398123.620205573 0.8567758496274986 0.33163813093182226 0.14322415037250133 -0.33163813093182226 0.14322415037250133 -0.33163813093182226 0.8567758496274986 0.33163813093182226
4487043.0392437745 0.8614972514086556 0.32679464858223917 0.13850274859134426 -0.32679464858223917 0.13850274859134426 -0.32679464858223917 0.8614972514086556 0.32679464858223917
4577760.193808502 0.8660894432564229 0.32194886029638575 0.13391055674357707 -0.3219488602963857 0.13391055674357707 -0.3219488602963857 0.8660894432564229 0.32194886029638575
4670311.429762763 0.8705541485188967 0.31710423939004995 0.12944585148110332 -0.31710423939004995 0.12944585148110332 -0.31710423939004995 0.8705541485188967 0.31710423939004995
4764733.827794987 0.8748931902486805 0.3122641145539182 0.1251068097513194 -0.3122641145539182 0.1251068097513194 -0.3122641145539182 0.8748931902486805 0.3122641145539182
4861065.218275411 0.8791084818387959 0.30743166894294943 0.12089151816120405 -0.30743166894294943 0.12089151816120405 -0.30743166894294943 0.8791084818387959 0.30743166894294943
4959344.196412832 0.8832020179077862 0.3026099398269786 0.11679798209221394 -0.3026099398269786 0.11679798209221394 -0.3026099398269786 0.8832020179077862 0.3026099398269786
5059610.137717796 0.8871758654613926 0.2978018187644854 0.11282413453860732 -0.2978018187644854 0.11282413453860732 -0.2978018187644854 0.8871758654613926 0.2978018187644854
5161903.213778406 0.8910321553541163 0.293010052261125 0.10896784464588373 -0.293010052261125 0.10896784464588373 -0.293010052261125 0.8910321553541163 0.293010052261125
5266264.4083550945 0.8947730740700884 0.2882372428746356 0.10522692592991159 -0.2882372428746356 0.10522692592991159 -0.2882372428746356 0.8947730740700884 0.2882372428746356
5372735.53380077 0.8984008558390111 0.2834858507280593 0.10159914416098888 -0.2834858507280593 0.10159914416098888 -0.2834858507280593 0.8984008558390111 0.2834858507280593
5481359.247812959 0.9019177750994448 0.278758195393837 0.09808222490055511 -0.278758195393837 0.09808222490055511 -0.278758195393837 0.9019177750994448 0.278758195393837
5592179.070524632 0.9053261393185068 0.27405645811218504 0.09467386068149324 -0.274056458112185 0.09467386068149324 -0.274056458112185 0.9053261393185068 0.27405645811218504
5705239.401940555 0.9086282821740388 0.26938268430823614 0.09137171782596115 -0.26938268430823614 0.09137171782596115 -0.26938268430823614 0.9086282821740388 0.26938268430823614
5820585.5397261735 0.9118265571025604 0.26473878637367115 0.08817344289743961 -0.2647387863736712 0.08817344289743961 -0.2647387863736712 0.9118265571025604 0.26473878637367115
5938263.697356135 0.9149233312138099 0.2601265466799578 0.0850766687861902 -0.26012654667995777 0.0850766687861902 -0.26012654667995777 0.9149233312138099 0.2601265466799578
6058321.022629741 0.9179209795704166 0.25554762079182103 0.0820790204295835 -0.2555476207918211 0.0820790204295835 -0.2555476207918211 0.9179209795704166 0.25554762079182103
6180805.616560728 0.9208218798292126 0.2510035408511697 0.07917812017078757 -0.25100354085116966 0.07917812017078757 -0.25100354085116966 0.9208218798292126 0.2510035408511697
6305766.552648956 0.9236284072388935 0.2464957191033599 0.0763715927611064 -0.2464957191033599 0.0763715927611064 -0.2464957191033599 0.9236284072388935 0.2464957191033599
6433253.896541728 0.9263429299871625 0.24202545153938337 0.07365707001283757 -0.24202545153938337 0.07365707001283757 -0.24202545153938337 0.9263429299871625 0.24202545153938337
6563318.726092606 0.9289678048891115 0.23759392162928997 0.07103219511088861 -0.23759392162928997 0.07103219511088861 -0.23759392162928997 0.9289678048891115 0.23759392162928997
6696013.151825785 0.9315053734074389 0.23320220412388426 0.06849462659256121 -0.2332022041238842 0.06849462659256121 -0.2332022041238842 0.9315053734074389 0.23320220412388426
6831390.3378141755 0.9339579579941056 0.22885126890344432 0.0660420420058943 -0.22885126890344432 0.0660420420058943 -0.22885126890344432 0.9339579579941056 0.22885126890344432
6969504.522979628 0.936327858742231 0.2245419848539102 0.06367214125776897 -0.2245419848539102 0.06367214125776897 -0.2245419848539102 0.936327858742231 0.2245419848539102
7110411.042823766 0.93861735033638 0.22027512375262437 0.06138264966361998 -0.22027512375262437 0.06138264966361998 -0.22027512375262437 0.93861735033638 0.22027512375262437
7254166.351598182 0.9408286792888971 0.2160513641473247 0.05917132071110284 -0.2160513641473247 0.05917132071110284 -0.2160513641473247 0.9408286792888971 0.2160513641473247
7400828.044922853 0.9429640614495781 0.21187129521362102 0.05703593855042186 -0.21187129521362102 0.05703593855042186 -0.21187129521362102 0.9429640614495781 0.21187129521362102
7550454.882861849 0.9450256797757296 0.20773542057768293 0.05497432022427035 -0.20773542057768293 0.05497432022427035 -0.20773542057768293 0.9450256797757296 0.20773542057768293
7703106.813465575 0.9470156823495435 0.2036441620922694 0.052984317650456574 -0.20364416209226943 0.052984317650456574 -0.20364416209226943 0.9470156823495435 0.2036441620922694
7858844.9967889795 0.948936180629676 0.19959786355558476 0.051063819370324 -0.19959786355558481 0.051063819370324 -0.19959786355558481 0.948936180629676 0.19959786355558476
8017731.829395356 0.9507892479239868 0.19559679436370836 0.04921075207601323 -0.19559679436370836 0.04921075207601323 -0.19559679436370836 0.9507892479239868 0.19559679436370836
8179830.96935555 0.9525769180705204 0.19164115308854185 0.04742308192947959 -0.19164115308854185 0.04742308192947959 -0.19164115308854185 0.9525769180705204 0.19164115308854185
8345207.361752584 0.9543011843140211 0.18773107097433825 0.0456988156859789 -0.18773107097433825 0.0456988156859789 -0.18773107097433825 0.9543011843140211 0.18773107097433825
8513927.264701942 0.9559639983655255 0.1838666153469137 0.04403600163447454 -0.1838666153469137 0.04403600163447454 -0.1838666153469137 0.9559639983655255 0.1838666153469137
8686058.275897898 0.9575672696328876 0.18004779293061726 0.042432730367112384 -0.18004779293061726 0.042432730367112384 -0.18004779293061726 0.9575672696328876 0.18004779293061726
8861669.359696563 0.9591128646104391 0.17627455306902085 0.04088713538956087 -0.17627455306902085 0.04088713538956087 -0.17627455306902085 0.9591128646104391 0.17627455306902085
9040830.87474648 0.9606026064163657 0.17254679084611937 0.03939739358363426 -0.17254679084611937 0.03939739358363426 -0.17254679084611937 0.9606026064163657 0.17254679084611937
9223614.602177842 0.9620382744667916 0.1688643501055815 0.03796172553320837 -0.1688643501055815 0.03796172553320837 -0.1688643501055815 0.9620382744667916 0.1688643501055815
9410093.774361636 0.9634216042759887 0.1652270263662802 0.0365783957240113 -0.16522702636628023 0.0365783957240113 -0.16522702636628023 0.9634216042759887 0.1652270263662802
