! NFZ5BBW6R7LZ10
# Hz S RI R 50
!Freq.(Hz) S11(Real) S11(Imag) S21(Real) S21(Imag) S12(Real) S12(Imag) S22(Real) S22(Imag)
1000000.0 0.00630886051530777 0.06469348945866306 0.9936911394846921 -0.06469348945866306 0.9936911394846921 -0.06469348945866306 0.00630886051530777 0.06469348945866306
1020217.5806586457 0.006498280504483135 0.06596404382908348 0.9935017194955168 -0.06596404382908348 0.9935017194955168 -0.06596404382908348 0.006498280504483135 0.06596404382908348
1040843.9118849806 0.006694651833115614 0.06725971905598553 0.9933053481668844 -0.06725971905598552 0.9933053481668844 -0.06725971905598552 0.006694651833115614 0.06725971905598553
1061887.2576265757 0.006898268300523054 0.06858098416714514 0.9931017316994768 -0.06858098416714514 0.9931017316994768 -0.06858098416714514 0.006898268300523054 0.06858098416714514
1083356.0489080292 0.007109435262676991 0.06992831431132868 0.9928905647373231 -0.06992831431132868 0.9928905647373231 -0.06992831431132868 0.007109435262676991 0.06992831431132868
1105258.8872088592 0.007328470033035401 0.07130219071813403 0.9926715299669646 -0.07130219071813404 0.9926715299669646 -0.07130219071813404 0.007328470033035401 0.07130219071813403
1127604.5479096894 0.007555702298117326 0.07270310064828846 0.9924442977018828 -0.07270310064828847 0.9924442977018828 -0.07270310064828847 0.007555702298117326 0.07270310064828846
1150401.9838081095 0.007791474548178692 0.07413153733353373 0.9922085254518213 -0.07413153733353373 0.9922085254518213 -0.07413153733353373 0.007791474548178692 0.07413153733353373
1173660.328705616 0.008036142523331973 0.07558799990518665 0.9919638574766679 -0.07558799990518665 0.9919638574766679 -0.07558799990518665 0.008036142523331973 0.07558799990518665
1197388.9010670746 0.00829007567543439 0.07707299331042035 0.9917099243245655 -0.07707299331042035 0.9917099243245655 -0.07707299331042035 0.00829007567543439 0.07707299331042035
1221597.2077541656 0.008553657646049824 0.07858702821526427 0.9914463423539502 -0.07858702821526427 0.9914463423539502 -0.07858702821526427 0.008553657646049824 0.07858702821526427
1246294.947834312 0.008827286760768653 0.08013062089327497 0.9911727132392312 -0.08013062089327497 0.9911727132392312 -0.08013062089327497 0.008827286760768653 0.08013062089327497
1271492.016466615 0.00911137654014716 0.08170429309878195 0.9908886234598528 -0.08170429309878194 0.9908886234598528 -0.08170429309878194 0.00911137654014716 0.08170429309878195
1297198.5088663532 0.009406356227503106 0.08330857192355996 0.9905936437724969 -0.08330857192355995 0.9905936437724969 -0.08330857192355995 0.009406356227503106 0.08330857192355996
1323424.7243496338 0.00971267133377721 0.08494398963572883 0.9902873286662227 -0.08494398963572883 0.9902873286662227 -0.08494398963572883 0.00971267133377721 0.08494398963572883
1350181.1704598186 0.01003078419964095 0.08661108349962704 0.989969215800359 -0.08661108349962703 0.989969215800359 -0.08661108349962703 0.01003078419964095 0.08661108349962704
1377478.5671773748 0.010361174574998282 0.08831039557534696 0.9896388254250017 -0.08831039557534695 0.9896388254250017 -0.08831039557534695 0.010361174574998282 0.08831039557534696
1405327.8512148394 0.010704340215994167 0.09004247249656451 0.9892956597840058 -0.09004247249656451 0.9892956597840058 -0.09004247249656451 0.010704340215994167 0.09004247249656451
1433740.1803986167 0.011060797499603274 0.09180786522523134 0.9889392025003967 -0.09180786522523134 0.9889392025003967 -0.09180786522523134 0.011060797499603274 0.09180786522523134
1462726.9381393674 0.011431082055830075 0.09360712878163771 0.9885689179441699 -0.09360712878163772 0.9885689179441699 -0.09360712878163772 0.011431082055830075 0.09360712878163771
1492299.737992774 0.01181574941750429 0.09544082194828694 0.9881842505824958 -0.09544082194828694 0.9881842505824958 -0.09544082194828694 0.01181574941750429 0.09544082194828694
1522470.428312519 0.012215375687604963 0.09730950694595741 0.9877846243123952 -0.09730950694595741 0.9877846243123952 -0.09730950694595741 0.012215375687604963 0.09730950694595741
1553251.0969973304 0.01263055822398899 0.09921374908025535 0.987369441776011 -0.09921374908025535 0.987369441776011 -0.09921374908025535 0.01263055822398899 0.09921374908025535
1584654.076334004 0.013061916341339398 0.10115411635689446 0.9869380836586608 -0.10115411635689446 0.9869380836586608 -0.10115411635689446 0.013061916341339398 0.10115411635689446
1616691.9479383389 0.013510092030079938 0.10313117906386153 0.9864899079699201 -0.10313117906386153 0.9864899079699201 -0.10313117906386153 0.013510092030079938 0.10313117906386153
1649377.5477959653 0.013975750691928959 0.10514550931855397 0.986024249308071 -0.10514550931855397 0.986024249308071 -0.10514550931855397 0.013975750691928959 0.10514550931855397
1682723.9714050898 0.014459581891684937 0.10719768057790001 0.985540418108315 -0.10719768057790004 0.985540418108315 -0.10719768057790004 0.014459581891684937 0.10719768057790001
1716744.5790232092 0.014962300124746758 0.109288267109391 0.9850376998752532 -0.109288267109391 0.9850376998752532 -0.109288267109391 0.014962300124746758 0.109288267109391
1751453.001019904 0.015484645599776678 0.11141784342088022 0.9845153544002232 -0.11141784342088022 0.9845153544002232 -0.11141784342088022 0.015484645599776678 0.11141784342088022
1786863.143337851 0.016027385035808195 0.11358698364692073 0.9839726149641919 -0.11358698364692073 0.9839726149641919 -0.11358698364692073 0.016027385035808195 0.11358698364692073
1822989.1930642454 0.01659131247298774 0.11579626088933526 0.983408687527012 -0.11579626088933526 0.983408687527012 -0.11579626088933526 0.01659131247298774 0.11579626088933526
1859845.6241148617 0.017177250096015444 0.11804624650963305 0.9828227499039844 -0.11804624650963305 0.9828227499039844 -0.11804624650963305 0.017177250096015444 0.11804624650963305
1897447.2030330333 0.017786049069215704 0.1203375093708054 0.9822139509307845 -0.1203375093708054 0.9822139509307845 -0.1203375093708054 0.017786049069215704 0.1203375093708054
1935808.994905876 0.01841859038202491 0.12267061502595929 0.9815814096179749 -0.12267061502595927 0.9815814096179749 -0.12267061502595927 0.01841859038202491 0.12267061502595929
1974946.3694001175 0.01907578570352525 0.12504612485116534 0.9809242142964746 -0.12504612485116534 0.9809242142964746 -0.12504612485116534 0.01907578570352525 0.12504612485116534
2014875.0069199642 0.019758578244487027 0.12746459511982883 0.9802414217555131 -0.12746459511982883 0.9802414217555131 -0.12746459511982883 0.019758578244487027 0.12746459511982883
2055610.904889458 0.020467943625198423 0.1299265760158155 0.9795320563748018 -0.1299265760158155 0.9795320563748018 -0.1299265760158155 0.020467943625198423 0.1299265760158155
2097170.3841618528 0.021204890747168373 0.1324326105825032 0.9787951092528315 -0.1324326105825032 0.9787951092528315 -0.1324326105825032 0.021204890747168373 0.1324326105825032
2139570.0955585684 0.021970462666577678 0.13498323360486356 0.9780295373334222 -0.13498323360486356 0.9780295373334222 -0.13498323360486356 0.021970462666577678 0.13498323360486356
2182827.0265403506 0.022765737467130006 0.1375789704216246 0.97723426253287 -0.1375789704216246 0.97723426253287 -0.1375789704216246 0.022765737467130006 0.1375789704216246
2226958.508013302 0.02359182912971521 0.14022033566451725 0.9764081708702848 -0.14022033566451725 0.9764081708702848 -0.14022033566451725 0.02359182912971521 0.14022033566451725
2271982.2212725184 0.024449888396041668 0.14290783192156808 0.9755501116039582 -0.14290783192156808 0.9755501116039582 -0.14290783192156808 0.024449888396041668 0.14290783192156808
2317916.205086105 0.02534110362312216 0.1456419483213692 0.9746588963768777 -0.1456419483213692 0.9746588963768777 -0.1456419483213692 0.02534110362312216 0.1456419483213692
2364778.8629224156 0.026266701625209568 0.1484231590352419 0.9737332983747905 -0.1484231590352419 0.9737332983747905 -0.1484231590352419 0.026266701625209568 0.1484231590352419
2412588.9703234104 0.027227948499471147 0.15125192169420046 0.9727720515005287 -0.15125192169420046 0.9727720515005287 -0.15125192169420046 0.027227948499471147 0.15125192169420046
2461365.682427083 0.02822615043136662 0.1541286757176369 0.9717738495686333 -0.15412867571763686 0.9717738495686333 -0.15412867571763686 0.02822615043136662 0.1541286757176369
2511128.5416419753 0.029262654475352198 0.15705384055066976 0.9707373455246476 -0.15705384055066976 0.9707373455246476 -0.15705384055066976 0.029262654475352198 0.15705384055066976
2561897.48547685 0.03033884930617236 0.16002781380715095 0.9696611506938275 -0.16002781380715092 0.9696611506938275 -0.16002781380715092 0.03033884930617236 0.16002781380715095
2613692.85452866 0.03145616593562144 0.16305096931538612 0.9685438340643786 -0.16305096931538612 0.9685438340643786 -0.16305096931538612 0.03145616593562144 0.16305096931538612
2666535.4006320196 0.032616078389260186 0.16612365506372073 0.9673839216107397 -0.16612365506372073 0.9673839216107397 -0.16612365506372073 0.032616078389260186 0.16612365506372073
2720446.295173432 0.03382010433715609 0.16924619104325564 0.966179895662844 -0.16924619104325564 0.966179895662844 -0.16924619104325564 0.03382010433715609 0.16924619104325564
2775447.137573615 0.03506980567228458 0.17241886698510858 0.9649301943277153 -0.17241886698510858 0.9649301943277153 -0.17241886698510858 0.03506980567228458 0.17241886698510858
2831559.963941318 0.03636678902977702 0.1756419399898123 0.963633210970223 -0.17564193998981234 0.963633210970223 -0.17564193998981234 0.03636678902977702 0.1756419399898123
2888807.255902094 0.037712706239735085 0.17891563204665367 0.9622872937602649 -0.17891563204665367 0.9622872937602649 -0.17891563204665367 0.037712706239735085 0.17891563204665367
2947211.9496055758 0.03910925470585252 0.18224012744101503 0.9608907452941475 -0.18224012744101503 0.9608907452941475 -0.18224012744101503 0.03910925470585252 0.18224012744101503
3006797.4449148513 0.040558177701588365 0.18561557004806872 0.9594418222984118 -0.18561557004806875 0.9594418222984118 -0.18561557004806875 0.040558177701588365 0.18561557004806872
3067587.6147816274 0.04206126457513216 0.1890420605115163 0.957938735424868 -0.18904206051151634 0.957938735424868 -0.18904206051151634 0.04206126457513216 0.1890420605115163
3129606.8148109377 0.04362035085388558 0.19251965330645363 0.9563796491461144 -0.19251965330645363 0.9563796491461144 -0.19251965330645363 0.04362035085388558 0.19251965330645363
3192879.893019226 0.04523731823866482 0.19604835368588425 0.9547626817613354 -0.19604835368588427 0.9547626817613354 -0.19604835368588427 0.04523731823866482 0.19604835368588425
3257432.1997897103 0.046914094477300626 0.19962811451089826 0.9530859055226993 -0.19962811451089826 0.9530859055226993 -0.19962811451089826 0.046914094477300626 0.19962811451089826
3323289.598029029 0.048652653106791316 0.20325883296509753 0.9513473468932087 -0.20325883296509753 0.9513473468932087 -0.20325883296509753 0.048652653106791316 0.20325883296509753
3390478.4735292196 0.05045501305264025 0.2069403471544643 0.9495449869473598 -0.2069403471544643 0.9495449869473598 -0.2069403471544643 0.05045501305264025 0.2069403471544643
3459025.745539199 0.05232323807349911 0.2106724325945652 0.9476767619265011 -0.2106724325945652 0.9476767619265011 -0.2106724325945652 0.05232323807349911 0.2106724325945652
3528958.8775499705 0.0542594360387401 0.2144547985877409 0.9457405639612602 -0.21445479858774097 0.9457405639612602 -0.21445479858774097 0.0542594360387401 0.2144547985877409
3600305.8882978815 0.05626575802610359 0.2182870844937734 0.9437342419738965 -0.2182870844937734 0.9437342419738965 -0.2182870844937734 0.05626575802610359 0.2182870844937734
3673095.3629903416 0.05834439722611628 0.2221688558984325 0.9416556027738837 -0.22216885589843247 0.9416556027738837 -0.22216885589843247 0.05834439722611628 0.2221688558984325
3747356.4647584967 0.06049758763955869 0.22609960068530413 0.9395024123604411 -0.22609960068530413 0.9395024123604411 -0.22609960068530413 0.06049758763955869 0.22609960068530413
3823118.9463414503 0.0627276025538899 0.2300787250173858 0.93727239744611 -0.23007872501738585 0.93727239744611 -0.23007872501738585 0.0627276025538899 0.2300787250173858
3900413.1620067055 0.06503675278420992 0.23410554923609309 0.93496324721579 -0.23410554923609309 0.93496324721579 -0.23410554923609309 0.06503675278420992 0.23410554923609309
3979270.0797116193 0.0674273846640861 0.23817930368658874 0.9325726153359141 -0.23817930368658874 0.9325726153359141 -0.23817930368658874 0.0674273846640861 0.23817930368658874
4059721.293510725 0.06990187777137381 0.24229912447967691 0.9300981222286262 -0.24229912447967691 0.9300981222286262 -0.24229912447967691 0.06990187777137381 0.24229912447967691
4141799.0362139 0.07246264237406035 0.24646404920194412 0.9275373576259397 -0.24646404920194412 0.9275373576259397 -0.24646404920194412 0.07246264237406035 0.24646404920194412
4225536.192300457 0.07511211658114768 0.2506730125873454 0.9248878834188523 -0.2506730125873454 0.9248878834188523 -0.2506730125873454 0.07511211658114768 0.2506730125873454
4310966.311094318 0.07785276318368672 0.2549248421650374 0.9221472368163133 -0.2549248421650374 0.9221472368163133 -0.2549248421650374 0.07785276318368672 0.2549248421650374
4398123.620205573 0.08068706617129451 0.2592182538999473 0.9193129338287056 -0.25921825389994724 0.9193129338287056 -0.25921825389994724 0.08068706617129451 0.2592182538999473
4487043.0392437745 0.0836175269098384 0.2635518478443267 0.9163824730901616 -0.2635518478443268 0.9163824730901616 -0.2635518478443268 0.0836175269098384 0.2635518478443267
4577760.193808502 0.08664665996647677 0.26792410382037796 0.9133533400335233 -0.26792410382037796 0.9133533400335233 -0.26792410382037796 0.08664665996647677 0.26792410382037796
4670311.429762763 0.0897769885689135 0.2723333771559275 0.9102230114310864 -0.2723333771559275 0.9102230114310864 -0.2723333771559275 0.0897769885689135 0.2723333771559275
4764733.827794987 0.0930110396865715 0.2767778944970744 0.9069889603134286 -0.2767778944970744 0.9069889603134286 -0.2767778944970744 0.0930110396865715 0.2767778944970744
4861065.218275411 0.09635133872243828 0.2812557497237264 0.9036486612775617 -0.28125574972372636 0.9036486612775617 -0.28125574972372636 0.09635133872243828 0.2812557497237264
4959344.196412832 0.09980040380558919 0.28576489999594684 0.9001995961944107 -0.28576489999594684 0.9001995961944107 -0.28576489999594684 0.09980040380558919 0.28576489999594684
5059610.137717796 0.10336073967587384 0.2903031619610554 0.8966392603241263 -0.2903031619610554 0.8966392603241263 -0.2903031619610554 0.10336073967587384 0.2903031619610554
5161903.213778406 0.107034831153973 0.29486820815343445 0.892965168846027 -0.2948682081534344 0.892965168846027 -0.2948682081534344 0.107034831153973 0.29486820815343445
5266264.4083550945 0.1108251361920032 0.2994575636209692 0.8891748638079968 -0.29945756362096915 0.8891748638079968 -0.29945756362096915 0.1108251361920032 0.2994575636209692
5372735.53380077 0.11473407850208035 0.3040686028139615 0.8852659214979197 -0.3040686028139615 0.8852659214979197 -0.3040686028139615 0.11473407850208035 0.3040686028139615
5481359.247812959 0.11876403976276434 0.30869854677419317 0.8812359602372357 -0.30869854677419317 0.8812359602372357 -0.30869854677419317 0.11876403976276434 0.30869854677419317
5592179.070524632 0.12291735140609257 0.31334446066352617 0.8770826485939074 -0.3133444606635261 0.8770826485939074 -0.3133444606635261 0.12291735140609257 0.31334446066352617
5705239.401940555 0.12719628599098926 0.3180032516729953 0.8728037140090108 -0.31800325167299537 0.8728037140090108 -0.31800325167299537 0.12719628599098926 0.3180032516729953
5820585.5397261735 0.13160304817219382 0.32267166735472735 0.8683969518278061 -0.32267166735472735 0.8683969518278061 -0.32267166735472735 0.13160304817219382 0.32267166735472735
5938263.697356135 0.1361397652775064 0.3273462944201847 0.8638602347224935 -0.3273462944201847 0.8638602347224935 -0.3273462944201847 0.1361397652775064 0.3273462944201847
6058321.022629741 0.14080847751007072 0.3320235580491273 0.8591915224899292 -0.3320235580491273 0.8591915224899292 -0.3320235580491273 0.14080847751007072 0.3320235580491273
6180805.616560728 0.1456111277966138 0.33669972175428137 0.8543888722033862 -0.33669972175428137 0.8543888722033862 -0.33669972175428137 0.1456111277966138 0.33669972175428137
6305766.552648956 0.15054955130701161 0.34137088784695496 0.8494504486929885 -0.3413708878469549 0.8494504486929885 -0.3413708878469549 0.15054955130701161 0.34137088784695496
6433253.896541728 0.1556254646752321 0.3460329985486988 0.8443745353247678 -0.3460329985486988 0.8443745353247678 -0.3460329985486988 0.1556254646752321 0.3460329985486988
6563318.726092606 0.16084045495659224 0.350681837793538 0.8391595450434077 -0.3506818377935381 0.8391595450434077 -0.3506818377935381 0.16084045495659224 0.350681837793538
6696013.151825785 0.16619596836132391 0.3553130337642528 0.8338040316386761 -0.3553130337642528 0.8338040316386761 -0.3553130337642528 0.16619596836132391 0.3553130337642528
6831390.3378141755 0.17169329880963063 0.3599220622046195 0.8283067011903693 -0.3599220622046195 0.8283067011903693 -0.3599220622046195 0.17169329880963063 0.3599220622046195
6969504.522979628 0.17733357635868696 0.3645042505474046 0.8226664236413129 -0.3645042505474046 0.8226664236413129 -0.3645042505474046 0.17733357635868696 0.3645042505474046
7110411.042823766 0.18311775555732976 0.36905478289518645 0.8168822444426702 -0.3690547828951864 0.8168822444426702 -0.3690547828951864 0.18311775555732976 0.36905478289518645
7254166.351598182 0.1890466037894567 0.3735687058877485 0.8109533962105432 -0.3735687058877485 0.8109533962105432 -0.3735687058877485 0.1890466037894567 0.3735687058877485
7400828.044922853 0.1951206896723071 0.3780409354858007 0.8048793103276928 -0.3780409354858007 0.8048793103276928 -0.3780409354858007 0.1951206896723071 0.3780409354858007
7550454.882861849 0.20134037158078896 0.382466264696137 0.798659628419211 -0.382466264696137 0.798659628419211 -0.382466264696137 0.20134037158078896 0.382466264696137
7703106.813465575 0.20770578637374518 0.3868393722580102 0.7922942136262549 -0.3868393722580102 0.7922942136262549 -0.3868393722580102 0.20770578637374518 0.3868393722580102
7858844.9967889795 0.2142168384024333 0.39115483230449877 0.7857831615975668 -0.39115483230449877 0.7857831615975668 -0.39115483230449877 0.2142168384024333 0.39115483230449877
8017731.829395356 0.2208731888854508 0.3954071250059684 0.7791268111145493 -0.3954071250059684 0.7791268111145493 -0.3954071250059684 0.2208731888854508 0.3954071250059684
8179830.96935555 0.2276742457377619 0.39959064819540774 0.7723257542622379 -0.39959064819540774 0.7723257542622379 -0.39959064819540774 0.2276742457377619 0.39959064819540774
8345207.361752584 0.2346191539442886 0.4036997299674845 0.7653808460557113 -0.4036997299674845 0.7653808460557113 -0.4036997299674845 0.2346191539442886 0.4036997299674845
8513927.264701942 0.24170678657061953 0.40772864223466115 0.7582932134293804 -0.40772864223466115 0.7582932134293804 -0.40772864223466115 0.24170678657061953 0.40772864223466115
8686058.275897898 0.24893573650467632 0.41167161521470186 0.7510642634953237 -0.41167161521470186 0.7510642634953237 -0.41167161521470186 0.24893573650467632 0.41167161521470186
8861669.359696563 0.2563043090235641 0.4155228528144551 0.743695690976436 -0.4155228528144551 0.743695690976436 -0.4155228528144551 0.2563043090235641 0.4155228528144551
9040830.87474648 0.26381051527924554 0.41927654886501237 0.7361894847207545 -0.4192765488650124 0.7361894847207545 -0.4192765488650124 0.26381051527924554 0.41927654886501237
