! NFZ5BBW140LZ10
# Hz S RI R 50
!Freq.(Hz) S11(Real) S11(Imag) S21(Real) S21(Imag) S12(Real) S12(Imag) S22(Real) S22(Imag)
1000000.0 0.023748339826594564 0.13014850414815052 0.9762516601734055 -0.13014850414815052 0.9762516601734055 -0.13014850414815052 0.023748339826594564 0.13014850414815052
1020217.5806586457 0.024492961334222584 0.13256733466483867 0.9755070386657775 -0.13256733466483864 0.9755070386657775 -0.13256733466483864 0.024492961334222584 0.13256733466483867
1040843.9118849806 0.025262584577323274 0.1350294484105016 0.9747374154226767 -0.1350294484105016 0.9747374154226767 -0.1350294484105016 0.025262584577323274 0.1350294484105016
1061887.2576265757 0.026058185993526856 0.13753547731077836 0.9739418140064731 -0.13753547731077836 0.9739418140064731 -0.13753547731077836 0.026058185993526856 0.13753547731077836
1083356.0489080292 0.026880779398615762 0.1400860464488714 0.9731192206013843 -0.1400860464488714 0.9731192206013843 -0.1400860464488714 0.026880779398615762 0.1400860464488714
1105258.8872088592 0.0277314168404469 0.14268177276141908 0.9722685831595532 -0.14268177276141905 0.9722685831595532 -0.14268177276141905 0.0277314168404469 0.14268177276141908
1127604.5479096894 0.028611189443894722 0.14532326367140097 0.9713888105561052 -0.14532326367140097 0.9713888105561052 -0.14532326367140097 0.028611189443894722 0.14532326367140097
1150401.9838081095 0.02952122824520197 0.14801111565545363 0.9704787717547979 -0.14801111565545366 0.9704787717547979 -0.14801111565545366 0.02952122824520197 0.14801111565545363
1173660.328705616 0.03046270501387699 0.15074591274282884 0.969537294986123 -0.1507459127428288 0.969537294986123 -0.1507459127428288 0.03046270501387699 0.15074591274282884
1197388.9010670746 0.031436833060000946 0.1535282249430911 0.9685631669399989 -0.1535282249430911 0.9685631669399989 -0.1535282249430911 0.031436833060000946 0.1535282249430911
1221597.2077541656 0.032444868024505816 0.1563586065995328 0.967555131975494 -0.1563586065995328 0.967555131975494 -0.1563586065995328 0.032444868024505816 0.1563586065995328
1246294.947834312 0.03348810864965539 0.15923759466518297 0.9665118913503444 -0.15923759466518297 0.9665118913503444 -0.15923759466518297 0.03348810864965539 0.15923759466518297
1271492.016466615 0.034567897526606876 0.16216570689820486 0.9654321024733932 -0.16216570689820486 0.9654321024733932 -0.16216570689820486 0.034567897526606876 0.16216570689820486
1297198.5088663532 0.035685621816550744 0.16514343997341954 0.9643143781834491 -0.16514343997341954 0.9643143781834491 -0.16514343997341954 0.035685621816550744 0.16514343997341954
1323424.7243496338 0.03684271394152051 0.16817126750665548 0.9631572860584794 -0.16817126750665548 0.9631572860584794 -0.16817126750665548 0.03684271394152051 0.16817126750665548
1350181.1704598186 0.03804065224053742 0.17124963798862328 0.9619593477594626 -0.17124963798862325 0.9619593477594626 -0.17124963798862325 0.03804065224053742 0.17124963798862328
1377478.5671773748 0.039280961586300796 0.17437897262503244 0.9607190384136992 -0.17437897262503244 0.9607190384136992 -0.17437897262503244 0.039280961586300796 0.17437897262503244
1405327.8512148394 0.04056521395716324 0.17755966307972953 0.9594347860428367 -0.17755966307972953 0.9594347860428367 -0.17755966307972953 0.04056521395716324 0.17755966307972953
1433740.1803986167 0.04189502895863371 0.18079206911772513 0.9581049710413665 -0.18079206911772513 0.9581049710413665 -0.18079206911772513 0.04189502895863371 0.18079206911772513
1462726.9381393674 0.04327207428813895 0.1840765161451106 0.9567279257118609 -0.18407651614511059 0.9567279257118609 -0.18407651614511059 0.04327207428813895 0.1840765161451106
1492299.737992774 0.04469806613624046 0.18741329264303638 0.9553019338637596 -0.18741329264303638 0.9553019338637596 -0.18741329264303638 0.04469806613624046 0.18741329264303638
1522470.428312519 0.04617476951695767 0.19080264749314108 0.9538252304830424 -0.19080264749314108 0.9538252304830424 -0.19080264749314108 0.04617476951695767 0.19080264749314108
1553251.0969973304 0.047703998519283565 0.19424478719208207 0.9522960014807165 -0.19424478719208207 0.9522960014807165 -0.19424478719208207 0.047703998519283565 0.19424478719208207
1584654.076334004 0.049287616471406344 0.19773987295313636 0.9507123835285936 -0.19773987295313633 0.9507123835285936 -0.19773987295313633 0.049287616471406344 0.19773987295313636
1616691.9479383389 0.05092753600856609 0.20128801769320664 0.9490724639914339 -0.20128801769320664 0.9490724639914339 -0.20128801769320664 0.05092753600856609 0.20128801769320664
1649377.5477959653 0.05262571903488325 0.20488928290399339 0.9473742809651169 -0.20488928290399339 0.9473742809651169 -0.20488928290399339 0.05262571903488325 0.20488928290399339
1682723.9714050898 0.054384176568904555 0.20854367540658295 0.9456158234310954 -0.20854367540658295 0.9456158234310954 -0.20854367540658295 0.054384176568904555 0.20854367540658295
1716744.5790232092 0.05620496846201448 0.21225114398925016 0.9437950315379854 -0.21225114398925016 0.9437950315379854 -0.21225114398925016 0.05620496846201448 0.21225114398925016
1751453.001019904 0.05809020297827392 0.21601157592889583 0.9419097970217261 -0.21601157592889583 0.9419097970217261 -0.21601157592889583 0.05809020297827392 0.21601157592889583
1786863.143337851 0.060042036223665655 0.21982479339723054 0.9399579637763343 -0.21982479339723057 0.9399579637763343 -0.21982479339723057 0.060042036223665655 0.21982479339723054
1822989.1930642454 0.062062671412160486 0.22369054975358077 0.9379373285878394 -0.22369054975358077 0.9379373285878394 -0.22369054975358077 0.062062671412160486 0.22369054975358077
1859845.6241148617 0.06415435795547214 0.2276085257270395 0.935845642044528 -0.2276085257270395 0.935845642044528 -0.2276085257270395 0.06415435795547214 0.2276085257270395
1897447.2030330333 0.06631939036285142 0.23157832549161242 0.9336806096371487 -0.23157832549161242 0.9336806096371487 -0.23157832549161242 0.06631939036285142 0.23157832549161242
1935808.994905876 0.06856010693678327 0.23559947263901884 0.9314398930632168 -0.23559947263901887 0.9314398930632168 -0.23559947263901887 0.06856010693678327 0.23559947263901884
1974946.3694001175 0.07087888825000964 0.2396714060549077 0.9291211117499903 -0.2396714060549077 0.9291211117499903 -0.2396714060549077 0.07087888825000964 0.2396714060549077
2014875.0069199642 0.07327815538890906 0.24379347570543805 0.926721844611091 -0.24379347570543805 0.926721844611091 -0.24379347570543805 0.07327815538890906 0.24379347570543805
2055610.904889458 0.07576036794793198 0.24796493834245298 0.9242396320520682 -0.247964938342453 0.9242396320520682 -0.247964938342453 0.07576036794793198 0.24796493834245298
2097170.3841618528 0.07832802175953253 0.2521849531368496 0.9216719782404673 -0.2521849531368496 0.9216719782404673 -0.2521849531368496 0.07832802175953253 0.2521849531368496
2139570.0955585684 0.08098364634385816 0.2564525772512119 0.9190163536561418 -0.2564525772512119 0.9190163536561418 -0.2564525772512119 0.08098364634385816 0.2564525772512119
2182827.0265403506 0.08372980206237582 0.2607667613643325 0.9162701979376243 -0.2607667613643326 0.9162701979376243 -0.2607667613643326 0.08372980206237582 0.2607667613643325
2226958.508013302 0.08656907695963616 0.2651263451618957 0.9134309230403639 -0.2651263451618957 0.9134309230403639 -0.2651263451618957 0.08656907695963616 0.2651263451618957
2271982.2212725184 0.08950408327752352 0.26953005280933073 0.9104959167224764 -0.26953005280933073 0.9104959167224764 -0.26953005280933073 0.08950408327752352 0.26953005280933073
2317916.205086105 0.092537453626616 0.2739764884246639 0.907462546373384 -0.2739764884246639 0.907462546373384 -0.2739764884246639 0.092537453626616 0.2739764884246639
2364778.8629224156 0.09567183679970928 0.27846413157108774 0.9043281632002906 -0.27846413157108774 0.9043281632002906 -0.27846413157108774 0.09567183679970928 0.27846413157108774
2412588.9703234104 0.09890989321315506 0.28299133279094263 0.901090106786845 -0.28299133279094263 0.901090106786845 -0.28299133279094263 0.09890989321315506 0.28299133279094263
2461365.682427083 0.10225428996243421 0.287556309204817 0.8977457100375659 -0.287556309204817 0.8977457100375659 -0.287556309204817 0.10225428996243421 0.287556309204817
2511128.5416419753 0.10570769547936178 0.2921571402015608 0.8942923045206381 -0.2921571402015608 0.8942923045206381 -0.2921571402015608 0.10570769547936178 0.2921571402015608
2561897.48547685 0.10927277377949862 0.2967917632471028 0.8907272262205015 -0.2967917632471028 0.8907272262205015 -0.2967917632471028 0.10927277377949862 0.2967917632471028
2613692.85452866 0.11295217828976191 0.3014579698420994 0.887047821710238 -0.30145796984209944 0.887047821710238 -0.30145796984209944 0.11295217828976191 0.3014579698420994
2666535.4006320196 0.11674854524787517 0.3061534016605617 0.883251454752125 -0.3061534016605617 0.883251454752125 -0.3061534016605617 0.11674854524787517 0.3061534016605617
2720446.295173432 0.12066448666721388 0.31087554690371727 0.879335513332786 -0.31087554690371727 0.879335513332786 -0.31087554690371727 0.12066448666721388 0.31087554690371727
2775447.137573615 0.12470258286278116 0.315621736905419 0.8752974171372188 -0.315621736905419 0.8752974171372188 -0.315621736905419 0.12470258286278116 0.315621736905419
2831559.963941318 0.12886537453650992 0.3203891430273969 0.8711346254634901 -0.3203891430273969 0.8711346254634901 -0.3203891430273969 0.12886537453650992 0.3203891430273969
2888807.255902094 0.13315535442284013 0.3251747738845334 0.8668446455771598 -0.32517477388453336 0.8668446455771598 -0.32517477388453336 0.13315535442284013 0.3251747738845334
2947211.9496055758 0.13757495849856993 0.32997547294208757 0.8624250415014301 -0.32997547294208757 0.8624250415014301 -0.32997547294208757 0.13757495849856993 0.32997547294208757
3006797.4449148513 0.14212655676432567 0.3347879165283637 0.8578734432356744 -0.3347879165283637 0.8578734432356744 -0.3347879165283637 0.14212655676432567 0.3347879165283637
3067587.6147816274 0.14681244360865153 0.33960861230769107 0.8531875563913486 -0.33960861230769107 0.8531875563913486 -0.33960861230769107 0.14681244360865153 0.33960861230769107
3129606.8148109377 0.15163482776966264 0.3444338982596879 0.8483651722303374 -0.3444338982596879 0.8483651722303374 -0.3444338982596879 0.15163482776966264 0.3444338982596879
3192879.893019226 0.15659582191344618 0.3492599422116112 0.8434041780865539 -0.3492599422116112 0.8434041780865539 -0.3492599422116112 0.15659582191344618 0.3492599422116112
3257432.1997897103 0.16169743185290733 0.354082741971076 0.8383025681470927 -0.354082741971076 0.8383025681470927 -0.354082741971076 0.16169743185290733 0.354082741971076
3323289.598029029 0.16694154543552475 0.3588981261065307 0.8330584545644752 -0.3588981261065307 0.8330584545644752 -0.3588981261065307 0.16694154543552475 0.3588981261065307
3390478.4735292196 0.17232992113348553 0.36370175542255617 0.8276700788665146 -0.36370175542255617 0.8276700788665146 -0.36370175542255617 0.17232992113348553 0.36370175542255617
3459025.745539199 0.17786417637486912 0.3684891251762553 0.8221358236251309 -0.3684891251762553 0.8221358236251309 -0.3684891251762553 0.17786417637486912 0.3684891251762553
3528958.8775499705 0.18354577565991473 0.37325556807969035 0.8164542243400854 -0.3732555680796904 0.8164542243400854 -0.3732555680796904 0.18354577565991473 0.37325556807969035
3600305.8882978815 0.18937601851188984 0.37799625813145465 0.8106239814881101 -0.37799625813145465 0.8106239814881101 -0.37799625813145465 0.18937601851188984 0.37799625813145465
3673095.3629903416 0.19535602731761834 0.38270621531798926 0.8046439726823819 -0.38270621531798926 0.8046439726823819 -0.38270621531798926 0.19535602731761834 0.38270621531798926
3747356.4647584967 0.20148673511827953 0.3873803112221577 0.7985132648817205 -0.3873803112221577 0.7985132648817205 -0.3873803112221577 0.20148673511827953 0.3873803112221577
3823118.9463414503 0.20776887341657096 0.3920132755728163 0.792231126583429 -0.39201327557281634 0.792231126583429 -0.39201327557281634 0.20776887341657096 0.3920132755728163
3900413.1620067055 0.21420296007167638 0.3965997037646657 0.7857970399283236 -0.39659970376466563 0.7857970399283236 -0.39659970376466563 0.21420296007167638 0.3965997037646657
3979270.0797116193 0.22078928735860526 0.40113406537250246 0.7792107126413946 -0.40113406537250246 0.7792107126413946 -0.40113406537250246 0.22078928735860526 0.40113406537250246
4059721.293510725 0.22752791027329522 0.4056107136781256 0.7724720897267047 -0.4056107136781256 0.7724720897267047 -0.4056107136781256 0.22752791027329522 0.4056107136781256
4141799.0362139 0.23441863516928735 0.4100238962215627 0.7655813648307126 -0.4100238962215627 0.7655813648307126 -0.4100238962215627 0.23441863516928735 0.4100238962215627
4225536.192300457 0.24146100881571722 0.41436776638101536 0.7585389911842829 -0.41436776638101536 0.7585389911842829 -0.41436776638101536 0.24146100881571722 0.41436776638101536
4310966.311094318 0.24865430796970175 0.41863639597797964 0.7513456920302983 -0.41863639597797964 0.7513456920302983 -0.41863639597797964 0.24865430796970175 0.41863639597797964
4398123.620205573 0.2559975295588503 0.42282378889543687 0.7440024704411496 -0.4228237888954368 0.7440024704411496 -0.4228237888954368 0.2559975295588503 0.42282378889543687
4487043.0392437745 0.26348938157148144 0.4269238956878654 0.7365106184285185 -0.4269238956878653 0.7365106184285185 -0.4269238956878653 0.26348938157148144 0.4269238956878654
4577760.193808502 0.27112827475311063 0.43093062915220043 0.7288717252468894 -0.4309306291522004 0.7288717252468894 -0.4309306291522004 0.27112827475311063 0.43093062915220043
4670311.429762763 0.27891231520775955 0.43483788081880104 0.7210876847922405 -0.43483788081880104 0.7210876847922405 -0.43483788081880104 0.27891231520775955 0.43483788081880104
4764733.827794987 0.28683929800159413 0.43863953831112285 0.7131607019984059 -0.43863953831112285 0.7131607019984059 -0.43863953831112285 0.28683929800159413 0.43863953831112285
4861065.218275411 0.29490670186419526 0.44232950351221234 0.7050932981358049 -0.44232950351221234 0.7050932981358049 -0.44232950351221234 0.29490670186419526 0.44232950351221234
4959344.196412832 0.3031116850793935 0.4459017114654897 0.6968883149206064 -0.4459017114654897 0.6968883149206064 -0.4459017114654897 0.3031116850793935 0.4459017114654897
5059610.137717796 0.3114510826529807 0.44935014992669803 0.6885489173470193 -0.44935014992669803 0.6885489173470193 -0.44935014992669803 0.3114510826529807 0.44935014992669803
5161903.213778406 0.3199214048387132 0.4526688794735176 0.6800785951612868 -0.4526688794735176 0.6800785951612868 -0.4526688794735176 0.3199214048387132 0.4526688794735176
5266264.4083550945 0.328518837096873 0.4558520540693448 0.671481162903127 -0.45585205406934476 0.671481162903127 -0.45585205406934476 0.328518837096873 0.4558520540693448
5372735.53380077 0.3372392415512031 0.4588939419682665 0.662760758448797 -0.4588939419682665 0.662760758448797 -0.4588939419682665 0.3372392415512031 0.4588939419682665
5481359.247812959 0.3460781600003801 0.4617889468395029 0.65392183999962 -0.4617889468395029 0.65392183999962 -0.4617889468395029 0.3460781600003801 0.4617889468395029
5592179.070524632 0.35503081852933194 0.4645316289817051 0.6449691814706681 -0.464531628981705 0.6449691814706681 -0.464531628981705 0.35503081852933194 0.4645316289817051
5705239.401940555 0.36409213375376825 0.4671167264906513 0.6359078662462317 -0.4671167264906513 0.6359078662462317 -0.4671167264906513 0.36409213375376825 0.4671167264906513
5820585.5397261735 0.3732567207183563 0.46953917623823516 0.6267432792816436 -0.46953917623823516 0.6267432792816436 -0.46953917623823516 0.3732567207183563 0.46953917623823516
5938263.697356135 0.38251890245517356 0.4717941345163408 0.6174810975448266 -0.4717941345163407 0.6174810975448266 -0.4717941345163407 0.38251890245517356 0.4717941345163408
6058321.022629741 0.3918727211945604 0.4738769971963719 0.6081272788054395 -0.4738769971963719 0.6081272788054395 -0.4738769971963719 0.3918727211945604 0.4738769971963719
6180805.616560728 0.40131195120544894 0.4757834192539729 0.598688048794551 -0.47578341925397283 0.598688048794551 -0.47578341925397283 0.40131195120544894 0.4757834192539729
6305766.552648956 0.41083011322683627 0.4775093335089227 0.5891698867731638 -0.4775093335089227 0.5891698867731638 -0.4775093335089227 0.41083011322683627 0.4775093335089227
6433253.896541728 0.4204204904365558 0.47905096843239325 0.5795795095634441 -0.47905096843239314 0.5795795095634441 -0.47905096843239314 0.4204204904365558 0.47905096843239325
6563318.726092606 0.43007614588802434 0.48040486487774536 0.5699238541119755 -0.48040486487774536 0.5699238541119755 -0.48040486487774536 0.43007614588802434 0.48040486487774536
6696013.151825785 0.4397899413305005 0.4815678915968277 0.5602100586694996 -0.4815678915968277 0.5602100586694996 -0.4815678915968277 0.4397899413305005 0.4815678915968277
6831390.3378141755 0.4495545573137837 0.4825372594113063 0.5504454426862163 -0.4825372594113063 0.5504454426862163 -0.4825372594113063 0.4495545573137837 0.4825372594113063
6969504.522979628 0.4593625144644273 0.4833105339178397 0.5406374855355728 -0.4833105339178397 0.5406374855355728 -0.4833105339178397 0.4593625144644273 0.4833105339178397
7110411.042823766 0.46920619580769163 0.4838856466168273 0.5307938041923084 -0.4838856466168273 0.5307938041923084 -0.4838856466168273 0.46920619580769163 0.4838856466168273
7254166.351598182 0.4790778699978134 0.48426090436689595 0.5209221300021868 -0.48426090436689595 0.5209221300021868 -0.48426090436689595 0.4790778699978134 0.48426090436689595
7400828.044922853 0.4889697153088986 0.4844349970810781 0.5110302846911013 -0.4844349970810781 0.5110302846911013 -0.4844349970810781 0.4889697153088986 0.4844349970810781
7550454.882861849 0.4988738442300878 0.48440700359562755 0.5011261557699123 -0.48440700359562755 0.5011261557699123 -0.48440700359562755 0.4988738442300878 0.48440700359562755
7703106.813465575 0.508782328501663 0.4841763956583797 0.49121767149833684 -0.4841763956583797 0.49121767149833684 -0.4841763956583797 0.508782328501663 0.4841763956583797
7858844.9967889795 0.5186872244236708 0.48374304000030627 0.48131277557632934 -0.48374304000030627 0.48131277557632934 -0.48374304000030627 0.5186872244236708 0.48374304000030627
8017731.829395356 0.5285805982654489 0.48310719847116856 0.47141940173455105 -0.48310719847116856 0.47141940173455105 -0.48310719847116856 0.5285805982654489 0.48310719847116856
8179830.96935555 0.5384545516032682 0.4822695262377183 0.46154544839673195 -0.4822695262377183 0.46154544839673195 -0.4822695262377183 0.5384545516032682 0.4822695262377183
8345207.361752584 0.5483012464141176 0.481231068060452 0.45169875358588235 -0.4812310680604521 0.45169875358588235 -0.4812310680604521 0.5483012464141176 0.481231068060452
8513927.264701942 0.5581129297565052 0.47999325268225806 0.4418870702434948 -0.4799932526822581 0.4418870702434948 -0.4799932526822581 0.5581129297565052 0.47999325268225806
8686058.275897898 0.5678819578739006 0.4785578853791363 0.4321180421260995 -0.4785578853791363 0.4321180421260995 -0.4785578853791363 0.5678819578739006 0.4785578853791363
8861669.359696563 0.5776008195631012 0.47692713873929565 0.42239918043689895 -0.47692713873929565 0.42239918043689895 -0.47692713873929565 0.5776008195631012 0.47692713873929565
9040830.87474648 0.5872621586581798 0.4751035417521081 0.4127378413418203 -0.4751035417521081 0.4127378413418203 -0.4751035417521081 0.5872621586581798 0.4751035417521081
9223614.602177842 0.5968587954906615 0.4730899673024121 0.4031412045093385 -0.4730899673024121 0.4031412045093385 -0.4730899673024121 0.5968587954906615 0.4730899673024121
