! NFZ5BBW310LZ10
# Hz S RI R 50
!Freq.(Hz) S11(Real) S11(Imag) S21(Real) S21(Imag) S12(Real) S12(Imag) S22(Real) S22(Imag)
1000000.0 0.10182617729868061 0.27742530851633046 0.8981738227013194 -0.27742530851633046 0.8981738227013194 -0.27742530851633046 0.10182617729868061 0.27742530851633046
1020217.5806586457 0.10506819660003137 0.2816773118201993 0.8949318033999686 -0.2816773118201993 0.8949318033999686 -0.2816773118201993 0.10506819660003137 0.2816773118201993
1040843.9118849806 0.10840316778393545 0.28596303628320136 0.8915968322160644 -0.28596303628320136 0.8915968322160644 -0.28596303628320136 0.10840316778393545 0.28596303628320136
1061887.2576265757 0.11183336414560642 0.2902811629828675 0.8881666358543935 -0.2902811629828675 0.8881666358543935 -0.2902811629828675 0.11183336414560642 0.2902811629828675
1083356.0489080292 0.1153610804185733 0.29463025940138154 0.8846389195814267 -0.29463025940138154 0.8846389195814267 -0.29463025940138154 0.1153610804185733 0.29463025940138154
1105258.8872088592 0.11898862844997243 0.2990087743368956 0.8810113715500277 -0.29900877433689554 0.8810113715500277 -0.29900877433689554 0.11898862844997243 0.2990087743368956
1127604.5479096894 0.12271833241570208 0.303415032884717 0.877281667584298 -0.303415032884717 0.877281667584298 -0.303415032884717 0.12271833241570208 0.303415032884717
1150401.9838081095 0.1265525235639886 0.30784723152246646 0.8734474764360114 -0.30784723152246646 0.8734474764360114 -0.30784723152246646 0.1265525235639886 0.30784723152246646
1173660.328705616 0.13049353447799006 0.31230343333530125 0.8695064655220099 -0.31230343333530125 0.8695064655220099 -0.31230343333530125 0.13049353447799006 0.31230343333530125
1197388.9010670746 0.13454369285035464 0.31678156341921226 0.8654563071496455 -0.31678156341921226 0.8654563071496455 -0.31678156341921226 0.13454369285035464 0.31678156341921226
1221597.2077541656 0.13870531476516285 0.32127940450222936 0.8612946852348372 -0.3212794045022293 0.8612946852348372 -0.3212794045022293 0.13870531476516285 0.32127940450222936
1246294.947834312 0.14298069748542594 0.3257945928250911 0.8570193025145739 -0.3257945928250911 0.8570193025145739 -0.3257945928250911 0.14298069748542594 0.3257945928250911
1271492.016466615 0.14737211174728007 0.3303246143245141 0.8526278882527198 -0.3303246143245141 0.8526278882527198 -0.3303246143245141 0.14737211174728007 0.3303246143245141
1297198.5088663532 0.15188179356522566 0.33486680116363643 0.8481182064347743 -0.33486680116363643 0.8481182064347743 -0.33486680116363643 0.15188179356522566 0.33486680116363643
1323424.7243496338 0.15651193555620638 0.339418328655462 0.8434880644437937 -0.339418328655462 0.8434880644437937 -0.339418328655462 0.15651193555620638 0.339418328655462
1350181.1704598186 0.16126467779400394 0.3439762126261803 0.838735322205996 -0.3439762126261803 0.838735322205996 -0.3439762126261803 0.16126467779400394 0.3439762126261803
1377478.5671773748 0.16614209820934556 0.34853730726604853 0.8338579017906544 -0.34853730726604853 0.8338579017906544 -0.34853730726604853 0.16614209820934556 0.34853730726604853
1405327.8512148394 0.17114620255526672 0.3530983035160599 0.8288537974447332 -0.3530983035160599 0.8288537974447332 -0.3530983035160599 0.17114620255526672 0.3530983035160599
1433740.1803986167 0.17627891396164824 0.3576557280388643 0.8237210860383518 -0.3576557280388643 0.8237210860383518 -0.3576557280388643 0.17627891396164824 0.3576557280388643
1462726.9381393674 0.18154206210741838 0.36220594282229757 0.8184579378925817 -0.3622059428222976 0.8184579378925817 -0.3622059428222976 0.18154206210741838 0.36220594282229757
1492299.737992774 0.18693737204368865 0.36674514546339776 0.8130626279563113 -0.3667451454633978 0.8130626279563113 -0.3667451454633978 0.18693737204368865 0.36674514546339776
1522470.428312519 0.1924664527060157 0.3712693701798794 0.8075335472939842 -0.37126937017987943 0.8075335472939842 -0.37126937017987943 0.1924664527060157 0.3712693701798794
1553251.0969973304 0.1981307851590672 0.3757744895946876 0.8018692148409328 -0.37577448959468757 0.8018692148409328 -0.37577448959468757 0.1981307851590672 0.3757744895946876
1584654.076334004 0.20393171062213405 0.3802562173373964 0.7960682893778659 -0.3802562173373964 0.7960682893778659 -0.3802562173373964 0.20393171062213405 0.3802562173373964
1616691.9479383389 0.20987041832916975 0.38471011150383755 0.7901295816708302 -0.3847101115038375 0.7901295816708302 -0.3847101115038375 0.20987041832916975 0.38471011150383755
1649377.5477959653 0.2159479332822802 0.38913157901239714 0.7840520667177199 -0.38913157901239714 0.7840520667177199 -0.38913157901239714 0.2159479332822802 0.38913157901239714
1682723.9714050898 0.22216510396278488 0.39351588089187667 0.7778348960372151 -0.39351588089187667 0.7778348960372151 -0.39351588089187667 0.22216510396278488 0.39351588089187667
1716744.5790232092 0.2285225900690572 0.39785813853165164 0.7714774099309428 -0.39785813853165164 0.7714774099309428 -0.39785813853165164 0.2285225900690572 0.39785813853165164
1751453.001019904 0.23502085035526396 0.40215334092005683 0.764979149644736 -0.40215334092005683 0.764979149644736 -0.40215334092005683 0.23502085035526396 0.40215334092005683
1786863.143337851 0.24166013064977315 0.40639635289147485 0.7583398693502269 -0.4063963528914748 0.7583398693502269 -0.4063963528914748 0.24166013064977315 0.40639635289147485
1822989.1930642454 0.2484404521363239 0.41058192439649 0.7515595478636762 -0.41058192439649 0.7515595478636762 -0.41058192439649 0.2484404521363239 0.41058192439649
1859845.6241148617 0.2553615999849387 0.41470470080270955 0.7446384000150612 -0.41470470080270955 0.7446384000150612 -0.41470470080270955 0.2553615999849387 0.41470470080270955
1897447.2030330333 0.2624231124229477 0.41875923422646155 0.7375768875770522 -0.41875923422646166 0.7375768875770522 -0.41875923422646166 0.2624231124229477 0.41875923422646155
1935808.994905876 0.26962427033926767 0.4227399958875813 0.7303757296607325 -0.4227399958875813 0.7303757296607325 -0.4227399958875813 0.26962427033926767 0.4227399958875813
1974946.3694001175 0.2769640875171571 0.42664138947093666 0.723035912482843 -0.42664138947093666 0.723035912482843 -0.42664138947093666 0.2769640875171571 0.42664138947093666
2014875.0069199642 0.2844413015919662 0.43045776546928866 0.7155586984080338 -0.4304577654692886 0.7155586984080338 -0.4304577654692886 0.2844413015919662 0.43045776546928866
2055610.904889458 0.2920543658308057 0.43418343647257446 0.7079456341691943 -0.43418343647257446 0.7079456341691943 -0.43418343647257446 0.2920543658308057 0.43418343647257446
2097170.3841618528 0.2998014418305162 0.4378126933588576 0.7001985581694837 -0.4378126933588576 0.7001985581694837 -0.4378126933588576 0.2998014418305162 0.4378126933588576
2139570.0955585684 0.3076803932287355 0.44133982233208807 0.6923196067712646 -0.44133982233208807 0.6923196067712646 -0.44133982233208807 0.3076803932287355 0.44133982233208807
2182827.0265403506 0.3156887805201754 0.44475912274157153 0.6843112194798247 -0.44475912274157153 0.6843112194798247 -0.44475912274157153 0.3156887805201754 0.44475912274157153
2226958.508013302 0.323823857066378 0.4480649256077916 0.6761761429336219 -0.4480649256077916 0.6761761429336219 -0.4480649256077916 0.323823857066378 0.4480649256077916
2271982.2212725184 0.33208256638218975 0.451251612769093 0.6679174336178103 -0.451251612769093 0.6679174336178103 -0.451251612769093 0.33208256638218975 0.451251612769093
2317916.205086105 0.34046154077592916 0.45431363655386364 0.659538459224071 -0.4543136365538637 0.659538459224071 -0.4543136365538637 0.34046154077592916 0.45431363655386364
2364778.8629224156 0.3489571014127711 0.45724553987341227 0.651042898587229 -0.45724553987341227 0.651042898587229 -0.45724553987341227 0.3489571014127711 0.45724553987341227
2412588.9703234104 0.35756525986217547 0.46004197662186436 0.6424347401378246 -0.4600419766218643 0.6424347401378246 -0.4600419766218643 0.35756525986217547 0.46004197662186436
2461365.682427083 0.3662817211803626 0.4626977322612809 0.6337182788196374 -0.46269773226128086 0.6337182788196374 -0.46269773226128086 0.3662817211803626 0.4626977322612809
2511128.5416419753 0.37510188856789445 0.46520774446298 0.6248981114321057 -0.46520774446298 0.6248981114321057 -0.46520774446298 0.37510188856789445 0.46520774446298
2561897.48547685 0.3840208696304606 0.4675671236698761 0.6159791303695392 -0.4675671236698761 0.6159791303695392 -0.4675671236698761 0.3840208696304606 0.4675671236698761
2613692.85452866 0.39303348425810963 0.46977117343969843 0.6069665157418904 -0.4697711734396985 0.6069665157418904 -0.4697711734396985 0.39303348425810963 0.46977117343969843
2666535.4006320196 0.40213427412451735 0.47181541042533287 0.5978657258754827 -0.47181541042533287 0.5978657258754827 -0.47181541042533287 0.40213427412451735 0.47181541042533287
2720446.295173432 0.41131751379362536 0.4736955838463859 0.5886824862063746 -0.4736955838463859 0.5886824862063746 -0.4736955838463859 0.41131751379362536 0.4736955838463859
2775447.137573615 0.4205772234062666 0.47540769430548624 0.5794227765937334 -0.47540769430548613 0.5794227765937334 -0.47540769430548613 0.4205772234062666 0.47540769430548624
2831559.963941318 0.4299071829044061 0.476948011803906 0.5700928170955938 -0.476948011803906 0.5700928170955938 -0.476948011803906 0.4299071829044061 0.476948011803906
2888807.255902094 0.43930094773560724 0.47831309281385537 0.5606990522643929 -0.47831309281385537 0.5606990522643929 -0.47831309281385537 0.43930094773560724 0.47831309281385537
2947211.9496055758 0.44875186596543665 0.47949979626930156 0.5512481340345634 -0.47949979626930156 0.5512481340345634 -0.47949979626930156 0.44875186596543665 0.47949979626930156
3006797.4449148513 0.4582530967110233 0.48050529834339994 0.5417469032889766 -0.48050529834339994 0.5417469032889766 -0.48050529834339994 0.4582530967110233 0.48050529834339994
3067587.6147816274 0.4677976297950815 0.4813271058885439 0.5322023702049186 -0.4813271058885439 0.5322023702049186 -0.4813271058885439 0.4677976297950815 0.4813271058885439
3129606.8148109377 0.47737830650661267 0.4819630684246089 0.5226216934933873 -0.4819630684246089 0.5226216934933873 -0.4819630684246089 0.47737830650661267 0.4819630684246089
3192879.893019226 0.4869878413424492 0.48241138857206234 0.5130121586575508 -0.48241138857206234 0.5130121586575508 -0.48241138857206234 0.4869878413424492 0.48241138857206234
3257432.1997897103 0.4966188445929632 0.4826706308391234 0.5033811554070368 -0.4826706308391234 0.5033811554070368 -0.4826706308391234 0.4966188445929632 0.4826706308391234
3323289.598029029 0.5062638456258514 0.4827397286859335 0.4937361543741486 -0.4827397286859335 0.4937361543741486 -0.4827397286859335 0.5062638456258514 0.4827397286859335
3390478.4735292196 0.5159153167140544 0.48261798980355236 0.48408468328594556 -0.48261798980355236 0.48408468328594556 -0.48261798980355236 0.5159153167140544 0.48261798980355236
3459025.745539199 0.5255656972477338 0.48230509956133416 0.4744343027522663 -0.48230509956133416 0.4744343027522663 -0.48230509956133416 0.5255656972477338 0.48230509956133416
3528958.8775499705 0.5352074181659053 0.4818011225926317 0.46479258183409466 -0.4818011225926317 0.46479258183409466 -0.4818011225926317 0.5352074181659053 0.4818011225926317
3600305.8882978815 0.5448329264408985 0.4811065025056068 0.4551670735591016 -0.4811065025056069 0.4551670735591016 -0.4811065025056069 0.5448329264408985 0.4811065025056068
3673095.3629903416 0.5544347094483131 0.4802220597229323 0.445565290551687 -0.48022205972293236 0.445565290551687 -0.48022205972293236 0.5544347094483131 0.4802220597229323
3747356.4647584967 0.5640053190565949 0.47914898747112056 0.43599468094340516 -0.47914898747112056 0.43599468094340516 -0.47914898747112056 0.5640053190565949 0.47914898747112056
3823118.9463414503 0.5735373952737207 0.4778888459568527 0.4264626047262793 -0.4778888459568527 0.4264626047262793 -0.4778888459568527 0.5735373952737207 0.4778888459568527
3900413.1620067055 0.5830236892936989 0.47644355478377964 0.41697631070630115 -0.47644355478377964 0.41697631070630115 -0.47644355478377964 0.5830236892936989 0.47644355478377964
3979270.0797116193 0.5924570857925952 0.47481538367858217 0.4075429142074049 -0.47481538367858217 0.4075429142074049 -0.47481538367858217 0.5924570857925952 0.47481538367858217
4059721.293510725 0.6018306243324194 0.473006941609415 0.39816937566758065 -0.47300694160941503 0.39816937566758065 -0.47300694160941503 0.6018306243324194 0.473006941609415
4141799.0362139 0.6111375197413443 0.47102116439301894 0.38886248025865555 -0.471021164393019 0.38886248025865555 -0.471021164393019 0.6111375197413443 0.47102116439301894
4225536.192300457 0.6203711813501835 0.4688613008985977 0.3796288186498164 -0.4688613008985977 0.3796288186498164 -0.4688613008985977 0.6203711813501835 0.4688613008985977
4310966.311094318 0.629525230977634 0.4665308979668913 0.37047476902236587 -0.46653089796689123 0.37047476902236587 -0.46653089796689123 0.629525230977634 0.4665308979668913
4398123.620205573 0.6385935195703122 0.4640337841716189 0.36140648042968776 -0.4640337841716189 0.36140648042968776 -0.4640337841716189 0.6385935195703122 0.4640337841716189
4487043.0392437745 0.6475701424178097 0.46137405255752845 0.35242985758219025 -0.46137405255752834 0.35242985758219025 -0.46137405255752834 0.6475701424178097 0.46137405255752845
4577760.193808502 0.6564494528777184 0.45855604249463716 0.3435505471222816 -0.4585560424946372 0.3435505471222816 -0.4585560424946372 0.6564494528777184 0.45855604249463716
4670311.429762763 0.6652260745605271 0.45558432079185635 0.33477392543947304 -0.45558432079185635 0.33477392543947304 -0.45558432079185635 0.6652260745605271 0.45558432079185635
4764733.827794987 0.673894911939304 0.45246366221507367 0.32610508806069616 -0.45246366221507367 0.32610508806069616 -0.45246366221507367 0.673894911939304 0.45246366221507367
4861065.218275411 0.6824511593639296 0.44919902955496704 0.31754884063607053 -0.44919902955496704 0.31754884063607053 -0.44919902955496704 0.6824511593639296 0.44919902955496704
4959344.196412832 0.6908903084741144 0.4457955533884094 0.3091096915258856 -0.4457955533884094 0.3091096915258856 -0.4457955533884094 0.6908903084741144 0.4457955533884094
5059610.137717796 0.6992081540193833 0.44225851167438207 0.3007918459806168 -0.442258511674382 0.3007918459806168 -0.442258511674382 0.6992081540193833 0.44225851167438207
5161903.213778406 0.707400798107413 0.4385933093209707 0.29259920189258704 -0.4385933093209707 0.29259920189258704 -0.4385933093209707 0.707400798107413 0.4385933093209707
5266264.4083550945 0.7154646529145032 0.4348054578543901 0.2845353470854969 -0.43480545785439007 0.2845353470854969 -0.43480545785439007 0.7154646529145032 0.4348054578543901
5372735.53380077 0.723396441903329 0.43090055531422095 0.27660355809667087 -0.43090055531422095 0.27660355809667087 -0.43090055531422095 0.723396441903329 0.43090055531422095
5481359.247812959 0.7311931996034694 0.4268842664912987 0.26880680039653065 -0.4268842664912987 0.26880680039653065 -0.4268842664912987 0.7311931996034694 0.4268842664912987
5592179.070524632 0.7388522700193606 0.42276230361612877 0.2611477299806394 -0.42276230361612865 0.2611477299806394 -0.42276230361612865 0.7388522700193606 0.42276230361612877
5705239.401940555 0.7463713037383108 0.41854040759648575 0.2536286962616892 -0.4185404075964857 0.2536286962616892 -0.4185404075964857 0.7463713037383108 0.41854040759648575
5820585.5397261735 0.7537482538179561 0.41422432989312374 0.2462517461820439 -0.4142243298931237 0.2462517461820439 -0.4142243298931237 0.7537482538179561 0.41422432989312374
5938263.697356135 0.7609813705380511 0.40981981511248167 0.23901862946194877 -0.4098198151124818 0.23901862946194877 -0.4098198151124818 0.7609813705380511 0.40981981511248167
6058321.022629741 0.7680691951057826 0.40533258438501957 0.23193080489421738 -0.4053325843850196 0.23193080489421738 -0.4053325843850196 0.7680691951057826 0.40533258438501957
6180805.616560728 0.775010552406896 0.400768319587542 0.22498944759310405 -0.400768319587542 0.22498944759310405 -0.400768319587542 0.775010552406896 0.400768319587542
6305766.552648956 0.7818045428968863 0.39613264845768104 0.2181954571031137 -0.39613264845768104 0.2181954571031137 -0.39613264845768104 0.7818045428968863 0.39613264845768104
6433253.896541728 0.7884505337273798 0.3914311306387291 0.21154946627262022 -0.3914311306387291 0.21154946627262022 -0.3914311306387291 0.7884505337273798 0.3914311306387291
6563318.726092606 0.7949481492026997 0.38666924468336716 0.20505185079730037 -0.3866692446833672 0.20505185079730037 -0.3866692446833672 0.7949481492026997 0.38666924468336716
6696013.151825785 0.8012972606605566 0.3818523760355848 0.1987027393394434 -0.3818523760355848 0.1987027393394434 -0.3818523760355848 0.8012972606605566 0.3818523760355848
6831390.3378141755 0.8074979758688849 0.37698580600135834 0.19250202413111503 -0.3769858060013584 0.19250202413111503 -0.3769858060013584 0.8074979758688849 0.37698580600135834
6969504.522979628 0.8135506280282166 0.37207470171045526 0.18644937197178346 -0.3720747017104552 0.18644937197178346 -0.3720747017104552 0.8135506280282166 0.37207470171045526
7110411.042823766 0.8194557644656629 0.36712410706416776 0.18054423553433704 -0.36712410706416776 0.18054423553433704 -0.36712410706416776 0.8194557644656629 0.36712410706416776
7254166.351598182 0.8252141351027278 0.36213893465684827 0.17478586489727221 -0.36213893465684827 0.17478586489727221 -0.36213893465684827 0.8252141351027278 0.36213893465684827
7400828.044922853 0.8308266807748396 0.3571239586528651 0.16917331922516055 -0.35712395865286506 0.16917331922516055 -0.35712395865286506 0.8308266807748396 0.3571239586528651
7550454.882861849 0.8362945214758079 0.3520838085950226 0.1637054785241921 -0.3520838085950226 0.1637054785241921 -0.3520838085950226 0.8362945214758079 0.3520838085950226
7703106.813465575 0.841618944595422 0.34702296411561107 0.1583810554045781 -0.34702296411561107 0.1583810554045781 -0.34702296411561107 0.841618944595422 0.34702296411561107
7858844.9967889795 0.8468013932132348 0.34194575051703635 0.1531986067867652 -0.34194575051703635 0.1531986067867652 -0.34194575051703635 0.8468013932132348 0.34194575051703635
8017731.829395356 0.8518434545062816 0.3368563351854376 0.14815654549371837 -0.33685633518543756 0.14815654549371837 -0.33685633518543756 0.8518434545062816 0.3368563351854376
8179830.96935555 0.8567468483231189 0.33175872479778895 0.1432531516768811 -0.33175872479778895 0.1432531516768811 -0.33175872479778895 0.8567468483231189 0.33175872479778895
8345207.361752584 0.8615134159712403 0.32665676328067966 0.13848658402875963 -0.32665676328067966 0.13848658402875963 -0.32665676328067966 0.8615134159712403 0.32665676328067966
8513927.264701942 0.8661451092596513 0.32155413047723425 0.13385489074034881 -0.32155413047723425 0.13385489074034881 -0.32155413047723425 0.8661451092596513 0.32155413047723425
8686058.275897898 0.8706439798332319 0.3164543414774399 0.12935602016676823 -0.3164543414774399 0.12935602016676823 -0.3164543414774399 0.8706439798332319 0.3164543414774399
8861669.359696563 0.8750121688305332 0.31136074656644264 0.12498783116946667 -0.31136074656644264 0.12498783116946667 -0.31136074656644264 0.8750121688305332 0.31136074656644264
9040830.87474648 0.8792518968918597 0.3062765317451158 0.12074810310814024 -0.3062765317451158 0.12074810310814024 -0.3062765317451158 0.8792518968918597 0.3062765317451158
9223614.602177842 0.8833654545399233 0.3012047197773572 0.11663454546007655 -0.30120471977735713 0.11663454546007655 -0.30120471977735713 0.8833654545399233 0.3012047197773572
