! NFZ5BBW170LZ10
# Hz S RI R 50
!Freq.(Hz) S11(Real) S11(Imag) S21(Real) S21(Imag) S12(Real) S12(Imag) S22(Real) S22(Imag)
1000000.0 0.035625352599573265 0.16128477821952203 0.9643746474004266 -0.161284778219522 0.9643746474004266 -0.161284778219522 0.035625352599573265 0.16128477821952203
1020217.5806586457 0.036759038522443055 0.16419101010808923 0.9632409614775569 -0.16419101010808926 0.9632409614775569 -0.16419101010808926 0.036759038522443055 0.16419101010808923
1040843.9118849806 0.03792976374045881 0.1671451177310994 0.962070236259541 -0.1671451177310994 0.962070236259541 -0.1671451177310994 0.03792976374045881 0.1671451177310994
1061887.2576265757 0.03913888460538243 0.17014761386566077 0.9608611153946176 -0.1701476138656608 0.9608611153946176 -0.1701476138656608 0.03913888460538243 0.17014761386566077
1083356.0489080292 0.0403878058121523 0.17319898922594332 0.9596121941878478 -0.17319898922594332 0.9596121941878478 -0.17319898922594332 0.0403878058121523 0.17319898922594332
1105258.8872088592 0.041677981119286014 0.17629971009516018 0.958322018880714 -0.17629971009516018 0.958322018880714 -0.17629971009516018 0.041677981119286014 0.17629971009516018
1127604.5479096894 0.043010914005126154 0.17945021586014245 0.9569890859948739 -0.17945021586014245 0.9569890859948739 -0.17945021586014245 0.043010914005126154 0.17945021586014245
1150401.9838081095 0.044388158254773824 0.18265091644715634 0.9556118417452262 -0.18265091644715634 0.9556118417452262 -0.18265091644715634 0.044388158254773824 0.18265091644715634
1173660.328705616 0.045811318472196425 0.1859021896576302 0.9541886815278037 -0.18590218965763022 0.9541886815278037 -0.18590218965763022 0.045811318472196425 0.1859021896576302
1197388.9010670746 0.04728205051159925 0.18920437840249826 0.9527179494884007 -0.18920437840249826 0.9527179494884007 -0.18920437840249826 0.04728205051159925 0.18920437840249826
1221597.2077541656 0.048802061821720616 0.192557787833948 0.9511979381782794 -0.19255778783394803 0.9511979381782794 -0.19255778783394803 0.048802061821720616 0.192557787833948
1246294.947834312 0.050373111696246864 0.1959626823734776 0.9496268883037532 -0.1959626823734776 0.9496268883037532 -0.1959626823734776 0.050373111696246864 0.1959626823734776
1271492.016466615 0.051997011423050535 0.1994192826353367 0.9480029885769494 -0.1994192826353367 0.9480029885769494 -0.1994192826353367 0.051997011423050535 0.1994192826353367
1297198.5088663532 0.0536756243244329 0.20292776224464007 0.9463243756755669 -0.20292776224464004 0.9463243756755669 -0.20292776224464004 0.0536756243244329 0.20292776224464007
1323424.7243496338 0.05541086568000929 0.20648824454972317 0.9445891343199908 -0.20648824454972317 0.9445891343199908 -0.20648824454972317 0.05541086568000929 0.20648824454972317
1350181.1704598186 0.05720470252330966 0.21010079922864403 0.9427952974766903 -0.21010079922864403 0.9427952974766903 -0.21010079922864403 0.05720470252330966 0.21010079922864403
1377478.5671773748 0.05905915330258898 0.2137654387901437 0.9409408466974111 -0.2137654387901437 0.9409408466974111 -0.2137654387901437 0.05905915330258898 0.2137654387901437
1405327.8512148394 0.06097628739575313 0.21748211496985767 0.9390237126042468 -0.21748211496985767 0.9390237126042468 -0.21748211496985767 0.06097628739575313 0.21748211496985767
1433740.1803986167 0.06295822446871353 0.22125071502312554 0.9370417755312864 -0.22125071502312554 0.9370417755312864 -0.22125071502312554 0.06295822446871353 0.22125071502312554
1462726.9381393674 0.06500713366589506 0.2250710579163862 0.9349928663341049 -0.2250710579163862 0.9349928663341049 -0.2250710579163862 0.06500713366589506 0.2250710579163862
1492299.737992774 0.06712523262104206 0.22894289041986937 0.932874767378958 -0.22894289041986937 0.932874767378958 -0.22894289041986937 0.06712523262104206 0.22894289041986937
1522470.428312519 0.0693147862759074 0.23286588310510972 0.9306852137240926 -0.23286588310510975 0.9306852137240926 -0.23286588310510975 0.0693147862759074 0.23286588310510972
1553251.0969973304 0.07157810549387263 0.23683962625171456 0.9284218945061274 -0.23683962625171456 0.9284218945061274 -0.23683962625171456 0.07157810549387263 0.23683962625171456
1584654.076334004 0.0739175454550513 0.24086362566882166 0.9260824545449486 -0.24086362566882166 0.9260824545449486 -0.24086362566882166 0.0739175454550513 0.24086362566882166
1616691.9479383389 0.07633550381897104 0.24493729843778292 0.923664496181029 -0.24493729843778292 0.923664496181029 -0.24493729843778292 0.07633550381897104 0.24493729843778292
1649377.5477959653 0.07883441864053475 0.24905996858381022 0.9211655813594654 -0.24905996858381022 0.9211655813594654 -0.24905996858381022 0.07883441864053475 0.24905996858381022
1682723.9714050898 0.0814167660246313 0.25323086268562256 0.9185832339753688 -0.25323086268562256 0.9185832339753688 -0.25323086268562256 0.0814167660246313 0.25323086268562256
1716744.5790232092 0.08408505750451357 0.25744910543353206 0.9159149424954866 -0.25744910543353206 0.9159149424954866 -0.25744910543353206 0.08408505750451357 0.25744910543353206
1751453.001019904 0.08684183712890668 0.26171371514791014 0.9131581628710932 -0.26171371514791014 0.9131581628710932 -0.26171371514791014 0.08684183712890668 0.26171371514791014
1786863.143337851 0.08968967824275469 0.26602359927157304 0.9103103217572454 -0.26602359927157304 0.9103103217572454 -0.26602359927157304 0.08968967824275469 0.26602359927157304
1822989.1930642454 0.0926311799465814 0.2703775498513166 0.9073688200534186 -0.2703775498513166 0.9073688200534186 -0.2703775498513166 0.0926311799465814 0.2703775498513166
1859845.6241148617 0.09566896321964433 0.27477423902561665 0.9043310367803556 -0.27477423902561665 0.9043310367803556 -0.27477423902561665 0.09566896321964433 0.27477423902561665
1897447.2030330333 0.09880566669240873 0.2792122145373692 0.9011943333075911 -0.2792122145373692 0.9011943333075911 -0.2792122145373692 0.09880566669240873 0.2792122145373692
1935808.994905876 0.10204394205438913 0.2836898952924958 0.8979560579456108 -0.2836898952924958 0.8979560579456108 -0.2836898952924958 0.10204394205438913 0.2836898952924958
1974946.3694001175 0.1053864490840976 0.28820556698723127 0.8946135509159022 -0.28820556698723127 0.8946135509159022 -0.28820556698723127 0.1053864490840976 0.28820556698723127
2014875.0069199642 0.10883585028873748 0.2927573778289856 0.8911641497112625 -0.2927573778289856 0.8911641497112625 -0.2927573778289856 0.10883585028873748 0.2927573778289856
2055610.904889458 0.11239480514238236 0.29734333437775673 0.8876051948576177 -0.29734333437775673 0.8876051948576177 -0.29734333437775673 0.11239480514238236 0.29734333437775673
2097170.3841618528 0.11606596391271821 0.30196129753720075 0.8839340360872818 -0.30196129753720075 0.8839340360872818 -0.30196129753720075 0.11606596391271821 0.30196129753720075
2139570.0955585684 0.11985196106800222 0.30660897872658993 0.8801480389319978 -0.30660897872658993 0.8801480389319978 -0.30660897872658993 0.11985196106800222 0.30660897872658993
2182827.0265403506 0.12375540825772745 0.31128393626699435 0.8762445917422725 -0.31128393626699435 0.8762445917422725 -0.31128393626699435 0.12375540825772745 0.31128393626699435
2226958.508013302 0.12777888686258507 0.3159835720170917 0.872221113137415 -0.3159835720170917 0.872221113137415 -0.3159835720170917 0.12777888686258507 0.3159835720170917
2271982.2212725184 0.1319249401117048 0.3207051282960063 0.8680750598882954 -0.32070512829600634 0.8680750598882954 -0.32070512829600634 0.1319249401117048 0.3207051282960063
2317916.205086105 0.13619606476782561 0.32544568513247635 0.8638039352321744 -0.3254456851324763 0.8638039352321744 -0.3254456851324763 0.13619606476782561 0.32544568513247635
2364778.8629224156 0.14059470238402796 0.33020215788141793 0.8594052976159721 -0.33020215788141793 0.8594052976159721 -0.33020215788141793 0.14059470238402796 0.33020215788141793
2412588.9703234104 0.1451232301389256 0.33497129525055075 0.8548767698610744 -0.33497129525055075 0.8548767698610744 -0.33497129525055075 0.1451232301389256 0.33497129525055075
2461365.682427083 0.1497839512607999 0.33974967778115384 0.8502160487392001 -0.33974967778115384 0.8502160487392001 -0.33974967778115384 0.1497839512607999 0.33974967778115384
2511128.5416419753 0.15457908505502474 0.3445337168281647 0.8454209149449752 -0.3445337168281647 0.8454209149449752 -0.3445337168281647 0.15457908505502474 0.3445337168281647
2561897.48547685 0.1595107565533018 0.3493196540857075 0.8404892434466982 -0.3493196540857074 0.8404892434466982 -0.3493196540857074 0.1595107565533018 0.3493196540857075
2613692.85452866 0.16458098580766084 0.3541035617046654 0.835419014192339 -0.35410356170466545 0.835419014192339 -0.35410356170466545 0.16458098580766084 0.3541035617046654
2666535.4006320196 0.16979167685688895 0.3588813430490829 0.8302083231431111 -0.3588813430490829 0.8302083231431111 -0.3588813430490829 0.16979167685688895 0.3588813430490829
2720446.295173432 0.1751446063979749 0.3636487341379088 0.8248553936020251 -0.3636487341379089 0.8248553936020251 -0.3636487341379089 0.1751446063979749 0.3636487341379088
2775447.137573615 0.18064141220030602 0.3684013058178844 0.819358587799694 -0.3684013058178844 0.819358587799694 -0.3684013058178844 0.18064141220030602 0.3684013058178844
2831559.963941318 0.18628358130565398 0.37313446671213424 0.813716418694346 -0.37313446671213424 0.813716418694346 -0.37313446671213424 0.18628358130565398 0.37313446671213424
2888807.255902094 0.19207243806240665 0.3778434669872321 0.8079275619375935 -0.37784346698723215 0.8079275619375935 -0.37784346698723215 0.19207243806240665 0.3778434669872321
2947211.9496055758 0.19800913204801335 0.3825234029791454 0.8019908679519867 -0.3825234029791454 0.8019908679519867 -0.3825234029791454 0.19800913204801335 0.3825234029791454
3006797.4449148513 0.204094625939102 0.3871692227154461 0.7959053740608979 -0.3871692227154461 0.7959053740608979 -0.3871692227154461 0.204094625939102 0.3871692227154461
3067587.6147816274 0.2103296833941868 0.3917757323675216 0.7896703166058132 -0.3917757323675216 0.7896703166058132 -0.3917757323675216 0.2103296833941868 0.3917757323675216
3129606.8148109377 0.2167148570192027 0.39633760366217263 0.7832851429807972 -0.39633760366217263 0.7832851429807972 -0.39633760366217263 0.2167148570192027 0.39633760366217263
3192879.893019226 0.22325047649121654 0.4008493822769445 0.7767495235087835 -0.4008493822769445 0.7767495235087835 -0.4008493822769445 0.22325047649121654 0.4008493822769445
3257432.1997897103 0.2299366369204802 0.40530549723778875 0.77006336307952 -0.40530549723778864 0.77006336307952 -0.40530549723778864 0.2299366369204802 0.40530549723778875
3323289.598029029 0.2367731875354241 0.4097002713312022 0.763226812464576 -0.4097002713312022 0.763226812464576 -0.4097002713312022 0.2367731875354241 0.4097002713312022
3390478.4735292196 0.243759720779141 0.41402793253584963 0.756240279220859 -0.41402793253584963 0.756240279220859 -0.41402793253584963 0.243759720779141 0.41402793253584963
3459025.745539199 0.2508955619092828 0.4182826264708662 0.7491044380907173 -0.4182826264708662 0.7491044380907173 -0.4182826264708662 0.2508955619092828 0.4182826264708662
3528958.8775499705 0.2581797591959906 0.4224584298496071 0.7418202408040093 -0.4224584298496071 0.7418202408040093 -0.4224584298496071 0.2581797591959906 0.4224584298496071
3600305.8882978815 0.26561107481440416 0.42654936491860634 0.734388925185596 -0.42654936491860634 0.734388925185596 -0.42654936491860634 0.26561107481440416 0.42654936491860634
3673095.3629903416 0.2731879765293504 0.4305494148519983 0.7268120234706495 -0.4305494148519983 0.7268120234706495 -0.4305494148519983 0.2731879765293504 0.4305494148519983
3747356.4647584967 0.280908630269908 0.43445254006171924 0.7190913697300921 -0.4344525400617193 0.7190913697300921 -0.4344525400617193 0.280908630269908 0.43445254006171924
3823118.9463414503 0.28877089369060205 0.4382526953735561 0.711229106309398 -0.43825269537355616 0.711229106309398 -0.43825269537355616 0.28877089369060205 0.4382526953735561
3900413.1620067055 0.2967723108139189 0.4419438480086313 0.7032276891860809 -0.4419438480086313 0.7032276891860809 -0.4419438480086313 0.2967723108139189 0.4419438480086313
3979270.0797116193 0.30491010784559486 0.44551999629935674 0.6950898921544052 -0.44551999629935674 0.6950898921544052 -0.44551999629935674 0.30491010784559486 0.44551999629935674
4059721.293510725 0.3131811902496719 0.44897518905837724 0.686818809750328 -0.44897518905837736 0.686818809750328 -0.44897518905837736 0.3131811902496719 0.44897518905837724
4141799.0362139 0.32158214116459344 0.4523035455087102 0.6784178588354064 -0.4523035455087102 0.6784178588354064 -0.4523035455087102 0.32158214116459344 0.4523035455087102
4225536.192300457 0.33010922123462966 0.45549927567332765 0.6698907787653702 -0.45549927567332765 0.6698907787653702 -0.45549927567332765 0.33010922123462966 0.45549927567332765
4310966.311094318 0.33875836992266933 0.4585567011129847 0.6612416300773307 -0.4585567011129847 0.6612416300773307 -0.4585567011129847 0.33875836992266933 0.4585567011129847
4398123.620205573 0.3475252083609579 0.46147027589234235 0.6524747916390421 -0.46147027589234235 0.6524747916390421 -0.46147027589234235 0.3475252083609579 0.46147027589234235
4487043.0392437745 0.35640504378568977 0.46423460764652463 0.6435949562143103 -0.46423460764652463 0.6435949562143103 -0.46423460764652463 0.35640504378568977 0.46423460764652463
4577760.193808502 0.3653928755896384 0.4668444786133617 0.6346071244103616 -0.4668444786133617 0.6346071244103616 -0.4668444786133617 0.3653928755896384 0.4668444786133617
4670311.429762763 0.3744834030142511 0.4692948664908566 0.6255165969857488 -0.4692948664908566 0.6255165969857488 -0.4692948664908566 0.3744834030142511 0.4692948664908566
4764733.827794987 0.3836710344890329 0.47158096497501634 0.6163289655109672 -0.4715809649750163 0.6163289655109672 -0.4715809649750163 0.3836710344890329 0.47158096497501634
4861065.218275411 0.39294989861171137 0.47369820383024913 0.6070501013882887 -0.4736982038302492 0.6070501013882887 -0.4736982038302492 0.39294989861171137 0.47369820383024913
4959344.196412832 0.4023138567477934 0.4756422683431596 0.5976861432522067 -0.4756422683431596 0.5976861432522067 -0.4756422683431596 0.4023138567477934 0.4756422683431596
5059610.137717796 0.411756517212876 0.4774091180108579 0.588243482787124 -0.4774091180108579 0.588243482787124 -0.4774091180108579 0.411756517212876 0.4774091180108579
5161903.213778406 0.4212712509856778 0.47899500431693076 0.5787287490143221 -0.47899500431693065 0.5787287490143221 -0.47899500431693065 0.4212712509856778 0.47899500431693076
5266264.4083550945 0.4308512088844111 0.48039648745200403 0.5691487911155889 -0.48039648745200403 0.5691487911155889 -0.48039648745200403 0.4308512088844111 0.48039648745200403
5372735.53380077 0.4404893401240483 0.48161045184141643 0.5595106598759518 -0.48161045184141643 0.5595106598759518 -0.48161045184141643 0.4404893401240483 0.48161045184141643
5481359.247812959 0.45017841215749566 0.4826341203498554 0.5498215878425045 -0.4826341203498554 0.5498215878425045 -0.4826341203498554 0.45017841215749566 0.4826341203498554
5592179.070524632 0.45991103168987607 0.4834650670418712 0.5400889683101241 -0.4834650670418712 0.5400889683101241 -0.4834650670418712 0.45991103168987607 0.4834650670418712
5705239.401940555 0.4696796667422678 0.48410122838786124 0.5303203332577323 -0.48410122838786135 0.5303203332577323 -0.48410122838786135 0.4696796667422678 0.48410122838786124
5820585.5397261735 0.47947666962958824 0.4845409128173219 0.5205233303704118 -0.4845409128173219 0.5205233303704118 -0.4845409128173219 0.47947666962958824 0.4845409128173219
5938263.697356135 0.48929430070699176 0.4847828085347243 0.5107056992930082 -0.4847828085347244 0.5107056992930082 -0.4847828085347244 0.48929430070699176 0.4847828085347243
6058321.022629741 0.4991247527304039 0.48482598952813855 0.5008752472695963 -0.48482598952813855 0.5008752472695963 -0.48482598952813855 0.4991247527304039 0.48482598952813855
6180805.616560728 0.5089601756697516 0.48466991971648254 0.4910398243302484 -0.48466991971648243 0.4910398243302484 -0.48466991971648243 0.5089601756697516 0.48466991971648254
6305766.552648956 0.5187927018082015 0.48431445519781874 0.4812072981917986 -0.48431445519781874 0.4812072981917986 -0.48431445519781874 0.5187927018082015 0.48431445519781874
6433253.896541728 0.5286144709574014 0.4837598445781949 0.47138552904259856 -0.4837598445781949 0.47138552904259856 -0.4837598445781949 0.5286144709574014 0.4837598445781949
6563318.726092606 0.5384176556173569 0.4830067273779152 0.46158234438264323 -0.4830067273779152 0.46158234438264323 -0.4830067273779152 0.5384176556173569 0.4830067273779152
6696013.151825785 0.5481944859102147 0.48205613052954843 0.4518055140897855 -0.48205613052954843 0.4518055140897855 -0.48205613052954843 0.5481944859102147 0.48205613052954843
6831390.3378141755 0.5579372741198598 0.4809094629992033 0.4420627258801403 -0.4809094629992032 0.4420627258801403 -0.4809094629992032 0.5579372741198598 0.4809094629992033
6969504.522979628 0.5676384386737795 0.4795685085793602 0.43236156132622044 -0.47956850857936023 0.43236156132622044 -0.47956850857936023 0.5676384386737795 0.4795685085793602
7110411.042823766 0.5772905274100845 0.4780354169176172 0.4227094725899155 -0.4780354169176172 0.4227094725899155 -0.4780354169176172 0.5772905274100845 0.4780354169176172
7254166.351598182 0.5868862399807317 0.47631269286084715 0.41311376001926825 -0.47631269286084726 0.41311376001926825 -0.47631269286084726 0.5868862399807317 0.47631269286084715
7400828.044922853 0.5964184492517685 0.4744031842082887 0.40358155074823154 -0.4744031842082887 0.40358155074823154 -0.4744031842082887 0.5964184492517685 0.4744031842082887
7550454.882861849 0.6058802215726159 0.4723100679797943 0.39411977842738405 -0.4723100679797943 0.39411977842738405 -0.4723100679797943 0.6058802215726159 0.4723100679797943
7703106.813465575 0.6152648357988665 0.4700368353167092 0.3847351642011336 -0.4700368353167092 0.3847351642011336 -0.4700368353167092 0.6152648357988665 0.4700368353167092
7858844.9967889795 0.6245658009665592 0.4675872751425015 0.3754341990334409 -0.4675872751425015 0.3754341990334409 -0.4675872751425015 0.6245658009665592 0.4675872751425015
8017731.829395356 0.6337768725302023 0.464965456718238 0.3662231274697978 -0.464965456718238 0.3662231274697978 -0.464965456718238 0.6337768725302023 0.464965456718238
8179830.96935555 0.6428920670917274 0.4621757112342104 0.3571079329082727 -0.4621757112342104 0.3571079329082727 -0.4621757112342104 0.6428920670917274 0.4621757112342104
8345207.361752584 0.6519056755628239 0.4592226125834566 0.3480943244371762 -0.45922261258345654 0.3480943244371762 -0.45922261258345654 0.6519056755628239 0.4592226125834566
8513927.264701942 0.6608122747185188 0.4561109574655753 0.33918772528148117 -0.45611095746557523 0.33918772528148117 -0.45611095746557523 0.6608122747185188 0.4561109574655753
8686058.275897898 0.6696067371151889 0.45284574497014374 0.330393262884811 -0.45284574497014374 0.330393262884811 -0.45284574497014374 0.6696067371151889 0.45284574497014374
8861669.359696563 0.6782842393612356 0.4494321557882569 0.3217157606387644 -0.44943215578825685 0.3217157606387644 -0.44943215578825685 0.6782842393612356 0.4494321557882569
9040830.87474648 0.6868402687432074 0.4458755311983255 0.31315973125679264 -0.4458755311983255 0.31315973125679264 -0.4458755311983255 0.6868402687432074 0.4458755311983255
9223614.602177842 0.6952706282240421 0.44218135196838043 0.30472937177595794 -0.4421813519683805 0.30472937177595794 -0.4421813519683805 0.6952706282240421 0.44218135196838043
