! NFZ5BBW141LN10
# Hz S RI R 50
!Freq.(Hz) S11(Real) S11(Imag) S21(Real) S21(Imag) S12(Real) S12(Imag) S22(Real) S22(Imag)
1000000.0 0.6560824186716693 0.45281001865924064 0.3439175813283307 -0.4528100186592407 0.3439175813283307 -0.4528100186592407 0.6560824186716693 0.45281001865924064
1020217.5806586457 0.664330333856492 0.4498981602209286 0.335669666143508 -0.4498981602209286 0.335669666143508 -0.4498981602209286 0.664330333856492 0.4498981602209286
1040843.9118849806 0.6724728295054386 0.446869080673422 0.3275271704945614 -0.446869080673422 0.3275271704945614 -0.446869080673422 0.6724728295054386 0.446869080673422
1061887.2576265757 0.6805069606643951 0.4437272936346023 0.3194930393356049 -0.44372729363460234 0.3194930393356049 -0.44372729363460234 0.6805069606643951 0.4437272936346023
1083356.0489080292 0.6884300186261857 0.4404773554063284 0.3115699813738144 -0.44047735540632843 0.3115699813738144 -0.44047735540632843 0.6884300186261857 0.4404773554063284
1105258.8872088592 0.6962395276579311 0.4371238515504302 0.3037604723420688 -0.43712385155043026 0.3037604723420688 -0.43712385155043026 0.6962395276579311 0.4371238515504302
1127604.5479096894 0.7039332409463392 0.4336713841135437 0.29606675905366064 -0.4336713841135437 0.29606675905366064 -0.4336713841135437 0.7039332409463392 0.4336713841135437
1150401.9838081095 0.7115091358436764 0.43012455954026474 0.2884908641563236 -0.4301245595402648 0.2884908641563236 -0.4301245595402648 0.7115091358436764 0.43012455954026474
1173660.328705616 0.718965408497686 0.4264879773044508 0.28103459150231413 -0.4264879773044508 0.28103459150231413 -0.4264879773044508 0.718965408497686 0.4264879773044508
1197388.9010670746 0.7263004679481545 0.4227662192791677 0.27369953205184544 -0.4227662192791677 0.27369953205184544 -0.4227662192791677 0.7263004679481545 0.4227662192791677
1221597.2077541656 0.7335129297712611 0.4189638398569048 0.26648707022873874 -0.4189638398569048 0.26648707022873874 -0.4189638398569048 0.7335129297712611 0.4189638398569048
1246294.947834312 0.7406016093503583 0.41508535682336445 0.25939839064964154 -0.41508535682336445 0.25939839064964154 -0.41508535682336445 0.7406016093503583 0.41508535682336445
1271492.016466615 0.7475655148485684 0.411135242980446 0.2524344851514315 -0.411135242980446 0.2524344851514315 -0.411135242980446 0.7475655148485684 0.411135242980446
1297198.5088663532 0.7544038399545929 0.40711791850707046 0.24559616004540702 -0.40711791850707046 0.24559616004540702 -0.40711791850707046 0.7544038399545929 0.40711791850707046
1323424.7243496338 0.7611159564685949 0.40303774404027637 0.23888404353140513 -0.40303774404027637 0.23888404353140513 -0.40303774404027637 0.7611159564685949 0.40303774404027637
1350181.1704598186 0.7677014067900054 0.3988990144535919 0.23229859320999466 -0.39889901445359177 0.23229859320999466 -0.39889901445359177 0.7677014067900054 0.3988990144535919
1377478.5671773748 0.7741598963637535 0.3947059533050766 0.2258401036362465 -0.3947059533050766 0.2258401036362465 -0.3947059533050766 0.7741598963637535 0.3947059533050766
1405327.8512148394 0.7804912861358448 0.3904627079236253 0.21950871386415524 -0.3904627079236253 0.21950871386415524 -0.3904627079236253 0.7804912861358448 0.3904627079236253
1433740.1803986167 0.7866955850635016 0.38617334509912915 0.21330441493649854 -0.3861733450991291 0.21330441493649854 -0.3861733450991291 0.7866955850635016 0.38617334509912915
1462726.9381393674 0.7927729427193672 0.3818418473398644 0.20722705728063295 -0.3818418473398644 0.20722705728063295 -0.3818418473398644 0.7927729427193672 0.3818418473398644
1492299.737992774 0.7987236420236149 0.3774721096589984 0.20127635797638507 -0.3774721096589984 0.20127635797638507 -0.3774721096589984 0.7987236420236149 0.3774721096589984
1522470.428312519 0.8045480921323156 0.37306793685130796 0.19545190786768443 -0.37306793685130796 0.19545190786768443 -0.37306793685130796 0.8045480921323156 0.37306793685130796
1553251.0969973304 0.8102468215051479 0.36863304122105184 0.18975317849485215 -0.36863304122105184 0.18975317849485215 -0.36863304122105184 0.8102468215051479 0.36863304122105184
1584654.076334004 0.8158204711705702 0.36417104072236206 0.1841795288294298 -0.364171040722362 0.1841795288294298 -0.364171040722362 0.8158204711705702 0.36417104072236206
1616691.9479383389 0.8212697882019466 0.3596854574744437 0.17873021179805335 -0.3596854574744436 0.17873021179805335 -0.3596854574744436 0.8212697882019466 0.3596854574744437
1649377.5477959653 0.8265956194138779 0.35517971661524705 0.17340438058612212 -0.35517971661524705 0.17340438058612212 -0.35517971661524705 0.8265956194138779 0.35517971661524705
1682723.9714050898 0.831798905284175 0.3506571454590055 0.16820109471582503 -0.3506571454590055 0.16820109471582503 -0.3506571454590055 0.831798905284175 0.3506571454590055
1716744.5790232092 0.8368806741035205 0.346120972925071 0.1631193258964796 -0.346120972925071 0.1631193258964796 -0.346120972925071 0.8368806741035205 0.346120972925071
1751453.001019904 0.8418420363519254 0.34157432920773506 0.15815796364807444 -0.34157432920773506 0.15815796364807444 -0.34157432920773506 0.8418420363519254 0.34157432920773506
1786863.143337851 0.8466841792985951 0.3370202456591463 0.1533158207014049 -0.3370202456591463 0.1533158207014049 -0.3370202456591463 0.8466841792985951 0.3370202456591463
1822989.1930642454 0.8514083618197537 0.3324616548599467 0.14859163818024632 -0.3324616548599467 0.14859163818024632 -0.3324616548599467 0.8514083618197537 0.3324616548599467
1859845.6241148617 0.8560159094273466 0.3279013908548121 0.14398409057265327 -0.3279013908548121 0.14398409057265327 -0.3279013908548121 0.8560159094273466 0.3279013908548121
1897447.2030330333 0.8605082095002845 0.32334218953262034 0.13949179049971547 -0.32334218953262034 0.13949179049971547 -0.32334218953262034 0.8605082095002845 0.32334218953262034
1935808.994905876 0.8648867067090343 0.3187866891334498 0.13511329329096566 -0.3187866891334499 0.13511329329096566 -0.3187866891334499 0.8648867067090343 0.3187866891334498
1974946.3694001175 0.8691528986238166 0.31423743086700084 0.13084710137618338 -0.31423743086700084 0.13084710137618338 -0.31423743086700084 0.8691528986238166 0.31423743086700084
2014875.0069199642 0.8733083314964394 0.3096968596292689 0.12669166850356056 -0.3096968596292689 0.12669166850356056 -0.3096968596292689 0.8733083314964394 0.3096968596292689
2055610.904889458 0.8773545962058312 0.30516732480639386 0.1226454037941688 -0.30516732480639386 0.1226454037941688 -0.30516732480639386 0.8773545962058312 0.30516732480639386
2097170.3841618528 0.8812933243575866 0.30065108115650974 0.11870667564241358 -0.30065108115650974 0.11870667564241358 -0.30065108115650974 0.8812933243575866 0.30065108115650974
2139570.0955585684 0.8851261845282915 0.2961502897621289 0.11487381547170847 -0.2961502897621289 0.11487381547170847 -0.2961502897621289 0.8851261845282915 0.2961502897621289
2182827.0265403506 0.8888548786459864 0.29166701904710207 0.11114512135401357 -0.291667019047102 0.11114512135401357 -0.291667019047102 0.8888548786459864 0.29166701904710207
2226958.508013302 0.8924811384988303 0.2872032458534927 0.10751886150116959 -0.2872032458534927 0.10751886150116959 -0.2872032458534927 0.8924811384988303 0.2872032458534927
2271982.2212725184 0.8960067223648314 0.2827608565747981 0.10399327763516858 -0.2827608565747981 0.10399327763516858 -0.2827608565747981 0.8960067223648314 0.2827608565747981
2317916.205086105 0.8994334117563341 0.27834164834284436 0.10056658824366593 -0.27834164834284436 0.10056658824366593 -0.27834164834284436 0.8994334117563341 0.27834164834284436
2364778.8629224156 0.9027630082738224 0.27394733026638995 0.09723699172617768 -0.27394733026638995 0.09723699172617768 -0.27394733026638995 0.9027630082738224 0.27394733026638995
2412588.9703234104 0.9059973305644481 0.2695795247199963 0.09400266943555195 -0.2695795247199963 0.09400266943555195 -0.2695795247199963 0.9059973305644481 0.2695795247199963
2461365.682427083 0.9091382113815231 0.2652397686820967 0.09086178861847684 -0.26523976868209675 0.09086178861847684 -0.26523976868209675 0.9091382113815231 0.2652397686820967
2511128.5416419753 0.9121874947419977 0.2609295151214139 0.08781250525800233 -0.2609295151214139 0.08781250525800233 -0.2609295151214139 0.9121874947419977 0.2609295151214139
2561897.48547685 0.9151470331796707 0.2566501344309695 0.08485296682032925 -0.25665013443096957 0.08485296682032925 -0.25665013443096957 0.9151470331796707 0.2566501344309695
2613692.85452866 0.9180186850925368 0.2524029159089162 0.08198131490746326 -0.2524029159089162 0.08198131490746326 -0.2524029159089162 0.9180186850925368 0.2524029159089162
2666535.4006320196 0.9208043121832428 0.24818906928531217 0.07919568781675718 -0.24818906928531217 0.07919568781675718 -0.24818906928531217 0.9208043121832428 0.24818906928531217
2720446.295173432 0.9235057769921267 0.24400972629378484 0.07649422300787348 -0.24400972629378484 0.07649422300787348 -0.24400972629378484 0.9235057769921267 0.24400972629378484
2775447.137573615 0.9261249405227104 0.23986594228678332 0.07387505947728941 -0.23986594228678332 0.07387505947728941 -0.23986594228678332 0.9261249405227104 0.23986594228678332
2831559.963941318 0.9286636599598469 0.23575869789285356 0.07133634004015318 -0.2357586978928535 0.07133634004015318 -0.2357586978928535 0.9286636599598469 0.23575869789285356
2888807.255902094 0.9311237864809403 0.23168890071405993 0.06887621351905969 -0.23168890071405993 0.06887621351905969 -0.23168890071405993 0.9311237864809403 0.23168890071405993
2947211.9496055758 0.9335071631608375 0.22765738706136754 0.06649283683916245 -0.22765738706136754 0.06649283683916245 -0.22765738706136754 0.9335071631608375 0.22765738706136754
3006797.4449148513 0.9358156229710413 0.22366492372548247 0.06418437702895867 -0.22366492372548247 0.06418437702895867 -0.22366492372548247 0.9358156229710413 0.22366492372548247
3067587.6147816274 0.9380509868739247 0.21971220978034678 0.06194901312607515 -0.21971220978034678 0.06194901312607515 -0.21971220978034678 0.9380509868739247 0.21971220978034678
3129606.8148109377 0.9402150620125656 0.2157998784161969 0.059784937987434554 -0.21579987841619694 0.059784937987434554 -0.21579987841619694 0.9402150620125656 0.2157998784161969
3192879.893019226 0.9423096399967104 0.21192849879883766 0.057690360003289747 -0.21192849879883766 0.057690360003289747 -0.21192849879883766 0.9423096399967104 0.21192849879883766
3257432.1997897103 0.9443364952852324 0.20809857795155629 0.05566350471476751 -0.20809857795155629 0.05566350471476751 -0.20809857795155629 0.9443364952852324 0.20809857795155629
3323289.598029029 0.9462973836652445 0.2043105626559096 0.053702616334755475 -0.20431056265590963 0.053702616334755475 -0.20431056265590963 0.9462973836652445 0.2043105626559096
3390478.4735292196 0.9481940408278101 0.20056484136746403 0.05180595917218979 -0.20056484136746403 0.05180595917218979 -0.20056484136746403 0.9481940408278101 0.20056484136746403
3459025.745539199 0.9500281810399517 0.19686174614245544 0.049971818960048306 -0.19686174614245547 0.049971818960048306 -0.19686174614245547 0.9500281810399517 0.19686174614245544
3528958.8775499705 0.9518014959123833 0.19320155457126537 0.0481985040876167 -0.19320155457126537 0.0481985040876167 -0.19320155457126537 0.9518014959123833 0.19320155457126537
3600305.8882978815 0.953515653262133 0.189584491714573 0.04648434673786694 -0.189584491714573 0.04648434673786694 -0.189584491714573 0.953515653262133 0.189584491714573
3673095.3629903416 0.9551722960689359 0.1860107320380551 0.04482770393106421 -0.18601073203805507 0.04482770393106421 -0.18601073203805507 0.9551722960689359 0.1860107320380551
3747356.4647584967 0.9567730415240097 0.1824804013415426 0.043226958475990486 -0.1824804013415426 0.043226958475990486 -0.1824804013415426 0.9567730415240097 0.1824804013415426
3823118.9463414503 0.9583194801695595 0.17899357867862567 0.041680519830440514 -0.17899357867862567 0.041680519830440514 -0.17899357867862567 0.9583194801695595 0.17899357867862567
3900413.1620067055 0.9598131751271 0.17555029826280305 0.04018682487289999 -0.17555029826280305 0.04018682487289999 -0.17555029826280305 0.9598131751271 0.17555029826280305
3979270.0797116193 0.9612556614124425 0.1721505513564123 0.03874433858755766 -0.1721505513564123 0.03874433858755766 -0.1721505513564123 0.9612556614124425 0.1721505513564123
4059721.293510725 0.9626484453349756 0.1687942881387364 0.03735155466502434 -0.1687942881387364 0.03735155466502434 -0.1687942881387364 0.9626484453349756 0.1687942881387364
4141799.0362139 0.9639930039786628 0.1654814195498679 0.03600699602133714 -0.1654814195498679 0.03600699602133714 -0.1654814195498679 0.9639930039786628 0.1654814195498679
4225536.192300457 0.965290784761993 0.1622118191071101 0.03470921523800703 -0.1622118191071101 0.03470921523800703 -0.1622118191071101 0.965290784761993 0.1622118191071101
4310966.311094318 0.966543205073971 0.1589853246909119 0.03345679492602904 -0.15898532469091192 0.03345679492602904 -0.15898532469091192 0.966543205073971 0.1589853246909119
4398123.620205573 0.9677516519830903 0.15580174029755925 0.032248348016909706 -0.15580174029755925 0.032248348016909706 -0.15580174029755925 0.9677516519830903 0.15580174029755925
4487043.0392437745 0.9689174820161199 0.1526608377560799 0.031082517983880103 -0.15266083775607991 0.031082517983880103 -0.15266083775607991 0.9689174820161199 0.1526608377560799
4577760.193808502 0.970042021003448 0.1495623584070574 0.029957978996551976 -0.14956235840705737 0.029957978996551976 -0.14956235840705737 0.970042021003448 0.1495623584070574
4670311.429762763 0.9711265639876572 0.14650601474129188 0.028873436012342702 -0.14650601474129188 0.028873436012342702 -0.14650601474129188 0.9711265639876572 0.14650601474129188
4764733.827794987 0.9721723751919601 0.14349149199648728 0.02782762480803989 -0.14349149199648725 0.02782762480803989 -0.14349149199648725 0.9721723751919601 0.14349149199648728
4861065.218275411 0.9731806880450989 0.1405184497103803 0.026819311954901056 -0.1405184497103803 0.026819311954901056 -0.1405184497103803 0.9731806880450989 0.1405184497103803
4959344.196412832 0.9741527052593104 0.1375865232289644 0.025847294740689582 -0.1375865232289644 0.025847294740689582 -0.1375865232289644 0.9741527052593104 0.1375865232289644
5059610.137717796 0.9750895989579659 0.13469532516868502 0.024910401042034184 -0.13469532516868504 0.024910401042034184 -0.13469532516868504 0.9750895989579659 0.13469532516868502
5161903.213778406 0.9759925108495299 0.13184444683170676 0.024007489150470223 -0.13184444683170674 0.024007489150470223 -0.13184444683170674 0.9759925108495299 0.13184444683170676
5266264.4083550945 0.9768625524445252 0.12903345957355913 0.02313744755547476 -0.12903345957355913 0.02313744755547476 -0.12903345957355913 0.9768625524445252 0.12903345957355913
5372735.53380077 0.9777008053122509 0.12626191612267254 0.022299194687749158 -0.1262619161226725 0.022299194687749158 -0.1262619161226725 0.9777008053122509 0.12626191612267254
5481359.247812959 0.9785083213740691 0.12352935185150174 0.02149167862593096 -0.12352935185150174 0.02149167862593096 -0.12352935185150174 0.9785083213740691 0.12352935185150174
5592179.070524632 0.9792861232301653 0.12083528599911546 0.020713876769834706 -0.12083528599911547 0.020713876769834706 -0.12083528599911547 0.9792861232301653 0.12083528599911546
5705239.401940555 0.9800352045167697 0.11817922284529567 0.019964795483230376 -0.11817922284529565 0.019964795483230376 -0.11817922284529565 0.9800352045167697 0.11817922284529567
5820585.5397261735 0.9807565302909319 0.1155606528363433 0.01924346970906804 -0.1155606528363433 0.01924346970906804 -0.1155606528363433 0.9807565302909319 0.1155606528363433
5938263.697356135 0.9814510374400478 0.11297905366293232 0.01854896255995216 -0.11297905366293232 0.01854896255995216 -0.11297905366293232 0.9814510374400478 0.11297905366293232
6058321.022629741 0.9821196351134425 0.11043389129047959 0.017880364886557594 -0.11043389129047956 0.017880364886557594 -0.11043389129047956 0.9821196351134425 0.11043389129047959
6180805.616560728 0.9827632051734356 0.10792462094261897 0.017236794826564334 -0.10792462094261898 0.017236794826564334 -0.10792462094261898 0.9827632051734356 0.10792462094261897
6305766.552648956 0.9833826026634295 0.10545068803847368 0.016617397336570562 -0.10545068803847368 0.016617397336570562 -0.10545068803847368 0.9833826026634295 0.10545068803847368
6433253.896541728 0.9839786562906769 0.10301152908451258 0.016021343709323056 -0.10301152908451261 0.016021343709323056 -0.10301152908451261 0.9839786562906769 0.10301152908451258
6563318.726092606 0.9845521689215156 0.10060657252186457 0.015447831078484332 -0.10060657252186458 0.015447831078484332 -0.10060657252186458 0.9845521689215156 0.10060657252186457
6696013.151825785 0.9851039180869656 0.09823523953003276 0.014896081913034395 -0.09823523953003276 0.014896081913034395 -0.09823523953003276 0.9851039180869656 0.09823523953003276
6831390.3378141755 0.9856346564967144 0.09589694478801727 0.014365343503285596 -0.09589694478801727 0.014365343503285596 -0.09589694478801727 0.9856346564967144 0.09589694478801727
6969504.522979628 0.9861451125596298 0.09359109719390632 0.0138548874403702 -0.0935910971939063 0.0138548874403702 -0.0935910971939063 0.9861451125596298 0.09359109719390632
7110411.042823766 0.9866359909090561 0.09131710054404006 0.013364009090943893 -0.09131710054404006 0.013364009090943893 -0.09131710054404006 0.9866359909090561 0.09131710054404006
7254166.351598182 0.9871079729312657 0.08907435417288831 0.012892027068734248 -0.08907435417288831 0.012892027068734248 -0.08907435417288831 0.9871079729312657 0.08907435417288831
7400828.044922853 0.9875617172955478 0.08686225355481028 0.012438282704452255 -0.08686225355481028 0.012438282704452255 -0.08686225355481028 0.9875617172955478 0.08686225355481028
7550454.882861849 0.9879978604845231 0.08468019086888613 0.012002139515476925 -0.08468019086888612 0.012002139515476925 -0.08468019086888612 0.9879978604845231 0.08468019086888613
7703106.813465575 0.9884170173233808 0.08252755552802342 0.01158298267661909 -0.08252755552802343 0.01158298267661909 -0.08252755552802343 0.9884170173233808 0.08252755552802342
7858844.9967889795 0.98881978150683 0.08040373467355046 0.011180218493169943 -0.08040373467355046 0.011180218493169943 -0.08040373467355046 0.98881978150683 0.08040373467355046
8017731.829395356 0.9892067261226563 0.07830811363650966 0.010793273877343752 -0.07830811363650968 0.010793273877343752 -0.07830811363650968 0.9892067261226563 0.07830811363650966
8179830.96935555 0.989578404170868 0.07624007636686321 0.010421595829132123 -0.07624007636686321 0.010421595829132123 -0.07624007636686321 0.989578404170868 0.07624007636686321
8345207.361752584 0.9899353490775008 0.07419900583181341 0.010064650922499174 -0.07419900583181341 0.010064650922499174 -0.07419900583181341 0.9899353490775008 0.07419900583181341
8513927.264701942 0.9902780752022361 0.07218428438443193 0.009721924797763931 -0.07218428438443192 0.009721924797763931 -0.07218428438443192 0.9902780752022361 0.07218428438443193
8686058.275897898 0.9906070783390633 0.07019529410377452 0.009392921660936852 -0.07019529410377452 0.009392921660936852 -0.07019529410377452 0.9906070783390633 0.07019529410377452
8861669.359696563 0.9909228362092971 0.06823141710764127 0.009077163790702943 -0.06823141710764127 0.009077163790702943 -0.06823141710764127 0.9909228362092971 0.06823141710764127
9040830.87474648 0.9912258089463267 0.0662920358391205 0.008774191053673303 -0.0662920358391205 0.008774191053673303 -0.0662920358391205 0.9912258089463267 0.0662920358391205
