!Murata Part Number: RCEC71H106K3DBH03A
!These Parameters are Measured in Series Mode Connection
!       o--ll--o
!Port1            Port2
!       o------o
!Operation Temp=25[degC], DC Bias Voltage=0[V]
!Freq. Start=100[Hz] Stop=100[MHz], 401[Steps]
!Data Generated on Feb 18, 2020
# Hz S RI R 50
!Freq.(Hz) S11(Real) S11(Imag) S21(Real) S21(Imag) S12(Real) S12(Imag) S22(Real) S22(Imag)
100.0 0.7287530104477384 -0.4423206467363118 0.2712469895522617 0.4423206467363118 0.2712469895522617 0.4423206467363118 0.7287530104477384 -0.4423206467363118
103.51421666793439 0.7149922795775298 -0.4491444835397142 0.2850077204224702 0.4491444835397142 0.2850077204224702 0.4491444835397142 0.7149922795775298 -0.4491444835397142
107.15193052376064 0.7008175687756091 -0.45563403119918094 0.299182431224391 0.45563403119918094 0.299182431224391 0.45563403119918094 0.7008175687756091 -0.45563403119918094
110.9174815262401 0.6862449990640129 -0.4617588320483968 0.31375500093598696 0.4617588320483968 0.31375500093598696 0.4617588320483968 0.6862449990640129 -0.4617588320483968
114.81536214968828 0.6712935519207975 -0.46748914243196044 0.3287064480792026 0.46748914243196044 0.3287064480792026 0.46748914243196044 0.6712935519207975 -0.46748914243196044
118.85022274370185 0.6559850530100867 -0.4727962490316273 0.34401494698991325 0.4727962490316273 0.34401494698991325 0.4727962490316273 0.6559850530100867 -0.4727962490316273
123.02687708123815 0.6403441151240177 -0.47765279045897696 0.3596558848759823 0.47765279045897696 0.3596558848759823 0.47765279045897696 0.6403441151240177 -0.47765279045897696
127.35030810166617 0.6243980385825683 -0.4820330781214757 0.37560196141743163 0.4820330781214757 0.37560196141743163 0.4820330781214757 0.6243980385825683 -0.4820330781214757
131.8256738556407 0.6081766683307559 -0.4859134099244029 0.3918233316692442 0.4859134099244029 0.3918233316692442 0.4859134099244029 0.6081766683307559 -0.4859134099244029
136.45831365889245 0.5917122080753678 -0.48927237011071706 0.4082877919246322 0.48927237011071706 0.4082877919246322 0.48927237011071706 0.5917122080753678 -0.48927237011071706
141.25375446227542 0.5750389929773048 -0.49209110849225346 0.42496100702269524 0.49209110849225346 0.42496100702269524 0.49209110849225346 0.5750389929773048 -0.49209110849225346
146.21771744567184 0.5581932236155287 -0.49435359250755 0.4418067763844712 0.49435359250755 0.4418067763844712 0.49435359250755 0.5581932236155287 -0.49435359250755
151.35612484362082 0.5412126651141865 -0.4960468259623237 0.4587873348858136 0.4960468259623237 0.4587873348858136 0.4960468259623237 0.5412126651141865 -0.4960468259623237
156.6751070108149 0.5241363164230118 -0.4971610289642397 0.47586368357698816 0.4971610289642397 0.47586368357698816 0.4971610289642397 0.5241363164230118 -0.4971610289642397
162.181009735893 0.5070040557108364 -0.4976897744374545 0.4929959442891635 0.4976897744374545 0.4929959442891635 0.4976897744374545 0.5070040557108364 -0.4976897744374545
167.88040181225603 0.489856268625372 -0.49763007766531947 0.510143731374628 0.49763007766531947 0.510143731374628 0.49763007766531947 0.489856268625372 -0.49763007766531947
173.78008287493756 0.4727334667493168 -0.49698243652122526 0.5272665332506832 0.49698243652122526 0.5272665332506832 0.49698243652122526 0.4727334667493168 -0.49698243652122526
179.88709151287878 0.45567590391352947 -0.4957508213583737 0.5443240960864705 0.4957508213583737 0.5443240960864705 0.4957508213583737 0.45567590391352947 -0.4957508213583737
186.20871366628674 0.43872319809524885 -0.49394261488364305 0.5612768019047512 0.49394261488364305 0.5612768019047512 0.49394261488364305 0.43872319809524885 -0.49394261488364305
192.7524913190936 0.42191396642967033 -0.4915685036802587 0.5780860335703297 0.4915685036802587 0.5780860335703297 0.4915685036802587 0.42191396642967033 -0.4915685036802587
199.526231496888 0.405285480407084 -0.48864232431122845 0.594714519592916 0.48864232431122845 0.594714519592916 0.48864232431122845 0.405285480407084 -0.48864232431122845
206.53801558105292 0.38887334763916276 -0.4851808680774943 0.6111266523608371 0.4851808680774943 0.6111266523608371 0.4851808680774943 0.38887334763916276 -0.4851808680774943
213.79620895022322 0.37271122569207144 -0.4812036494762468 0.6272887743079284 0.4812036494762468 0.6272887743079284 0.4812036494762468 0.37271122569207144 -0.4812036494762468
221.30947096056377 0.3568305724452638 -0.4767326441709271 0.6431694275547363 0.4767326441709271 0.6431694275547363 0.4767326441709271 0.3568305724452638 -0.4767326441709271
229.08676527677733 0.34126043629333364 -0.4717920028221578 0.6587395637066665 0.4717920028221578 0.6587395637066665 0.4717920028221578 0.34126043629333364 -0.4717920028221578
237.13737056616552 0.3260272883168687 -0.4664077474280573 0.6739727116831311 0.4664077474280573 0.6739727116831311 0.4664077474280573 0.3260272883168687 -0.4664077474280573
245.47089156850305 0.3111548973589359 -0.4606074568855634 0.6888451026410639 0.4606074568855634 0.6888451026410639 0.4606074568855634 0.3111548973589359 -0.4606074568855634
254.09727055493053 0.29666424780475004 -0.4544199483255201 0.70333575219525 0.4544199483255201 0.70333575219525 0.4544199483255201 0.29666424780475004 -0.4544199483255201
263.0267991895382 0.28257349881509475 -0.44787496041716823 0.7174265011849054 0.44787496041716823 0.7174265011849054 0.44787496041716823 0.28257349881509475 -0.44787496041716823
272.27013080779125 0.26889798284276295 -0.44100284431359976 0.731102017157237 0.44100284431359976 0.731102017157237 0.44100284431359976 0.26889798284276295 -0.44100284431359976
281.83829312644536 0.2556502404899765 -0.4338342672549384 0.7443497595100234 0.4338342672549384 0.7443497595100234 0.4338342672549384 0.2556502404899765 -0.4338342672549384
291.7427014001167 0.2428400881580724 -0.4263999330990921 0.7571599118419275 0.4263999330990921 0.7571599118419275 0.4263999330990921 0.2428400881580724 -0.4263999330990921
301.9951720402016 0.2304747145039512 -0.4187303232493835 0.7695252854960486 0.4187303232493835 0.7695252854960486 0.4187303232493835 0.2304747145039512 -0.4187303232493835
312.6079367123955 0.21855880144769133 -0.4108554606305051 0.7814411985523088 0.4108554606305051 0.7814411985523088 0.4108554606305051 0.21855880144769133 -0.4108554606305051
323.59365692962825 0.2070946653619954 -0.4028046985614894 0.7929053346380044 0.4028046985614894 0.7929053346380044 0.4028046985614894 0.2070946653619954 -0.4028046985614894
334.96543915782763 0.1960824141007949 -0.3946065356140597 0.8039175858992051 0.3946065356140597 0.8039175858992051 0.3946065356140597 0.1960824141007949 -0.3946065356140597
346.7368504525316 0.18552011567156346 -0.3862884568484221 0.8144798843284365 0.3862884568484221 0.8144798843284365 0.3862884568484221 0.18552011567156346 -0.3862884568484221
358.9219346450052 0.17540397460154974 -0.37787680120185224 0.8245960253984502 0.37787680120185224 0.8245960253984502 0.37787680120185224 0.17540397460154974 -0.37787680120185224
371.53522909717253 0.16572851236936176 -0.3693966542781006 0.8342714876306382 0.3693966542781006 0.8342714876306382 0.3693966542781006 0.16572851236936176 -0.3693966542781006
384.59178204535357 0.15648674864773918 -0.36087176535214205 0.8435132513522609 0.36087176535214205 0.8435132513522609 0.36087176535214205 0.15648674864773918 -0.36087176535214205
398.10717055349727 0.14767038051013887 -0.3523244870649783 0.8523296194898611 0.3523244870649783 0.8523296194898611 0.3523244870649783 0.14767038051013887 -0.3523244870649783
412.0975190973302 0.13926995717435278 -0.34377573603314726 0.8607300428256472 0.34377573603314726 0.8607300428256472 0.34377573603314726 0.13926995717435278 -0.34377573603314726
426.5795188015926 0.13127504827498007 -0.33524497243050694 0.8687249517250201 0.33524497243050694 0.8687249517250201 0.33524497243050694 0.13127504827498007 -0.33524497243050694
441.57044735331243 0.1236744040603385 -0.3267501965069749 0.8763255959396618 0.3267501965069749 0.8763255959396618 0.3267501965069749 0.1236744040603385 -0.3267501965069749
457.0881896148751 0.11645610628841598 -0.31830795998021166 0.8835438937115839 0.31830795998021166 0.8835438937115839 0.31830795998021166 0.11645610628841598 -0.31830795998021166
473.15125896148055 0.10960770894368123 -0.3099333902612819 0.8903922910563188 0.3099333902612819 0.8903922910563188 0.3099333902612819 0.10960770894368123 -0.3099333902612819
489.77881936844625 0.10311636820744519 -0.301640225543681 0.8968836317925549 0.301640225543681 0.8968836317925549 0.301640225543681 0.10311636820744519 -0.301640225543681
506.9907082747043 0.09696896138668926 -0.2934408588869002 0.9030310386133108 0.2934408588869002 0.9030310386133108 0.2934408588869002 0.09696896138668926 -0.2934408588869002
524.8074602497726 0.09115219473933375 -0.285346389551833 0.9088478052606664 0.285346389551833 0.9088478052606664 0.285346389551833 0.09115219473933375 -0.285346389551833
543.2503314924331 0.08565270032878562 -0.27736667998777564 0.9143472996712144 0.27736667998777564 0.9143472996712144 0.27736667998777564 0.08565270032878562 -0.27736667998777564
562.3413251903492 0.08045712219927893 -0.2695104170226017 0.919542877800721 0.2695104170226017 0.919542877800721 0.2695104170226017 0.08045712219927893 -0.2695104170226017
582.1032177708714 0.075552192288826 -0.2617851759631589 0.9244478077111742 0.2617851759631589 0.9244478077111742 0.2617851759631589 0.075552192288826 -0.2617851759631589
602.5595860743578 0.07092479659175562 -0.254197486467349 0.9290752034082443 0.254197486467349 0.9290752034082443 0.254197486467349 0.07092479659175562 -0.254197486467349
623.7348354824193 0.06656203215135424 -0.24675289919912416 0.9334379678486457 0.24675289919912416 0.9334379678486457 0.24675289919912416 0.06656203215135424 -0.24675289919912416
645.6542290346556 0.062451255508560864 -0.23945605242001508 0.9375487444914392 0.23945605242001508 0.9375487444914392 0.23945605242001508 0.062451255508560864 -0.23945605242001508
668.3439175686148 0.058580123258482615 -0.23231073780394376 0.9414198767415174 0.23231073780394376 0.9414198767415174 0.23231073780394376 0.058580123258482615 -0.23231073780394376
691.8309709189366 0.05493662537592882 -0.2253199648846999 0.9450633746240711 0.2253199648846999 0.9450633746240711 0.2253199648846999 0.05493662537592882 -0.2253199648846999
716.1434102129019 0.05150911196723999 -0.2184860236569486 0.94849088803276 0.2184860236569486 0.94849088803276 0.2184860236569486 0.05150911196723999 -0.2184860236569486
741.3102413009174 0.04828631409110226 -0.2118105449517373 0.9517136859088977 0.2118105449517373 0.9517136859088977 0.2118105449517373 0.04828631409110226 -0.2118105449517373
767.3614893618189 0.04525735926820003 -0.20529455829633186 0.9547426407317999 0.20529455829633186 0.9547426407317999 0.20529455829633186 0.04525735926820003 -0.20529455829633186
794.3282347242814 0.04241178227054372 -0.19893854704620142 0.9575882177294563 0.19893854704620142 0.9575882177294563 0.19893854704620142 0.04241178227054372 -0.19893854704620142
822.2426499470711 0.03973953174790795 -0.1927425006446693 0.9602604682520922 0.1927425006446693 0.9602604682520922 0.1927425006446693 0.03973953174790795 -0.1927425006446693
851.1380382023765 0.037230973212523825 -0.18670596392384103 0.962769026787476 0.18670596392384103 0.962769026787476 0.18670596392384103 0.037230973212523825 -0.18670596392384103
881.0488730080142 0.034876888865237016 -0.18082808340966947 0.9651231111347628 0.18082808340966947 0.9651231111347628 0.18082808340966947 0.034876888865237016 -0.18082808340966947
912.0108393559099 0.03266847470778564 -0.1751076506352305 0.9673315252922144 0.1751076506352305 0.9673315252922144 0.1751076506352305 0.03266847470778564 -0.1751076506352305
944.0608762859234 0.030597335347480555 -0.16954314250026345 0.9694026646525195 0.16954314250026345 0.9694026646525195 0.16954314250026345 0.030597335347480555 -0.16954314250026345
977.2372209558108 0.02865547686302217 -0.164132758742562 0.9713445231369776 0.164132758742562 0.9713445231369776 0.164132758742562 0.02865547686302217 -0.164132758742562
1011.5794542598987 0.02683529806394802 -0.15887445660864816 0.973164701936052 0.15887445660864816 0.973164701936052 0.15887445660864816 0.02683529806394802 -0.15887445660864816
1047.1285480508998 0.02512958044162922 -0.15376598282802767 0.9748704195583707 0.15376598282802767 0.9748704195583707 0.15376598282802767 0.02512958044162922 -0.15376598282802767
1083.9269140212034 0.0235314770770752 -0.14880490300787882 0.9764685229229247 0.14880490300787882 0.9764685229229247 0.14880490300787882 0.0235314770770752 -0.14880490300787882
1122.0184543019632 0.022034500740222757 -0.1439886285738658 0.9779654992597772 0.1439886285738658 0.9779654992597772 0.1439886285738658 0.022034500740222757 -0.1439886285738658
1161.4486138403427 0.02063251138697219 -0.1393144413884526 0.9793674886130278 0.1393144413884526 0.9793674886130278 0.1393144413884526 0.02063251138697219 -0.1393144413884526
1202.2644346174127 0.01931970323402033 -0.13477951618111095 0.9806802967659798 0.13477951618111095 0.9806802967659798 0.13477951618111095 0.01931970323402033 -0.13477951618111095
1244.514611771385 0.01809059156751743 -0.13038094092561217 0.9819094084324828 0.13038094092561217 0.9819094084324828 0.13038094092561217 0.01809059156751743 -0.13038094092561217
1288.249551693134 0.01693999941969802 -0.12611573529856226 0.983060000580302 0.12611573529856226 0.983060000580302 0.12611573529856226 0.01693999941969802 -0.12611573529856226
1333.5214321633239 0.01586304422782868 -0.1219808673508138 0.9841369557721714 0.1219808673508138 0.9841369557721714 0.1219808673508138 0.01586304422782868 -0.1219808673508138
1380.384264602885 0.014855124571995287 -0.11797326851968924 0.9851448754280049 0.11797326851968924 0.9851448754280049 0.11797326851968924 0.014855124571995287 -0.11797326851968924
1428.893958511103 0.013911907072309465 -0.1140898471053157 0.9860880929276906 0.1140898471053157 0.9860880929276906 0.1140898471053157 0.013911907072309465 -0.1140898471053157
1479.1083881682075 0.013029313511943037 -0.1103275003290466 0.9869706864880569 0.1103275003290466 0.9869706864880569 0.1103275003290466 0.013029313511943037 -0.1103275003290466
1531.0874616820304 0.012203508239884687 -0.10668312508612114 0.9877964917601154 0.10668312508612114 0.9877964917601154 0.10668312508612114 0.012203508239884687 -0.10668312508612114
1584.8931924611136 0.01143088589633572 -0.10315362749854809 0.9885691141036643 0.10315362749854809 0.9885691141036643 0.10315362749854809 0.01143088589633572 -0.10315362749854809
1640.5897731995396 0.010708059494109263 -0.09973593136785618 0.9892919405058906 0.09973593136785618 0.9892919405058906 0.09973593136785618 0.010708059494109263 -0.09973593136785618
1698.2436524617442 0.01003184888115129 -0.09642698562093871 0.9899681511188484 0.09642698562093871 0.9899681511188484 0.09642698562093871 0.01003184888115129 -0.09642698562093871
1757.9236139586924 0.009399269602250024 -0.09322377083584794 0.9906007303977499 0.09322377083584794 0.9906007303977499 0.09322377083584794 0.009399269602250024 -0.09322377083584794
1819.7008586099835 0.008807522172032302 -0.0901233049281509 0.9911924778279676 0.0901233049281509 0.9911924778279676 0.0901233049281509 0.008807522172032302 -0.0901233049281509
1883.6490894898002 0.008253981766351065 -0.08712264807241521 0.9917460182336487 0.08712264807241521 0.9917460182336487 0.08712264807241521 0.008253981766351065 -0.08712264807241521
1949.8445997580454 0.007736188335043662 -0.08421890692761642 0.9922638116649561 0.08421890692761642 0.9922638116649561 0.08421890692761642 0.007736188335043662 -0.08421890692761642
2018.3663636815609 0.00725183713568072 -0.08140923822978582 0.9927481628643191 0.08140923822978582 0.9927481628643191 0.08140923822978582 0.00725183713568072 -0.08140923822978582
2089.29613085404 0.0067987696852316705 -0.07869085181009318 0.9932012303147685 0.07869085181009318 0.9932012303147685 0.07869085181009318 0.0067987696852316705 -0.07869085181009318
2162.7185237270205 0.006374965124448988 -0.07606101309179995 0.993625034875551 0.07606101309179995 0.993625034875551 0.07606101309179995 0.006374965124448988 -0.07606101309179995
2238.7211385683395 0.0059785319881270355 -0.07351704511513933 0.994021468011873 0.07351704511513933 0.994021468011873 0.07351704511513933 0.0059785319881270355 -0.07351704511513933
2317.394649968479 0.005607700373137486 -0.07105633013518028 0.9943922996268627 0.07105633013518028 0.9943922996268627 0.07105633013518028 0.005607700373137486 -0.07105633013518028
2398.832919019491 0.005260814495201847 -0.06867631083410455 0.9947391855047981 0.06867631083410455 0.9947391855047981 0.06867631083410455 0.005260814495201847 -0.06867631083410455
2483.1331052955707 0.0049363256246614225 -0.06637449118605192 0.9950636743753386 0.06637449118605192 0.9950636743753386 0.06637449118605192 0.0049363256246614225 -0.06637449118605192
2570.3957827688632 0.004632785390982668 -0.06414843700973943 0.9953672146090173 0.06414843700973943 0.9953672146090173 0.06414843700973943 0.004632785390982668 -0.06414843700973943
2660.725059798809 0.004348839445339286 -0.061995776241412975 0.9956511605546607 0.061995776241412975 0.9956511605546607 0.061995776241412975 0.004348839445339286 -0.061995776241412975
2754.2287033381663 0.004083221470297098 -0.059914198958293634 0.9959167785297028 0.059914198958293634 0.9959167785297028 0.059914198958293634 0.004083221470297098 -0.059914198958293634
2851.018267503909 0.0038347475253631587 -0.05790145718051647 0.9961652524746368 0.05790145718051647 0.9961652524746368 0.05790145718051647 0.0038347475253631587 -0.05790145718051647
2951.209226666386 0.0036023107169226164 -0.055955364477571885 0.9963976892830776 0.055955364477571885 0.9963976892830776 0.055955364477571885 0.0036023107169226164 -0.055955364477571885
3054.9211132155133 0.0033848761808636858 -0.05407379540342401 0.9966151238191364 0.05407379540342401 0.9966151238191364 0.05407379540342401 0.0033848761808636858 -0.05407379540342401
3162.277660168379 0.0031814763659772155 -0.052254684782757986 0.9968185236340229 0.052254684782757986 0.9968185236340229 0.052254684782757986 0.0031814763659772155 -0.052254684782757986
3273.406948788382 0.002991206606015193 -0.05049602686917383 0.9970087933939847 0.05049602686917383 0.9970087933939847 0.05049602686917383 0.002991206606015193 -0.05049602686917383
3388.4415613920255 0.0028132209681085356 -0.048795874394574106 0.9971867790318915 0.048795874394574106 0.9971867790318915 0.048795874394574106 0.0028132209681085356 -0.048795874394574106
3507.5187395256803 0.002646728365089309 -0.04715233752747139 0.9973532716349108 0.04715233752747139 0.9973532716349108 0.04715233752747139 0.002646728365089309 -0.04715233752747139
3630.7805477010143 0.0024909889191475853 -0.045563582756459636 0.9975090110808527 0.045563582756459636 0.9975090110808527 0.045563582756459636 0.0024909889191475853 -0.045563582756459636
3758.374042884442 0.0023453105641899753 -0.04402783171364445 0.9976546894358098 0.04402783171364445 0.9976546894358098 0.04402783171364445 0.0023453105641899753 -0.04402783171364445
3890.451449942807 0.002209045874265895 -0.04254335995141502 0.997790954125734 0.04254335995141502 0.997790954125734 0.04254335995141502 0.002209045874265895 -0.04254335995141502
4027.170343254592 0.0020815891054962545 -0.04110849568456539 0.9979184108945038 0.04110849568456539 0.9979184108945038 0.04110849568456539 0.0020815891054962545 -0.04110849568456539
4168.693834703356 0.0019623734390826117 -0.039721618508447416 0.9980376265609172 0.039721618508447416 0.9980376265609172 0.039721618508447416 0.0019623734390826117 -0.039721618508447416
4315.190768277653 0.0018508684131936814 -0.038381158102564185 0.9981491315868064 0.038381158102564185 0.9981491315868064 0.038381158102564185 0.0018508684131936814 -0.038381158102564185
