!Murata Part Number: RCEC71H475K2DBH03A
!These Parameters are Measured in Series Mode Connection
!       o--ll--o
!Port1            Port2
!       o------o
!Operation Temp=25[degC], DC Bias Voltage=0[V]
!Freq. Start=100[Hz] Stop=100[MHz], 401[Steps]
!Data Generated on Feb 18, 2020
# Hz S RI R 50
!Freq.(Hz) S11(Real) S11(Imag) S21(Real) S21(Imag) S12(Real) S12(Imag) S22(Real) S22(Imag)
100.0 0.9268453872386911 -0.25779119271348544 0.07315461276130894 0.25779119271348544 0.07315461276130894 0.25779119271348544 0.9268453872386911 -0.25779119271348544
103.51421666793439 0.9220933909499187 -0.26544773965411156 0.07790660905008134 0.26544773965411156 0.07790660905008134 0.26544773965411156 0.9220933909499187 -0.26544773965411156
107.15193052376064 0.9170570928345798 -0.27323983498646387 0.0829429071654202 0.27323983498646387 0.0829429071654202 0.27323983498646387 0.9170570928345798 -0.27323983498646387
110.9174815262401 0.9117231571741747 -0.2811604065117885 0.08827684282582518 0.2811604065117885 0.08827684282582518 0.2811604065117885 0.9117231571741747 -0.2811604065117885
114.81536214968828 0.906078125796863 -0.28920128454227584 0.09392187420313701 0.28920128454227584 0.09392187420313701 0.28920128454227584 0.906078125796863 -0.28920128454227584
118.85022274370185 0.9001084916727164 -0.2973531357827852 0.09989150832728345 0.2973531357827852 0.09989150832728345 0.2973531357827852 0.9001084916727164 -0.2973531357827852
123.02687708123815 0.8938007828607093 -0.30560539987556445 0.10619921713929065 0.30560539987556445 0.10619921713929065 0.30560539987556445 0.8938007828607093 -0.30560539987556445
127.35030810166617 0.8871416572417632 -0.3139462299089398 0.1128583427582368 0.3139462299089398 0.1128583427582368 0.3139462299089398 0.8871416572417632 -0.3139462299089398
131.8256738556407 0.8801180083429259 -0.32236243834691286 0.11988199165707417 0.32236243834691286 0.11988199165707417 0.32236243834691286 0.8801180083429259 -0.32236243834691286
136.45831365889245 0.8727170823949646 -0.33083944998734177 0.12728291760503543 0.33083944998734177 0.12728291760503543 0.33083944998734177 0.8727170823949646 -0.33083944998734177
141.25375446227542 0.8649266065670412 -0.3393612636959329 0.13507339343295868 0.3393612636959329 0.13507339343295868 0.3393612636959329 0.8649266065670412 -0.3393612636959329
146.21771744567184 0.856734928086242 -0.34791042478469814 0.14326507191375806 0.34791042478469814 0.14326507191375806 0.34791042478469814 0.856734928086242 -0.34791042478469814
151.35612484362082 0.8481311636763205 -0.35646800999886546 0.15186883632367967 0.35646800999886546 0.15186883632367967 0.35646800999886546 0.8481311636763205 -0.35646800999886546
156.6751070108149 0.8391053584402584 -0.3650136271367871 0.16089464155974165 0.3650136271367871 0.16089464155974165 0.3650136271367871 0.8391053584402584 -0.3650136271367871
162.181009735893 0.8296486529681559 -0.3735254313437995 0.1703513470318441 0.3735254313437995 0.1703513470318441 0.3735254313437995 0.8296486529681559 -0.3735254313437995
167.88040181225603 0.8197534570806162 -0.3819801600837271 0.1802465429193839 0.3819801600837271 0.1802465429193839 0.3819801600837271 0.8197534570806162 -0.3819801600837271
173.78008287493756 0.8094136282256417 -0.3903531886913347 0.19058637177435844 0.3903531886913347 0.19058637177435844 0.3903531886913347 0.8094136282256417 -0.3903531886913347
179.88709151287878 0.7986246521440684 -0.39861860823685924 0.20137534785593147 0.39861860823685924 0.20137534785593147 0.39861860823685924 0.7986246521440684 -0.39861860823685924
186.20871366628674 0.7873838230173039 -0.4067493271823973 0.21261617698269616 0.4067493271823973 0.21261617698269616 0.4067493271823973 0.7873838230173039 -0.4067493271823973
192.7524913190936 0.7756904199266881 -0.41471719797408285 0.22430958007331198 0.41471719797408285 0.22430958007331198 0.41471719797408285 0.7756904199266881 -0.41471719797408285
199.526231496888 0.7635458761035018 -0.42249316929109987 0.23645412389649823 0.42249316929109987 0.23645412389649823 0.42249316929109987 0.7635458761035018 -0.42249316929109987
206.53801558105292 0.7509539371515869 -0.43004746416361533 0.24904606284841302 0.43004746416361533 0.24904606284841302 0.43004746416361533 0.7509539371515869 -0.43004746416361533
213.79620895022322 0.737920804200934 -0.4373497835818455 0.2620791957990659 0.4373497835818455 0.2620791957990659 0.4373497835818455 0.737920804200934 -0.4373497835818455
221.30947096056377 0.7244552578207364 -0.4443695345575971 0.2755447421792636 0.4443695345575971 0.2755447421792636 0.4443695345575971 0.7244552578207364 -0.4443695345575971
229.08676527677733 0.7105687585036635 -0.4510760808827254 0.2894312414963365 0.4510760808827254 0.2894312414963365 0.4510760808827254 0.7105687585036635 -0.4510760808827254
237.13737056616552 0.6962755196465482 -0.45743901407613524 0.3037244803534518 0.45743901407613524 0.3037244803534518 0.45743901407613524 0.6962755196465482 -0.45743901407613524
245.47089156850305 0.681592549209713 -0.463428441247215 0.31840745079028693 0.463428441247215 0.31840745079028693 0.463428441247215 0.681592549209713 -0.463428441247215
254.09727055493053 0.6665396566461375 -0.4690152858581061 0.3334603433538625 0.4690152858581061 0.3334603433538625 0.4690152858581061 0.6665396566461375 -0.4690152858581061
263.0267991895382 0.6511394222546357 -0.4741715966722793 0.3488605777453643 0.4741715966722793 0.3488605777453643 0.4741715966722793 0.6511394222546357 -0.4741715966722793
272.27013080779125 0.6354171268228629 -0.47887085956649567 0.3645828731771371 0.47887085956649567 0.3645828731771371 0.47887085956649567 0.6354171268228629 -0.47887085956649567
281.83829312644536 0.6194006402729058 -0.48308830639122424 0.3805993597270943 0.48308830639122424 0.3805993597270943 0.48308830639122424 0.6194006402729058 -0.48308830639122424
291.7427014001167 0.6031202689828865 -0.48680121472263654 0.39687973101711344 0.48680121472263654 0.39687973101711344 0.48680121472263654 0.6031202689828865 -0.48680121472263654
301.9951720402016 0.5866085625029023 -0.4899891921847747 0.41339143749709767 0.4899891921847747 0.41339143749709767 0.4899891921847747 0.5866085625029023 -0.4899891921847747
312.6079367123955 0.5699000814763077 -0.49263443905432613 0.43009991852369234 0.49263443905432613 0.43009991852369234 0.49263443905432613 0.5699000814763077 -0.49263443905432613
323.59365692962825 0.5530311296760382 -0.49472198310531307 0.4469688703239619 0.49472198310531307 0.4469688703239619 0.49472198310531307 0.5530311296760382 -0.49472198310531307
334.96543915782763 0.5360394541251735 -0.49623988110985645 0.4639605458748264 0.49623988110985645 0.4639605458748264 0.49623988110985645 0.5360394541251735 -0.49623988110985645
346.7368504525316 0.5189639182453302 -0.49717938207633966 0.48103608175466994 0.49717938207633966 0.48103608175466994 0.49717938207633966 0.5189639182453302 -0.49717938207633966
358.9219346450052 0.5018441538215787 -0.4975350481593174 0.4981558461784214 0.4975350481593174 0.4981558461784214 0.4975350481593174 0.5018441538215787 -0.4975350481593174
371.53522909717253 0.4847201982489772 -0.4973048301876894 0.5152798017510227 0.4973048301876894 0.5152798017510227 0.4973048301876894 0.4847201982489772 -0.4973048301876894
384.59178204535357 0.4676321240011241 -0.49649009589134063 0.5323678759988758 0.49649009589134063 0.5323678759988758 0.49649009589134063 0.4676321240011241 -0.49649009589134063
398.10717055349727 0.45061966751240096 -0.49509561011708075 0.5493803324875991 0.49509561011708075 0.5493803324875991 0.49509561011708075 0.45061966751240096 -0.49509561011708075
412.0975190973302 0.43372186468062596 -0.4931294675632663 0.5662781353193741 0.4931294675632663 0.5662781353193741 0.4931294675632663 0.43372186468062596 -0.4931294675632663
426.5795188015926 0.41697669997523445 -0.4906029797783871 0.5830233000247657 0.4906029797783871 0.5830233000247657 0.4906029797783871 0.41697669997523445 -0.4906029797783871
441.57044735331243 0.4004207756889983 -0.4875305193129815 0.5995792243110016 0.4875305193129815 0.5995792243110016 0.4875305193129815 0.4004207756889983 -0.4875305193129815
457.0881896148751 0.38408900722088163 -0.48392932494162194 0.6159109927791184 0.48392932494162194 0.6159109927791184 0.48392932494162194 0.38408900722088163 -0.48392932494162194
473.15125896148055 0.36801434945524664 -0.4798192727442593 0.6319856505447533 0.4798192727442593 0.6319856505447533 0.4798192727442593 0.36801434945524664 -0.4798192727442593
489.77881936844625 0.35222755834711295 -0.47522261852462117 0.6477724416528872 0.47522261852462117 0.6477724416528872 0.47522261852462117 0.35222755834711295 -0.47522261852462117
506.9907082747043 0.3367569907778846 -0.4701637175283328 0.6632430092221154 0.4701637175283328 0.6632430092221154 0.4701637175283328 0.3367569907778846 -0.4701637175283328
524.8074602497726 0.32162844465644425 -0.4646687276963979 0.6783715553435556 0.4646687276963979 0.6783715553435556 0.4646687276963979 0.32162844465644425 -0.4646687276963979
543.2503314924331 0.30686504015159866 -0.45876530275253197 0.6931349598484015 0.45876530275253197 0.6931349598484015 0.45876530275253197 0.30686504015159866 -0.45876530275253197
562.3413251903492 0.292487141895287 -0.4524822812871486 0.707512858104713 0.4524822812871486 0.707512858104713 0.4524822812871486 0.292487141895287 -0.4524822812871486
582.1032177708714 0.27851232102837326 -0.445849377686419 0.7214876789716268 0.445849377686419 0.7214876789716268 0.445849377686419 0.27851232102837326 -0.445849377686419
602.5595860743578 0.2649553551021124 -0.4388968802880671 0.7350446448978876 0.4388968802880671 0.7350446448978876 0.4388968802880671 0.2649553551021124 -0.4388968802880671
623.7348354824193 0.25182826312079115 -0.43165536155721296 0.7481717368792089 0.43165536155721296 0.7481717368792089 0.43165536155721296 0.25182826312079115 -0.43165536155721296
645.6542290346556 0.23914037242876657 -0.42415540439874483 0.7608596275712333 0.42415540439874483 0.7608596275712333 0.42415540439874483 0.23914037242876657 -0.42415540439874483
668.3439175686148 0.22689841371447314 -0.41642734799088854 0.7731015862855269 0.41642734799088854 0.7731015862855269 0.41642734799088854 0.22689841371447314 -0.41642734799088854
691.8309709189366 0.21510664012389422 -0.40850105576986734 0.784893359876106 0.40850105576986734 0.784893359876106 0.40850105576986734 0.21510664012389422 -0.40850105576986734
716.1434102129019 0.20376696633922017 -0.4004057074470381 0.7962330336607797 0.4004057074470381 0.7962330336607797 0.4004057074470381 0.20376696633922017 -0.4004057074470381
741.3102413009174 0.1928791234724458 -0.3921696162228062 0.8071208765275544 0.3921696162228062 0.8071208765275544 0.3921696162228062 0.1928791234724458 -0.3921696162228062
767.3614893618189 0.18244082573230205 -0.38382007169654253 0.817559174267698 0.38382007169654253 0.817559174267698 0.38382007169654253 0.18244082573230205 -0.38382007169654253
794.3282347242814 0.17244794502751298 -0.3753832083742127 0.8275520549724871 0.3753832083742127 0.8275520549724871 0.3753832083742127 0.17244794502751298 -0.3753832083742127
822.2426499470711 0.16289468995005835 -0.36688389915603953 0.8371053100499417 0.36688389915603953 0.8371053100499417 0.36688389915603953 0.16289468995005835 -0.36688389915603953
851.1380382023765 0.15377378591910415 -0.3583456727512111 0.8462262140808958 0.3583456727512111 0.8462262140808958 0.3583456727512111 0.15377378591910415 -0.3583456727512111
881.0488730080142 0.1450766536404853 -0.34979065361706246 0.8549233463595147 0.34979065361706246 0.8549233463595147 0.34979065361706246 0.1450766536404853 -0.34979065361706246
912.0108393559099 0.13679358343079193 -0.34123952275451 0.863206416569208 0.34123952275451 0.863206416569208 0.34123952275451 0.13679358343079193 -0.34123952275451
944.0608762859234 0.12891390335391942 -0.3327114975050559 0.8710860966460806 0.3327114975050559 0.8710860966460806 0.3327114975050559 0.12891390335391942 -0.3327114975050559
977.2372209558108 0.12142613950856612 -0.32422432838058474 0.878573860491434 0.32422432838058474 0.878573860491434 0.32422432838058474 0.12142613950856612 -0.32422432838058474
1011.5794542598987 0.11431816717727106 -0.31579431090716453 0.8856818328227292 0.31579431090716453 0.8856818328227292 0.31579431090716453 0.11431816717727106 -0.31579431090716453
1047.1285480508998 0.1075773518933267 -0.3074363104690184 0.8924226481066732 0.3074363104690184 0.8924226481066732 0.3074363104690184 0.1075773518933267 -0.3074363104690184
1083.9269140212034 0.10119067979579296 -0.2991637981893891 0.8988093202042069 0.2991637981893891 0.8988093202042069 0.2991637981893891 0.10119067979579296 -0.2991637981893891
1122.0184543019632 0.09514487692146446 -0.29098889597193156 0.9048551230785357 0.29098889597193156 0.9048551230785357 0.29098889597193156 0.09514487692146446 -0.29098889597193156
1161.4486138403427 0.08942651732444039 -0.2829224289408295 0.9105734826755596 0.2829224289408295 0.9105734826755596 0.2829224289408295 0.08942651732444039 -0.2829224289408295
1202.2644346174127 0.08402212011885112 -0.2749739836520478 0.9159778798811488 0.2749739836520478 0.9159778798811488 0.2749739836520478 0.08402212011885112 -0.2749739836520478
1244.514611771385 0.07891823570944839 -0.26715197059491325 0.9210817642905518 0.26715197059491325 0.9210817642905518 0.26715197059491325 0.07891823570944839 -0.26715197059491325
1288.249551693134 0.07410152161024483 -0.2594636896564922 0.9258984783897553 0.2594636896564922 0.9258984783897553 0.2594636896564922 0.07410152161024483 -0.2594636896564922
1333.5214321633239 0.06955880835586031 -0.2519153973758425 0.9304411916441396 0.2519153973758425 0.9304411916441396 0.2519153973758425 0.06955880835586031 -0.2519153973758425
1380.384264602885 0.06527715608684624 -0.24451237496709788 0.9347228439131537 0.24451237496709788 0.9347228439131537 0.24451237496709788 0.06527715608684624 -0.24451237496709788
1428.893958511103 0.061243902442296515 -0.23725899623621524 0.9387560975577033 0.23725899623621524 0.9387560975577033 0.23725899623621524 0.061243902442296515 -0.23725899623621524
1479.1083881682075 0.05744670242390858 -0.23015879465373434 0.9425532975760914 0.23015879465373434 0.9425532975760914 0.23015879465373434 0.05744670242390858 -0.23015879465373434
1531.0874616820304 0.05387356090860531 -0.2232145289733668 0.9461264390913947 0.2232145289733668 0.9461264390913947 0.2232145289733668 0.05387356090860531 -0.2232145289733668
1584.8931924611136 0.05051285848499398 -0.2164282469026279 0.9494871415150061 0.2164282469026279 0.9494871415150061 0.2164282469026279 0.05051285848499398 -0.2164282469026279
1640.5897731995396 0.04735337127521034 -0.20980134643651613 0.9526466287247896 0.20980134643651613 0.9526466287247896 0.20980134643651613 0.04735337127521034 -0.20980134643651613
1698.2436524617442 0.04438428538068172 -0.20333463455834783 0.9556157146193183 0.20333463455834783 0.9556157146193183 0.20333463455834783 0.04438428538068172 -0.20333463455834783
1757.9236139586924 0.0415952065603604 -0.19702838309348106 0.9584047934396396 0.19702838309348106 0.9584047934396396 0.19702838309348106 0.0415952065603604 -0.19702838309348106
1819.7008586099835 0.0389761657150501 -0.19088238157233928 0.9610238342849499 0.19088238157233928 0.9610238342849499 0.19088238157233928 0.0389761657150501 -0.19088238157233928
1883.6490894898002 0.03651762071327529 -0.18489598701947874 0.9634823792867248 0.18489598701947874 0.9634823792867248 0.18489598701947874 0.03651762071327529 -0.18489598701947874
1949.8445997580454 0.034210455054192464 -0.17906817063630176 0.9657895449458075 0.17906817063630176 0.9657895449458075 0.17906817063630176 0.034210455054192464 -0.17906817063630176
2018.3663636815609 0.03204597382246635 -0.1733975613871906 0.9679540261775336 0.1733975613871906 0.9679540261775336 0.1733975613871906 0.03204597382246635 -0.1733975613871906
2089.29613085404 0.03001589734979271 -0.1678824865332668 0.9699841026502073 0.1678824865332668 0.9699841026502073 0.1678824865332668 0.03001589734979271 -0.1678824865332668
2162.7185237270205 0.028112352958566744 -0.16252100918554652 0.9718876470414334 0.16252100918554652 0.9718876470414334 0.16252100918554652 0.028112352958566744 -0.16252100918554652
2238.7211385683395 0.026327865125615912 -0.15731096297082656 0.9736721348743842 0.15731096297082656 0.9736721348743842 0.15731096297082656 0.026327865125615912 -0.15731096297082656
2317.394649968479 0.024655344368326552 -0.15224998392003933 0.9753446556316737 0.15224998392003933 0.9753446556316737 0.15224998392003933 0.024655344368326552 -0.15224998392003933
2398.832919019491 0.023088075122139774 -0.14733553970080474 0.9769119248778603 0.14733553970080474 0.9769119248778603 0.14733553970080474 0.023088075122139774 -0.14733553970080474
2483.1331052955707 0.02161970284741493 -0.14256495632420438 0.9783802971525851 0.14256495632420438 0.9783802971525851 0.14256495632420438 0.02161970284741493 -0.14256495632420438
2570.3957827688632 0.02024422057510045 -0.13793544246101594 0.9797557794248996 0.13793544246101594 0.9797557794248996 0.13793544246101594 0.02024422057510045 -0.13793544246101594
2660.725059798809 0.018955955074489786 -0.13344411150534247 0.9810440449255101 0.13344411150534247 0.9810440449255101 0.13344411150534247 0.018955955074489786 -0.13344411150534247
2754.2287033381663 0.017749552802495162 -0.12908800152421934 0.9822504471975049 0.12908800152421934 0.9822504471975049 0.12908800152421934 0.017749552802495162 -0.12908800152421934
2851.018267503909 0.01661996577223021 -0.12486409323079894 0.9833800342277697 0.12486409323079894 0.9833800342277697 0.12486409323079894 0.01661996577223021 -0.12486409323079894
2951.209226666386 0.015562437459114474 -0.1207693261164344 0.9844375625408855 0.1207693261164344 0.9844375625408855 0.1207693261164344 0.015562437459114474 -0.1207693261164344
3054.9211132155133 0.014572488845049985 -0.11680061287369757 0.9854275111549501 0.11680061287369757 0.9854275111549501 0.11680061287369757 0.014572488845049985 -0.11680061287369757
3162.277660168379 0.013645904685317884 -0.11295485223829403 0.986354095314682 0.11295485223829403 0.986354095314682 0.11295485223829403 0.013645904685317884 -0.11295485223829403
3273.406948788382 0.012778720068555755 -0.10922894037317223 0.9872212799314443 0.10922894037317223 0.9872212799314443 0.10922894037317223 0.012778720068555755 -0.10922894037317223
3388.4415613920255 0.011967207327362749 -0.10561978091299903 0.9880327926726372 0.10561978091299903 0.9880327926726372 0.10561978091299903 0.011967207327362749 -0.10561978091299903
3507.5187395256803 0.011207863345616834 -0.10212429378171971 0.9887921366543834 0.10212429378171971 0.9887921366543834 0.10212429378171971 0.011207863345616834 -0.10212429378171971
3630.7805477010143 0.010497397298362297 -0.09873942289021702 0.9895026027016378 0.09873942289021702 0.9895026027016378 0.09873942289021702 0.010497397298362297 -0.09873942289021702
3758.374042884442 0.009832718851038666 -0.09546214281521628 0.9901672811489612 0.09546214281521628 0.9901672811489612 0.09546214281521628 0.009832718851038666 -0.09546214281521628
3890.451449942807 0.009210926836788334 -0.09228946455461073 0.9907890731632115 0.09228946455461073 0.9907890731632115 0.09228946455461073 0.009210926836788334 -0.09228946455461073
4027.170343254592 0.008629298423524454 -0.08921844044836622 0.9913707015764754 0.08921844044836622 0.9913707015764754 0.08921844044836622 0.008629298423524454 -0.08921844044836622
4168.693834703356 0.008085278776294332 -0.08624616834815119 0.9919147212237055 0.08624616834815119 0.9919147212237055 0.08624616834815119 0.008085278776294332 -0.08624616834815119
4315.190768277653 0.007576471215176241 -0.08336979511288327 0.9924235287848235 0.08336979511288327 0.9924235287848235 0.08336979511288327 0.007576471215176241 -0.08336979511288327
