!Murata Part Number: RCEC71H475K2K1H03B
!These Parameters are Measured in Series Mode Connection
!       o--ll--o
!Port1            Port2
!       o------o
!Operation Temp=25[degC], DC Bias Voltage=0[V]
!Freq. Start=100[Hz] Stop=100[MHz], 401[Steps]
!Data Generated on Feb 18, 2020
# Hz S RI R 50
!Freq.(Hz) S11(Real) S11(Imag) S21(Real) S21(Imag) S12(Real) S12(Imag) S22(Real) S22(Imag)
100.0 0.9268401931571987 -0.25778798711578477 0.07315980684280121 0.25778798711578477 0.07315980684280121 0.25778798711578477 0.9268401931571987 -0.25778798711578477
103.51421666793439 0.922087917332328 -0.2654442244337946 0.077912082667672 0.2654442244337946 0.077912082667672 0.2654442244337946 0.922087917332328 -0.2654442244337946
107.15193052376064 0.9170513312575308 -0.27323598266533355 0.08294866874246919 0.27323598266533355 0.08294866874246919 0.27323598266533355 0.9170513312575308 -0.27323598266533355
110.9174815262401 0.9117170999435801 -0.28115618760259126 0.08828290005642002 0.28115618760259126 0.08828290005642002 0.28115618760259126 0.9117170999435801 -0.28115618760259126
114.81536214968828 0.9060717661253532 -0.2891966674749247 0.09392823387464685 0.2891966674749247 0.09392823387464685 0.2891966674749247 0.9060717661253532 -0.2891966674749247
118.85022274370185 0.9001018238758028 -0.29734808684096936 0.09989817612419716 0.29734808684096936 0.09989817612419716 0.29734808684096936 0.9001018238758028 -0.29734808684096936
123.02687708123815 0.8937938025720334 -0.30559988314651276 0.10620619742796655 0.30559988314651276 0.10620619742796655 0.30559988314651276 0.8937938025720334 -0.30559988314651276
127.35030810166617 0.8871343616474984 -0.3139402072493876 0.11286563835250156 0.3139402072493876 0.11286563835250156 0.3139402072493876 0.8871343616474984 -0.3139402072493876
131.8256738556407 0.8801103964350155 -0.3223558693685874 0.1198896035649845 0.3223558693685874 0.1198896035649845 0.3223558693685874 0.8801103964350155 -0.3223558693685874
136.45831365889245 0.8727091552424349 -0.33083229206551135 0.12729084475756527 0.33083229206551135 0.12729084475756527 0.33083229206551135 0.8727091552424349 -0.33083229206551135
141.25375446227542 0.8649183676041002 -0.3393534720047583 0.13508163239589974 0.3393534720047583 0.13508163239589974 0.3393534720047583 0.8649183676041002 -0.3393534720047583
146.21771744567184 0.8567263834152806 -0.3479019523632474 0.14327361658471943 0.3479019523632474 0.14327361658471943 0.3479019523632474 0.8567263834152806 -0.3479019523632474
151.35612484362082 0.8481223223832574 -0.3564588078517022 0.15187767761674265 0.3564588078517022 0.15187767761674265 0.3564588078517022 0.8481223223832574 -0.3564588078517022
156.6751070108149 0.8390962329189411 -0.365003644372985 0.16090376708105883 0.365003644372985 0.16090376708105883 0.365003644372985 0.8390962329189411 -0.365003644372985
162.181009735893 0.8296392592497438 -0.37351461535806463 0.17036074075025628 0.37351461535806463 0.17036074075025628 0.37351461535806463 0.8296392592497438 -0.37351461535806463
167.88040181225603 0.8197438151630506 -0.38196845678299074 0.18025618483694922 0.38196845678299074 0.18025618483694922 0.38196845678299074 0.8197438151630506 -0.38196845678299074
173.78008287493756 0.8094037623974819 -0.39034054276971003 0.19059623760251815 0.39034054276971003 0.19059623760251815 0.39034054276971003 0.8094037623974819 -0.39034054276971003
179.88709151287878 0.7986145912961475 -0.3986049635012037 0.20138540870385244 0.3986049635012037 0.20138540870385244 0.3986049635012037 0.7986145912961475 -0.3986049635012037
186.20871366628674 0.7873736009349039 -0.40673462692989465 0.2126263990650961 0.40673462692989465 0.2126263990650961 0.40673462692989465 0.7873736009349039 -0.40673462692989465
192.7524913190936 0.7756800755542522 -0.4147013854222371 0.2243199244457478 0.4147013854222371 0.2243199244457478 0.4147013854222371 0.7756800755542522 -0.4147013854222371
199.526231496888 0.7635354537733571 -0.422476188059328 0.23646454622664284 0.422476188059328 0.23646454622664284 0.422476188059328 0.7635354537733571 -0.422476188059328
206.53801558105292 0.7509434867677875 -0.43002925880424836 0.24905651323221248 0.43002925880424836 0.24905651323221248 0.43002925880424836 0.7509434867677875 -0.43002925880424836
213.79620895022322 0.7379103813691882 -0.4373303001568214 0.2620896186308117 0.4373303001568214 0.2620896186308117 0.4373303001568214 0.7379103813691882 -0.4373303001568214
221.30947096056377 0.724444923915507 -0.44434872125548974 0.275555076084493 0.44434872125548974 0.275555076084493 0.44434872125548974 0.724444923915507 -0.44434872125548974
229.08676527677733 0.7105585806639563 -0.45105388866904905 0.2894414193360439 0.45105388866904905 0.2894414193360439 0.45105388866904905 0.7105585806639563 -0.45105388866904905
237.13737056616552 0.6962655706926689 -0.45741539736815184 0.3037344293073311 0.45741539736815184 0.3037344293073311 0.45741539736815184 0.6962655706926689 -0.45741539736815184
245.47089156850305 0.6815829074743899 -0.4634033586028251 0.31841709252561 0.4634033586028251 0.31841709252561 0.4634033586028251 0.6815829074743899 -0.4634033586028251
254.09727055493053 0.666530405714879 -0.46898870066688847 0.33346959428512096 0.46898870066688847 0.33346959428512096 0.46898870066688847 0.666530405714879 -0.46898870066688847
263.0267991895382 0.6511306506120114 -0.4741434778354585 0.3488693493879885 0.4741434778354585 0.3488693493879885 0.4741434778354585 0.6511306506120114 -0.4741434778354585
272.27013080779125 0.6354089274035205 -0.4788411821516222 0.36459107259647944 0.4788411821516222 0.36459107259647944 0.4788411821516222 0.6354089274035205 -0.4788411821516222
281.83829312644536 0.6193931099185203 -0.48305705224673695 0.3806068900814798 0.48305705224673695 0.3806068900814798 0.48305705224673695 0.6193931099185203 -0.48305705224673695
291.7427014001167 0.6031135078088018 -0.48676837303730547 0.39688649219119826 0.48676837303730547 0.39688649219119826 0.48676837303730547 0.6031135078088018 -0.48676837303730547
301.9951720402016 0.5866026731808823 -0.48995475997733795 0.4133973268191175 0.48995475997733795 0.4133973268191175 0.48995475997733795 0.5866026731808823 -0.48995475997733795
312.6079367123955 0.5698951684424645 -0.4925984215794764 0.43010483155753565 0.4925984215794764 0.43010483155753565 0.4925984215794764 0.5698951684424645 -0.4925984215794764
323.59365692962825 0.5530272982755197 -0.49468439416355203 0.4469727017244803 0.49468439416355203 0.4469727017244803 0.49468439416355203 0.5530272982755197 -0.49468439416355203
334.96543915782763 0.5360368097074861 -0.49620074325061136 0.46396319029251376 0.49620074325061136 0.46396319029251376 0.49620074325061136 0.5360368097074861 -0.49620074325061136
346.7368504525316 0.5189625652260944 -0.4971387266860613 0.48103743477390565 0.4971387266860613 0.48103743477390565 0.4971387266860613 0.5189625652260944 -0.4971387266860613
358.9219346450052 0.501844194728007 -0.49749291542899327 0.49815580527199305 0.49749291542899327 0.49815580527199305 0.49749291542899327 0.501844194728007 -0.49749291542899327
371.53522909717253 0.48472173276731173 -0.49726126895719525 0.5152782672326881 0.49726126895719525 0.5152782672326881 0.49726126895719525 0.48472173276731173 -0.49726126895719525
384.59178204535357 0.4676352480446393 -0.4964451633712185 0.5323647519553607 0.4964451633712185 0.5323647519553607 0.4964451633712185 0.4676352480446393 -0.4964451633712185
398.10717055349727 0.45062447232832353 -0.49504937149152956 0.5493755276716764 0.49504937149152956 0.5493755276716764 0.49504937149152956 0.45062447232832353 -0.49504937149152956
412.0975190973302 0.43372843601346317 -0.4930819954812345 0.5662715639865368 0.4930819954812345 0.5662715639865368 0.4930819954812345 0.43372843601346317 -0.4930819954812345
426.5795188015926 0.4169851173025496 -0.4905543537425404 0.5830148826974504 0.4905543537425404 0.5830148826974504 0.4905543537425404 0.4169851173025496 -0.4905543537425404
441.57044735331243 0.4004311115437174 -0.48748082497886064 0.5995688884562825 0.48748082497886064 0.5995688884562825 0.48748082497886064 0.4004311115437174 -0.48748082497886064
457.0881896148751 0.38410132661181046 -0.4838786533414037 0.6158986733881896 0.4838786533414037 0.6158986733881896 0.4838786533414037 0.38410132661181046 -0.4838786533414037
473.15125896148055 0.36802870939476606 -0.4797677194511238 0.6319712906052337 0.4797677194511238 0.6319712906052337 0.4797677194511238 0.36802870939476606 -0.4797677194511238
489.77881936844625 0.3522440074920916 -0.47517028277475204 0.6477559925079085 0.47517028277475204 0.6477559925079085 0.47517028277475204 0.3522440074920916 -0.47517028277475204
506.9907082747043 0.33677556918684304 -0.47011070131801697 0.663224430813157 0.47011070131801697 0.663224430813157 0.47011070131801697 0.33677556918684304 -0.47011070131801697
524.8074602497726 0.32164918366304585 -0.4646151348715707 0.6783508163369542 0.4646151348715707 0.6783508163369542 0.4646151348715707 0.32164918366304585 -0.4646151348715707
543.2503314924331 0.30688796235172977 -0.45871123810744757 0.6931120376482703 0.45871123810744757 0.6931120376482703 0.45871123810744757 0.30688796235172977 -0.45871123810744757
562.3413251903492 0.29251226124243696 -0.45242784968772554 0.707487738757563 0.45242784968772554 0.707487738757563 0.45242784968772554 0.29251226124243696 -0.45242784968772554
582.1032177708714 0.27853964302980105 -0.4457946832322786 0.7214603569701988 0.4457946832322786 0.7214603569701988 0.4457946832322786 0.27853964302980105 -0.4457946832322786
602.5595860743578 0.26498487710645185 -0.4388420255254461 0.7350151228935481 0.4388420255254461 0.7350151228935481 0.4388420255254461 0.26498487710645185 -0.4388420255254461
623.7348354824193 0.2518599746863381 -0.4316004467528799 0.748140025313662 0.4316004467528799 0.748140025313662 0.4316004467528799 0.2518599746863381 -0.4316004467528799
645.6542290346556 0.23917425576071508 -0.4241005268828825 0.760825744239285 0.4241005268828825 0.760825744239285 0.4241005268828825 0.23917425576071508 -0.4241005268828825
668.3439175686148 0.22693444415882044 -0.4163726015747048 0.7730655558411796 0.4163726015747048 0.7730655558411796 0.4163726015747048 0.22693444415882044 -0.4163726015747048
691.8309709189366 0.2151447867055866 -0.4084465302415554 0.7848552132944135 0.4084465302415554 0.7848552132944135 0.4084465302415554 0.2151447867055866 -0.4084465302415554
716.1434102129019 0.203807192332326 -0.4003514881476826 0.7961928076676741 0.4003514881476826 0.7961928076676741 0.4003514881476826 0.203807192332326 -0.4003514881476826
741.3102413009174 0.19292138699066672 -0.3921157837019845 0.8070786130093334 0.3921157837019845 0.8070786130093334 0.3921157837019845 0.19292138699066672 -0.3921157837019845
767.3614893618189 0.182485080328912 -0.3837667014457423 0.8175149196710881 0.3837667014457423 0.8175149196710881 0.3837667014457423 0.182485080328912 -0.3837667014457423
794.3282347242814 0.17249414029479052 -0.37533037063479885 0.8275058597052094 0.37533037063479885 0.8275058597052094 0.37533037063479885 0.17249414029479052 -0.37533037063479885
822.2426499470711 0.16294277210938946 -0.36683165879737445 0.8370572278906105 0.36683165879737445 0.8370572278906105 0.36683165879737445 0.16294277210938946 -0.36683165879737445
851.1380382023765 0.15382369839412877 -0.35829408921365385 0.8461763016058713 0.35829408921365385 0.8461763016058713 0.35829408921365385 0.15382369839412877 -0.35829408921365385
881.0488730080142 0.14512833760689015 -0.34973978091394803 0.8548716623931097 0.34973978091394803 0.8548716623931097 0.34973978091394803 0.14512833760689015 -0.34973978091394803
912.0108393559099 0.1368469783375712 -0.3411894095268081 0.8631530216624289 0.3411894095268081 0.8631530216624289 0.3411894095268081 0.1368469783375712 -0.3411894095268081
944.0608762859234 0.12896894741209994 -0.3326621871222175 0.8710310525879001 0.3326621871222175 0.8710310525879001 0.3326621871222175 0.12896894741209994 -0.3326621871222175
977.2372209558108 0.12148277014449582 -0.3241758590810745 0.8785172298555042 0.3241758590810745 0.8785172298555042 0.3241758590810745 0.12148277014449582 -0.3241758590810745
1011.5794542598987 0.11437632144857808 -0.31574671597231474 0.8856236785514218 0.31574671597231474 0.8856236785514218 0.31574671597231474 0.11437632144857808 -0.31574671597231474
1047.1285480508998 0.10763696686655976 -0.30738961842410667 0.8923630331334402 0.30738961842410667 0.8923630331334402 0.30738961842410667 0.10763696686655976 -0.30738961842410667
1083.9269140212034 0.10125169288553944 -0.2991180330261956 0.8987483071144606 0.2991180330261956 0.8987483071144606 0.2991180330261956 0.10125169288553944 -0.2991180330261956
1122.0184543019632 0.09520722619141735 -0.2909440773874676 0.9047927738085825 0.2909440773874676 0.9047927738085825 0.2909440773874676 0.09520722619141735 -0.2909440773874676
1161.4486138403427 0.08949014175143881 -0.28287857258739585 0.9105098582485612 0.28287857258739585 0.9105098582485612 0.28287857258739585 0.08949014175143881 -0.28287857258739585
1202.2644346174127 0.08408695982136911 -0.27493110139428567 0.9159130401786308 0.27493110139428567 0.9159130401786308 0.27493110139428567 0.08408695982136911 -0.27493110139428567
1244.514611771385 0.07898423214235212 -0.26711007077001936 0.9210157678576476 0.26711007077001936 0.9210157678576476 0.26711007077001936 0.07898423214235212 -0.26711007077001936
1288.249551693134 0.07416861772789228 -0.25942277733427066 0.9258313822721078 0.25942277733427066 0.9258313822721078 0.25942277733427066 0.07416861772789228 -0.25942277733427066
1333.5214321633239 0.06962694874578923 -0.2518754746157508 0.9303730512542107 0.2518754746157508 0.9303730512542107 0.2518754746157508 0.06962694874578923 -0.2518754746157508
1380.384264602885 0.06534628707639856 -0.24447344106990743 0.9346537129236014 0.24447344106990743 0.9346537129236014 0.24447344106990743 0.06534628707639856 -0.24447344106990743
1428.893958511103 0.06131397218056643 -0.2372210479883315 0.9386860278194336 0.2372210479883315 0.9386860278194336 0.2372210479883315 0.06131397218056643 -0.2372210479883315
1479.1083881682075 0.05751766094139284 -0.23012182656261482 0.9424823390586071 0.23012182656261482 0.9424823390586071 0.23012182656261482 0.05751766094139284 -0.23012182656261482
1531.0874616820304 0.05394536015688322 -0.22317853349282998 0.9460546398431168 0.22317853349282998 0.9460546398431168 0.22317853349282998 0.05394536015688322 -0.22317853349282998
1584.8931924611136 0.050585452358682594 -0.21639321464715974 0.9494145476413174 0.21639321464715974 0.9494145476413174 0.21639321464715974 0.050585452358682594 -0.21639321464715974
1640.5897731995396 0.0474267156183335 -0.20976726638396032 0.9525732843816664 0.20976726638396032 0.9525732843816664 0.20976726638396032 0.0474267156183335 -0.20976726638396032
1698.2436524617442 0.04445833797946724 -0.20330149424060384 0.9555416620205328 0.20330149424060384 0.9555416620205328 0.20330149424060384 0.04445833797946724 -0.20330149424060384
1757.9236139586924 0.04166992712434491 -0.1969961687750424 0.9583300728756551 0.1969961687750424 0.9583300728756551 0.1969961687750424 0.04166992712434491 -0.1969961687750424
1819.7008586099835 0.03905151584822762 -0.19085107841667404 0.9609484841517724 0.19085107841667404 0.9609484841517724 0.19085107841667404 0.03905151584822762 -0.19085107841667404
1883.6490894898002 0.03659356387688143 -0.18486557924340125 0.9634064361231186 0.18486557924340125 0.9634064361231186 0.18486557924340125 0.03659356387688143 -0.18486557924340125
1949.8445997580454 0.03428695652257205 -0.1790386416525999 0.9657130434774279 0.1790386416525999 0.9657130434774279 0.1790386416525999 0.03428695652257205 -0.1790386416525999
2018.3663636815609 0.0321230006333305 -0.17336889393586552 0.9678769993666695 0.17336889393586552 0.9678769993666695 0.17336889393586552 0.0321230006333305 -0.17336889393586552
2089.29613085404 0.030093418250036492 -0.16785466280181563 0.9699065817499635 0.16785466280181563 0.9699065817499635 0.16785466280181563 0.030093418250036492 -0.16785466280181563
2162.7185237270205 0.028190338346688798 -0.16249401091877091 0.9718096616533114 0.16249401091877091 0.9718096616533114 0.16249401091877091 0.028190338346688798 -0.16249401091877091
2238.7211385683395 0.026406286991659908 -0.15728477157068935 0.9735937130083403 0.15728477157068935 0.9735937130083403 0.15728477157068935 0.026406286991659908 -0.15728477157068935
2317.394649968479 0.024734176232151166 -0.1522245805361152 0.9752658237678491 0.1522245805361152 0.9752658237678491 0.1522245805361152 0.024734176232151166 -0.1522245805361152
2398.832919019491 0.023167291970718866 -0.14731090531188534 0.9768327080292812 0.14731090531188534 0.9768327080292812 0.14731090531188534 0.023167291970718866 -0.14731090531188534
2483.1331052955707 0.0216992810717732 -0.1425410718116211 0.9783007189282269 0.1425410718116211 0.9783007189282269 0.1425410718116211 0.0216992810717732 -0.1425410718116211
2570.3957827688632 0.02032413790740235 -0.13791228867424118 0.9796758620925978 0.13791228867424118 0.9796758620925978 0.13791228867424118 0.02032413790740235 -0.13791228867424118
2660.725059798809 0.019036190525719657 -0.1334216693204195 0.9809638094742803 0.1334216693204195 0.9809638094742803 0.1334216693204195 0.019036190525719657 -0.1334216693204195
2754.2287033381663 0.01783008660109503 -0.1290662518955564 0.982169913398905 0.1290662518955564 0.982169913398905 0.1290662518955564 0.01783008660109503 -0.1290662518955564
2851.018267503909 0.016700779303997444 -0.12484301723684448 0.9832992206960026 0.12484301723684448 0.9832992206960026 0.12484301723684448 0.016700779303997444 -0.12484301723684448
2951.209226666386 0.015643513208604316 -0.12074890499972848 0.9843564867913955 0.12074890499972848 0.9843564867913955 0.12074890499972848 0.015643513208604316 -0.12074890499972848
3054.9211132155133 0.014653810338677502 -0.1167808280757716 0.9853461896613225 0.1167808280757716 0.9853461896613225 0.1167808280757716 0.014653810338677502 -0.1167808280757716
3162.277660168379 0.013727456436309158 -0.11293568542986472 0.9862725435636908 0.11293568542986472 0.9862725435636908 0.11293568542986472 0.013727456436309158 -0.11293568542986472
3273.406948788382 0.012860487523859362 -0.10921037348005093 0.987139512476141 0.10921037348005093 0.987139512476141 0.10921037348005093 0.012860487523859362 -0.10921037348005093
3388.4415613920255 0.012049176816598596 -0.1056017961381104 0.9879508231834014 0.1056017961381104 0.9879508231834014 0.1056017961381104 0.012049176816598596 -0.1056017961381104
3507.5187395256803 0.011290022032110446 -0.10210687362359809 0.9887099779678896 0.10210687362359809 0.9887099779678896 0.10210687362359809 0.011290022032110446 -0.10210687362359809
3630.7805477010143 0.010579733132287546 -0.09872255015832235 0.9894202668677126 0.09872255015832235 0.9894202668677126 0.09872255015832235 0.010579733132287546 -0.09872255015832235
3758.374042884442 0.009915220524670936 -0.09544580064238628 0.990084779475329 0.09544580064238628 0.990084779475329 0.09544580064238628 0.009915220524670936 -0.09544580064238628
3890.451449942807 0.00929358374185245 -0.09227363640694171 0.9907064162581475 0.09227363640694171 0.9907064162581475 0.09227363640694171 0.00929358374185245 -0.09227363640694171
4027.170343254592 0.00871210061060713 -0.08920311013279131 0.9912878993893931 0.08920311013279131 0.9912878993893931 0.08920311013279131 0.00871210061060713 -0.08920311013279131
4168.693834703356 0.008168216916278908 -0.08623132001796185 0.991831783083721 0.08623132001796185 0.991831783083721 0.08623132001796185 0.008168216916278908 -0.08623132001796185
4315.190768277653 0.007659536562648261 -0.08335541327141949 0.9923404634373516 0.08335541327141949 0.9923404634373516 0.08335541327141949 0.007659536562648261 -0.08335541327141949
