!Murata Part Number: RCEC72A475K3M1H03A
!These Parameters are Measured in Series Mode Connection
!       o--ll--o
!Port1            Port2
!       o------o
!Operation Temp=25[degC], DC Bias Voltage=0[V]
!Freq. Start=100[Hz] Stop=100[MHz], 401[Steps]
!Data Generated on Apr 21, 2023
# Hz S RI R 50
!Freq.(Hz) S11(Real) S11(Imag) S21(Real) S21(Imag) S12(Real) S12(Imag) S22(Real) S22(Imag)
100.0 0.9252199113233627 -0.2603921313695569 0.0747800886766373 0.2603921313695569 0.0747800886766373 0.2603921313695569 0.9252199113233627 -0.2603921313695569
103.51421666793439 0.9203560406582066 -0.2680736915818639 0.07964395934179337 0.2680736915818639 0.07964395934179337 0.2680736915818639 0.9203560406582066 -0.2680736915818639
107.15193052376064 0.9152044835615561 -0.2758868088130736 0.08479551643844377 0.2758868088130736 0.08479551643844377 0.2758868088130736 0.9152044835615561 -0.2758868088130736
110.9174815262401 0.9097519719125121 -0.28382411439066774 0.09024802808748797 0.28382411439066774 0.09024802808748797 0.28382411439066774 0.9097519719125121 -0.28382411439066774
114.81536214968828 0.9039851317912677 -0.2918771263633935 0.09601486820873216 0.2918771263633935 0.09601486820873216 0.2918771263633935 0.9039851317912677 -0.2918771263633935
118.85022274370185 0.8978905601920419 -0.3000361830159114 0.10210943980795818 0.3000361830159114 0.10210943980795818 0.3000361830159114 0.8978905601920419 -0.3000361830159114
123.02687708123815 0.8914549124449724 -0.3082903794416467 0.10854508755502758 0.3082903794416467 0.10854508755502758 0.3082903794416467 0.8914549124449724 -0.3082903794416467
127.35030810166617 0.8846650007498028 -0.3166275085593971 0.11533499925019731 0.3166275085593971 0.11533499925019731 0.3166275085593971 0.8846650007498028 -0.3166275085593971
131.8256738556407 0.8775079040798912 -0.32503400811671174 0.12249209592010893 0.32503400811671174 0.12249209592010893 0.32503400811671174 0.8775079040798912 -0.32503400811671174
136.45831365889245 0.8699710895357975 -0.33349491537322784 0.13002891046420248 0.33349491537322784 0.13002891046420248 0.33349491537322784 0.8699710895357975 -0.33349491537322784
141.25375446227542 0.8620425450112517 -0.3419938312936379 0.13795745498874837 0.3419938312936379 0.13795745498874837 0.3419938312936379 0.8620425450112517 -0.3419938312936379
146.21771744567184 0.8537109227795087 -0.35051289619532283 0.14628907722049128 0.35051289619532283 0.14628907722049128 0.35051289619532283 0.8537109227795087 -0.35051289619532283
151.35612484362082 0.8449656933150224 -0.35903277888147483 0.15503430668497767 0.35903277888147483 0.15503430668497767 0.35903277888147483 0.8449656933150224 -0.35903277888147483
156.6751070108149 0.8357973083356774 -0.36753268133751194 0.16420269166432241 0.36753268133751194 0.16420269166432241 0.36753268133751194 0.8357973083356774 -0.36753268133751194
162.181009735893 0.8261973716882353 -0.3759903610668935 0.17380262831176477 0.3759903610668935 0.17380262831176477 0.3759903610668935 0.8261973716882353 -0.3759903610668935
167.88040181225603 0.816158816310053 -0.38438217308209716 0.18384118368994684 0.38438217308209716 0.18384118368994684 0.38438217308209716 0.816158816310053 -0.38438217308209716
173.78008287493756 0.8056760850921243 -0.3926831334377712 0.19432391490787573 0.3926831334377712 0.19432391490787573 0.3926831334377712 0.8056760850921243 -0.3926831334377712
179.88709151287878 0.7947453130532403 -0.4008670059871127 0.2052546869467597 0.4008670059871127 0.2052546869467597 0.4008670059871127 0.7947453130532403 -0.4008670059871127
186.20871366628674 0.7833645078266988 -0.40890641375214787 0.21663549217330114 0.40890641375214787 0.21663549217330114 0.40890641375214787 0.7833645078266988 -0.40890641375214787
192.7524913190936 0.7715337250761121 -0.416772975918956 0.228466274923888 0.416772975918956 0.228466274923888 0.416772975918956 0.7715337250761121 -0.416772975918956
199.526231496888 0.7592552351145406 -0.42443747099842305 0.24074476488545943 0.42443747099842305 0.24074476488545943 0.42443747099842305 0.7592552351145406 -0.42443747099842305
206.53801558105292 0.7465336767221008 -0.4318700261342028 0.2534663232778991 0.4318700261342028 0.2534663232778991 0.4318700261342028 0.7465336767221008 -0.4318700261342028
213.79620895022322 0.7333761939629786 -0.43904033189940894 0.26662380603702146 0.43904033189940894 0.26662380603702146 0.43904033189940894 0.7333761939629786 -0.43904033189940894
221.30947096056377 0.719792551714858 -0.44591788121453835 0.2802074482851419 0.44591788121453835 0.2802074482851419 0.44591788121453835 0.719792551714858 -0.44591788121453835
229.08676527677733 0.7057952256620081 -0.45247223025930733 0.2942047743379919 0.45247223025930733 0.2942047743379919 0.45247223025930733 0.7057952256620081 -0.45247223025930733
237.13737056616552 0.6913994626845522 -0.4586732784639709 0.3086005373154479 0.4586732784639709 0.3086005373154479 0.4586732784639709 0.6913994626845522 -0.4586732784639709
245.47089156850305 0.676623307913125 -0.4644915638799766 0.323376692086875 0.4644915638799766 0.323376692086875 0.4644915638799766 0.676623307913125 -0.4644915638799766
254.09727055493053 0.6614875952163777 -0.46989856947828607 0.3385124047836224 0.46989856947828607 0.3385124047836224 0.46989856947828607 0.6614875952163777 -0.46989856947828607
263.0267991895382 0.646015898547479 -0.47486703524205603 0.35398410145252107 0.47486703524205603 0.35398410145252107 0.47486703524205603 0.646015898547479 -0.47486703524205603
272.27013080779125 0.6302344423851968 -0.47937127034527743 0.3697655576148031 0.47937127034527743 0.3697655576148031 0.47937127034527743 0.6302344423851968 -0.47937127034527743
281.83829312644536 0.6141719704466285 -0.48338745927595894 0.3858280295533715 0.48338745927595894 0.3858280295533715 0.48338745927595894 0.6141719704466285 -0.48338745927595894
291.7427014001167 0.5978595728945831 -0.48689395550353404 0.40214042710541686 0.48689395550353404 0.40214042710541686 0.48689395550353404 0.5978595728945831 -0.48689395550353404
301.9951720402016 0.5813304733770251 -0.48987155623141304 0.418669526622975 0.48987155623141304 0.418669526622975 0.48987155623141304 0.5813304733770251 -0.48987155623141304
312.6079367123955 0.5646197783761688 -0.49230375193481385 0.4353802216238313 0.49230375193481385 0.4353802216238313 0.49230375193481385 0.5646197783761688 -0.49230375193481385
323.59365692962825 0.5477641924632122 -0.4941769447688909 0.45223580753678777 0.4941769447688909 0.45223580753678777 0.4941769447688909 0.5477641924632122 -0.4941769447688909
334.96543915782763 0.5308017041017602 -0.49548063053894753 0.46919829589823975 0.49548063053894753 0.46919829589823975 0.49548063053894753 0.5308017041017602 -0.49548063053894753
346.7368504525316 0.5137712475699976 -0.4962075397374568 0.4862287524300024 0.4962075397374568 0.4862287524300024 0.4962075397374568 0.5137712475699976 -0.4962075397374568
358.9219346450052 0.4967123473340841 -0.4963537341442482 0.5032876526659158 0.4963537341442482 0.5032876526659158 0.4963537341442482 0.4967123473340841 -0.4963537341442482
371.53522909717253 0.47966475176555917 -0.49591865661868356 0.5203352482344409 0.49591865661868356 0.5203352482344409 0.49591865661868356 0.47966475176555917 -0.49591865661868356
384.59178204535357 0.4626680634260879 -0.49490513293963223 0.5373319365739121 0.49490513293963223 0.5373319365739121 0.49490513293963223 0.4626680634260879 -0.49490513293963223
398.10717055349727 0.4457613732276439 -0.4933193258186554 0.554238626772356 0.4933193258186554 0.554238626772356 0.4933193258186554 0.4457613732276439 -0.4933193258186554
412.0975190973302 0.42898290561208824 -0.4911706424696677 0.5710170943879116 0.4911706424696677 0.5710170943879116 0.4911706424696677 0.42898290561208824 -0.4911706424696677
426.5795188015926 0.41236968149095093 -0.4884715983111639 0.5876303185090493 0.4884715983111639 0.5876303185090493 0.4884715983111639 0.41236968149095093 -0.4884715983111639
441.57044735331243 0.3959572050661724 -0.48523764045591494 0.6040427949338276 0.48523764045591494 0.6040427949338276 0.48523764045591494 0.3959572050661724 -0.48523764045591494
457.0881896148751 0.37977917984828713 -0.481486935566159 0.6202208201517128 0.481486935566159 0.6202208201517128 0.481486935566159 0.37977917984828713 -0.481486935566159
473.15125896148055 0.36386725824080146 -0.4772401273876557 0.6361327417591984 0.4772401273876557 0.6361327417591984 0.4772401273876557 0.36386725824080146 -0.4772401273876557
489.77881936844625 0.34825082801442264 -0.4725200698025536 0.6517491719855774 0.4725200698025536 0.6517491719855774 0.4725200698025536 0.34825082801442264 -0.4725200698025536
506.9907082747043 0.33295683790051456 -0.4673515415495457 0.6670431620994857 0.4673515415495457 0.6670431620994857 0.4673515415495457 0.33295683790051456 -0.4673515415495457
524.8074602497726 0.31800966343697906 -0.4617609488524351 0.6819903365630209 0.4617609488524351 0.6819903365630209 0.4617609488524351 0.31800966343697906 -0.4617609488524351
543.2503314924331 0.3034310131454345 -0.4557760220876136 0.6965689868545655 0.4557760220876136 0.6965689868545655 0.4557760220876136 0.3034310131454345 -0.4557760220876136
562.3413251903492 0.28923987414379004 -0.4494255123283216 0.71076012585621 0.4494255123283216 0.71076012585621 0.4494255123283216 0.28923987414379004 -0.4494255123283216
582.1032177708714 0.2754524954336116 -0.4427388931569071 0.7245475045663884 0.4427388931569071 0.7245475045663884 0.4427388931569071 0.2754524954336116 -0.4427388931569071
602.5595860743578 0.26208240636887215 -0.43574607256776915 0.737917593631128 0.43574607256776915 0.737917593631128 0.43574607256776915 0.26208240636887215 -0.43574607256776915
623.7348354824193 0.24914046722531102 -0.4284771191275172 0.7508595327746889 0.4284771191275172 0.7508595327746889 0.4284771191275172 0.24914046722531102 -0.4284771191275172
645.6542290346556 0.23663494835275942 -0.4209620058490615 0.7633650516472408 0.4209620058490615 0.7633650516472408 0.4209620058490615 0.23663494835275942 -0.4209620058490615
668.3439175686148 0.2245716341042454 -0.4132303745049168 0.7754283658957547 0.4132303745049168 0.7754283658957547 0.4132303745049168 0.2245716341042454 -0.4132303745049168
691.8309709189366 0.2129539475870461 -0.4053113223805515 0.7870460524129539 0.4053113223805515 0.7870460524129539 0.4053113223805515 0.2129539475870461 -0.4053113223805515
716.1434102129019 0.20178309225887128 -0.3972332127753454 0.7982169077411286 0.3972332127753454 0.7982169077411286 0.3972332127753454 0.20178309225887128 -0.3972332127753454
741.3102413009174 0.19105820648050575 -0.3890235099159487 0.8089417935194941 0.3890235099159487 0.8089417935194941 0.3890235099159487 0.19105820648050575 -0.3890235099159487
767.3614893618189 0.18077652731594335 -0.38070863836876173 0.8192234726840566 0.38070863836876173 0.8192234726840566 0.38070863836876173 0.18077652731594335 -0.38070863836876173
794.3282347242814 0.1709335601230984 -0.37231386653423487 0.8290664398769015 0.37231386653423487 0.8290664398769015 0.37231386653423487 0.1709335601230984 -0.37231386653423487
822.2426499470711 0.16152325078368243 -0.3638632133806059 0.8384767492163178 0.3638632133806059 0.8384767492163178 0.3638632133806059 0.16152325078368243 -0.3638632133806059
851.1380382023765 0.1525381577620407 -0.3553793772295788 0.8474618422379592 0.3553793772295788 0.8474618422379592 0.3553793772295788 0.1525381577620407 -0.3553793772295788
881.0488730080142 0.14396962154368417 -0.34688368513917084 0.8560303784563158 0.34688368513917084 0.8560303784563158 0.34688368513917084 0.14396962154368417 -0.34688368513917084
912.0108393559099 0.1358079293710507 -0.3383960612349233 0.8641920706289493 0.3383960612349233 0.8641920706289493 0.3383960612349233 0.1358079293710507 -0.3383960612349233
944.0608762859234 0.12804247355512427 -0.32993501221352844 0.8719575264448758 0.32993501221352844 0.8719575264448758 0.32993501221352844 0.12804247355512427 -0.32993501221352844
977.2372209558108 0.12066190198767399 -0.32151762817515506 0.8793380980123261 0.32151762817515506 0.8793380980123261 0.32151762817515506 0.12066190198767399 -0.32151762817515506
1011.5794542598987 0.11365425980302056 -0.31315959692425877 0.8863457401969794 0.31315959692425877 0.8863457401969794 0.31315959692425877 0.11365425980302056 -0.31315959692425877
1047.1285480508998 0.10700712143540458 -0.304875229905165 0.8929928785645954 0.304875229905165 0.8929928785645954 0.304875229905165 0.10700712143540458 -0.304875229905165
1083.9269140212034 0.10070771258503346 -0.29667749800014015 0.8992922874149666 0.29667749800014015 0.8992922874149666 0.29667749800014015 0.10070771258503346 -0.29667749800014015
1122.0184543019632 0.09474302184108171 -0.2885780755063943 0.9052569781589181 0.2885780755063943 0.9052569781589181 0.2885780755063943 0.09474302184108171 -0.2885780755063943
1161.4486138403427 0.08909990191294709 -0.28058739071750594 0.9109000980870526 0.28058739071750594 0.9109000980870526 0.28058739071750594 0.08909990191294709 -0.28058739071750594
1202.2644346174127 0.08376516059258339 -0.2727146816578699 0.9162348394074169 0.2727146816578699 0.9162348394074169 0.2727146816578699 0.08376516059258339 -0.2727146816578699
1244.514611771385 0.07872564171217243 -0.2649680556505193 0.9212743582878278 0.2649680556505193 0.9212743582878278 0.2649680556505193 0.07872564171217243 -0.2649680556505193
1288.249551693134 0.07396829647477121 -0.2573545515344152 0.9260317035252288 0.2573545515344152 0.9260317035252288 0.2573545515344152 0.07396829647477121 -0.2573545515344152
1333.5214321633239 0.06948024562325503 -0.249880203483194 0.9305197543767451 0.249880203483194 0.9305197543767451 0.249880203483194 0.06948024562325503 -0.249880203483194
1380.384264602885 0.06524883297749381 -0.24255010551031822 0.9347511670225059 0.24255010551031822 0.9347511670225059 0.24255010551031822 0.06524883297749381 -0.24255010551031822
1428.893958511103 0.06126167091395048 -0.23536847587316878 0.9387383290860495 0.23536847587316878 0.9387383290860495 0.23536847587316878 0.06126167091395048 -0.23536847587316878
1479.1083881682075 0.05750667838848311 -0.22833872070902178 0.9424933216115169 0.22833872070902178 0.9424933216115169 0.22833872070902178 0.05750667838848311 -0.22833872070902178
1531.0874616820304 0.05397211211469554 -0.22146349634781273 0.9460278878853046 0.22146349634781273 0.9460278878853046 0.22146349634781273 0.05397211211469554 -0.22146349634781273
1584.8931924611136 0.05064659150919244 -0.21474476984926671 0.9493534084908073 0.21474476984926671 0.9493534084908073 0.21474476984926671 0.05064659150919244 -0.21474476984926671
1640.5897731995396 0.04751911800386472 -0.208183877404934 0.9524808819961353 0.208183877404934 0.9524808819961353 0.208183877404934 0.04751911800386472 -0.208183877404934
1698.2436524617442 0.04457908930595523 -0.2017815803287909 0.9554209106940447 0.2017815803287909 0.9554209106940447 0.2017815803287909 0.04457908930595523 -0.2017815803287909
1757.9236139586924 0.041816309161023066 -0.19553811843348204 0.9581836908389767 0.19553811843348204 0.9581836908389767 0.19553811843348204 0.041816309161023066 -0.19553811843348204
1819.7008586099835 0.03922099314369345 -0.18945326065331194 0.9607790068563068 0.18945326065331194 0.9607790068563068 0.18945326065331194 0.03922099314369345 -0.18945326065331194
1883.6490894898002 0.03678377096769822 -0.1835263528302196 0.9632162290323018 0.1835263528302196 0.9632162290323018 0.1835263528302196 0.03678377096769822 -0.1835263528302196
1949.8445997580454 0.034495685771418 -0.1777563626257796 0.965504314228582 0.1777563626257796 0.965504314228582 0.1777563626257796 0.034495685771418 -0.1777563626257796
2018.3663636815609 0.03234819079896805 -0.1721419215614007 0.967651809201032 0.1721419215614007 0.967651809201032 0.1721419215614007 0.03234819079896805 -0.1721419215614007
2089.29613085404 0.030333143860693475 -0.16668136422105614 0.9696668561393065 0.16668136422105614 0.9696668561393065 0.16668136422105614 0.030333143860693475 -0.16668136422105614
2162.7185237270205 0.02844279992144798 -0.16137276467677505 0.9715572000785521 0.16137276467677505 0.9715572000785521 0.16137276467677505 0.02844279992144798 -0.16137276467677505
2238.7211385683395 0.026669802130774602 -0.1562139702174648 0.9733301978692255 0.1562139702174648 0.9733301978692255 0.1562139702174648 0.026669802130774602 -0.1562139702174648
2317.394649968479 0.02500717157650535 -0.1512026324771295 0.9749928284234947 0.1512026324771295 0.9749928284234947 0.1512026324771295 0.02500717157650535 -0.1512026324771295
2398.832919019491 0.023448296012645007 -0.14633623606984605 0.9765517039873549 0.14633623606984605 0.9765517039873549 0.14633623606984605 0.023448296012645007 -0.14633623606984605
2483.1331052955707 0.02198691778390763 -0.14161212484660993 0.9780130822160923 0.14161212484660993 0.9780130822160923 0.14161212484660993 0.02198691778390763 -0.14161212484660993
2570.3957827688632 0.02061712114303509 -0.1370275258939407 0.9793828788569648 0.1370275258939407 0.9793828788569648 0.1370275258939407 0.02061712114303509 -0.1370275258939407
2660.725059798809 0.019333319133085385 -0.13257957139649143 0.9806666808669147 0.13257957139649143 0.9806666808669147 0.13257957139649143 0.019333319133085385 -0.13257957139649143
2754.2287033381663 0.018130240185201013 -0.12826531848631717 0.9818697598147992 0.12826531848631717 0.9818697598147992 0.12826531848631717 0.018130240185201013 -0.12826531848631717
2851.018267503909 0.017002914562873436 -0.12408176720036342 0.9829970854371265 0.12408176720036342 0.9829970854371265 0.12408176720036342 0.017002914562873436 -0.12408176720036342
2951.209226666386 0.015946660766286504 -0.1200258766655063 0.9840533392337136 0.1200258766655063 0.9840533392337136 0.1200258766655063 0.015946660766286504 -0.1200258766655063
3054.9211132155133 0.014957071994793448 -0.11609457962743516 0.9850429280052064 0.11609457962743516 0.9850429280052064 0.11609457962743516 0.014957071994793448 -0.11609457962743516
3162.277660168379 0.01403000275178606 -0.11228479543607452 0.9859699972482138 0.11228479543607452 0.9859699972482138 0.11228479543607452 0.01403000275178606 -0.11228479543607452
3273.406948788382 0.013161555663963627 -0.10859344159630512 0.9868384443360364 0.10859344159630512 0.9868384443360364 0.10859344159630512 0.013161555663963627 -0.10859344159630512
3388.4415613920255 0.012348068576116977 -0.10501744398861997 0.987651931423883 0.10501744398861997 0.987651931423883 0.10501744398861997 0.012348068576116977 -0.10501744398861997
3507.5187395256803 0.011586101972827957 -0.10155374586015506 0.988413898027172 0.10155374586015506 0.988413898027172 0.10155374586015506 0.011586101972827957 -0.10155374586015506
3630.7805477010143 0.010872426769778364 -0.0981993156823303 0.9891275732302217 0.0981993156823303 0.9891275732302217 0.0981993156823303 0.010872426769778364 -0.0981993156823303
3758.374042884442 0.010204012509515985 -0.09495115396716866 0.989795987490484 0.09495115396716866 0.989795987490484 0.09495115396716866 0.010204012509515985 -0.09495115396716866
3890.451449942807 0.009578015989411822 -0.09180629913023663 0.9904219840105882 0.09180629913023663 0.9904219840105882 0.09180629913023663 0.009578015989411822 -0.09180629913023663
4027.170343254592 0.008991770343058843 -0.08876183248405849 0.9910082296569411 0.08876183248405849 0.9910082296569411 0.08876183248405849 0.008991770343058843 -0.08876183248405849
4168.693834703356 0.008442774590432519 -0.08581488244178927 0.9915572254095674 0.08581488244178927 0.9915572254095674 0.08581488244178927 0.008442774590432519 -0.08581488244178927
4315.190768277653 0.00792868366670024 -0.08296262800684849 0.9920713163332998 0.08296262800684849 0.9920713163332998 0.08296262800684849 0.00792868366670024 -0.08296262800684849
