!Murata Part Number: RCEC71H106K3M1H03A
!These Parameters are Measured in Series Mode Connection
!       o--ll--o
!Port1            Port2
!       o------o
!Operation Temp=25[degC], DC Bias Voltage=0[V]
!Freq. Start=100[Hz] Stop=100[MHz], 401[Steps]
!Data Generated on Feb 18, 2020
# Hz S RI R 50
!Freq.(Hz) S11(Real) S11(Imag) S21(Real) S21(Imag) S12(Real) S12(Imag) S22(Real) S22(Imag)
100.0 0.7287432440212191 -0.44230145107118163 0.27125675597878074 0.44230145107118163 0.27125675597878074 0.44230145107118163 0.7287432440212191 -0.44230145107118163
103.51421666793439 0.714982638758799 -0.4491240029006747 0.285017361241201 0.4491240029006747 0.285017361241201 0.4491240029006747 0.714982638758799 -0.4491240029006747
107.15193052376064 0.7008081205817566 -0.4556122213402217 0.2991918794182436 0.4556122213402217 0.2991918794182436 0.4556122213402217 0.7008081205817566 -0.4556122213402217
110.9174815262401 0.6862358158099708 -0.4617356524279513 0.31376418419002916 0.4617356524279513 0.31376418419002916 0.4617356524279513 0.6862358158099708 -0.4617356524279513
114.81536214968828 0.6712847110021251 -0.4674645568735852 0.32871528899787494 0.4674645568735852 0.32871528899787494 0.4674645568735852 0.6712847110021251 -0.4674645568735852
118.85022274370185 0.6559766365960906 -0.47277022637861554 0.34402336340390943 0.47277022637861554 0.34402336340390943 0.47277022637861554 0.6559766365960906 -0.47277022637861554
123.02687708123815 0.6403362097592922 -0.4776253052093913 0.35966379024070777 0.4776253052093913 0.35966379024070777 0.4776253052093913 0.6403362097592922 -0.4776253052093913
127.35030810166617 0.624390734697304 -0.4820041110293385 0.375609265302696 0.4820041110293385 0.375609265302696 0.4820041110293385 0.624390734697304 -0.4820041110293385
131.8256738556407 0.6081700596626325 -0.4858829485524592 0.3918299403373675 0.4858829485524592 0.3918299403373675 0.4858829485524592 0.6081700596626325 -0.4858829485524592
136.45831365889245 0.5917063910084479 -0.4892404093203317 0.4082936089915521 0.4892404093203317 0.4082936089915521 0.4892404093203317 0.5917063910084479 -0.4892404093203317
141.25375446227542 0.5750340658059588 -0.4920576508566683 0.42496593419404116 0.4920576508566683 0.42496593419404116 0.4920576508566683 0.5750340658059588 -0.4920576508566683
146.21771744567184 0.5581892857439645 -0.494318648635914 0.44181071425603546 0.494318648635914 0.44181071425603546 0.494318648635914 0.5581892857439645 -0.494318648635914
151.35612484362082 0.541209816204473 -0.4960104147236167 0.45879018379552705 0.4960104147236167 0.45879018379552705 0.4960104147236167 0.541209816204473 -0.4960104147236167
156.6751070108149 0.5241346555065055 -0.49712317760238206 0.4758653444934945 0.49712317760238206 0.4758653444934945 0.49712317760238206 0.5241346555065055 -0.49712317760238206
162.181009735893 0.5070036802794958 -0.49765051857147957 0.4929963197205041 0.49765051857147957 0.4929963197205041 0.49765051857147957 0.5070036802794958 -0.49765051857147957
167.88040181225603 0.4898572737205215 -0.49758946117137554 0.5101427262794785 0.49758946117137554 0.5101427262794785 0.49758946117137554 0.4898572737205215 -0.49758946117137554
173.78008287493756 0.47273594406591507 -0.4969405112962573 0.527264055934085 0.4969405112962573 0.527264055934085 0.4969405112962573 0.47273594406591507 -0.4969405112962573
179.88709151287878 0.4556799409378826 -0.49570764696849134 0.5443200590621176 0.49570764696849134 0.5443200590621176 0.49570764696849134 0.4556799409378826 -0.49570764696849134
186.20871366628674 0.4387288772933736 -0.49389825810326043 0.5612711227066262 0.49389825810326043 0.5612711227066262 0.49389825810326043 0.4387288772933736 -0.49389825810326043
192.7524913190936 0.4219213645021926 -0.4915230379309799 0.5780786354978074 0.4915230379309799 0.5780786354978074 0.4915230379309799 0.4219213645021926 -0.4915230379309799
199.526231496888 0.4052946676247065 -0.488595829012011 0.5947053323752935 0.488595829012011 0.5947053323752935 0.488595829012011 0.4052946676247065 -0.488595829012011
206.53801558105292 0.3888843872704421 -0.48513342791975833 0.611115612729558 0.48513342791975833 0.611115612729558 0.48513342791975833 0.3888843872704421 -0.48513342791975833
213.79620895022322 0.37272417353261017 -0.4811553536392298 0.6272758264673899 0.4811553536392298 0.6272758264673899 0.4811553536392298 0.37272417353261017 -0.4811553536392298
221.30947096056377 0.35684547645457615 -0.4766835854936548 0.6431545235454239 0.4766835854936548 0.6431545235454239 0.4766835854936548 0.35684547645457615 -0.4766835854936548
229.08676527677733 0.3412773363426991 -0.4717422769488988 0.6587226636573008 0.4717422769488988 0.6587226636573008 0.4717422769488988 0.3412773363426991 -0.4717422769488988
237.13737056616552 0.3260462160485827 -0.46635745194405526 0.6739537839514175 0.46635745194405526 0.6739537839514175 0.46635745194405526 0.3260462160485827 -0.46635745194405526
245.47089156850305 0.31117587615460335 -0.4605566904592336 0.6888241238453966 0.4605566904592336 0.6888241238453966 0.4605566904592336 0.31117587615460335 -0.4605566904592336
254.09727055493053 0.2966872928577577 -0.4543688098722231 0.7033127071422423 0.4543688098722231 0.7033127071422423 0.4543688098722231 0.2966872928577577 -0.4543688098722231
263.0267991895382 0.2825986173002097 -0.44782354829819576 0.7174013826997903 0.44782354829819576 0.7174013826997903 0.44782354829819576 0.2825986173002097 -0.44782354829819576
272.27013080779125 0.2689251741740039 -0.4409512555822327 0.7310748258259961 0.4409512555822327 0.7310748258259961 0.4409512555822327 0.2689251741740039 -0.4409512555822327
281.83829312644536 0.255679496656523 -0.4337825969594485 0.7443205033434771 0.4337825969594485 0.7443205033434771 0.4337825969594485 0.255679496656523 -0.4337825969594485
291.7427014001167 0.2428713941270203 -0.42634827365045797 0.7571286058729796 0.42634827365045797 0.7571286058729796 0.42634827365045797 0.2428713941270203 -0.42634827365045797
301.9951720402016 0.23050804867819033 -0.4186787638593644 0.7694919513218097 0.4186787638593644 0.7694919513218097 0.4186787638593644 0.23050804867819033 -0.4186787638593644
312.6079367123955 0.21859413616703524 -0.4108040868236403 0.7814058638329647 0.4108040868236403 0.7814058638329647 0.4108040868236403 0.21859413616703524 -0.4108040868236403
323.59365692962825 0.20713196743590448 -0.4027535917626473 0.7928680325640957 0.4027535917626473 0.7928680325640957 0.4027535917626473 0.20713196743590448 -0.4027535917626473
334.96543915782763 0.1961216453615381 -0.39455577281138143 0.8038783546384617 0.39455577281138143 0.8038783546384617 0.39455577281138143 0.1961216453615381 -0.39455577281138143
346.7368504525316 0.18556123353741832 -0.38623811032994776 0.8144387664625816 0.38623811032994776 0.8144387664625816 0.38623811032994776 0.18556123353741832 -0.38623811032994776
358.9219346450052 0.17544693264057423 -0.37782693836279024 0.824553067359426 0.37782693836279024 0.824553067359426 0.37782693836279024 0.17544693264057423 -0.37782693836279024
371.53522909717253 0.16577326085533967 -0.3693473374946318 0.8342267391446604 0.3693473374946318 0.8342267391446604 0.3693473374946318 0.16577326085533967 -0.3693473374946318
384.59178204535357 0.15653323510103806 -0.36082305191681663 0.8434667648989619 0.36082305191681663 0.8434667648989619 0.36082305191681663 0.15653323510103806 -0.36082305191681663
398.10717055349727 0.14771855021738933 -0.3522764291781746 0.8522814497826108 0.3522764291781746 0.8522814497826108 0.3522764291781746 0.14771855021738933 -0.3522764291781746
412.0975190973302 0.13931975368201271 -0.3437283808446884 0.8606802463179872 0.3437283808446884 0.8606802463179872 0.3437283808446884 0.13931975368201271 -0.3437283808446884
426.5795188015926 0.1313264138529563 -0.3351983621253507 0.8686735861470438 0.3351983621253507 0.8686735861470438 0.3351983621253507 0.1313264138529563 -0.3351983621253507
441.57044735331243 0.12372728013287637 -0.3267043684288857 0.8762727198671235 0.3267043684288857 0.8762727198671235 0.3267043684288857 0.12372728013287637 -0.3267043684288857
457.0881896148751 0.11651043383041484 -0.3182629467874545 0.8834895661695852 0.3182629467874545 0.8834895661695852 0.3182629467874545 0.11651043383041484 -0.3182629467874545
473.15125896148055 0.10966342884143852 -0.309889220108624 0.8903365711585616 0.309889220108624 0.8903365711585616 0.309889220108624 0.10966342884143852 -0.309889220108624
489.77881936844625 0.10317342158357169 -0.30159692228532453 0.8968265784164282 0.30159692228532453 0.8968265784164282 0.30159692228532453 0.10317342158357169 -0.30159692228532453
506.9907082747043 0.09702728988956362 -0.2933984422953626 0.9029727101104364 0.2933984422953626 0.9029727101104364 0.2933984422953626 0.09702728988956362 -0.2933984422953626
524.8074602497726 0.09121174079798736 -0.2853048755482338 0.9087882592020124 0.2853048755482338 0.9087882592020124 0.2853048755482338 0.09121174079798736 -0.2853048755482338
543.2503314924331 0.08571340737452869 -0.2773260808794523 0.9142865926254714 0.2773260808794523 0.9142865926254714 0.2773260808794523 0.08571340737452869 -0.2773260808794523
562.3413251903492 0.08051893485570279 -0.2694707417444433 0.9194810651442973 0.2694707417444433 0.9194810651442973 0.2694707417444433 0.08051893485570279 -0.2694707417444433
582.1032177708714 0.07561505653205963 -0.26174643031951433 0.9243849434679402 0.26174643031951433 0.9243849434679402 0.26174643031951433 0.07561505653205963 -0.26174643031951433
602.5595860743578 0.07098865988301827 -0.2541596733718125 0.9290113401169817 0.2541596733718125 0.9290113401169817 0.2541596733718125 0.07098865988301827 -0.2541596733718125
623.7348354824193 0.06662684354394591 -0.24671601890992623 0.9333731564560542 0.24671601890992623 0.9333731564560542 0.24671601890992623 0.06662684354394591 -0.24671601890992623
645.6542290346556 0.06251696573147776 -0.23942010276914313 0.9374830342685222 0.23942010276914313 0.9374830342685222 0.23942010276914313 0.06251696573147776 -0.23942010276914313
668.3439175686148 0.058646684778841066 -0.23227571441848 0.941353315221159 0.23227571441848 0.941353315221159 0.23227571441848 0.058646684778841066 -0.23227571441848
691.8309709189366 0.05500399244234179 -0.2252858613991924 0.9449960075576583 0.2252858613991924 0.9449960075576583 0.2252858613991924 0.05500399244234179 -0.2252858613991924
716.1434102129019 0.051577240636220635 -0.21845283191592638 0.9484227593637794 0.21845283191592638 0.9484227593637794 0.21845283191592638 0.051577240636220635 -0.21845283191592638
741.3102413009174 0.04835516223847561 -0.21177825520173868 0.9516448377615244 0.21177825520173868 0.9516448377615244 0.21177825520173868 0.04835516223847561 -0.21177825520173868
767.3614893618189 0.045326886587395185 -0.20526315936704173 0.9546731134126049 0.20526315936704173 0.9546731134126049 0.20526315936704173 0.045326886587395185 -0.20526315936704173
794.3282347242814 0.04248195025951786 -0.1989080265204864 0.9575180497404822 0.1989080265204864 0.9575180497404822 0.1989080265204864 0.04248195025951786 -0.1989080265204864
822.2426499470711 0.039810303686325606 -0.1927128450174651 0.9601896963136742 0.1927128450174651 0.9601896963136742 0.1927128450174651 0.039810303686325606 -0.1927128450174651
851.1380382023765 0.03730231413068478 -0.18667715874998372 0.9626976858693153 0.18667715874998372 0.9626976858693153 0.18667715874998372 0.03730231413068478 -0.18667715874998372
881.0488730080142 0.03494876550611462 -0.18080011344087357 0.9650512344938855 0.18080011344087357 0.9650512344938855 0.18080011344087357 0.03494876550611462 -0.18080011344087357
912.0108393559099 0.03274085548340899 -0.17508049994650932 0.967259144516591 0.17508049994650932 0.967259144516591 0.17508049994650932 0.03274085548340899 -0.17508049994650932
944.0608762859234 0.03067019029076975 -0.16951679460615754 0.9693298097092302 0.16951679460615754 0.9693298097092302 0.16951679460615754 0.03067019029076975 -0.16951679460615754
977.2372209558108 0.028728777576066553 -0.16410719670359436 0.9712712224239335 0.16410719670359436 0.9712712224239335 0.16410719670359436 0.028728777576066553 -0.16410719670359436
1011.5794542598987 0.026909017663605553 -0.15884966312846563 0.9730909823363944 0.15884966312846563 0.9730909823363944 0.15884966312846563 0.026909017663605553 -0.15884966312846563
1047.1285480508998 0.025203693503219667 -0.15374194034171332 0.9747963064967806 0.15374194034171332 0.9747963064967806 0.15374194034171332 0.025203693503219667 -0.15374194034171332
1083.9269140212034 0.02360595957684254 -0.14878159376193498 0.9763940404231575 0.14878159376193498 0.9763940404231575 0.14878159376193498 0.02360595957684254 -0.14878159376193498
1122.0184543019632 0.022109329997152524 -0.14396603469837546 0.9778906700028476 0.14396603469837546 0.9778906700028476 0.14396603469837546 0.022109329997152524 -0.14396603469837546
1161.4486138403427 0.020707666004467606 -0.13929254496192414 0.9792923339955324 0.13929254496192414 0.9792923339955324 0.13929254496192414 0.020707666004467606 -0.13929254496192414
1202.2644346174127 0.01939516304186664 -0.13475829928850544 0.9806048369581332 0.13475829928850544 0.9806048369581332 0.13475829928850544 0.01939516304186664 -0.13475829928850544
1244.514611771385 0.01816633756449696 -0.13036038571003952 0.9818336624355031 0.13036038571003952 0.9818336624355031 0.13036038571003952 0.01816633756449696 -0.13036038571003952
1288.249551693134 0.017016013717158385 -0.1260958240071172 0.9829839862828418 0.1260958240071172 0.9829839862828418 0.1260958240071172 0.017016013717158385 -0.1260958240071172
1333.5214321633239 0.015939309994453102 -0.12196158237500479 0.9840606900055471 0.12196158237500479 0.9840606900055471 0.12196158237500479 0.015939309994453102 -0.12196158237500479
1380.384264602885 0.014931625979976671 -0.11795459243089164 0.9850683740200231 0.11795459243089164 0.9850683740200231 0.11795459243089164 0.014931625979976671 -0.11795459243089164
1428.893958511103 0.013988629245088247 -0.11407176268565981 0.9860113707549116 0.11407176268565981 0.9860113707549116 0.11407176268565981 0.013988629245088247 -0.11407176268565981
1479.1083881682075 0.01310624247363223 -0.1103099905981276 0.9868937575263678 0.1103099905981276 0.9868937575263678 0.1103099905981276 0.01310624247363223 -0.1103099905981276
1531.0874616820304 0.012280630866474056 -0.10666617332389519 0.9877193691335258 0.10666617332389519 0.9877193691335258 0.10666617332389519 0.012280630866474056 -0.10666617332389519
1584.8931924611136 0.011508189868739504 -0.10313721726475665 0.9884918101312604 0.10313721726475665 0.9884918101312604 0.10313721726475665 0.011508189868739504 -0.10313721726475665
1640.5897731995396 0.010785533253098308 -0.09972004651829634 0.9892144667469017 0.09972004651829634 0.9892144667469017 0.09972004651829634 0.010785533253098308 -0.09972004651829634
1698.2436524617442 0.010109481584190502 -0.09641161032087699 0.9898905184158097 0.09641161032087699 0.9898905184158097 0.09641161032087699 0.010109481584190502 -0.09641161032087699
1757.9236139586924 0.009477051082245004 -0.09320888957085216 0.9905229489177549 0.09320888957085216 0.9905229489177549 0.09320888957085216 0.009477051082245004 -0.09320888957085216
1819.7008586099835 0.008885442897974846 -0.09010890251259608 0.9911145571020251 0.09010890251259608 0.9911145571020251 0.09010890251259608 0.008885442897974846 -0.09010890251259608
1883.6490894898002 0.008332032805841131 -0.08710870965589791 0.9916679671941588 0.08710870965589791 0.9916679671941588 0.08710870965589791 0.008332032805841131 -0.08710870965589791
1949.8445997580454 0.007814361318655939 -0.08420541799949563 0.9921856386813441 0.08420541799949563 0.9921856386813441 0.08420541799949563 0.007814361318655939 -0.08420541799949563
2018.3663636815609 0.007330124223135602 -0.08139618462204969 0.9926698757768644 0.08139618462204969 0.9926698757768644 0.08139618462204969 0.007330124223135602 -0.08139618462204969
2089.29613085404 0.0068771635333242705 -0.07867821969873548 0.9931228364666757 0.07867821969873548 0.9931228364666757 0.07867821969873548 0.0068771635333242705 -0.07867821969873548
2162.7185237270205 0.006453458856684608 -0.07604878899687467 0.9935465411433153 0.07604878899687467 0.9935465411433153 0.07604878899687467 0.006453458856684608 -0.07604878899687467
2238.7211385683395 0.006057119166007587 -0.07350521589964734 0.9939428808339925 0.07350521589964734 0.9939428808339925 0.07350521589964734 0.006057119166007587 -0.07350521589964734
2317.394649968479 0.0056863749690403975 -0.07104488300292933 0.9943136250309593 0.07104488300292933 0.9943136250309593 0.07104488300292933 0.0056863749690403975 -0.07104488300292933
2398.832919019491 0.0053395708667908865 -0.06866523332667133 0.9946604291332093 0.06866523332667133 0.9946604291332093 0.06866523332667133 0.0053395708667908865 -0.06866523332667133
2483.1331052955707 0.005015158490767342 -0.06636377117896294 0.9949848415092327 0.06636377117896294 0.9949848415092327 0.06636377117896294 0.005015158490767342 -0.06636377117896294
2570.3957827688632 0.004711689808890885 -0.06413806270797795 0.9952883101911092 0.06413806270797795 0.9952883101911092 0.06413806270797795 0.004711689808890885 -0.06413806270797795
2660.725059798809 0.00442781078942137 -0.061985736174348105 0.9955721892105786 0.061985736174348105 0.9955721892105786 0.061985736174348105 0.00442781078942137 -0.061985736174348105
2754.2287033381663 0.0041622554119230505 -0.05990448197411951 0.995837744588077 0.05990448197411951 0.995837744588077 0.05990448197411951 0.0041622554119230505 -0.05990448197411951
2851.018267503909 0.003913840014031934 -0.05789205244028015 0.9960861599859681 0.05789205244028015 0.9960861599859681 0.05789205244028015 0.003913840014031934 -0.05789205244028015
2951.209226666386 0.003681457962549214 -0.0559462614488613 0.9963185420374506 0.0559462614488613 0.9963185420374506 0.0559462614488613 0.003681457962549214 -0.0559462614488613
3054.9211132155133 0.0034640746371622185 -0.05406498385377948 0.996535925362838 0.05406498385377948 0.996535925362838 0.05406498385377948 0.0034640746371622185 -0.05406498385377948
3162.277660168379 0.003260722714880764 -0.05224615477286411 0.9967392772851194 0.05224615477286411 0.9967392772851194 0.05224615477286411 0.003260722714880764 -0.05224615477286411
3273.406948788382 0.00307049774307485 -0.050487768745882615 0.9969295022569251 0.050487768745882615 0.9969295022569251 0.050487768745882615 0.00307049774307485 -0.050487768745882615
3388.4415613920255 0.002892553988815791 -0.04878787878380378 0.9971074460111844 0.04878787878380378 0.9971074460111844 0.04878787878380378 0.002892553988815791 -0.04878787878380378
3507.5187395256803 0.002726100552067875 -0.04714459532702044 0.9972738994479321 0.04714459532702044 0.9972738994479321 0.04714459532702044 0.002726100552067875 -0.04714459532702044
3630.7805477010143 0.0025703977301628107 -0.04555608512877061 0.9974296022698372 0.04555608512877061 0.9974296022698372 0.04555608512877061 0.0025703977301628107 -0.04555608512877061
3758.374042884442 0.0024247536209261486 -0.04402057007854735 0.9975752463790741 0.04402057007854735 0.9975752463790741 0.04402057007854735 0.0024247536209261486 -0.04402057007854735
3890.451449942807 0.002288520951823971 -0.042536325978876376 0.997711479048176 0.042536325978876376 0.997711479048176 0.042536325978876376 0.002288520951823971 -0.042536325978876376
4027.170343254592 0.002161094122566818 -0.041101681287465185 0.997838905877433 0.041101681287465185 0.997838905877433 0.041101681287465185 0.002161094122566818 -0.041101681287465185
4168.693834703356 0.0020419064487511907 -0.039715015835402774 0.997958093551249 0.039715015835402774 0.997958093551249 0.039715015835402774 0.0020419064487511907 -0.039715015835402774
4315.190768277653 0.001930427594337806 -0.03837475953081553 0.998069572405662 0.03837475953081553 0.998069572405662 0.03837475953081553 0.001930427594337806 -0.03837475953081553
