!Murata Part Number: RCEC72A475K3A3H03B
!These Parameters are Measured in Series Mode Connection
!       o--ll--o
!Port1            Port2
!       o------o
!Operation Temp=25[degC], DC Bias Voltage=0[V]
!Freq. Start=100[Hz] Stop=100[MHz], 401[Steps]
!Data Generated on Apr 21, 2023
# Hz S RI R 50
!Freq.(Hz) S11(Real) S11(Imag) S21(Real) S21(Imag) S12(Real) S12(Imag) S22(Real) S22(Imag)
100.0 0.9252248761798781 -0.26039523864864556 0.07477512382012191 0.26039523864864556 0.07477512382012191 0.26039523864864556 0.9252248761798781 -0.26039523864864556
103.51421666793439 0.9203612695654821 -0.26807709859735773 0.07963873043451795 0.26807709859735773 0.07963873043451795 0.26807709859735773 0.9203612695654821 -0.26807709859735773
107.15193052376064 0.9152099840714412 -0.27589054192992024 0.08479001592855878 0.27589054192992024 0.08479001592855878 0.27589054192992024 0.9152099840714412 -0.27589054192992024
110.9174815262401 0.9097577508351459 -0.2838282018693962 0.09024224916485407 0.2838282018693962 0.09024224916485407 0.2838282018693962 0.9097577508351459 -0.2838282018693962
114.81536214968828 0.9039911950236963 -0.2918815984255382 0.09600880497630374 0.2918815984255382 0.09600880497630374 0.2918815984255382 0.9039911950236963 -0.2918815984255382
118.85022274370185 0.8978969125292067 -0.3000410718988943 0.10210308747079334 0.3000410718988943 0.10210308747079334 0.3000410718988943 0.8978969125292067 -0.3000410718988943
123.02687708123815 0.8914615573728133 -0.3082957194404339 0.10853844262718663 0.3082957194404339 0.10853844262718663 0.3082957194404339 0.8914615573728133 -0.3082957194404339
127.35030810166617 0.8846719402205212 -0.3166333360519819 0.11532805977947874 0.3166333360519819 0.11532805977947874 0.3166333360519819 0.8846719402205212 -0.3166333360519819
131.8256738556407 0.877515138269805 -0.32504036157023747 0.12248486173019514 0.32504036157023747 0.12248486173019514 0.32504036157023747 0.877515138269805 -0.32504036157023747
136.45831365889245 0.8699786165866599 -0.33350183532735433 0.13002138341334027 0.33350183532735433 0.13002138341334027 0.33350183532735433 0.8699786165866599 -0.33350183532735433
141.25375446227542 0.8620503607564302 -0.3420013603175969 0.13794963924356982 0.3420013603175969 0.13794963924356982 0.3420013603175969 0.8620503607564302 -0.3420013603175969
146.21771744567184 0.8537190204570063 -0.35052107881501265 0.1462809795429937 0.35052107881501265 0.1462809795429937 0.35052107881501265 0.8537190204570063 -0.35052107881501265
151.35612484362082 0.8449740632699734 -0.35904166147293043 0.1550259367300266 0.35904166147293043 0.1550259367300266 0.35904166147293043 0.8449740632699734 -0.35904166147293043
156.6751070108149 0.8358059377156672 -0.3675423119831795 0.16419406228433273 0.3675423119831795 0.16419406228433273 0.3675423119831795 0.8358059377156672 -0.3675423119831795
162.181009735893 0.8262062441355398 -0.3760007893713445 0.1737937558644602 0.3760007893713445 0.1737937558644602 0.3760007893713445 0.8262062441355398 -0.3760007893713445
167.88040181225603 0.8161679116556808 -0.3843934499441708 0.18383208834431905 0.3843934499441708 0.18383208834431905 0.3843934499441708 0.8161679116556808 -0.3843934499441708
173.78008287493756 0.805685379057318 -0.3926953107766362 0.1943146209426821 0.3926953107766362 0.1943146209426821 0.3926953107766362 0.805685379057318 -0.3926953107766362
179.88709151287878 0.7947547769648547 -0.40088013642041886 0.20524522303514525 0.40088013642041886 0.20524522303514525 0.40088013642041886 0.7947547769648547 -0.40088013642041886
186.20871366628674 0.7833741083535654 -0.4089205502252819 0.21662589164643464 0.4089205502252819 0.21662589164643464 0.4089205502252819 0.7833741083535654 -0.4089205502252819
192.7524913190936 0.7715434239940897 -0.41678817128545614 0.22845657600591032 0.41678817128545614 0.22845657600591032 0.41678817128545614 0.7715434239940897 -0.41678817128545614
199.526231496888 0.759264989108411 -0.4244537775528002 0.24073501089158894 0.4244537775528002 0.24073501089158894 0.4244537775528002 0.759264989108411 -0.4244537775528002
206.53801558105292 0.7465434372327274 -0.4318874950997811 0.2534565627672726 0.4318874950997811 0.2534565627672726 0.4318874950997811 0.7465434372327274 -0.4318874950997811
213.79620895022322 0.7333859070881874 -0.4390590128752791 0.2666140929118126 0.4390590128752791 0.2666140929118126 0.4390590128752791 0.7333859070881874 -0.4390590128752791
221.30947096056377 0.7198021581722704 -0.44593782158729955 0.28019784182772955 0.44593782158729955 0.28019784182772955 0.44593782158729955 0.7198021581722704 -0.44593782158729955
229.08676527677733 0.7058046608215145 -0.4524934745868831 0.29419533917848545 0.4524934745868831 0.29419533917848545 0.4524934745868831 0.7058046608215145 -0.4524934745868831
237.13737056616552 0.6914086566772625 -0.4586958678403862 0.3085913433227376 0.4586958678403862 0.3085913433227376 0.4586958678403862 0.6914086566772625 -0.4586958678403862
245.47089156850305 0.6766321858224269 -0.46451553529148065 0.32336781417757315 0.46451553529148065 0.32336781417757315 0.46451553529148065 0.6766321858224269 -0.46451553529148065
254.09727055493053 0.6614960773552018 -0.4699239551625521 0.33850392264479817 0.4699239551625521 0.33850392264479817 0.4699239551625521 0.6614960773552018 -0.4699239551625521
263.0267991895382 0.6460239008240252 -0.4748938620632804 0.3539760991759747 0.4748938620632804 0.3539760991759747 0.4748938620632804 0.6460239008240252 -0.4748938620632804
272.27013080779125 0.6302418767572553 -0.47939955919877725 0.36975812324274476 0.47939955919877725 0.36975812324274476 0.47939955919877725 0.6302418767572553 -0.47939955919877725
281.83829312644536 0.6141787454623017 -0.48341722453625935 0.38582125453769833 0.48341722453625935 0.38582125453769833 0.48341722453625935 0.6141787454623017 -0.48341722453625935
291.7427014001167 0.5978655943147555 -0.4869252045298794 0.4021344056852445 0.4869252045298794 0.4021344056852445 0.4869252045298794 0.5978655943147555 -0.4869252045298794
301.9951720402016 0.5813356448724215 -0.4899042889441038 0.41866435512757844 0.4899042889441038 0.41866435512757844 0.4899042889441038 0.5813356448724215 -0.4899042889441038
312.6079367123955 0.5646240022894107 -0.492337960474737 0.43537599771058927 0.492337960474737 0.43537599771058927 0.492337960474737 0.5646240022894107 -0.492337960474737
323.59365692962825 0.5477673706240147 -0.49421261325108573 0.45223262937598535 0.49421261325108573 0.45223262937598535 0.49421261325108573 0.5477673706240147 -0.49421261325108573
334.96543915782763 0.5308037386814375 -0.49551773490907697 0.46919626131856246 0.49551773490907697 0.46919626131856246 0.49551773490907697 0.5308037386814375 -0.49551773490907697
346.7368504525316 0.5137720419598449 -0.49624604773767617 0.48622795804015495 0.49624604773767617 0.48622795804015495 0.49624604773767617 0.5137720419598449 -0.49624604773767617
358.9219346450052 0.4967118070310736 -0.49639360539228555 0.5032881929689265 0.49639360539228555 0.5032881929689265 0.49639360539228555 0.4967118070310736 -0.49639360539228555
371.53522909717253 0.4796627852481909 -0.4959598428010537 0.520337214751809 0.4959598428010537 0.520337214751809 0.4959598428010537 0.4796627852481909 -0.4959598428010537
384.59178204535357 0.4626645830032078 -0.4949475781169389 0.5373354169967922 0.4949475781169389 0.5373354169967922 0.4949475781169389 0.4626645830032078 -0.4949475781169389
398.10717055349727 0.44575629584358767 -0.49336296683798964 0.5542437041564123 0.49336296683798964 0.5542437041564123 0.49336296683798964 0.44575629584358767 -0.49336296683798964
412.0975190973302 0.4289761535926186 -0.49121540947633907 0.5710238464073816 0.49121540947633907 0.5710238464073816 0.49121540947633907 0.4289761535926186 -0.49121540947633907
426.5795188015926 0.41236118321607196 -0.4885174153494976 0.5876388167839278 0.4885174153494976 0.5876388167839278 0.4885174153494976 0.41236118321607196 -0.4885174153494976
441.57044735331243 0.3959468955579538 -0.4852844261467218 0.6040531044420462 0.4852844261467218 0.6040531044420462 0.4852844261467218 0.3959468955579538 -0.4852844261467218
457.0881896148751 0.37976700126421814 -0.4815346038468077 0.6202329987357819 0.4815346038468077 0.6202329987357819 0.4815346038468077 0.37976700126421814 -0.4815346038468077
473.15125896148055 0.36385316026582154 -0.4772885882995196 0.6361468397341785 0.4772885882995196 0.6361468397341785 0.4772885882995196 0.36385316026582154 -0.4772885882995196
489.77881936844625 0.3482347681475082 -0.47256923030995934 0.6517652318524918 0.47256923030995934 0.6517652318524918 0.47256923030995934 0.3482347681475082 -0.47256923030995934
506.9907082747043 0.3329387816344441 -0.4674013063742509 0.6670612183655559 0.4674013063742509 0.6670612183655559 0.4674013063742509 0.3329387816344441 -0.4674013063742509
524.8074602497726 0.3179895843325336 -0.46181122130806174 0.6820104156674663 0.46181122130806174 0.6820104156674663 0.46181122130806174 0.3179895843325336 -0.46181122130806174
543.2503314924331 0.3034088928037233 -0.45582670489931254 0.6965911071962766 0.45582670489931254 0.6965911071962766 0.45582670489931254 0.3034088928037233 -0.45582670489931254
562.3413251903492 0.2892157020825533 -0.4494765084241908 0.7107842979174466 0.4494765084241908 0.7107842979174466 0.4494765084241908 0.2892157020825533 -0.4494765084241908
582.1032177708714 0.2754262688751671 -0.44279010641922784 0.7245737311248328 0.44279010641922784 0.7245737311248328 0.44279010641922784 0.2754262688751671 -0.44279010641922784
602.5595860743578 0.26205412994882527 -0.4357974085339072 0.7379458700511746 0.4357974085339072 0.7379458700511746 0.4357974085339072 0.26205412994882527 -0.4357974085339072
623.7348354824193 0.24911015263220504 -0.428528485632244 0.750889847367795 0.428528485632244 0.750889847367795 0.428528485632244 0.24911015263220504 -0.428528485632244
645.6542290346556 0.23660261390951126 -0.4210133136020211 0.7633973860904888 0.4210133136020211 0.7633973860904888 0.4210133136020211 0.23660261390951126 -0.4210133136020211
668.3439175686148 0.22453730430251834 -0.41328153759891606 0.7754626956974817 0.41328153759891606 0.7754626956974817 0.41328153759891606 0.22453730430251834 -0.41328153759891606
691.8309709189366 0.21291765258567114 -0.40536225872821535 0.7870823474143289 0.40536225872821535 0.7870823474143289 0.40536225872821535 0.21291765258567114 -0.40536225872821535
716.1434102129019 0.20174486735710181 -0.3972838444734085 0.7982551326428982 0.3972838444734085 0.7982551326428982 0.3972838444734085 0.20174486735710181 -0.3972838444734085
741.3102413009174 0.19101809157631117 -0.38907376353800843 0.8089819084236889 0.38907376353800843 0.8089819084236889 0.38907376353800843 0.19101809157631117 -0.38907376353800843
767.3614893618189 0.18073456635877394 -0.3807584451886637 0.8192654336412263 0.3807584451886637 0.8192654336412263 0.3807584451886637 0.18073456635877394 -0.3807584451886637
794.3282347242814 0.1708898005696352 -0.37236316268339087 0.8291101994303649 0.37236316268339087 0.8291101994303649 0.37236316268339087 0.1708898005696352 -0.37236316268339087
822.2426499470711 0.16147774306406992 -0.36391193994344845 0.8385222569359302 0.36391193994344845 0.8385222569359302 0.36391193994344845 0.16147774306406992 -0.36391193994344845
851.1380382023765 0.15249095476303554 -0.3554274802820393 0.8475090452369644 0.3554274802820393 0.8475090452369644 0.3554274802820393 0.15249095476303554 -0.3554274802820393
881.0488730080142 0.1439207781140729 -0.3469311157355458 0.8560792218859273 0.3469311157355458 0.8560792218859273 0.3469311157355458 0.1439207781140729 -0.3469311157355458
912.0108393559099 0.13575750185363467 -0.3384427753487775 0.8642424981463653 0.3384427753487775 0.8642424981463653 0.3384427753487775 0.13575750185363467 -0.3384427753487775
944.0608762859234 0.12799051934856104 -0.3299809706384008 0.8720094806514391 0.3299809706384008 0.8720094806514391 0.3299809706384008 0.12799051934856104 -0.3299809706384008
977.2372209558108 0.12060847914052554 -0.32156279639080243 0.8793915208594746 0.32156279639080243 0.8793915208594746 0.32156279639080243 0.12060847914052554 -0.32156279639080243
1011.5794542598987 0.11359942664150446 -0.3132039449340207 0.8864005733584955 0.3132039449340207 0.8864005733584955 0.3132039449340207 0.11359942664150446 -0.3132039449340207
1047.1285480508998 0.10695093622558337 -0.30491873204978315 0.8930490637744166 0.30491873204978315 0.8930490637744166 0.30491873204978315 0.10695093622558337 -0.30491873204978315
1083.9269140212034 0.10065023322951396 -0.2967201327530394 0.8993497667704861 0.2967201327530394 0.8993497667704861 0.2967201327530394 0.10065023322951396 -0.2967201327530394
1122.0184543019632 0.09468430560973248 -0.2886198252550542 0.9053156943902675 0.2886198252550542 0.9053156943902675 0.2886198252550542 0.09468430560973248 -0.2886198252550542
1161.4486138403427 0.08904000520667477 -0.28062824153513377 0.910959994793325 0.28062824153513377 0.910959994793325 0.28062824153513377 0.08904000520667477 -0.28062824153513377
1202.2644346174127 0.08370413873883312 -0.27275462306915504 0.9162958612611669 0.27275462306915504 0.9162958612611669 0.27275462306915504 0.08370413873883312 -0.27275462306915504
1244.514611771385 0.07866354879052621 -0.2650070803948053 0.9213364512094737 0.2650070803948053 0.9213364512094737 0.2650070803948053 0.07866354879052621 -0.2650070803948053
1288.249551693134 0.07390518517080502 -0.25739265532919564 0.9260948148291952 0.25739265532919564 0.9260948148291952 0.25739265532919564 0.07390518517080502 -0.25739265532919564
1333.5214321633239 0.06941616710866946 -0.24991738479041545 0.9305838328913305 0.24991738479041545 0.9305838328913305 0.24991738479041545 0.06941616710866946 -0.24991738479041545
1380.384264602885 0.06518383681444881 -0.24258636530758362 0.9348161631855513 0.24258636530758362 0.9348161631855513 0.24258636530758362 0.06518383681444881 -0.24258636530758362
1428.893958511103 0.06119580498149829 -0.2354038174315568 0.9388041950185015 0.2354038174315568 0.9388041950185015 0.2354038174315568 0.06119580498149829 -0.2354038174315568
1479.1083881682075 0.057439988829003544 -0.22837314937890535 0.9425600111709966 0.22837314937890535 0.9425600111709966 0.22837314937890535 0.057439988829003544 -0.22837314937890535
1531.0874616820304 0.05390464329827826 -0.2214970193537484 0.9460953567017215 0.2214970193537484 0.9460953567017215 0.2214970193537484 0.05390464329827826 -0.2214970193537484
1584.8931924611136 0.05057838601398323 -0.21477739609475496 0.9494216139860167 0.21477739609475496 0.9494216139860167 0.21477739609475496 0.05057838601398323 -0.21477739609475496
1640.5897731995396 0.04745021661048152 -0.20821561728760538 0.9525497833895187 0.20821561728760538 0.9525497833895187 0.20821561728760538 0.04745021661048152 -0.20821561728760538
1698.2436524617442 0.04450953100418812 -0.20181244556636505 0.9554904689958118 0.20181244556636505 0.9554904689958118 0.20181244556636505 0.04450953100418812 -0.20181244556636505
1757.9236139586924 0.04174613116714762 -0.19556812190066403 0.9582538688328524 0.19556812190066403 0.9582538688328524 0.19556812190066403 0.04174613116714762 -0.19556812190066403
1819.7008586099835 0.0391502309268507 -0.18948241622963735 0.9608497690731492 0.18948241622963735 0.9608497690731492 0.18948241622963735 0.0391502309268507 -0.18948241622963735
1883.6490894898002 0.03671245828391941 -0.1835546752587331 0.9632875417160804 0.1835546752587331 0.9632875417160804 0.1835546752587331 0.03671245828391941 -0.1835546752587331
1949.8445997580454 0.034423854703997794 -0.1777838673823249 0.9655761452960022 0.1777838673823249 0.9655761452960022 0.1777838673823249 0.034423854703997794 -0.1777838673823249
2018.3663636815609 0.03227587180401301 -0.17216862473421896 0.9677241281959869 0.17216862473421896 0.9677241281959869 0.17216862473421896 0.03227587180401301 -0.17216862473421896
2089.29613085404 0.03026036581679084 -0.16670728240032248 0.9697396341832092 0.16670728240032248 0.9697396341832092 0.16670728240032248 0.03026036581679084 -0.16670728240032248
2162.7185237270205 0.028369590182513216 -0.16139791485365287 0.9716304098174866 0.16139791485365287 0.9716304098174866 0.16139791485365287 0.028369590182513216 -0.16139791485365287
2238.7211385683395 0.026596186581242996 -0.15623836969222432 0.973403813418757 0.15623836969222432 0.973403813418757 0.15623836969222432 0.026596186581242996 -0.15623836969222432
2317.394649968479 0.024933174688132425 -0.15122629877585073 0.9750668253118677 0.15122629877585073 0.9750668253118677 0.15122629877585073 0.024933174688132425 -0.15122629877585073
2398.832919019491 0.023373940902273346 -0.14635918686921331 0.9766260590977267 0.14635918686921331 0.9766260590977267 0.14635918686921331 0.023373940902273346 -0.14635918686921331
2483.1331052955707 0.021912226271642615 -0.1416343779063012 0.9780877737283574 0.1416343779063012 0.9780877737283574 0.1416343779063012 0.021912226271642615 -0.1416343779063012
2570.3957827688632 0.020542113810349764 -0.13704909899611334 0.9794578861896502 0.13704909899611334 0.9794578861896502 0.13704909899611334 0.020542113810349764 -0.13704909899611334
2660.725059798809 0.019258015380445484 -0.13260048229187518 0.9807419846195543 0.13260048229187518 0.9807419846195543 0.13260048229187518 0.019258015380445484 -0.13260048229187518
2754.2287033381663 0.018054658288865003 -0.1282855848464358 0.9819453417111348 0.1282855848464358 0.9819453417111348 0.1282855848464358 0.018054658288865003 -0.1282855848464358
2851.018267503909 0.016927071730579772 -0.12410140657542033 0.9830729282694202 0.12410140657542033 0.9830729282694202 0.12410140657542033 0.016927071730579772 -0.12410140657542033
2951.209226666386 0.015870573191591845 -0.1200449064474881 0.9841294268084082 0.1200449064474881 0.9841294268084082 0.1200449064474881 0.015870573191591845 -0.1200449064474881
3054.9211132155133 0.014880754909871412 -0.11611301701800525 0.9851192450901284 0.11611301701800525 0.9851192450901284 0.11611301701800525 0.014880754909871412 -0.11611301701800525
3162.277660168379 0.013953470478536574 -0.11230265741884994 0.9860465295214633 0.11230265741884994 0.9860465295214633 0.11230265741884994 0.013953470478536574 -0.11230265741884994
3273.406948788382 0.013084821663319103 -0.10861074491313104 0.986915178336681 0.10861074491313104 0.986915178336681 0.10861074491313104 0.013084821663319103 -0.10861074491313104
3388.4415613920255 0.012271145495462925 -0.10503420511947827 0.987728854504537 0.10503420511947827 0.987728854504537 0.10503420511947827 0.012271145495462925 -0.10503420511947827
3507.5187395256803 0.011509001691483464 -0.10156998100636574 0.9884909983085165 0.10156998100636574 0.9884909983085165 0.10156998100636574 0.011509001691483464 -0.10156998100636574
3630.7805477010143 0.010795160442505758 -0.09821504075272623 0.9892048395574943 0.09821504075272623 0.9892048395574943 0.09821504075272623 0.010795160442505758 -0.09821504075272623
3758.374042884442 0.010126590608049841 -0.0949663845669463 0.9898734093919503 0.0949663845669463 0.9898734093919503 0.0949663845669463 0.010126590608049841 -0.0949663845669463
3890.451449942807 0.00950044834201518 -0.09182105055220628 0.9904995516579848 0.09182105055220628 0.9904995516579848 0.09182105055220628 0.00950044834201518 -0.09182105055220628
4027.170343254592 0.008914066172129661 -0.08877611970203941 0.9910859338278702 0.08877611970203941 0.9910859338278702 0.08877611970203941 0.008914066172129661 -0.08877611970203941
4168.693834703356 0.008364942548195854 -0.0858287201059138 0.9916350574518044 0.0858287201059138 0.9916350574518044 0.0858287201059138 0.008364942548195854 -0.0858287201059138
4315.190768277653 0.00785073186903216 -0.08297603044056 0.9921492681309678 0.08297603044056 0.9921492681309678 0.08297603044056 0.00785073186903216 -0.08297603044056
