!Murata Part Number: RCER71E106K3M1H03A
!These Parameters are Measured in Series Mode Connection
!       o--ll--o
!Port1            Port2
!       o------o
!Operation Temp=25[degC], DC Bias Voltage=0[V]
!Freq. Start=100[Hz] Stop=100[MHz], 401[Steps]
!Data Generated on Feb 18, 2020
# Hz S RI R 50
!Freq.(Hz) S11(Real) S11(Imag) S21(Real) S21(Imag) S12(Real) S12(Imag) S22(Real) S22(Imag)
100.0 0.7225670133607558 -0.44508700496001696 0.2774329866392443 0.44508700496001696 0.2774329866392443 0.44508700496001696 0.7225670133607558 -0.44508700496001696
103.51421666793439 0.7086305276845635 -0.4517466447591694 0.29136947231543653 0.4517466447591694 0.29136947231543653 0.4517466447591694 0.7086305276845635 -0.4517466447591694
107.15193052376064 0.6942883863139561 -0.458058452956078 0.3057116136860439 0.458058452956078 0.3057116136860439 0.458058452956078 0.6942883863139561 -0.458058452956078
110.9174815262401 0.6795580213204592 -0.4639923757465587 0.3204419786795408 0.4639923757465587 0.3204419786795408 0.4639923757465587 0.6795580213204592 -0.4639923757465587
114.81536214968828 0.6644597120849467 -0.46951922195857043 0.33554028791505336 0.46951922195857043 0.33554028791505336 0.46951922195857043 0.6644597120849467 -0.46951922195857043
118.85022274370185 0.6490165495480118 -0.4746109815195364 0.35098345045198825 0.4746109815195364 0.35098345045198825 0.4746109815195364 0.6490165495480118 -0.4746109815195364
123.02687708123815 0.633254358837496 -0.47924114630316766 0.36674564116250397 0.47924114630316766 0.36674564116250397 0.47924114630316766 0.633254358837496 -0.47924114630316766
127.35030810166617 0.6172015789980186 -0.48338502714276826 0.38279842100198136 0.48338502714276826 0.38279842100198136 0.48338502714276826 0.6172015789980186 -0.48338502714276826
131.8256738556407 0.6008890995957378 -0.4870200604416635 0.39911090040426217 0.4870200604416635 0.39911090040426217 0.4870200604416635 0.6008890995957378 -0.4870200604416635
136.45831365889245 0.5843500551111932 -0.4901260976531382 0.41564994488880674 0.4901260976531382 0.41564994488880674 0.4901260976531382 0.5843500551111932 -0.4901260976531382
141.25375446227542 0.5676195792222781 -0.4926856709656329 0.432380420777722 0.4926856709656329 0.432380420777722 0.4926856709656329 0.5676195792222781 -0.4926856709656329
146.21771744567184 0.5507345222702132 -0.49468422882775975 0.44926547772978664 0.49468422882775975 0.44926547772978664 0.49468422882775975 0.5507345222702132 -0.49468422882775975
151.35612484362082 0.5337331363421174 -0.49611033548433586 0.4662668636578827 0.49611033548433586 0.4662668636578827 0.49611033548433586 0.5337331363421174 -0.49611033548433586
156.6751070108149 0.5166547334418377 -0.4969558294589361 0.48334526655816223 0.4969558294589361 0.48334526655816223 0.4969558294589361 0.5166547334418377 -0.4969558294589361
162.181009735893 0.49953932310611615 -0.49721593688761206 0.500460676893884 0.49721593688761206 0.500460676893884 0.49721593688761206 0.49953932310611615 -0.49721593688761206
167.88040181225603 0.4824272365117394 -0.49688933674754976 0.5175727634882605 0.49688933674754976 0.5175727634882605 0.49688933674754976 0.4824272365117394 -0.49688933674754976
173.78008287493756 0.4653587445758361 -0.4959781762885197 0.534641255424164 0.4959781762885197 0.534641255424164 0.4959781762885197 0.4653587445758361 -0.4959781762885197
179.88709151287878 0.44837367775215553 -0.494488036311146 0.5516263222478445 0.494488036311146 0.5516263222478445 0.494488036311146 0.44837367775215553 -0.494488036311146
186.20871366628674 0.431511055160443 -0.4924278472869862 0.568488944839557 0.4924278472869862 0.568488944839557 0.4924278472869862 0.431511055160443 -0.4924278472869862
192.7524913190936 0.4148087303573425 -0.4898097586228234 0.5851912696426576 0.4898097586228234 0.5851912696426576 0.4898097586228234 0.4148087303573425 -0.4898097586228234
199.526231496888 0.39830306048284253 -0.48664896457985085 0.6016969395171575 0.48664896457985085 0.6016969395171575 0.48664896457985085 0.39830306048284253 -0.48664896457985085
206.53801558105292 0.38202860472582684 -0.4829634914180965 0.6179713952741732 0.4829634914180965 0.6179713952741732 0.4829634914180965 0.38202860472582684 -0.4829634914180965
213.79620895022322 0.36601785708587214 -0.47877395120711586 0.6339821429141278 0.47877395120711586 0.6339821429141278 0.47877395120711586 0.36601785708587214 -0.47877395120711586
221.30947096056377 0.3503010173136787 -0.4741032683964936 0.6496989826863215 0.4741032683964936 0.6496989826863215 0.4741032683964936 0.3503010173136787 -0.4741032683964936
229.08676527677733 0.3349058027412622 -0.46897638565738914 0.6650941972587378 0.46897638565738914 0.6650941972587378 0.46897638565738914 0.3349058027412622 -0.46897638565738914
237.13737056616552 0.319857302518138 -0.46341995568537675 0.6801426974818621 0.46341995568537675 0.6801426974818621 0.46341995568537675 0.319857302518138 -0.46341995568537675
245.47089156850305 0.3051778746015689 -0.45746202560348853 0.6948221253984311 0.45746202560348853 0.6948221253984311 0.45746202560348853 0.3051778746015689 -0.45746202560348853
254.09727055493053 0.2908870847529595 -0.4511317203417875 0.7091129152470405 0.4511317203417875 0.7091129152470405 0.4511317203417875 0.2908870847529595 -0.4511317203417875
263.0267991895382 0.2770016858065905 -0.4444589309237858 0.7229983141934094 0.4444589309237858 0.7229983141934094 0.4444589309237858 0.2770016858065905 -0.4444589309237858
272.27013080779125 0.2635356346302853 -0.4374740129947089 0.7364643653697147 0.4374740129947089 0.7364643653697147 0.4374740129947089 0.2635356346302853 -0.4374740129947089
281.83829312644536 0.25050014350980393 -0.4302075002197899 0.7494998564901961 0.4302075002197899 0.7494998564901961 0.4302075002197899 0.25050014350980393 -0.4302075002197899
291.7427014001167 0.23790376216974235 -0.42268983640140406 0.7620962378302577 0.42268983640140406 0.7620962378302577 0.42268983640140406 0.23790376216974235 -0.42268983640140406
301.9951720402016 0.22575248629435404 -0.41495112934970063 0.7742475137056458 0.41495112934970063 0.7742475137056458 0.41495112934970063 0.22575248629435404 -0.41495112934970063
312.6079367123955 0.2140498882250533 -0.4070209287271437 0.7859501117749468 0.4070209287271437 0.7859501117749468 0.4070209287271437 0.2140498882250533 -0.4070209287271437
323.59365692962825 0.20279726547396043 -0.3989280293031831 0.7972027345260396 0.3989280293031831 0.7972027345260396 0.3989280293031831 0.20279726547396043 -0.3989280293031831
334.96543915782763 0.19199380278647357 -0.39070030032576936 0.8080061972135264 0.39070030032576936 0.8080061972135264 0.39070030032576936 0.19199380278647357 -0.39070030032576936
346.7368504525316 0.18163674368914806 -0.3823645410602829 0.8183632563108518 0.3823645410602829 0.8183632563108518 0.3823645410602829 0.18163674368914806 -0.3823645410602829
358.9219346450052 0.17172156774925 -0.3739463619763334 0.82827843225075 0.3739463619763334 0.82827843225075 0.3739463619763334 0.17172156774925 -0.3739463619763334
371.53522909717253 0.16224217012623765 -0.36547009058581453 0.8377578298737626 0.36547009058581453 0.8377578298737626 0.36547009058581453 0.16224217012623765 -0.36547009058581453
384.59178204535357 0.15319104039120846 -0.35695870055353485 0.8468089596087913 0.35695870055353485 0.8468089596087913 0.35695870055353485 0.15319104039120846 -0.35695870055353485
398.10717055349727 0.14455943800808171 -0.3484337624123983 0.8554405619919183 0.3484337624123983 0.8554405619919183 0.3484337624123983 0.14455943800808171 -0.3484337624123983
412.0975190973302 0.13633756229259728 -0.33991541401280856 0.8636624377074027 0.33991541401280856 0.8636624377074027 0.33991541401280856 0.13633756229259728 -0.33991541401280856
426.5795188015926 0.12851471507768497 -0.3314223487126148 0.871485284922315 0.3314223487126148 0.871485284922315 0.3314223487126148 0.12851471507768497 -0.3314223487126148
441.57044735331243 0.12107945470499785 -0.32297181925975327 0.8789205452950022 0.32297181925975327 0.8789205452950022 0.32297181925975327 0.12107945470499785 -0.32297181925975327
457.0881896148751 0.11401974032401355 -0.3145796553242418 0.8859802596759865 0.3145796553242418 0.8859802596759865 0.3145796553242418 0.11401974032401355 -0.3145796553242418
473.15125896148055 0.10732306580642005 -0.3062602926885954 0.89267693419358 0.3062602926885954 0.89267693419358 0.3062602926885954 0.10732306580642005 -0.3062602926885954
489.77881936844625 0.100976582871313 -0.29802681219569654 0.8990234171286869 0.29802681219569654 0.8990234171286869 0.29802681219569654 0.100976582871313 -0.29802681219569654
506.9907082747043 0.09496721326485062 -0.28989098667098445 0.9050327867351494 0.28989098667098445 0.9050327867351494 0.28989098667098445 0.09496721326485062 -0.28989098667098445
524.8074602497726 0.08928175004695701 -0.2818633341729047 0.910718249953043 0.2818633341729047 0.910718249953043 0.2818633341729047 0.08928175004695701 -0.2818633341729047
543.2503314924331 0.08390694820917469 -0.2739531760743429 0.9160930517908253 0.2739531760743429 0.9160930517908253 0.2739531760743429 0.08390694820917469 -0.2739531760743429
562.3413251903492 0.07882960498450842 -0.26616869863194526 0.9211703950154916 0.26616869863194526 0.9211703950154916 0.26616869863194526 0.07882960498450842 -0.26616869863194526
582.1032177708714 0.07403663031534427 -0.25851701685470596 0.9259633696846556 0.25851701685470596 0.9259633696846556 0.25851701685470596 0.07403663031534427 -0.25851701685470596
602.5595860743578 0.06951510802279588 -0.2510042396339064 0.930484891977204 0.2510042396339064 0.930484891977204 0.2510042396339064 0.06951510802279588 -0.2510042396339064
623.7348354824193 0.06525234827383201 -0.24363553524047812 0.9347476517261679 0.24363553524047812 0.9347476517261679 0.24363553524047812 0.06525234827383201 -0.24363553524047812
645.6542290346556 0.06123593197483724 -0.2364151964309514 0.9387640680251628 0.2364151964309514 0.9387640680251628 0.2364151964309514 0.06123593197483724 -0.2364151964309514
668.3439175686148 0.057453747735280815 -0.2293467045279884 0.9425462522647191 0.2293467045279884 0.9425462522647191 0.2293467045279884 0.057453747735280815 -0.2293467045279884
691.8309709189366 0.0538940220460558 -0.2224327919553025 0.9461059779539442 0.2224327919553025 0.9461059779539442 0.2224327919553025 0.0538940220460558 -0.2224327919553025
716.1434102129019 0.05054534330662948 -0.21567550280924253 0.9494546566933704 0.21567550280924253 0.9494546566933704 0.21567550280924253 0.05054534330662948 -0.21567550280924253
741.3102413009174 0.0473966803159238 -0.20907625114057107 0.9526033196840762 0.20907625114057107 0.9526033196840762 0.20907625114057107 0.0473966803159238 -0.20907625114057107
767.3614893618189 0.04443739581597693 -0.20263587670034083 0.9555626041840232 0.20263587670034083 0.9555626041840232 0.20263587670034083 0.04443739581597693 -0.20263587670034083
794.3282347242814 0.04165725564677911 -0.1963546979738406 0.958342744353221 0.1963546979738406 0.958342744353221 0.1963546979738406 0.04165725564677911 -0.1963546979738406
822.2426499470711 0.039046434036771244 -0.19023256238702974 0.9609535659632289 0.19023256238702974 0.9609535659632289 0.19023256238702974 0.039046434036771244 -0.19023256238702974
851.1380382023765 0.036595515517628345 -0.1842688936214648 0.9634044844823716 0.1842688936214648 0.9634044844823716 0.1842688936214648 0.036595515517628345 -0.1842688936214648
881.0488730080142 0.034295493915156725 -0.17846273601724405 0.9657045060848433 0.17846273601724405 0.9657045060848433 0.17846273601724405 0.034295493915156725 -0.17846273601724405
912.0108393559099 0.03213776883125415 -0.17281279607975333 0.967862231168746 0.17281279607975333 0.967862231168746 0.17281279607975333 0.03213776883125415 -0.17281279607975333
944.0608762859234 0.030114139995564084 -0.16731748113577383 0.9698858600044357 0.16731748113577383 0.9698858600044357 0.16731748113577383 0.030114139995564084 -0.16731748113577383
977.2372209558108 0.02821679983019935 -0.16197493520854642 0.9717832001698007 0.16197493520854642 0.9717832001698007 0.16197493520854642 0.02821679983019935 -0.16197493520854642
1011.5794542598987 0.02643832453709389 -0.15678307220039103 0.9735616754629061 0.15678307220039103 0.9735616754629061 0.15678307220039103 0.02643832453709389 -0.15678307220039103
1047.1285480508998 0.024771663985422205 -0.15173960648609158 0.9752283360145777 0.15173960648609158 0.9752283360145777 0.15173960648609158 0.024771663985422205 -0.15173960648609158
1083.9269140212034 0.023210130646290773 -0.14684208103108448 0.9767898693537094 0.14684208103108448 0.9767898693537094 0.14684208103108448 0.023210130646290773 -0.14684208103108448
1122.0184543019632 0.02174738779365278 -0.142087893156065 0.9782526122063473 0.142087893156065 0.9782526122063473 0.142087893156065 0.02174738779365278 -0.142087893156065
1161.4486138403427 0.020377437164183068 -0.13747431807444616 0.9796225628358168 0.13747431807444616 0.9796225628358168 0.13747431807444616 0.020377437164183068 -0.13747431807444616
1202.2644346174127 0.01909460624467208 -0.13299853033160047 0.9809053937553278 0.13299853033160047 0.9809053937553278 0.13299853033160047 0.01909460624467208 -0.13299853033160047
1244.514611771385 0.017893535333327285 -0.12865762327537436 0.9821064646666726 0.12865762327537436 0.9821064646666726 0.12865762327537436 0.017893535333327285 -0.12865762327537436
1288.249551693134 0.01676916450114925 -0.12444862668633554 0.9832308354988506 0.12444862668633554 0.9832308354988506 0.12444862668633554 0.01676916450114925 -0.12444862668633554
1333.5214321633239 0.01571672056119509 -0.12036852269387867 0.9842832794388049 0.12036852269387867 0.9842832794388049 0.12036852269387867 0.01571672056119509 -0.12036852269387867
1380.384264602885 0.014731704136967139 -0.1164142601009527 0.9852682958630331 0.1164142601009527 0.9852682958630331 0.1164142601009527 0.014731704136967139 -0.1164142601009527
1428.893958511103 0.01380987690626264 -0.11258276723598729 0.9861901230937377 0.11258276723598729 0.9861901230937377 0.11258276723598729 0.01380987690626264 -0.11258276723598729
1479.1083881682075 0.012947249083488837 -0.10887096344579465 0.9870527509165112 0.10887096344579465 0.9870527509165112 0.10887096344579465 0.012947249083488837 -0.10887096344579465
1531.0874616820304 0.01214006719157695 -0.10527576933795578 0.9878599328084232 0.10527576933795578 0.9878599328084232 0.10527576933795578 0.01214006719157695 -0.10527576933795578
1584.8931924611136 0.011384802164111673 -0.10179411587560944 0.9886151978358885 0.10179411587560944 0.9886151978358885 0.10179411587560944 0.011384802164111673 -0.10179411587560944
1640.5897731995396 0.010678137809027655 -0.09842295242176483 0.9893218621909723 0.09842295242176483 0.9893218621909723 0.09842295242176483 0.010678137809027655 -0.09842295242176483
1698.2436524617442 0.010016959657110528 -0.09515925382434536 0.9899830403428894 0.09515925382434536 0.9899830403428894 0.09515925382434536 0.010016959657110528 -0.09515925382434536
1757.9236139586924 0.009398344211484073 -0.09200002662722395 0.9906016557885159 0.09200002662722395 0.9906016557885159 0.09200002662722395 0.009398344211484073 -0.09200002662722395
1819.7008586099835 0.008819548608180948 -0.08894231448659941 0.9911804513918189 0.08894231448659941 0.9911804513918189 0.08894231448659941 0.008819548608180948 -0.08894231448659941
1883.6490894898002 0.008278000692698871 -0.08598320286623871 0.991721999307301 0.08598320286623871 0.991721999307301 0.08598320286623871 0.008278000692698871 -0.08598320286623871
1949.8445997580454 0.007771289513063223 -0.08311982307942394 0.9922287104869371 0.08311982307942394 0.9922287104869371 0.08311982307942394 0.007771289513063223 -0.08311982307942394
2018.3663636815609 0.007297156226279802 -0.08034935573993288 0.9927028437737201 0.08034935573993288 0.9927028437737201 0.08034935573993288 0.007297156226279802 -0.08034935573993288
2089.29613085404 0.006853485412102684 -0.07766903367908672 0.9931465145878972 0.07766903367908672 0.9931465145878972 0.07766903367908672 0.006853485412102684 -0.07766903367908672
2162.7185237270205 0.006438296785699031 -0.07507614438084452 0.9935617032143008 0.07507614438084452 0.9935617032143008 0.07507614438084452 0.006438296785699031 -0.07507614438084452
2238.7211385683395 0.006049737299006126 -0.07256803198214531 0.9939502627009936 0.07256803198214531 0.9939502627009936 0.07256803198214531 0.006049737299006126 -0.07256803198214531
2317.394649968479 0.005686073619286876 -0.07014209888121302 0.9943139263807128 0.07014209888121302 0.9943139263807128 0.07014209888121302 0.005686073619286876 -0.07014209888121302
2398.832919019491 0.005345684972541166 -0.06779580699237452 0.994654315027459 0.06779580699237452 0.994654315027459 0.06779580699237452 0.005345684972541166 -0.06779580699237452
2483.1331052955707 0.0050270563389633646 -0.06552667868210639 0.9949729436610368 0.06552667868210639 0.9949729436610368 0.06552667868210639 0.0050270563389633646 -0.06552667868210639
2570.3957827688632 0.00472877198749343 -0.06333229741754474 0.9952712280125067 0.06333229741754474 0.9952712280125067 0.06333229741754474 0.00472877198749343 -0.06333229741754474
2660.725059798809 0.004449509336630791 -0.061210308155558044 0.9955504906633693 0.061210308155558044 0.9955504906633693 0.061210308155558044 0.004449509336630791 -0.061210308155558044
2754.2287033381663 0.00418803312900913 -0.0591584174977105 0.9958119668709907 0.0591584174977105 0.9958119668709907 0.0591584174977105 0.00418803312900913 -0.0591584174977105
2851.018267503909 0.003943189907708232 -0.05717439363401598 0.9960568100922916 0.05717439363401598 0.9960568100922916 0.05717439363401598 0.003943189907708232 -0.05717439363401598
2951.209226666386 0.0037139027828514385 -0.05525606609629138 0.9962860972171488 0.05525606609629138 0.9962860972171488 0.05525606609629138 0.0037139027828514385 -0.05525606609629138
3054.9211132155133 0.0034991664776527673 -0.05340132534014401 0.996500833522347 0.05340132534014401 0.996500833522347 0.05340132534014401 0.0034991664776527673 -0.05340132534014401
3162.277660168379 0.003298042643689794 -0.05160812217313693 0.9967019573563103 0.05160812217313693 0.9967019573563103 0.05160812217313693 0.003298042643689794 -0.05160812217313693
3273.406948788382 0.003109655435748288 -0.04987446704544018 0.9968903445642516 0.04987446704544018 0.9968903445642516 0.04987446704544018 0.003109655435748288 -0.04987446704544018
3388.4415613920255 0.0029331873370807638 -0.048198429218255165 0.997066812662919 0.048198429218255165 0.997066812662919 0.048198429218255165 0.0029331873370807638 -0.048198429218255165
3507.5187395256803 0.00276787522632101 -0.046578135824447274 0.9972321247736791 0.046578135824447274 0.9972321247736791 0.046578135824447274 0.00276787522632101 -0.046578135824447274
3630.7805477010143 0.002613006677587992 -0.045011770835103125 0.9973869933224122 0.045011770835103125 0.9973869933224122 0.045011770835103125 0.002613006677587992 -0.045011770835103125
3758.374042884442 0.0024679164854912276 -0.04349757394509672 0.9975320835145088 0.04349757394509672 0.9975320835145088 0.04349757394509672 0.0024679164854912276 -0.04349757394509672
3890.451449942807 0.0023319834068208866 -0.042033839390163294 0.9976680165931792 0.042033839390163294 0.9976680165931792 0.042033839390163294 0.0023319834068208866 -0.042033839390163294
4027.170343254592 0.002204627110682541 -0.04061891470741427 0.9977953728893176 0.04061891470741427 0.9977953728893176 0.04061891470741427 0.002204627110682541 -0.04061891470741427
4168.693834703356 0.0020853053287365813 -0.03925119945064346 0.9979146946712633 0.03925119945064346 0.9979146946712633 0.03925119945064346 0.0020853053287365813 -0.03925119945064346
4315.190768277653 0.0019735111970492084 -0.03792914387116338 0.9980264888029509 0.03792914387116338 0.9980264888029509 0.03792914387116338 0.0019735111970492084 -0.03792914387116338
