!Murata Part Number: RCER71H106MWM1H03A
!These Parameters are Measured in Series Mode Connection
!       o--ll--o
!Port1            Port2
!       o------o
!Operation Temp=25[degC], DC Bias Voltage=0[V]
!Freq. Start=100[Hz] Stop=100[MHz], 401[Steps]
!Data Generated on May 18, 2023
# Hz S RI R 50
!Freq.(Hz) S11(Real) S11(Imag) S21(Real) S21(Imag) S12(Real) S12(Imag) S22(Real) S22(Imag)
100.0 0.7519342087098467 -0.4297725647353038 0.24806579129015316 0.4297725647353038 0.24806579129015316 0.4297725647353038 0.7519342087098467 -0.4297725647353038
103.51421666793439 0.7389110423983232 -0.4370616764217192 0.2610889576016768 0.4370616764217192 0.2610889576016768 0.4370616764217192 0.7389110423983232 -0.4370616764217192
107.15193052376064 0.725457723281391 -0.44406801539327967 0.2745422767186089 0.44406801539327967 0.2745422767186089 0.44406801539327967 0.725457723281391 -0.44406801539327967
110.9174815262401 0.7115858459008632 -0.4507612024009582 0.2884141540991368 0.4507612024009582 0.2884141540991368 0.4507612024009582 0.7115858459008632 -0.4507612024009582
114.81536214968828 0.697309732725681 -0.4571111152631302 0.302690267274319 0.4571111152631302 0.302690267274319 0.4571111152631302 0.697309732725681 -0.4571111152631302
118.85022274370185 0.6826464702250028 -0.4630881747662014 0.31735352977499726 0.4630881747662014 0.31735352977499726 0.4630881747662014 0.6826464702250028 -0.4630881747662014
123.02687708123815 0.6676159102126177 -0.46866364241689035 0.3323840897873824 0.46866364241689035 0.3323840897873824 0.46866364241689035 0.6676159102126177 -0.46866364241689035
127.35030810166617 0.6522406338164719 -0.4738099252719882 0.34775936618352815 0.4738099252719882 0.34775936618352815 0.4738099252719882 0.6522406338164719 -0.4738099252719882
131.8256738556407 0.6365458761637276 -0.47850088250008904 0.36345412383627246 0.47850088250008904 0.36345412383627246 0.47850088250008904 0.6365458761637276 -0.47850088250008904
136.45831365889245 0.6205594107358541 -0.48271212788506884 0.379440589264146 0.48271212788506884 0.379440589264146 0.48271212788506884 0.6205594107358541 -0.48271212788506884
141.25375446227542 0.604311393315674 -0.48642132219304446 0.395688606684326 0.48642132219304446 0.395688606684326 0.48642132219304446 0.604311393315674 -0.48642132219304446
146.21771744567184 0.5878341664871887 -0.48960844921815727 0.4121658335128114 0.48960844921815727 0.4121658335128114 0.48960844921815727 0.5878341664871887 -0.48960844921815727
151.35612484362082 0.5711620267213738 -0.49225606941553196 0.4288379732786261 0.49225606941553196 0.4288379732786261 0.49225606941553196 0.5711620267213738 -0.49225606941553196
156.6751070108149 0.5543309571442143 -0.49434954533105513 0.4456690428557857 0.49434954533105513 0.4456690428557857 0.49434954533105513 0.5543309571442143 -0.49434954533105513
162.181009735893 0.5373783300921907 -0.49587723354596075 0.46262166990780934 0.49587723354596075 0.46262166990780934 0.49587723354596075 0.5373783300921907 -0.49587723354596075
167.88040181225603 0.5203425844706792 -0.4968306385577168 0.47965741552932084 0.4968306385577168 0.47965741552932084 0.4968306385577168 0.5203425844706792 -0.4968306385577168
173.78008287493756 0.5032628837008783 -0.4972045248950373 0.4967371162991217 0.4972045248950373 0.4967371162991217 0.4972045248950373 0.5032628837008783 -0.4972045248950373
179.88709151287878 0.48617876063537574 -0.4969969847821198 0.5138212393646242 0.4969969847821198 0.5138212393646242 0.4969969847821198 0.48617876063537574 -0.4969969847821198
186.20871366628674 0.469129756213773 -0.49620945978578784 0.5308702437862269 0.49620945978578784 0.5308702437862269 0.49620945978578784 0.469129756213773 -0.49620945978578784
192.7524913190936 0.4521550588004411 -0.4948467160538489 0.5478449411995587 0.4948467160538489 0.5478449411995587 0.4948467160538489 0.4521550588004411 -0.4948467160538489
199.526231496888 0.43529315108985495 -0.49291677393564204 0.564706848910145 0.49291677393564204 0.564706848910145 0.49291677393564204 0.43529315108985495 -0.49291677393564204
206.53801558105292 0.4185814711859344 -0.49043079391844224 0.5814185288140655 0.49043079391844224 0.5814185288140655 0.49043079391844224 0.4185814711859344 -0.49043079391844224
213.79620895022322 0.4020560939760079 -0.4874029218709974 0.5979439060239921 0.4874029218709974 0.5979439060239921 0.4874029218709974 0.4020560939760079 -0.4874029218709974
221.30947096056377 0.3857514382526677 -0.4838500975183876 0.6142485617473322 0.4838500975183876 0.6142485617473322 0.4838500975183876 0.3857514382526677 -0.4838500975183876
229.08676527677733 0.36970000422093385 -0.4797918308484787 0.6302999957790663 0.4797918308484787 0.6302999957790663 0.4797918308484787 0.36970000422093385 -0.4797918308484787
237.13737056616552 0.35393214510229376 -0.47524995174640705 0.6460678548977062 0.47524995174640705 0.6460678548977062 0.47524995174640705 0.35393214510229376 -0.47524995174640705
245.47089156850305 0.3384758755527953 -0.47024833855642706 0.6615241244472049 0.47024833855642706 0.6615241244472049 0.47024833855642706 0.3384758755527953 -0.47024833855642706
254.09727055493053 0.32335671859143666 -0.4648126314765653 0.6766432814085634 0.4648126314765653 0.6766432814085634 0.4648126314765653 0.32335671859143666 -0.4648126314765653
263.0267991895382 0.30859759172765244 -0.4589699367065824 0.6914024082723477 0.4589699367065824 0.6914024082723477 0.4589699367065824 0.30859759172765244 -0.4589699367065824
272.27013080779125 0.2942187320189914 -0.45274852710761454 0.7057812679810087 0.45274852710761454 0.7057812679810087 0.45274852710761454 0.2942187320189914 -0.45274852710761454
281.83829312644536 0.28023765891287944 -0.4461775448130272 0.7197623410871204 0.4461775448130272 0.7197623410871204 0.4461775448130272 0.28023765891287944 -0.4461775448130272
291.7427014001167 0.26666917295399406 -0.4392867107797977 0.7333308270460059 0.4392867107797977 0.7333308270460059 0.4392867107797977 0.26666917295399406 -0.4392867107797977
301.9951720402016 0.2535253877885878 -0.4321060457165306 0.7464746122114121 0.4321060457165306 0.7464746122114121 0.4321060457165306 0.2535253877885878 -0.4321060457165306
312.6079367123955 0.2408157923793658 -0.4246656061976111 0.7591842076206342 0.4246656061976111 0.7591842076206342 0.4246656061976111 0.2408157923793658 -0.4246656061976111
323.59365692962825 0.22854733996288823 -0.41699523910224834 0.7714526600371119 0.41699523910224834 0.7714526600371119 0.41699523910224834 0.22854733996288823 -0.41699523910224834
334.96543915782763 0.21672456003357424 -0.4091243568297778 0.7832754399664258 0.4091243568297778 0.7832754399664258 0.4091243568297778 0.21672456003357424 -0.4091243568297778
346.7368504525316 0.20534968951683097 -0.40108173506326894 0.7946503104831691 0.40108173506326894 0.7946503104831691 0.40108173506326894 0.20534968951683097 -0.40108173506326894
358.9219346450052 0.19442281928723174 -0.39289533420336265 0.8055771807127684 0.39289533420336265 0.8055771807127684 0.39289533420336265 0.19442281928723174 -0.39289533420336265
371.53522909717253 0.1839420522817495 -0.3845921449905126 0.8160579477182505 0.3845921449905126 0.8160579477182505 0.3845921449905126 0.1839420522817495 -0.3845921449905126
384.59178204535357 0.17390366963670997 -0.37619805828935743 0.8260963303632899 0.37619805828935743 0.8260963303632899 0.37619805828935743 0.17390366963670997 -0.37619805828935743
398.10717055349727 0.16430230152347033 -0.36773775853274665 0.8356976984765296 0.36773775853274665 0.8356976984765296 0.36773775853274665 0.16430230152347033 -0.36773775853274665
412.0975190973302 0.15513109965496855 -0.35923463992000687 0.8448689003450314 0.35923463992000687 0.8448689003450314 0.35923463992000687 0.15513109965496855 -0.35923463992000687
426.5795188015926 0.1463819087671004 -0.3507107441360521 0.8536180912328997 0.3507107441360521 0.8536180912328997 0.3507107441360521 0.1463819087671004 -0.3507107441360521
441.57044735331243 0.13804543473053973 -0.34218671810363543 0.8619545652694601 0.34218671810363543 0.8619545652694601 0.34218671810363543 0.13804543473053973 -0.34218671810363543
457.0881896148751 0.13011140730696483 -0.33368179009680865 0.8698885926930352 0.33368179009680865 0.8698885926930352 0.33368179009680865 0.13011140730696483 -0.33368179009680865
473.15125896148055 0.1225687359174607 -0.3252137624240549 0.8774312640825396 0.3252137624240549 0.8774312640825396 0.3252137624240549 0.1225687359174607 -0.3252137624240549
489.77881936844625 0.11540565713092522 -0.31679901882790773 0.8845943428690749 0.31679901882790773 0.8845943428690749 0.31679901882790773 0.11540565713092522 -0.31679901882790773
506.9907082747043 0.10860987289942306 -0.30845254473666817 0.891390127100577 0.30845254473666817 0.891390127100577 0.30845254473666817 0.10860987289942306 -0.30845254473666817
524.8074602497726 0.10216867886033915 -0.3001879585352652 0.8978313211396608 0.3001879585352652 0.8978313211396608 0.3001879585352652 0.10216867886033915 -0.3001879585352652
543.2503314924331 0.09606908228837592 -0.29201755208853053 0.9039309177116241 0.29201755208853053 0.9039309177116241 0.29201755208853053 0.09606908228837592 -0.29201755208853053
562.3413251903492 0.09029790951197739 -0.283952338843669 0.9097020904880223 0.283952338843669 0.9097020904880223 0.283952338843669 0.09029790951197739 -0.283952338843669
582.1032177708714 0.08484190280803482 -0.2760021079524776 0.9151580971919652 0.2760021079524776 0.9151580971919652 0.2760021079524776 0.08484190280803482 -0.2760021079524776
602.5595860743578 0.07968780695621276 -0.26817548298155597 0.9203121930437875 0.26817548298155597 0.9203121930437875 0.26817548298155597 0.07968780695621276 -0.26817548298155597
623.7348354824193 0.0748224457712922 -0.26047998391479404 0.9251775542287078 0.26047998391479404 0.9251775542287078 0.26047998391479404 0.0748224457712922 -0.26047998391479404
645.6542290346556 0.07023278904052868 -0.2529220912920125 0.9297672109594715 0.2529220912920125 0.9297672109594715 0.2529220912920125 0.07023278904052868 -0.2529220912920125
668.3439175686148 0.06590601037562331 -0.245507311466818 0.9340939896243766 0.245507311466818 0.9340939896243766 0.245507311466818 0.06590601037562331 -0.245507311466818
691.8309709189366 0.061829536548196534 -0.23824024210230824 0.9381704634518034 0.23824024210230824 0.9381704634518034 0.23824024210230824 0.061829536548196534 -0.23824024210230824
716.1434102129019 0.05799108891648397 -0.23112463715274373 0.9420089110835159 0.23112463715274373 0.9420089110835159 0.23112463715274373 0.05799108891648397 -0.23112463715274373
741.3102413009174 0.054378717572172885 -0.22416347070086967 0.9456212824278271 0.22416347070086967 0.9456212824278271 0.22416347070086967 0.054378717572172885 -0.22416347070086967
767.3614893618189 0.05098082884263386 -0.21735899913297027 0.9490191711573661 0.21735899913297027 0.9490191711573661 0.21735899913297027 0.05098082884263386 -0.21735899913297027
794.3282347242814 0.04778620677787103 -0.21071282123620688 0.952213793222129 0.21071282123620688 0.952213793222129 0.21071282123620688 0.04778620677787103 -0.21071282123620688
822.2426499470711 0.04478402923572008 -0.2042259358949773 0.9552159707642798 0.2042259358949773 0.9552159707642798 0.2042259358949773 0.04478402923572008 -0.2042259358949773
851.1380382023765 0.041963879155339515 -0.197898797144931 0.9580361208446606 0.197898797144931 0.9580361208446606 0.197898797144931 0.041963879155339515 -0.197898797144931
881.0488730080142 0.03931575157978343 -0.19173136641510544 0.9606842484202165 0.19173136641510544 0.9606842484202165 0.19173136641510544 0.03931575157978343 -0.19173136641510544
912.0108393559099 0.03683005695509576 -0.18572316185088092 0.9631699430449042 0.18572316185088092 0.9631699430449042 0.18572316185088092 0.03683005695509576 -0.18572316185088092
944.0608762859234 0.034497621197351655 -0.17987330466364176 0.9655023788026484 0.17987330466364176 0.9655023788026484 0.17987330466364176 0.034497621197351655 -0.17987330466364176
977.2372209558108 0.03230968298159558 -0.17418056249788172 0.9676903170184045 0.17418056249788172 0.9676903170184045 0.17418056249788172 0.03230968298159558 -0.17418056249788172
1011.5794542598987 0.030257888668671403 -0.168643389843708 0.9697421113313286 0.168643389843708 0.9697421113313286 0.168643389843708 0.030257888668671403 -0.168643389843708
1047.1285480508998 0.028334285248306453 -0.1632599655530592 0.9716657147516937 0.1632599655530592 0.9716657147516937 0.1632599655530592 0.028334285248306453 -0.1632599655530592
1083.9269140212034 0.02653131164011679 -0.15802822754218365 0.9734686883598832 0.15802822754218365 0.9734686883598832 0.15802822754218365 0.02653131164011679 -0.15802822754218365
1122.0184543019632 0.024841788658923322 -0.1529459047817792 0.9751582113410765 0.1529459047817792 0.9751582113410765 0.1529459047817792 0.024841788658923322 -0.1529459047817792
1161.4486138403427 0.023258907917247502 -0.14801054669033709 0.9767410920827525 0.14801054669033709 0.9767410920827525 0.14801054669033709 0.023258907917247502 -0.14801054669033709
1202.2644346174127 0.021776219906333168 -0.14321955005633577 0.9782237800936668 0.14321955005633577 0.9782237800936668 0.14321955005633577 0.021776219906333168 -0.14321955005633577
1244.514611771385 0.020387621467660887 -0.13857018362156664 0.9796123785323392 0.13857018362156664 0.9796123785323392 0.13857018362156664 0.020387621467660887 -0.13857018362156664
1288.249551693134 0.019087342839758274 -0.13405961046159112 0.9809126571602417 0.13405961046159112 0.9809126571602417 0.13405961046159112 0.019087342839758274 -0.13405961046159112
1333.5214321633239 0.017869934440181763 -0.1296849083006142 0.9821300655598182 0.1296849083006142 0.9821300655598182 0.1296849083006142 0.017869934440181763 -0.1296849083006142
1380.384264602885 0.01673025351982173 -0.12544308789733294 0.9832697464801781 0.12544308789733294 0.9832697464801781 0.12544308789733294 0.01673025351982173 -0.12544308789733294
1428.893958511103 0.015663450806103603 -0.12133110963596931 0.9843365491938963 0.12133110963596931 0.9843365491938963 0.12133110963596931 0.015663450806103603 -0.12133110963596931
1479.1083881682075 0.014664957233134492 -0.11734589845303937 0.9853350427668653 0.11734589845303937 0.9853350427668653 0.11734589845303937 0.014664957233134492 -0.11734589845303937
1531.0874616820304 0.013730470840277235 -0.11348435722574912 0.9862695291597229 0.11348435722574912 0.9862695291597229 0.11348435722574912 0.013730470840277235 -0.11348435722574912
1584.8931924611136 0.012855943905906015 -0.10974337874246515 0.9871440560940941 0.10974337874246515 0.9871440560940941 0.10974337874246515 0.012855943905906015 -0.10974337874246515
1640.5897731995396 0.012037570370094751 -0.10611985636971659 0.9879624296299055 0.10611985636971659 0.9879624296299055 0.10611985636971659 0.012037570370094751 -0.10611985636971659
1698.2436524617442 0.011271773588587832 -0.10261069352380374 0.9887282264114122 0.10261069352380374 0.9887282264114122 0.10261069352380374 0.011271773588587832 -0.10261069352380374
1757.9236139586924 0.010555194450485595 -0.09921281204848602 0.9894448055495143 0.09921281204848602 0.9894448055495143 0.09921281204848602 0.010555194450485595 -0.09921281204848602
1819.7008586099835 0.009884679883526686 -0.09592315959351784 0.9901153201164731 0.09592315959351784 0.9901153201164731 0.09592315959351784 0.009884679883526686 -0.09592315959351784
1883.6490894898002 0.009257271763551487 -0.09273871608210792 0.9907427282364485 0.09273871608210792 0.9907427282364485 0.09273871608210792 0.009257271763551487 -0.09273871608210792
1949.8445997580454 0.008670196238576643 -0.0896564993487918 0.9913298037614234 0.0896564993487918 0.9913298037614234 0.0896564993487918 0.008670196238576643 -0.0896564993487918
2018.3663636815609 0.008120853472793075 -0.08667357002280793 0.9918791465272069 0.08667357002280793 0.9918791465272069 0.08667357002280793 0.008120853472793075 -0.08667357002280793
2089.29613085404 0.0076068078116143184 -0.0837870357259157 0.9923931921883858 0.0837870357259157 0.9923931921883858 0.0837870357259157 0.0076068078116143184 -0.0837870357259157
2162.7185237270205 0.007125778365549387 -0.0809940546477566 0.9928742216344506 0.0809940546477566 0.9928742216344506 0.0809940546477566 0.007125778365549387 -0.0809940546477566
2238.7211385683395 0.006675630008054129 -0.07829183855637065 0.9933243699919458 0.07829183855637065 0.9933243699919458 0.07829183855637065 0.006675630008054129 -0.07829183855637065
2317.394649968479 0.006254364780531277 -0.07567765529638096 0.9937456352194688 0.07567765529638096 0.9937456352194688 0.07567765529638096 0.006254364780531277 -0.07567765529638096
2398.832919019491 0.0058601136962077435 -0.07314883082267272 0.9941398863037922 0.07314883082267272 0.9941398863037922 0.07314883082267272 0.0058601136962077435 -0.07314883082267272
2483.1331052955707 0.005491128933625277 -0.07070275081313016 0.9945088710663745 0.07070275081313016 0.9945088710663745 0.07070275081313016 0.005491128933625277 -0.07070275081313016
2570.3957827688632 0.005145776409850249 -0.06833686190016056 0.99485422359015 0.06833686190016056 0.99485422359015 0.06833686190016056 0.005145776409850249 -0.06833686190016056
2660.725059798809 0.004822528723155733 -0.06604867255732247 0.9951774712768444 0.06604867255732247 0.9951774712768444 0.06604867255732247 0.004822528723155733 -0.06604867255732247
2754.2287033381663 0.004519958454777015 -0.06383575367436176 0.9954800415452227 0.06383575367436176 0.9954800415452227 0.06383575367436176 0.004519958454777015 -0.06383575367436176
2851.018267503909 0.004236731819320865 -0.061695738851322665 0.9957632681806791 0.061695738851322665 0.9957632681806791 0.061695738851322665 0.004236731819320865 -0.061695738851322665
2951.209226666386 0.0039716026534587934 -0.05962632444010193 0.9960283973465411 0.05962632444010193 0.9960283973465411 0.05962632444010193 0.0039716026534587934 -0.05962632444010193
3054.9211132155133 0.0037234067326056023 -0.05762526935981307 0.9962765932673944 0.05762526935981307 0.9962765932673944 0.05762526935981307 0.0037234067326056023 -0.05762526935981307
3162.277660168379 0.00349105640533799 -0.055690394710574284 0.9965089435946619 0.055690394710574284 0.9965089435946619 0.055690394710574284 0.00349105640533799 -0.055690394710574284
3273.406948788382 0.0032735355353177647 -0.05381958320878493 0.9967264644646824 0.05381958320878493 0.9967264644646824 0.05381958320878493 0.0032735355353177647 -0.05381958320878493
3388.4415613920255 0.0030698947404348945 -0.05201077846555883 0.996930105259565 0.05201077846555883 0.996930105259565 0.05201077846555883 0.0030698947404348945 -0.05201077846555883
3507.5187395256803 0.0028792469187730973 -0.05026198412869594 0.9971207530812272 0.05026198412869594 0.9971207530812272 0.05026198412869594 0.0028792469187730973 -0.05026198412869594
3630.7805477010143 0.002700763050830146 -0.04857126290735549 0.9972992369491696 0.04857126290735549 0.9972992369491696 0.04857126290735549 0.002700763050830146 -0.04857126290735549
3758.374042884442 0.0025336682672095867 -0.04693673549741336 0.9974663317327904 0.04693673549741336 0.9974663317327904 0.04693673549741336 0.0025336682672095867 -0.04693673549741336
3890.451449942807 0.002377238170757806 -0.04535657942431069 0.9976227618292424 0.04535657942431069 0.9976227618292424 0.04535657942431069 0.002377238170757806 -0.04535657942431069
4027.170343254592 0.0022307954018731873 -0.0438290278190238 0.9977692045981269 0.0438290278190238 0.9977692045981269 0.0438290278190238 0.0022307954018731873 -0.0438290278190238
4168.693834703356 0.002093706435484103 -0.04235236814158516 0.997906293564516 0.04235236814158516 0.997906293564516 0.04235236814158516 0.002093706435484103 -0.04235236814158516
