!Murata Part Number: RCER71E475K2A2H03B
!These Parameters are Measured in Series Mode Connection
!       o--ll--o
!Port1            Port2
!       o------o
!Operation Temp=25[degC], DC Bias Voltage=0[V]
!Freq. Start=100[Hz] Stop=100[MHz], 401[Steps]
!Data Generated on Feb 18, 2020
# Hz S RI R 50
!Freq.(Hz) S11(Real) S11(Imag) S21(Real) S21(Imag) S12(Real) S12(Imag) S22(Real) S22(Imag)
100.0 0.9241676492103963 -0.2631561620801208 0.07583235078960375 0.2631561620801208 0.07583235078960375 0.2631561620801208 0.9241676492103963 -0.2631561620801208
103.51421666793439 0.9192190018243593 -0.2709187350947616 0.08078099817564056 0.2709187350947616 0.08078099817564056 0.2709187350947616 0.9192190018243593 -0.2709187350947616
107.15193052376064 0.9139764973458484 -0.27881238236020234 0.08602350265415161 0.27881238236020234 0.08602350265415161 0.27881238236020234 0.9139764973458484 -0.27881238236020234
110.9174815262401 0.9084266533398441 -0.2868293028895976 0.09157334666015593 0.2868293028895976 0.09157334666015593 0.2868293028895976 0.9084266533398441 -0.2868293028895976
114.81536214968828 0.9025559071403935 -0.29496054614233774 0.09744409285960655 0.29496054614233774 0.09744409285960655 0.29496054614233774 0.9025559071403935 -0.29496054614233774
118.85022274370185 0.8963506969195935 -0.30319594626503193 0.10364930308040662 0.30319594626503193 0.10364930308040662 0.30319594626503193 0.8963506969195935 -0.30319594626503193
123.02687708123815 0.8897975536113736 -0.31152405983010983 0.11020244638862643 0.31152405983010983 0.11020244638862643 0.31152405983010983 0.8897975536113736 -0.31152405983010983
127.35030810166617 0.8828832040637729 -0.3199321085005649 0.11711679593622723 0.3199321085005649 0.11711679593622723 0.3199321085005649 0.8828832040637729 -0.3199321085005649
131.8256738556407 0.8755946856413342 -0.3284059282089749 0.12440531435866589 0.3284059282089749 0.12440531435866589 0.3284059282089749 0.8755946856413342 -0.3284059282089749
136.45831365889245 0.8679194723106238 -0.33692992659016185 0.13208052768937614 0.33692992659016185 0.13208052768937614 0.33692992659016185 0.8679194723106238 -0.33692992659016185
141.25375446227542 0.8598456120146343 -0.34548705054284806 0.1401543879853658 0.34548705054284806 0.1401543879853658 0.34548705054284806 0.8598456120146343 -0.34548705054284806
146.21771744567184 0.8513618748749594 -0.35405876590848784 0.1486381251250405 0.35405876590848784 0.1486381251250405 0.35405876590848784 0.8513618748749594 -0.35405876590848784
151.35612484362082 0.8424579114545483 -0.36262505133618006 0.15754208854545165 0.36262505133618006 0.15754208854545165 0.36262505133618006 0.8424579114545483 -0.36262505133618006
156.6751070108149 0.8331244199706782 -0.3711644084415084 0.16687558002932176 0.3711644084415084 0.16687558002932176 0.3711644084415084 0.8331244199706782 -0.3711644084415084
162.181009735893 0.8233533209718505 -0.37965389035409997 0.1766466790281496 0.37965389035409997 0.1766466790281496 0.37965389035409997 0.8233533209718505 -0.37965389035409997
167.88040181225603 0.8131379375902419 -0.38806915067337555 0.18686206240975822 0.38806915067337555 0.18686206240975822 0.38806915067337555 0.8131379375902419 -0.38806915067337555
173.78008287493756 0.802473179062545 -0.39638451470454267 0.197526820937455 0.39638451470454267 0.197526820937455 0.39638451470454267 0.802473179062545 -0.39638451470454267
179.88709151287878 0.7913557247886664 -0.4045730746186103 0.20864427521133358 0.4045730746186103 0.20864427521133358 0.4045730746186103 0.7913557247886664 -0.4045730746186103
186.20871366628674 0.7797842057848546 -0.4126068098641676 0.22021579421514526 0.4126068098641676 0.22021579421514526 0.4126068098641676 0.7797842057848546 -0.4126068098641676
192.7524913190936 0.7677593800030968 -0.42045673375056675 0.2322406199969031 0.42045673375056675 0.2322406199969031 0.42045673375056675 0.7677593800030968 -0.42045673375056675
199.526231496888 0.755284297651932 -0.42809306662123403 0.24471570234806805 0.42809306662123403 0.24471570234806805 0.42809306662123403 0.755284297651932 -0.42809306662123403
206.53801558105292 0.742364452386781 -0.43548543544553403 0.25763554761321894 0.43548543544553403 0.25763554761321894 0.43548543544553403 0.742364452386781 -0.43548543544553403
213.79620895022322 0.7290079140626309 -0.4426030989864764 0.270992085937369 0.4426030989864764 0.270992085937369 0.4426030989864764 0.7290079140626309 -0.4426030989864764
221.30947096056377 0.7152254386802119 -0.44941519696353394 0.284774561319788 0.44941519696353394 0.284774561319788 0.44941519696353394 0.7152254386802119 -0.44941519696353394
229.08676527677733 0.7010305512284736 -0.4558910208446943 0.29896944877152637 0.4558910208446943 0.29896944877152637 0.4558910208446943 0.7010305512284736 -0.4558910208446943
237.13737056616552 0.686439597347676 -0.4620003030949189 0.3135604026523241 0.4620003030949189 0.3135604026523241 0.4620003030949189 0.686439597347676 -0.4620003030949189
245.47089156850305 0.6714717601201045 -0.46771352090988216 0.3285282398798955 0.46771352090988216 0.3285282398798955 0.46771352090988216 0.6714717601201045 -0.46771352090988216
254.09727055493053 0.656149038844203 -0.4730022097086226 0.34385096115579716 0.4730022097086226 0.34385096115579716 0.4730022097086226 0.656149038844203 -0.4730022097086226
263.0267991895382 0.6404961873596849 -0.4778392809835917 0.35950381264031517 0.4778392809835917 0.35950381264031517 0.4778392809835917 0.6404961873596849 -0.4778392809835917
272.27013080779125 0.6245406103540997 -0.4821993385490966 0.3754593896459003 0.4821993385490966 0.3754593896459003 0.4821993385490966 0.6245406103540997 -0.4821993385490966
281.83829312644536 0.6083122170741341 -0.48605898682526166 0.3916877829258659 0.48605898682526166 0.3916877829258659 0.48605898682526166 0.6083122170741341 -0.48605898682526166
291.7427014001167 0.591843232957333 -0.48939712457613377 0.40815676704266696 0.48939712457613377 0.40815676704266696 0.48939712457613377 0.591843232957333 -0.48939712457613377
301.9951720402016 0.5751679708533263 -0.49219521751259704 0.4248320291466737 0.49219521751259704 0.4248320291466737 0.49219521751259704 0.5751679708533263 -0.49219521751259704
312.6079367123955 0.5583225646727965 -0.49443754338957185 0.44167743532720344 0.49443754338957185 0.44167743532720344 0.49443754338957185 0.5583225646727965 -0.49443754338957185
323.59365692962825 0.5413446694377897 -0.4961114036780212 0.45865533056221025 0.4961114036780212 0.45865533056221025 0.4961114036780212 0.5413446694377897 -0.4961114036780212
334.96543915782763 0.5242731327573242 -0.497207296569095 0.47572686724267566 0.497207296569095 0.47572686724267566 0.497207296569095 0.5242731327573242 -0.497207296569095
346.7368504525316 0.5071476436681583 -0.49771904695143143 0.49285235633184166 0.49771904695143143 0.49285235633184166 0.49771904695143143 0.5071476436681583 -0.49771904695143143
358.9219346450052 0.490008365517298 -0.49764389006250137 0.5099916344827022 0.49764389006250137 0.5099916344827022 0.49764389006250137 0.490008365517298 -0.49764389006250137
371.53522909717253 0.4728955600837147 -0.4969825067097611 0.5271044399162854 0.4969825067097611 0.5271044399162854 0.4969825067097611 0.4728955600837147 -0.4969825067097611
384.59178204535357 0.45584921041555343 -0.49573900923800096 0.5441507895844467 0.49573900923800096 0.5441507895844467 0.49573900923800096 0.45584921041555343 -0.49573900923800096
398.10717055349727 0.4389086498821254 -0.49392087873113405 0.5610913501178747 0.49392087873113405 0.5610913501178747 0.49392087873113405 0.4389086498821254 -0.49392087873113405
412.0975190973302 0.4221122047067964 -0.4915388552235182 0.5778877952932036 0.4915388552235182 0.5778877952932036 0.4915388552235182 0.4221122047067964 -0.4915388552235182
426.5795188015926 0.4054968567705398 -0.48860678390319645 0.5945031432294602 0.48860678390319645 0.5945031432294602 0.48860678390319645 0.4054968567705398 -0.48860678390319645
441.57044735331243 0.389097932781825 -0.48514142136781757 0.6109020672181751 0.48514142136781757 0.6109020672181751 0.48514142136781757 0.389097932781825 -0.48514142136781757
457.0881896148751 0.3729488250325607 -0.48116220690213957 0.6270511749674395 0.48116220690213957 0.6270511749674395 0.48116220690213957 0.3729488250325607 -0.48116220690213957
473.15125896148055 0.35708074794580275 -0.47669100445292856 0.6429192520541973 0.47669100445292856 0.6429192520541973 0.47669100445292856 0.35708074794580275 -0.47669100445292856
489.77881936844625 0.3415225335175082 -0.47175182146350314 0.6584774664824917 0.47175182146350314 0.6584774664824917 0.47175182146350314 0.3415225335175082 -0.47175182146350314
506.9907082747043 0.32630046761205034 -0.4663705109890416 0.6736995323879496 0.4663705109890416 0.6736995323879496 0.4663705109890416 0.32630046761205034 -0.4663705109890416
524.8074602497726 0.3114381679381899 -0.46057446354980525 0.68856183206181 0.46057446354980525 0.68856183206181 0.46057446354980525 0.3114381679381899 -0.46057446354980525
543.2503314924331 0.2969565034533117 -0.45439229500789924 0.7030434965466883 0.45439229500789924 0.7030434965466883 0.45439229500789924 0.2969565034533117 -0.45439229500789924
562.3413251903492 0.2828735539568653 -0.44785353639809694 0.7171264460431345 0.44785353639809694 0.7171264460431345 0.44785353639809694 0.2828735539568653 -0.44785353639809694
582.1032177708714 0.2692046077691251 -0.44098833113506025 0.7307953922308748 0.44098833113506025 0.7307953922308748 0.44098833113506025 0.2692046077691251 -0.44098833113506025
602.5595860743578 0.2559621946696575 -0.4338271443925165 0.7440378053303425 0.4338271443925165 0.7440378053303425 0.4338271443925165 0.2559621946696575 -0.4338271443925165
623.7348354824193 0.24315615070333857 -0.4264004887407108 0.7568438492966613 0.4264004887407108 0.7568438492966613 0.4264004887407108 0.24315615070333857 -0.4264004887407108
645.6542290346556 0.2307937110539474 -0.41873866937230386 0.7692062889460526 0.41873866937230386 0.7692062889460526 0.41873866937230386 0.2307937110539474 -0.41873866937230386
668.3439175686148 0.21887962693223964 -0.4108715514769473 0.7811203730677604 0.4108715514769473 0.7811203730677604 0.4108715514769473 0.21887962693223964 -0.4108715514769473
691.8309709189366 0.20741630231668967 -0.40282835157029817 0.7925836976833105 0.40282835157029817 0.7925836976833105 0.40282835157029817 0.20741630231668967 -0.40282835157029817
716.1434102129019 0.19640394640565656 -0.3946374538687031 0.8035960535943433 0.3946374538687031 0.8035960535943433 0.3946374538687031 0.19640394640565656 -0.3946374538687031
741.3102413009174 0.1858407377712611 -0.38632625214533894 0.8141592622287389 0.38632625214533894 0.8141592622287389 0.38632625214533894 0.1858407377712611 -0.38632625214533894
767.3614893618189 0.17572299642758915 -0.3779210169209993 0.8242770035724107 0.3779210169209993 0.8242770035724107 0.3779210169209993 0.17572299642758915 -0.3779210169209993
794.3282347242814 0.16604536031832454 -0.3694467873415617 0.8339546396816755 0.3694467873415617 0.8339546396816755 0.3694467873415617 0.16604536031832454 -0.3694467873415617
822.2426499470711 0.1568009630715233 -0.3609272866784091 0.8431990369284768 0.3609272866784091 0.8431990369284768 0.3609272866784091 0.1568009630715233 -0.3609272866784091
851.1380382023765 0.14798161024335676 -0.3523848600576579 0.8520183897566432 0.3523848600576579 0.8520183897566432 0.3523848600576579 0.14798161024335676 -0.3523848600576579
881.0488730080142 0.1395779516616643 -0.3438404327756541 0.8604220483383357 0.3438404327756541 0.8604220483383357 0.3438404327756541 0.1395779516616643 -0.3438404327756541
912.0108393559099 0.1315796478699009 -0.33531348738610767 0.868420352130099 0.33531348738610767 0.868420352130099 0.33531348738610767 0.1315796478699009 -0.33531348738610767
944.0608762859234 0.12397552905083492 -0.3268220576409064 0.876024470949165 0.3268220576409064 0.876024470949165 0.3268220576409064 0.12397552905083492 -0.3268220576409064
977.2372209558108 0.11675374516805191 -0.31838273732355743 0.8832462548319482 0.31838273732355743 0.8832462548319482 0.31838273732355743 0.11675374516805191 -0.31838273732355743
1011.5794542598987 0.10990190639520811 -0.3100107020222891 0.8900980936047916 0.3100107020222891 0.8900980936047916 0.3100107020222891 0.10990190639520811 -0.3100107020222891
1047.1285480508998 0.10340721320350053 -0.3017197419400341 0.8965927867964996 0.3017197419400341 0.8965927867964996 0.3017197419400341 0.10340721320350053 -0.3017197419400341
1083.9269140212034 0.09725657574436317 -0.2935223039221223 0.9027434242556369 0.2935223039221223 0.9027434242556369 0.2935223039221223 0.09725657574436317 -0.2935223039221223
1122.0184543019632 0.09143672239588102 -0.2854295409913876 0.9085632776041189 0.2854295409913876 0.9085632776041189 0.2854295409913876 0.09143672239588102 -0.2854295409913876
1161.4486138403427 0.08593429753815546 -0.27745136780727014 0.9140657024618445 0.27745136780727014 0.9140657024618445 0.27745136780727014 0.08593429753815546 -0.27745136780727014
1202.2644346174127 0.0807359487860806 -0.269596520603895 0.9192640512139195 0.269596520603895 0.9192640512139195 0.269596520603895 0.0807359487860806 -0.269596520603895
1244.514611771385 0.07582840403977817 -0.26187262030657077 0.9241715959602217 0.26187262030657077 0.9241715959602217 0.26187262030657077 0.07582840403977817 -0.26187262030657077
1288.249551693134 0.07119853881579985 -0.2542862376720594 0.9288014611842002 0.2542862376720594 0.9288014611842002 0.2542862376720594 0.07119853881579985 -0.2542862376720594
1333.5214321633239 0.06683343439901544 -0.24684295944162207 0.9331665656009844 0.24684295944162207 0.9331665656009844 0.24684295944162207 0.06683343439901544 -0.24684295944162207
1380.384264602885 0.06272042740888178 -0.239547454634351 0.937279572591118 0.239547454634351 0.937279572591118 0.239547454634351 0.06272042740888178 -0.239547454634351
1428.893958511103 0.05884715140755658 -0.2324035402394558 0.9411528485924434 0.2324035402394558 0.9411528485924434 0.2324035402394558 0.05884715140755658 -0.2324035402394558
1479.1083881682075 0.055201571194047755 -0.2254142456884517 0.9447984288059522 0.2254142456884517 0.9447984288059522 0.2254142456884517 0.055201571194047755 -0.2254142456884517
1531.0874616820304 0.05177201043107692 -0.21858187560060316 0.9482279895689232 0.21858187560060316 0.9482279895689232 0.21858187560060316 0.05177201043107692 -0.21858187560060316
1584.8931924611136 0.04854717324217796 -0.21190807039694123 0.9514528267578221 0.21190807039694123 0.9514528267578221 0.21190807039694123 0.04854717324217796 -0.21190807039694123
1640.5897731995396 0.045516160398120044 -0.2053938644695514 0.9544838396018799 0.2053938644695514 0.9544838396018799 0.2053938644695514 0.045516160398120044 -0.2053938644695514
1698.2436524617442 0.04266848068613914 -0.19903974167371047 0.9573315193138608 0.19903974167371047 0.9573315193138608 0.19903974167371047 0.04266848068613914 -0.19903974167371047
1757.9236139586924 0.03999405802454464 -0.192845687981207 0.9600059419754556 0.192845687981207 0.9600059419754556 0.192845687981207 0.03999405802454464 -0.192845687981207
1819.7008586099835 0.03748323485063281 -0.18681124119430748 0.9625167651493673 0.18681124119430748 0.9625167651493673 0.18681124119430748 0.03748323485063281 -0.18681124119430748
1883.6490894898002 0.035126772272845795 -0.1809355376719556 0.9648732277271543 0.1809355376719556 0.9648732277271543 0.1809355376719556 0.035126772272845795 -0.1809355376719556
1949.8445997580454 0.03291584743991099 -0.1752173560636349 0.9670841525600892 0.1752173560636349 0.9670841525600892 0.1752173560636349 0.03291584743991099 -0.1752173560636349
2018.3663636815609 0.030842048541201966 -0.16965515808260226 0.9691579514587979 0.16965515808260226 0.9691579514587979 0.16965515808260226 0.030842048541201966 -0.16965515808260226
2089.29613085404 0.028897367814540113 -0.1642471263796813 0.9711026321854598 0.1642471263796813 0.9711026321854598 0.1642471263796813 0.028897367814540113 -0.1642471263796813
2162.7185237270205 0.027074192900694675 -0.15899119960222388 0.9729258070993054 0.15899119960222388 0.9729258070993054 0.15899119960222388 0.027074192900694675 -0.15899119960222388
2238.7211385683395 0.02536529684838793 -0.15388510474092554 0.9746347031516119 0.15388510474092554 0.9746347031516119 0.15388510474092554 0.02536529684838793 -0.15388510474092554
2317.394649968479 0.02376382704000941 -0.14892638688059667 0.9762361729599907 0.14892638688059667 0.9762361729599907 0.14892638688059667 0.02376382704000941 -0.14892638688059667
2398.832919019491 0.022263293276716084 -0.14411243648037786 0.977736706723284 0.14411243648037786 0.977736706723284 0.14411243648037786 0.022263293276716084 -0.14411243648037786
2483.1331052955707 0.020857555232297546 -0.13944051431484034 0.9791424447677025 0.13944051431484034 0.9791424447677025 0.13944051431484034 0.020857555232297546 -0.13944051431484034
2570.3957827688632 0.019540809458194388 -0.13490777421046568 0.9804591905418055 0.13490777421046568 0.9804591905418055 0.13490777421046568 0.019540809458194388 -0.13490777421046568
2660.725059798809 0.018307576097397662 -0.13051128371263854 0.9816924239026024 0.13051128371263854 0.9816924239026024 0.13051128371263854 0.018307576097397662 -0.13051128371263854
2754.2287033381663 0.017152685442609172 -0.1262480428169627 0.9828473145573907 0.1262480428169627 0.9828473145573907 0.1262480428169627 0.017152685442609172 -0.1262480428169627
2851.018267503909 0.016071264453946545 -0.12211500089580635 0.9839287355460533 0.12211500089580635 0.9839287355460533 0.12211500089580635 0.016071264453946545 -0.12211500089580635
2951.209226666386 0.01505872333354957 -0.11810907194685655 0.9849412766664504 0.11810907194685655 0.9849412766664504 0.11810907194685655 0.01505872333354957 -0.11810907194685655
3054.9211132155133 0.014110742238578602 -0.11422714828542706 0.9858892577614213 0.11422714828542706 0.9858892577614213 0.11422714828542706 0.014110742238578602 -0.11422714828542706
3162.277660168379 0.013223258200162439 -0.11046611279657625 0.9867767417998375 0.11046611279657625 0.9867767417998375 0.11046611279657625 0.013223258200162439 -0.11046611279657625
3273.406948788382 0.012392452303719137 -0.10682284985700864 0.9876075476962808 0.10682284985700864 0.9876075476962808 0.10682284985700864 0.012392452303719137 -0.10682284985700864
3388.4415613920255 0.011614737175584384 -0.10329425503043572 0.9883852628244154 0.10329425503043572 0.9883852628244154 0.10329425503043572 0.011614737175584384 -0.10329425503043572
3507.5187395256803 0.010886744811888546 -0.09987724363374623 0.9891132551881114 0.09987724363374623 0.9891132551881114 0.09987724363374623 0.010886744811888546 -0.09987724363374623
3630.7805477010143 0.010205314777961577 -0.0965687582651051 0.9897946852220384 0.0965687582651051 0.9897946852220384 0.0965687582651051 0.010205314777961577 -0.0965687582651051
3758.374042884442 0.009567482800059842 -0.0933657753790887 0.99043251719994 0.0933657753790887 0.99043251719994 0.0933657753790887 0.009567482800059842 -0.0933657753790887
3890.451449942807 0.008970469765739765 -0.09026531098823669 0.9910295302342601 0.09026531098823669 0.9910295302342601 0.09026531098823669 0.008970469765739765 -0.09026531098823669
4027.170343254592 0.008411671144600858 -0.08726442556502494 0.991588328855399 0.08726442556502494 0.991588328855399 0.08726442556502494 0.008411671144600858 -0.08726442556502494
4168.693834703356 0.007888646837241721 -0.08436022821326383 0.9921113531627582 0.08436022821326383 0.9921113531627582 0.08436022821326383 0.007888646837241721 -0.08436022821326383
4315.190768277653 0.0073991114569843044 -0.08154988017330679 0.9926008885430159 0.08154988017330679 0.9926008885430159 0.08154988017330679 0.0073991114569843044 -0.08154988017330679
