!Murata Part Number: RCER71E335K2M1H03A
!These Parameters are Measured in Series Mode Connection
!       o--ll--o
!Port1            Port2
!       o------o
!Operation Temp=25[degC], DC Bias Voltage=0[V]
!Freq. Start=100[Hz] Stop=100[MHz], 401[Steps]
!Data Generated on Jun 22, 2023
# Hz S RI R 50
!Freq.(Hz) S11(Real) S11(Imag) S21(Real) S21(Imag) S12(Real) S12(Imag) S22(Real) S22(Imag)
100.0 0.9599248796217608 -0.1937784585243375 0.040075120378239154 0.1937784585243375 0.040075120378239154 0.1937784585243375 0.9599248796217608 -0.1937784585243375
103.51421666793439 0.9572199111230704 -0.19999094184931984 0.042780088876929585 0.19999094184931984 0.042780088876929585 0.19999094184931984 0.9572199111230704 -0.19999094184931984
107.15193052376064 0.9543406229870409 -0.20636289939686359 0.04565937701295895 0.20636289939686359 0.04565937701295895 0.20636289939686359 0.9543406229870409 -0.20636289939686359
110.9174815262401 0.9512769511129154 -0.2128943099401355 0.04872304888708451 0.2128943099401355 0.04872304888708451 0.2128943099401355 0.9512769511129154 -0.2128943099401355
114.81536214968828 0.948018414906287 -0.21958465729002424 0.05198158509371314 0.21958465729002424 0.05198158509371314 0.21958465729002424 0.948018414906287 -0.21958465729002424
118.85022274370185 0.9445541234111525 -0.22643287747339635 0.05544587658884746 0.22643287747339635 0.05544587658884746 0.22643287747339635 0.9445541234111525 -0.22643287747339635
123.02687708123815 0.9408727856273473 -0.2334373028710463 0.05912721437265254 0.2334373028710463 0.05912721437265254 0.2334373028710463 0.9408727856273473 -0.2334373028710463
127.35030810166617 0.93696272560607 -0.24059560344360323 0.06303727439392995 0.24059560344360323 0.06303727439392995 0.24059560344360323 0.93696272560607 -0.24059560344360323
131.8256738556407 0.9328119029565838 -0.24790472524699889 0.0671880970434162 0.24790472524699889 0.0671880970434162 0.24790472524699889 0.9328119029565838 -0.24790472524699889
136.45831365889245 0.928407939432573 -0.25536082652474335 0.0715920605674269 0.25536082652474335 0.0715920605674269 0.25536082652474335 0.928407939432573 -0.25536082652474335
141.25375446227542 0.9237381522947823 -0.26295921176279424 0.07626184770521768 0.26295921176279424 0.07626184770521768 0.26295921176279424 0.9237381522947823 -0.26295921176279424
146.21771744567184 0.9187895951648384 -0.2706942642045771 0.0812104048351616 0.2706942642045771 0.0812104048351616 0.2706942642045771 0.9187895951648384 -0.2706942642045771
151.35612484362082 0.9135491070905973 -0.2785593774486185 0.08645089290940274 0.2785593774486185 0.08645089290940274 0.2785593774486185 0.9135491070905973 -0.2785593774486185
156.6751070108149 0.9080033705326738 -0.2865468868887504 0.0919966294673262 0.2865468868887504 0.0919966294673262 0.2865468868887504 0.9080033705326738 -0.2865468868887504
162.181009735893 0.902138978951494 -0.2946480019057422 0.09786102104850615 0.2946480019057422 0.09786102104850615 0.2946480019057422 0.902138978951494 -0.2946480019057422
167.88040181225603 0.8959425146205171 -0.30285273987765654 0.10405748537948296 0.30285273987765654 0.10405748537948296 0.30285273987765654 0.8959425146205171 -0.30285273987765654
173.78008287493756 0.8894006372104557 -0.3111498632414624 0.11059936278954428 0.3111498632414624 0.11059936278954428 0.3111498632414624 0.8894006372104557 -0.3111498632414624
179.88709151287878 0.8825001835776333 -0.3195268210068544 0.11749981642236665 0.3195268210068544 0.11749981642236665 0.3195268210068544 0.8825001835776333 -0.3195268210068544
186.20871366628674 0.8752282790436539 -0.32796969629012857 0.1247717209563463 0.32796969629012857 0.1247717209563463 0.32796969629012857 0.8752282790436539 -0.32796969629012857
192.7524913190936 0.867572460270317 -0.3364631615955973 0.13242753972968296 0.3364631615955973 0.13242753972968296 0.3364631615955973 0.867572460270317 -0.3364631615955973
199.526231496888 0.8595208096110005 -0.3449904437175344 0.14047919038899961 0.3449904437175344 0.14047919038899961 0.3449904437175344 0.8595208096110005 -0.3449904437175344
206.53801558105292 0.8510621005563556 -0.3535333002590427 0.14893789944364433 0.3535333002590427 0.14893789944364433 0.3535333002590427 0.8510621005563556 -0.3535333002590427
213.79620895022322 0.8421859535883481 -0.3620720098566264 0.15781404641165178 0.3620720098566264 0.15781404641165178 0.3620720098566264 0.8421859535883481 -0.3620720098566264
221.30947096056377 0.8328830014143113 -0.3705853782508412 0.16711699858568874 0.3705853782508412 0.16711699858568874 0.3705853782508412 0.8328830014143113 -0.3705853782508412
229.08676527677733 0.8231450621757782 -0.37905076234393814 0.17685493782422182 0.37905076234393814 0.17685493782422182 0.37905076234393814 0.8231450621757782 -0.37905076234393814
237.13737056616552 0.8129653188217789 -0.3874441143244523 0.18703468117822103 0.3874441143244523 0.18703468117822103 0.3874441143244523 0.8129653188217789 -0.3874441143244523
245.47089156850305 0.8023385024120433 -0.3957400478061673 0.19766149758795667 0.3957400478061673 0.19766149758795667 0.3957400478061673 0.8023385024120433 -0.3957400478061673
254.09727055493053 0.7912610766840011 -0.40391192771569595 0.20873892331599886 0.40391192771569595 0.20873892331599886 0.40391192771569595 0.7912610766840011 -0.40391192771569595
263.0267991895382 0.7797314207932787 -0.4119319853616857 0.2202685792067211 0.4119319853616857 0.2202685792067211 0.4119319853616857 0.7797314207932787 -0.4119319853616857
272.27013080779125 0.7677500067380169 -0.4197714597244592 0.2322499932619832 0.4197714597244592 0.2322499932619832 0.4197714597244592 0.7677500067380169 -0.4197714597244592
281.83829312644536 0.7553195676225061 -0.4274007655162142 0.24468043237749396 0.4274007655162142 0.24468043237749396 0.4274007655162142 0.7553195676225061 -0.4274007655162142
291.7427014001167 0.7424452526269557 -0.4347896879813383 0.25755474737304435 0.4347896879813383 0.25755474737304435 0.4347896879813383 0.7424452526269557 -0.4347896879813383
301.9951720402016 0.7291347643500756 -0.4419076037414552 0.2708652356499244 0.4419076037414552 0.2708652356499244 0.4419076037414552 0.7291347643500756 -0.4419076037414552
312.6079367123955 0.7153984741018391 -0.44872372625352686 0.2846015258981609 0.44872372625352686 0.2846015258981609 0.44872372625352686 0.7153984741018391 -0.44872372625352686
323.59365692962825 0.7012495107659171 -0.4552073736604534 0.2987504892340828 0.4552073736604534 0.2987504892340828 0.4552073736604534 0.7012495107659171 -0.4552073736604534
334.96543915782763 0.6867038190424144 -0.46132825599667215 0.31329618095758566 0.46132825599667215 0.31329618095758566 0.46132825599667215 0.6867038190424144 -0.46132825599667215
346.7368504525316 0.6717801832344739 -0.46705677789609723 0.32821981676552614 0.46705677789609723 0.32821981676552614 0.46705677789609723 0.6717801832344739 -0.46705677789609723
358.9219346450052 0.6565002132635779 -0.47236435217055844 0.34349978673642206 0.47236435217055844 0.34349978673642206 0.47236435217055844 0.6565002132635779 -0.47236435217055844
371.53522909717253 0.6408882902867399 -0.4772237189208652 0.35911170971326 0.4772237189208652 0.35911170971326 0.4772237189208652 0.6408882902867399 -0.4772237189208652
384.59178204535357 0.6249714701341884 -0.4816092642480339 0.3750285298658117 0.4816092642480339 0.3750285298658117 0.4816092642480339 0.6249714701341884 -0.4816092642480339
398.10717055349727 0.608779343769211 -0.4854973321862047 0.391220656230789 0.4854973321862047 0.391220656230789 0.4854973321862047 0.608779343769211 -0.4854973321862047
412.0975190973302 0.5923438550636739 -0.48886652321486784 0.4076561449363261 0.48886652321486784 0.4076561449363261 0.48886652321486784 0.5923438550636739 -0.48886652321486784
426.5795188015926 0.5756990773458684 -0.49169797265359677 0.42430092265413155 0.49169797265359677 0.42430092265413155 0.49169797265359677 0.5756990773458684 -0.49169797265359677
441.57044735331243 0.5588809513670215 -0.4939756024163139 0.4411190486329785 0.4939756024163139 0.4411190486329785 0.4939756024163139 0.5588809513670215 -0.4939756024163139
457.0881896148751 0.5419269884992328 -0.49568634001245365 0.45807301150076724 0.49568634001245365 0.45807301150076724 0.49568634001245365 0.5419269884992328 -0.49568634001245365
473.15125896148055 0.5248759440686724 -0.4968202993254381 0.47512405593132745 0.4968202993254381 0.47512405593132745 0.4968202993254381 0.5248759440686724 -0.4968202993254381
489.77881936844625 0.507767466692295 -0.4973709185582741 0.4922325333077051 0.4973709185582741 0.4922325333077051 0.4973709185582741 0.507767466692295 -0.4973709185582741
506.9907082747043 0.4906417302770734 -0.4973350517830958 0.5093582697229266 0.4973350517830958 0.5093582697229266 0.4973350517830958 0.4906417302770734 -0.4973350517830958
524.8074602497726 0.47353905591809675 -0.49671301172627125 0.5264609440819032 0.49671301172627125 0.5264609440819032 0.49671301172627125 0.47353905591809675 -0.49671301172627125
543.2503314924331 0.45649953126636666 -0.4955085627144626 0.5435004687336332 0.4955085627144626 0.5435004687336332 0.4955085627144626 0.45649953126636666 -0.4955085627144626
562.3413251903492 0.4395626350115926 -0.49372886404484995 0.5604373649884072 0.49372886404484995 0.5604373649884072 0.49372886404484995 0.4395626350115926 -0.49372886404484995
582.1032177708714 0.4227668739362311 -0.4913843653669605 0.5772331260637689 0.4913843653669605 0.5772331260637689 0.4913843653669605 0.4227668739362311 -0.4913843653669605
602.5595860743578 0.40614943955466937 -0.48848865691746296 0.5938505604453305 0.48848865691746296 0.5938505604453305 0.48848865691746296 0.40614943955466937 -0.48848865691746296
623.7348354824193 0.38974589067931315 -0.48505827858062667 0.6102541093206867 0.48505827858062667 0.6102541093206867 0.48505827858062667 0.38974589067931315 -0.48505827858062667
645.6542290346556 0.37358986738806854 -0.4811124927112956 0.6264101326119315 0.4811124927112956 0.6264101326119315 0.4811124927112956 0.37358986738806854 -0.4811124927112956
668.3439175686148 0.35771284084897687 -0.47667302641968845 0.6422871591510232 0.47667302641968845 0.6422871591510232 0.47667302641968845 0.35771284084897687 -0.47667302641968845
691.8309709189366 0.34214390233695163 -0.4717637895555115 0.6578560976630483 0.4717637895555115 0.6578560976630483 0.4717637895555115 0.34214390233695163 -0.4717637895555115
716.1434102129019 0.3269095936065755 -0.46641057493269217 0.6730904063934244 0.46641057493269217 0.6730904063934244 0.46641057493269217 0.3269095936065755 -0.46641057493269217
741.3102413009174 0.31203377961484063 -0.4606407474078879 0.6879662203851593 0.4606407474078879 0.6879662203851593 0.4606407474078879 0.31203377961484063 -0.4606407474078879
767.3614893618189 0.2975375634658471 -0.4544829282794924 0.7024624365341527 0.4544829282794924 0.7024624365341527 0.4544829282794924 0.2975375634658471 -0.4544829282794924
794.3282347242814 0.28343924241685176 -0.44796668113241406 0.7165607575831482 0.44796668113241406 0.7165607575831482 0.44796668113241406 0.28343924241685176 -0.44796668113241406
822.2426499470711 0.2697543028746375 -0.44112220474807035 0.7302456971253626 0.44112220474807035 0.7302456971253626 0.44112220474807035 0.2697543028746375 -0.44112220474807035
851.1380382023765 0.2564954515467788 -0.4339800380642316 0.7435045484532211 0.4339800380642316 0.7435045484532211 0.4339800380642316 0.2564954515467788 -0.4339800380642316
881.0488730080142 0.24367267930835518 -0.42657078144322563 0.7563273206916449 0.42657078144322563 0.7563273206916449 0.42657078144322563 0.24367267930835518 -0.42657078144322563
912.0108393559099 0.23129335390622574 -0.41892483772714845 0.7687066460937741 0.41892483772714845 0.7687066460937741 0.41892483772714845 0.23129335390622574 -0.41892483772714845
944.0608762859234 0.21936233734712854 -0.4110721757604558 0.7806376626528715 0.4110721757604558 0.7806376626528715 0.4110721757604558 0.21936233734712854 -0.4110721757604558
977.2372209558108 0.207882123692615 -0.40304211827519465 0.7921178763073851 0.40304211827519465 0.7921178763073851 0.40304211827519465 0.207882123692615 -0.40304211827519465
1011.5794542598987 0.19685299299785314 -0.39486315528877575 0.8031470070021469 0.39486315528877575 0.8031470070021469 0.39486315528877575 0.19685299299785314 -0.39486315528877575
1047.1285480508998 0.1862731772634942 -0.3865627834795918 0.8137268227365057 0.3865627834795918 0.8137268227365057 0.3865627834795918 0.1862731772634942 -0.3865627834795918
1083.9269140212034 0.1761390344988177 -0.37816737139717826 0.8238609655011824 0.37816737139717826 0.8238609655011824 0.37816737139717826 0.1761390344988177 -0.37816737139717826
1122.0184543019632 0.1664452272982446 -0.36970204984062 0.8335547727017554 0.36970204984062 0.8335547727017554 0.36970204984062 0.1664452272982446 -0.36970204984062
1161.4486138403427 0.15718490269053437 -0.3611906263060608 0.8428150973094656 0.3611906263060608 0.8428150973094656 0.3611906263060608 0.15718490269053437 -0.3611906263060608
1202.2644346174127 0.14834987041050784 -0.35265552206156303 0.8516501295894924 0.35265552206156303 0.8516501295894924 0.35265552206156303 0.14834987041050784 -0.35265552206156303
1244.514611771385 0.1399307771491133 -0.3441177301517418 0.8600692228508866 0.3441177301517418 0.8600692228508866 0.3441177301517418 0.1399307771491133 -0.3441177301517418
1288.249551693134 0.13191727474376796 -0.3355967924593131 0.8680827252562319 0.3355967924593131 0.8680827252562319 0.3355967924593131 0.13191727474376796 -0.3355967924593131
1333.5214321633239 0.12429818066466002 -0.32711079384779035 0.87570181933534 0.32711079384779035 0.87570181933534 0.32711079384779035 0.12429818066466002 -0.32711079384779035
1380.384264602885 0.11706162952439915 -0.3186763713697648 0.8829383704756009 0.3186763713697648 0.8829383704756009 0.3186763713697648 0.11706162952439915 -0.3186763713697648
1428.893958511103 0.11019521468096327 -0.3103087365386361 0.8898047853190367 0.3103087365386361 0.8898047853190367 0.3103087365386361 0.11019521468096327 -0.3103087365386361
1479.1083881682075 0.10368611931265495 -0.30202170871853007 0.8963138806873451 0.30202170871853007 0.8963138806873451 0.30202170871853007 0.10368611931265495 -0.30202170871853007
1531.0874616820304 0.09752123661617927 -0.2938277577780741 0.9024787633838209 0.2938277577780741 0.9024787633838209 0.2938277577780741 0.09752123661617927 -0.2938277577780741
1584.8931924611136 0.09168727901411525 -0.28573805426998794 0.9083127209858847 0.28573805426998794 0.9083127209858847 0.28573805426998794 0.09168727901411525 -0.28573805426998794
1640.5897731995396 0.08617087645655597 -0.2777625255323679 0.9138291235434439 0.2777625255323679 0.9138291235434439 0.2777625255323679 0.08617087645655597 -0.2777625255323679
1698.2436524617442 0.08095866406513312 -0.269909916252314 0.9190413359348668 0.269909916252314 0.9190413359348668 0.269909916252314 0.08095866406513312 -0.269909916252314
1757.9236139586924 0.07603735949840616 -0.2621878521824727 0.923962640501594 0.2621878521824727 0.923962640501594 0.2621878521824727 0.07603735949840616 -0.2621878521824727
1819.7008586099835 0.07139383051857384 -0.25460290585144424 0.928606169481426 0.25460290585144424 0.928606169481426 0.25460290585144424 0.07139383051857384 -0.25460290585144424
1883.6490894898002 0.06701515331382414 -0.24716066325608843 0.932984846686176 0.24716066325608843 0.932984846686176 0.24716066325608843 0.06701515331382414 -0.24716066325608843
1949.8445997580454 0.06288866218167488 -0.23986579066469366 0.9371113378183251 0.23986579066469366 0.9371113378183251 0.23986579066469366 0.06288866218167488 -0.23986579066469366
2018.3663636815609 0.05900199120963415 -0.23272210079265945 0.9409980087903659 0.23272210079265945 0.9409980087903659 0.23272210079265945 0.05900199120963415 -0.23272210079265945
2089.29613085404 0.05534310860355764 -0.22573261773531608 0.9446568913964424 0.22573261773531608 0.9446568913964424 0.22573261773531608 0.05534310860355764 -0.22573261773531608
2162.7185237270205 0.051900344314159914 -0.21889964015494173 0.9480996556858401 0.21889964015494173 0.9480996556858401 0.21889964015494173 0.051900344314159914 -0.21889964015494173
2238.7211385683395 0.048662411600926825 -0.21222480232048274 0.9513375883990732 0.21222480232048274 0.9513375883990732 0.21222480232048274 0.048662411600926825 -0.21222480232048274
2317.394649968479 0.045618423152618895 -0.20570913268891852 0.954381576847381 0.20570913268891852 0.954381576847381 0.20570913268891852 0.045618423152618895 -0.20570913268891852
2398.832919019491 0.04275790235678773 -0.19935310979688628 0.9572420976432123 0.19935310979688628 0.9572420976432123 0.19935310979688628 0.04275790235678773 -0.19935310979688628
2483.1331052955707 0.04007079027911185 -0.19315671530054324 0.9599292097208881 0.19315671530054324 0.9599292097208881 0.19315671530054324 0.04007079027911185 -0.19315671530054324
2570.3957827688632 0.03754744887849491 -0.18711948406134976 0.9624525511215051 0.18711948406134976 0.9624525511215051 0.18711948406134976 0.03754744887849491 -0.18711948406134976
2660.725059798809 0.03517866094707607 -0.18124055122619206 0.9648213390529238 0.18124055122619206 0.9648213390529238 0.18124055122619206 0.03517866094707607 -0.18124055122619206
2754.2287033381663 0.032955627226692055 -0.1755186962928635 0.9670443727733077 0.1755186962928635 0.9670443727733077 0.1755186962928635 0.032955627226692055 -0.1755186962928635
2851.018267503909 0.030869961115770277 -0.16995238418717096 0.9691300388842297 0.16995238418717096 0.9691300388842297 0.16995238418717096 0.030869961115770277 -0.16995238418717096
2951.209226666386 0.028913681343817825 -0.1645398034066656 0.9710863186561821 0.1645398034066656 0.9710863186561821 0.1645398034066656 0.028913681343817825 -0.1645398034066656
3054.9211132155133 0.027079202955112545 -0.15927890130899428 0.9729207970448875 0.15927890130899428 0.9729207970448875 0.15927890130899428 0.027079202955112545 -0.15927890130899428
3162.277660168379 0.02535932690927845 -0.15416741664088618 0.9746406730907216 0.15416741664088618 0.9746406730907216 0.15416741664088618 0.02535932690927845 -0.15416741664088618
3273.406948788382 0.023747228574378824 -0.14920290941752745 0.9762527714256212 0.14920290941752745 0.9762527714256212 0.14920290941752745 0.023747228574378824 -0.14920290941752745
3388.4415613920255 0.02223644535813729 -0.14438278827216222 0.9777635546418627 0.14438278827216222 0.9777635546418627 0.14438278827216222 0.02223644535813729 -0.14438278827216222
3507.5187395256803 0.020820863694958846 -0.13970433540276952 0.9791791363050413 0.13970433540276952 0.9791791363050413 0.13970433540276952 0.020820863694958846 -0.13970433540276952
3630.7805477010143 0.019494705580574163 -0.13516472924710224 0.9805052944194258 0.13516472924710224 0.9805052944194258 0.13516472924710224 0.019494705580574163 -0.13516472924710224
3758.374042884442 0.018252514822319734 -0.13076106501966323 0.9817474851776803 0.13076106501966323 0.9817474851776803 0.13076106501966323 0.018252514822319734 -0.13076106501966323
3890.451449942807 0.01708914315121909 -0.12649037324472043 0.982910856848781 0.12649037324472043 0.982910856848781 0.12649037324472043 0.01708914315121909 -0.12649037324472043
4027.170343254592 0.015999736322046473 -0.12234963641852753 0.9840002636779533 0.12234963641852753 0.9840002636779533 0.12234963641852753 0.015999736322046473 -0.12234963641852753
4168.693834703356 0.01497972030932675 -0.11833580393179191 0.9850202796906734 0.11833580393179191 0.9850202796906734 0.11833580393179191 0.01497972030932675 -0.11833580393179191
4315.190768277653 0.014024787690644726 -0.11444580538032845 0.9859752123093554 0.11444580538032845 0.9859752123093554 0.11444580538032845 0.014024787690644726 -0.11444580538032845
