!Murata Part Number: RCER71H335K3DBH03A
!These Parameters are Measured in Series Mode Connection
!       o--ll--o
!Port1            Port2
!       o------o
!Operation Temp=25[degC], DC Bias Voltage=0[V]
!Freq. Start=100[Hz] Stop=100[MHz], 401[Steps]
!Data Generated on Jun 23, 2023
# Hz S RI R 50
!Freq.(Hz) S11(Real) S11(Imag) S21(Real) S21(Imag) S12(Real) S12(Imag) S22(Real) S22(Imag)
100.0 0.9620735129168356 -0.18869690256070965 0.0379264870831644 0.18869690256070965 0.0379264870831644 0.18869690256070965 0.9620735129168356 -0.18869690256070965
103.51421666793439 0.9595076031119092 -0.19477637836169986 0.04049239688809078 0.19477637836169986 0.04049239688809078 0.19477637836169986 0.9595076031119092 -0.19477637836169986
107.15193052376064 0.9567755049967521 -0.20101503579188312 0.04322449500324796 0.20101503579188312 0.04322449500324796 0.20101503579188312 0.9567755049967521 -0.20101503579188312
110.9174815262401 0.9538675051805008 -0.20741323342886644 0.046132494819499235 0.20741323342886644 0.046132494819499235 0.20741323342886644 0.9538675051805008 -0.20741323342886644
114.81536214968828 0.9507734712035778 -0.21397087694264127 0.04922652879642214 0.21397087694264127 0.04922652879642214 0.21397087694264127 0.9507734712035778 -0.21397087694264127
118.85022274370185 0.9474828545589318 -0.22068736886850954 0.052517145441068155 0.22068736886850954 0.052517145441068155 0.22068736886850954 0.9474828545589318 -0.22068736886850954
123.02687708123815 0.94398469743323 -0.22756155527818892 0.056015302566770044 0.22756155527818892 0.056015302566770044 0.22756155527818892 0.94398469743323 -0.22756155527818892
127.35030810166617 0.9402676437243231 -0.23459166942428808 0.05973235627567686 0.23459166942428808 0.05973235627567686 0.23459166942428808 0.9402676437243231 -0.23459166942428808
131.8256738556407 0.9363199549343981 -0.24177527249690992 0.06368004506560195 0.24177527249690992 0.06368004506560195 0.24177527249690992 0.9363199549343981 -0.24177527249690992
136.45831365889245 0.932129531578015 -0.24910919170632786 0.06787046842198478 0.24910919170632786 0.06787046842198478 0.24910919170632786 0.932129531578015 -0.24910919170632786
141.25375446227542 0.9276839407787235 -0.25658945599328176 0.07231605922127647 0.25658945599328176 0.07231605922127647 0.25658945599328176 0.9276839407787235 -0.25658945599328176
146.21771744567184 0.922970450754811 -0.2642112297690306 0.07702954924518898 0.2642112297690306 0.07702954924518898 0.2642112297690306 0.922970450754811 -0.2642112297690306
151.35612484362082 0.917976072911319 -0.2719687452011358 0.08202392708868099 0.2719687452011358 0.08202392708868099 0.2719687452011358 0.917976072911319 -0.2719687452011358
156.6751070108149 0.9126876122586971 -0.2798552336878996 0.08731238774130286 0.2798552336878996 0.08731238774130286 0.2798552336878996 0.9126876122586971 -0.2798552336878996
162.181009735893 0.9070917268650874 -0.28786285730379435 0.09290827313491241 0.28786285730379435 0.09290827313491241 0.28786285730379435 0.9070917268650874 -0.28786285730379435
167.88040181225603 0.9011749970156208 -0.2959826411488312 0.09882500298437924 0.2959826411488312 0.09882500298437924 0.2959826411488312 0.9011749970156208 -0.2959826411488312
173.78008287493756 0.8949240046945657 -0.30420440769461066 0.1050759953054342 0.30420440769461066 0.1050759953054342 0.30420440769461066 0.8949240046945657 -0.30420440769461066
179.88709151287878 0.8883254239208898 -0.3125167143859474 0.11167457607911022 0.3125167143859474 0.11167457607911022 0.3125167143859474 0.8883254239208898 -0.3125167143859474
186.20871366628674 0.8813661223510838 -0.3209067959256493 0.11863387764891635 0.3209067959256493 0.11863387764891635 0.3209067959256493 0.8813661223510838 -0.3209067959256493
192.7524913190936 0.8740332744115954 -0.3293605128364261 0.12596672558840444 0.3293605128364261 0.12596672558840444 0.3293605128364261 0.8740332744115954 -0.3293605128364261
199.526231496888 0.866314486034005 -0.33786230805207723 0.13368551396599496 0.33786230805207723 0.13368551396599496 0.33786230805207723 0.866314486034005 -0.33786230805207723
206.53801558105292 0.8581979308370782 -0.34639517343302345 0.14180206916292182 0.34639517343302345 0.14180206916292182 0.34639517343302345 0.8581979308370782 -0.34639517343302345
213.79620895022322 0.849672497330087 -0.354940628220765 0.15032750266991288 0.354940628220765 0.15032750266991288 0.354940628220765 0.849672497330087 -0.354940628220765
221.30947096056377 0.8407279464016648 -0.36347871153291156 0.15927205359833516 0.36347871153291156 0.15927205359833516 0.36347871153291156 0.8407279464016648 -0.36347871153291156
229.08676527677733 0.8313550780102257 -0.37198799104514413 0.16864492198977424 0.37198799104514413 0.16864492198977424 0.37198799104514413 0.8313550780102257 -0.37198799104514413
237.13737056616552 0.8215459056099285 -0.3804455899985054 0.17845409439007154 0.3804455899985054 0.17845409439007154 0.3804455899985054 0.8215459056099285 -0.3804455899985054
245.47089156850305 0.8112938364370414 -0.38882723459934104 0.18870616356295852 0.38882723459934104 0.18870616356295852 0.38882723459934104 0.8112938364370414 -0.38882723459934104
254.09727055493053 0.8005938553548517 -0.39710732373503865 0.1994061446451483 0.39710732373503865 0.1994061446451483 0.39710732373503865 0.8005938553548517 -0.39710732373503865
263.0267991895382 0.7894427095231941 -0.40525902270253505 0.2105572904768059 0.40525902270253505 0.2105572904768059 0.40525902270253505 0.7894427095231941 -0.40525902270253505
272.27013080779125 0.7778390907364233 -0.4132543823312926 0.2221609092635766 0.4132543823312926 0.2221609092635766 0.4132543823312926 0.7778390907364233 -0.4132543823312926
281.83829312644536 0.7657838118790167 -0.4210644844736133 0.2342161881209834 0.4210644844736133 0.2342161881209834 0.4210644844736133 0.7657838118790167 -0.4210644844736133
291.7427014001167 0.753279973601099 -0.4286596143317869 0.24672002639890092 0.4286596143317869 0.24672002639890092 0.4286596143317869 0.753279973601099 -0.4286596143317869
301.9951720402016 0.740333117038814 -0.4360094594969477 0.25966688296118606 0.4360094594969477 0.25966688296118606 0.4360094594969477 0.740333117038814 -0.4360094594969477
312.6079367123955 0.7269513582191305 -0.44308333489696083 0.2730486417808697 0.44308333489696083 0.2730486417808697 0.44308333489696083 0.7269513582191305 -0.44308333489696083
323.59365692962825 0.7131454997175501 -0.4498504321040264 0.2868545002824499 0.4498504321040264 0.2868545002824499 0.4498504321040264 0.7131454997175501 -0.4498504321040264
334.96543915782763 0.6989291152005429 -0.45628009065665687 0.301070884799457 0.45628009065665687 0.301070884799457 0.45628009065665687 0.6989291152005429 -0.45628009065665687
346.7368504525316 0.6843186026994117 -0.462342088230637 0.3156813973005883 0.462342088230637 0.3156813973005883 0.462342088230637 0.6843186026994117 -0.462342088230637
358.9219346450052 0.6693332028406643 -0.46800694568012297 0.3306667971593356 0.46800694568012297 0.3306667971593356 0.46800694568012297 0.6693332028406643 -0.46800694568012297
371.53522909717253 0.6539949788053119 -0.47324624219797895 0.3460050211946881 0.47324624219797895 0.3460050211946881 0.47324624219797895 0.6539949788053119 -0.47324624219797895
384.59178204535357 0.6383287555033633 -0.47803293515132383 0.3616712444966368 0.47803293515132383 0.3616712444966368 0.47803293515132383 0.6383287555033633 -0.47803293515132383
398.10717055349727 0.6223620163187259 -0.4823416785724221 0.377637983681274 0.4823416785724221 0.377637983681274 0.4823416785724221 0.6223620163187259 -0.4823416785724221
412.0975190973302 0.6061247567829097 -0.4861491338633182 0.3938752432170903 0.4861491338633182 0.3938752432170903 0.4861491338633182 0.6061247567829097 -0.4861491338633182
426.5795188015926 0.5896492956430871 -0.48943426603787465 0.41035070435691295 0.48943426603787465 0.41035070435691295 0.48943426603787465 0.5896492956430871 -0.48943426603787465
441.57044735331243 0.5729700449624818 -0.4921786188034002 0.42702995503751817 0.4921786188034002 0.42702995503751817 0.4921786188034002 0.5729700449624818 -0.4921786188034002
457.0881896148751 0.556123242082951 -0.49436656199327994 0.44387675791704906 0.49436656199327994 0.44387675791704906 0.49436656199327994 0.556123242082951 -0.49436656199327994
473.15125896148055 0.5391466474406127 -0.4959855053084681 0.4608533525593873 0.4959855053084681 0.4608533525593873 0.4959855053084681 0.5391466474406127 -0.4959855053084681
489.77881936844625 0.5220792133030925 -0.49702607300380186 0.4779207866969074 0.49702607300380186 0.4779207866969074 0.49702607300380186 0.5220792133030925 -0.49702607300380186
506.9907082747043 0.5049607294404742 -0.49748223504653916 0.49503927055952573 0.49748223504653916 0.49503927055952573 0.49748223504653916 0.5049607294404742 -0.49748223504653916
524.8074602497726 0.48783145250501847 -0.4973513913488206 0.5121685474949815 0.4973513913488206 0.5121685474949815 0.4973513913488206 0.48783145250501847 -0.4973513913488206
543.2503314924331 0.47073172643873046 -0.49663440689149546 0.5292682735612694 0.49663440689149546 0.5292682735612694 0.49663440689149546 0.47073172643873046 -0.49663440689149546
562.3413251903492 0.4537016015250164 -0.49533559686390943 0.5462983984749834 0.49533559686390943 0.5462983984749834 0.49533559686390943 0.4537016015250164 -0.49533559686390943
582.1032177708714 0.4367804597357468 -0.49346266228714547 0.5632195402642534 0.49346266228714547 0.5632195402642534 0.49346266228714547 0.4367804597357468 -0.49346266228714547
602.5595860743578 0.4200066537964902 -0.4910265779089394 0.5799933462035098 0.4910265779089394 0.5799933462035098 0.4910265779089394 0.4200066537964902 -0.4910265779089394
623.7348354824193 0.40341716691283713 -0.4880414354006229 0.5965828330871629 0.4880414354006229 0.5965828330871629 0.4880414354006229 0.40341716691283713 -0.4880414354006229
645.6542290346556 0.3870472993948428 -0.48452424599847255 0.612952700605157 0.48452424599847255 0.612952700605157 0.48452424599847255 0.3870472993948428 -0.48452424599847255
668.3439175686148 0.37093038752099833 -0.48049470767037217 0.6290696124790017 0.48049470767037217 0.6290696124790017 0.48049470767037217 0.37093038752099833 -0.48049470767037217
691.8309709189366 0.35509755894260236 -0.4759749426207635 0.6449024410573977 0.4759749426207635 0.6449024410573977 0.4759749426207635 0.35509755894260236 -0.4759749426207635
716.1434102129019 0.33957752779407385 -0.4709892114515937 0.6604224722059262 0.4709892114515937 0.6604224722059262 0.4709892114515937 0.33957752779407385 -0.4709892114515937
741.3102413009174 0.324396431496783 -0.4655636105661226 0.675603568503217 0.4655636105661226 0.675603568503217 0.4655636105661226 0.324396431496783 -0.4655636105661226
767.3614893618189 0.3095777100742899 -0.4597257594401468 0.69042228992571 0.4597257594401468 0.69042228992571 0.4597257594401468 0.3095777100742899 -0.4597257594401468
794.3282347242814 0.2951420276821551 -0.45350448420669515 0.7048579723178449 0.45350448420669515 0.7048579723178449 0.45350448420669515 0.2951420276821551 -0.45350448420669515
822.2426499470711 0.28110723503582785 -0.4469295036301377 0.7188927649641723 0.4469295036301377 0.7188927649641723 0.4469295036301377 0.28110723503582785 -0.4469295036301377
851.1380382023765 0.2674883705273876 -0.4400311230155471 0.7325116294726125 0.4400311230155471 0.7325116294726125 0.4400311230155471 0.2674883705273876 -0.4400311230155471
881.0488730080142 0.2542976970785641 -0.4328399409450885 0.7457023029214359 0.4328399409450885 0.7457023029214359 0.4328399409450885 0.2542976970785641 -0.4328399409450885
912.0108393559099 0.24154477119662365 -0.4253865729931918 0.7584552288033763 0.4253865729931918 0.7584552288033763 0.4253865729931918 0.24154477119662365 -0.4253865729931918
944.0608762859234 0.22923654028527596 -0.4177013957837854 0.7707634597147242 0.4177013957837854 0.7707634597147242 0.4177013957837854 0.22923654028527596 -0.4177013957837854
977.2372209558108 0.21737746401062447 -0.4098143139510308 0.7826225359893755 0.4098143139510308 0.7826225359893755 0.4098143139510308 0.21737746401062447 -0.4098143139510308
1011.5794542598987 0.2059696554214115 -0.4017545517808263 0.7940303445785886 0.4017545517808263 0.7940303445785886 0.4017545517808263 0.2059696554214115 -0.4017545517808263
1047.1285480508998 0.1950130375572973 -0.39355047056979753 0.8049869624427028 0.39355047056979753 0.8049869624427028 0.39355047056979753 0.1950130375572973 -0.39355047056979753
1083.9269140212034 0.18450551142900448 -0.38522941206184724 0.8154944885709956 0.38522941206184724 0.8154944885709956 0.38522941206184724 0.18450551142900448 -0.38522941206184724
1122.0184543019632 0.17444313149822208 -0.37681756772402325 0.825556868501778 0.37681756772402325 0.825556868501778 0.37681756772402325 0.17444313149822208 -0.37681756772402325
1161.4486138403427 0.16482028510105012 -0.36833987311238225 0.83517971489895 0.36833987311238225 0.83517971489895 0.36833987311238225 0.16482028510105012 -0.36833987311238225
1202.2644346174127 0.1556298726249811 -0.35981992615847763 0.8443701273750189 0.35981992615847763 0.8443701273750189 0.35981992615847763 0.1556298726249811 -0.35981992615847763
1244.514611771385 0.14686348564607155 -0.35127992787760337 0.8531365143539283 0.35127992787760337 0.8531365143539283 0.35127992787760337 0.14686348564607155 -0.35127992787760337
1288.249551693134 0.13851158064241606 -0.3427406437569432 0.8614884193575839 0.3427406437569432 0.8614884193575839 0.3427406437569432 0.13851158064241606 -0.3427406437569432
1333.5214321633239 0.1305636463073216 -0.3342213839186898 0.8694363536926786 0.3342213839186898 0.8694363536926786 0.3342213839186898 0.1305636463073216 -0.3342213839186898
1380.384264602885 0.12300836287855109 -0.32574000006153103 0.876991637121449 0.32574000006153103 0.876991637121449 0.32574000006153103 0.12300836287855109 -0.32574000006153103
1428.893958511103 0.11583375226929563 -0.31731289715411504 0.8841662477307045 0.31731289715411504 0.8841662477307045 0.31731289715411504 0.11583375226929563 -0.31731289715411504
1479.1083881682075 0.10902731812546305 -0.3089550578762564 0.8909726818745368 0.3089550578762564 0.8909726818745368 0.3089550578762564 0.10902731812546305 -0.3089550578762564
1531.0874616820304 0.10257617523810197 -0.30068007786786083 0.8974238247618982 0.30068007786786083 0.8974238247618982 0.30068007786786083 0.10257617523810197 -0.30068007786786083
1584.8931924611136 0.09646716800703517 -0.29250020994243137 0.9035328319929649 0.29250020994243137 0.9035328319929649 0.29250020994243137 0.09646716800703517 -0.29250020994243137
1640.5897731995396 0.09068697788149528 -0.28442641554298315 0.9093130221185047 0.28442641554298315 0.9093130221185047 0.28442641554298315 0.09068697788149528 -0.28442641554298315
1698.2436524617442 0.08522221989651382 -0.2764684218555614 0.9147777801034864 0.2764684218555614 0.9147777801034864 0.2764684218555614 0.08522221989651382 -0.2764684218555614
1757.9236139586924 0.08005952858180848 -0.2686347831426827 0.9199404714181912 0.2686347831426827 0.9199404714181912 0.2686347831426827 0.08005952858180848 -0.2686347831426827
1819.7008586099835 0.07518563364548374 -0.2609329450103566 0.9248143663545164 0.2609329450103566 0.9248143663545164 0.2609329450103566 0.07518563364548374 -0.2609329450103566
1883.6490894898002 0.07058742593098123 -0.2533693104732918 0.9294125740690187 0.2533693104732918 0.9294125740690187 0.2533693104732918 0.07058742593098123 -0.2533693104732918
1949.8445997580454 0.06625201421566088 -0.245949306829909 0.9337479857843393 0.245949306829909 0.9337479857843393 0.245949306829909 0.06625201421566088 -0.245949306829909
2018.3663636815609 0.062166773466472994 -0.23867745249907246 0.937833226533527 0.23867745249907246 0.937833226533527 0.23867745249907246 0.062166773466472994 -0.23867745249907246
2089.29613085404 0.05831938519569455 -0.2315574231020998 0.9416806148043055 0.2315574231020998 0.9416806148043055 0.2315574231020998 0.05831938519569455 -0.2315574231020998
2162.7185237270205 0.05469787057077928 -0.22459211619524383 0.9453021294292207 0.22459211619524383 0.9453021294292207 0.22459211619524383 0.05469787057077928 -0.22459211619524383
2238.7211385683395 0.05129061692994076 -0.2177837141687206 0.9487093830700591 0.2177837141687206 0.9487093830700591 0.2177837141687206 0.05129061692994076 -0.2177837141687206
2317.394649968479 0.0480863983418163 -0.2111337449281355 0.9519136016581834 0.2111337449281355 0.9519136016581834 0.2111337449281355 0.0480863983418163 -0.2111337449281355
2398.832919019491 0.04507439082584353 -0.20464314006287618 0.9549256091741564 0.20464314006287618 0.9549256091741564 0.20464314006287618 0.04507439082584353 -0.20464314006287618
2483.1331052955707 0.04224418282191275 -0.19831229028398434 0.9577558171780874 0.19831229028398434 0.9577558171780874 0.19831229028398434 0.04224418282191275 -0.19831229028398434
2570.3957827688632 0.03958578146527303 -0.19214109798172274 0.9604142185347271 0.19214109798172274 0.9604142185347271 0.19214109798172274 0.03958578146527303 -0.19214109798172274
2660.725059798809 0.03708961518709797 -0.18612902681114496 0.962910384812902 0.18612902681114496 0.962910384812902 0.18612902681114496 0.03708961518709797 -0.18612902681114496
2754.2287033381663 0.0347465331238635 -0.180275148263229 0.9652534668761364 0.180275148263229 0.9652534668761364 0.180275148263229 0.0347465331238635 -0.180275148263229
2851.018267503909 0.03254780178080319 -0.1745781852203393 0.9674521982191967 0.1745781852203393 0.9674521982191967 0.1745781852203393 0.03254780178080319 -0.1745781852203393
2951.209226666386 0.03048509935703703 -0.16903655252877034 0.9695149006429629 0.16903655252877034 0.9695149006429629 0.16903655252877034 0.03048509935703703 -0.16903655252877034
3054.9211132155133 0.02855050810316649 -0.16364839464870717 0.9714494918968334 0.16364839464870717 0.9714494918968334 0.16364839464870717 0.02855050810316649 -0.16364839464870717
3162.277660168379 0.026736505046688893 -0.1584116204639126 0.9732634949533111 0.1584116204639126 0.9732634949533111 0.1584116204639126 0.026736505046688893 -0.1584116204639126
3273.406948788382 0.025035951386849473 -0.15332393535055205 0.9749640486131504 0.15332393535055205 0.9749640486131504 0.15332393535055205 0.025035951386849473 -0.15332393535055205
3388.4415613920255 0.023442080828753962 -0.1483828706174997 0.9765579191712461 0.1483828706174997 0.9765579191712461 0.1483828706174997 0.023442080828753962 -0.1483828706174997
3507.5187395256803 0.021948487096831892 -0.14358581043984395 0.9780515129031682 0.14358581043984395 0.9780515129031682 0.14358581043984395 0.021948487096831892 -0.14358581043984395
3630.7805477010143 0.02054911084012834 -0.13893001641370675 0.9794508891598717 0.13893001641370675 0.9794508891598717 0.13893001641370675 0.02054911084012834 -0.13893001641370675
3758.374042884442 0.019238226116394058 -0.13441264986438664 0.9807617738836061 0.13441264986438664 0.9807617738836061 0.13441264986438664 0.019238226116394058 -0.13441264986438664
3890.451449942807 0.01801042661848934 -0.13003079204166798 0.9819895733815107 0.13003079204166798 0.9819895733815107 0.13003079204166798 0.01801042661848934 -0.13003079204166798
4027.170343254592 0.01686061178513157 -0.12578146233626955 0.9831393882148683 0.12578146233626955 0.9831393882148683 0.12578146233626955 0.01686061178513157 -0.12578146233626955
4168.693834703356 0.015783972918394295 -0.12166163465014221 0.9842160270816058 0.12166163465014221 0.9842160270816058 0.12166163465014221 0.015783972918394295 -0.12166163465014221
4315.190768277653 0.014775979412497958 -0.1176682520509239 0.985224020587502 0.1176682520509239 0.985224020587502 0.1176682520509239 0.014775979412497958 -0.1176682520509239
