!Murata Part Number: RCER71E475K2K1H03B
!These Parameters are Measured in Series Mode Connection
!       o--ll--o
!Port1            Port2
!       o------o
!Operation Temp=25[degC], DC Bias Voltage=0[V]
!Freq. Start=100[Hz] Stop=100[MHz], 401[Steps]
!Data Generated on Feb 18, 2020
# Hz S RI R 50
!Freq.(Hz) S11(Real) S11(Imag) S21(Real) S21(Imag) S12(Real) S12(Imag) S22(Real) S22(Imag)
100.0 0.9241622514674115 -0.2631527699824536 0.07583774853258848 0.2631527699824536 0.07583774853258848 0.2631527699824536 0.9241622514674115 -0.2631527699824536
103.51421666793439 0.9192133175391635 -0.2709150150467185 0.08078668246083658 0.2709150150467185 0.08078668246083658 0.2709150150467185 0.9192133175391635 -0.2709150150467185
107.15193052376064 0.9139705185129985 -0.2788083054655467 0.08602948148700143 0.2788083054655467 0.08602948148700143 0.2788083054655467 0.9139705185129985 -0.2788083054655467
110.9174815262401 0.9084203728016973 -0.286824838182852 0.09157962719830266 0.286824838182852 0.09157962719830266 0.286824838182852 0.9084203728016973 -0.286824838182852
114.81536214968828 0.9025493187781399 -0.2949556605208837 0.09745068122186004 0.2949556605208837 0.09745068122186004 0.2949556605208837 0.9025493187781399 -0.2949556605208837
118.85022274370185 0.8963437958635002 -0.30319060443347534 0.10365620413649983 0.30319060443347534 0.10365620413649983 0.30319060443347534 0.8963437958635002 -0.30319060443347534
123.02687708123815 0.889790336470426 -0.3115182242599044 0.11020966352957391 0.3115182242599044 0.11020966352957391 0.3115182242599044 0.889790336470426 -0.3115182242599044
127.35030810166617 0.8828756691745432 -0.3199257394081684 0.11712433082545674 0.3199257394081684 0.11712433082545674 0.3199257394081684 0.8828756691745432 -0.3199257394081684
131.8256738556407 0.8755868333354759 -0.32839898355606195 0.12441316666452408 0.32839898355606195 0.12441316666452408 0.32839898355606195 0.8755868333354759 -0.32839898355606195
136.45831365889245 0.8679113051998827 -0.33692236210963056 0.1320886948001173 0.33692236210963056 0.1320886948001173 0.33692236210963056 0.8679113051998827 -0.33692236210963056
141.25375446227542 0.8598371352916834 -0.3454788197945122 0.14016286470831665 0.3454788197945122 0.14016286470831665 0.3454788197945122 0.8598371352916834 -0.3454788197945122
146.21771744567184 0.8513530966277064 -0.3540498203684253 0.14864690337229358 0.3540498203684253 0.14864690337229358 0.3540498203684253 0.8513530966277064 -0.3540498203684253
151.35612484362082 0.8424488429908323 -0.3626153405236934 0.1575511570091677 0.3626153405236934 0.1575511570091677 0.3626153405236934 0.8424488429908323 -0.3626153405236934
156.6751070108149 0.8331150761494917 -0.37115388008751915 0.16688492385050838 0.37115388008751915 0.16688492385050838 0.37115388008751915 0.8331150761494917 -0.37115388008751915
162.181009735893 0.8233437205363873 -0.3796424906145296 0.17665627946361256 0.3796424906145296 0.17665627946361256 0.3796424906145296 0.8233437205363873 -0.3796424906145296
167.88040181225603 0.8131281034972269 -0.3880568243906394 0.18687189650277317 0.3880568243906394 0.18687189650277317 0.3880568243906394 0.8131281034972269 -0.3880568243906394
173.78008287493756 0.8024631388014489 -0.39637120571967943 0.19753686119855116 0.39637120571967943 0.19753686119855116 0.39637120571967943 0.8024631388014489 -0.39637120571967943
179.88709151287878 0.7913455106836114 -0.4045587261357857 0.20865448931638855 0.4045587261357857 0.20865448931638855 0.4045587261357857 0.7913455106836114 -0.4045587261357857
186.20871366628674 0.779773855271283 -0.4125913648683032 0.22022614472871702 0.4125913648683032 0.22022614472871702 0.4125913648683032 0.779773855271283 -0.4125913648683032
192.7524913190936 0.7677489358706667 -0.420440135477673 0.2322510641293333 0.420440135477673 0.2322510641293333 0.420440135477673 0.7677489358706667 -0.420440135477673
199.526231496888 0.7552738082446712 -0.42807525907966293 0.24472619175532884 0.42807525907966293 0.24472619175532884 0.42807525907966293 0.7552738082446712 -0.42807525907966293
206.53801558105292 0.7423539717513004 -0.4354663639848441 0.25764602824869975 0.4354663639848441 0.25764602824869975 0.4354663639848441 0.7423539717513004 -0.4354663639848441
213.79620895022322 0.7289975020352417 -0.44258271090895146 0.2710024979647584 0.44258271090895146 0.2710024979647584 0.44258271090895146 0.7289975020352417 -0.44258271090895146
221.30947096056377 0.7152151609041354 -0.4493934421716574 0.28478483909586466 0.4493934421716574 0.28478483909586466 0.4493934421716574 0.7152151609041354 -0.4493934421716574
229.08676527677733 0.7010204790930151 -0.4558678525161185 0.298979520906985 0.4558678525161185 0.298979520906985 0.4558678525161185 0.7010204790930151 -0.4558678525161185
237.13737056616552 0.6864298078422809 -0.4619756783747488 0.31357019215771903 0.4619756783747488 0.31357019215771903 0.4619756783747488 0.6864298078422809 -0.4619756783747488
245.47089156850305 0.6714623355976321 -0.46768740160849415 0.32853766440236787 0.46768740160849415 0.32853766440236787 0.46768740160849415 0.6714623355976321 -0.46768740160849415
254.09727055493053 0.6561400666895325 -0.4729745629918453 0.3438599333104674 0.4729745629918453 0.3438599333104674 0.4729745629918453 0.6561400666895325 -0.4729745629918453
263.0267991895382 0.640487759561879 -0.4778100800409741 0.359512240438121 0.4778100800409741 0.359512240438121 0.4778100800409741 0.640487759561879 -0.4778100800409741
272.27013080779125 0.6245328229827396 -0.482168563225257 0.3754671770172605 0.482168563225257 0.3754671770172605 0.482168563225257 0.6245328229827396 -0.482168563225257
281.83829312644536 0.6083051696630446 -0.4860266241990239 0.3916948303369553 0.4860266241990239 0.3916948303369553 0.4860266241990239 0.6083051696630446 -0.4860266241990239
291.7427014001167 0.5918370278016315 -0.4893631694723726 0.40816297219836856 0.4893631694723726 0.40816297219836856 0.4893631694723726 0.5918370278016315 -0.4893631694723726
301.9951720402016 0.5751627122284547 -0.4921596729324617 0.4248372877715453 0.4921596729324617 0.4248372877715453 0.4921596729324617 0.5751627122284547 -0.4921596729324617
312.6079367123955 0.5583183579868286 -0.4944004208460557 0.4416816420131713 0.4944004208460557 0.4416816420131713 0.4944004208460557 0.5583183579868286 -0.4944004208460557
323.59365692962825 0.5413416203306914 -0.49607272342567266 0.4586583796693085 0.49607272342567266 0.4586583796693085 0.49607272342567266 0.5413416203306914 -0.49607272342567266
334.96543915782763 0.5242713461629049 -0.4971670877189747 0.4757286538370952 0.4971670877189747 0.4757286538370952 0.4971670877189747 0.5242713461629049 -0.4971670877189747
346.7368504525316 0.5071472228560464 -0.4976773474651422 0.4928527771439535 0.4976773474651422 0.4928527771439535 0.4976773474651422 0.5071472228560464 -0.4976773474651422
358.9219346450052 0.4900094111333431 -0.4976007466221442 0.5099905888666568 0.4976007466221442 0.5099905888666568 0.4976007466221442 0.4900094111333431 -0.4976007466221442
371.53522909717253 0.4728981692076736 -0.496937974463888 0.5271018307923264 0.496937974463888 0.5271018307923264 0.496937974463888 0.4728981692076736 -0.496937974463888
384.59178204535357 0.4558534756547475 -0.4956931514269074 0.5441465243452527 0.4956931514269074 0.5441465243452527 0.4956931514269074 0.4558534756547475 -0.4956931514269074
398.10717055349727 0.43891465851894984 -0.49387376619802265 0.5610853414810503 0.49387376619802265 0.5610853414810503 0.49387376619802265 0.43891465851894984 -0.49387376619802265
412.0975190973302 0.4221200379165496 -0.4914905658210333 0.5778799620834505 0.4914905658210333 0.5778799620834505 0.4914905658210333 0.4221200379165496 -0.4914905658210333
426.5795188015926 0.4055065889240919 -0.4885574018074592 0.5944934110759081 0.4885574018074592 0.5944934110759081 0.4885574018074592 0.4055065889240919 -0.4885574018074592
441.57044735331243 0.3891096308452478 -0.4850910363142733 0.6108903691547521 0.4850910363142733 0.6108903691547521 0.4850910363142733 0.3891096308452478 -0.4850910363142733
457.0881896148751 0.3729625480731013 -0.48111091335918493 0.6270374519268987 0.48111091335918493 0.6270374519268987 0.48111091335918493 0.3729625480731013 -0.48111091335918493
473.15125896148055 0.35709654675063385 -0.47663890075037446 0.6429034532493662 0.47663890075037446 0.6429034532493662 0.47663890075037446 0.35709654675063385 -0.47663890075037446
489.77881936844625 0.3415404503286479 -0.47169900889341476 0.6584595496713519 0.47169900889341476 0.6584595496713519 0.47169900889341476 0.3415404503286479 -0.47169900889341476
506.9907082747043 0.3263205359778446 -0.46631709289641343 0.6736794640221553 0.46631709289641343 0.6736794640221553 0.46631709289641343 0.3263205359778446 -0.46631709289641343
524.8074602497726 0.3114604126789092 -0.460520544429888 0.6885395873210908 0.460520544429888 0.6885395873210908 0.460520544429888 0.3114604126789092 -0.460520544429888
543.2503314924331 0.2969809407358228 -0.4543379796258879 0.7030190592641771 0.4543379796258879 0.7030190592641771 0.4543379796258879 0.2969809407358228 -0.4543379796258879
562.3413251903492 0.28290019147108936 -0.4477989289453683 0.7170998085289108 0.4477989289453683 0.7170998085289108 0.4477989289453683 0.28290019147108936 -0.4477989289453683
582.1032177708714 0.2692334449971291 -0.4409335344343236 0.7307665550028709 0.4409335344343236 0.7307665550028709 0.4409335344343236 0.2692334449971291 -0.4409335344343236
602.5595860743578 0.25599322323679763 -0.4337722591622004 0.7440067767632024 0.4337722591622004 0.7440067767632024 0.4337722591622004 0.25599322323679763 -0.4337722591622004
623.7348354824193 0.24318935479987144 -0.426345612926749 0.7568106452001285 0.426345612926749 0.7568106452001285 0.426345612926749 0.24318935479987144 -0.426345612926749
645.6542290346556 0.23082906791495764 -0.41868389755329655 0.7691709320850424 0.41868389755329655 0.7691709320850424 0.41868389755329655 0.23082906791495764 -0.41868389755329655
668.3439175686148 0.21891710736356268 -0.41081697434653786 0.7810828926364374 0.41081697434653786 0.7810828926364374 0.41081697434653786 0.21891710736356268 -0.41081697434653786
691.8309709189366 0.20745587125469492 -0.40277405549859185 0.7925441287453051 0.40277405549859185 0.7925441287453051 0.40277405549859185 0.20745587125469492 -0.40277405549859185
716.1434102129019 0.1964455634992566 -0.3945835205427153 0.8035544365007433 0.3945835205427153 0.8035544365007433 0.3945835205427153 0.1964455634992566 -0.3945835205427153
741.3102413009174 0.18588435797525965 -0.38627275828683044 0.8141156420247404 0.38627275828683044 0.8141156420247404 0.38627275828683044 0.18588435797525965 -0.38627275828683044
767.3614893618189 0.17576857059742693 -0.37786803407867414 0.824231429402573 0.37786803407867414 0.824231429402573 0.37786803407867414 0.17576857059742693 -0.37786803407867414
794.3282347242814 0.16609283579736267 -0.3693943817534634 0.8339071642026374 0.3693943817534634 0.8339071642026374 0.3693943817534634 0.16609283579736267 -0.3693943817534634
822.2426499470711 0.1568502842631681 -0.36087551919946553 0.843149715736832 0.36087551919946553 0.843149715736832 0.36087551919946553 0.1568502842631681 -0.36087551919946553
851.1380382023765 0.14803271916153132 -0.3523337861466835 0.8519672808384687 0.3523337861466835 0.8519672808384687 0.3523337861466835 0.14803271916153132 -0.3523337861466835
881.0488730080142 0.13963078845432458 -0.34379010253569686 0.8603692115456754 0.34379010253569686 0.8603692115456754 0.34379010253569686 0.13963078845432458 -0.34379010253569686
912.0108393559099 0.13163415131144812 -0.335263945651815 0.868365848688552 0.335263945651815 0.868365848688552 0.335263945651815 0.13163415131144812 -0.335263945651815
944.0608762859234 0.12403163700035963 -0.3267733441065416 0.8759683629996403 0.3267733441065416 0.8759683629996403 0.3267733441065416 0.12403163700035963 -0.3267733441065416
977.2372209558108 0.11681139499134356 -0.31833488670541416 0.8831886050086565 0.31833488670541416 0.8831886050086565 0.31833488670541416 0.11681139499134356 -0.31833488670541416
1011.5794542598987 0.10996103534935796 -0.30996374424948164 0.8900389646506419 0.30996374424948164 0.8900389646506419 0.30996374424948164 0.10996103534935796 -0.30996374424948164
1047.1285480508998 0.10346775878371393 -0.30167370236797225 0.896532241216286 0.30167370236797225 0.896532241216286 0.30167370236797225 0.10346775878371393 -0.30167370236797225
1083.9269140212034 0.09731847599327069 -0.29347720356338064 0.9026815240067293 0.29347720356338064 0.9026815240067293 0.29347720356338064 0.09731847599327069 -0.29347720356338064
1122.0184543019632 0.0914999161762033 -0.2853853967591268 0.9085000838237969 0.2853853967591268 0.9085000838237969 0.2853853967591268 0.0914999161762033 -0.2853853967591268
1161.4486138403427 0.08599872477003505 -0.27740819276684553 0.914001275229965 0.27740819276684553 0.914001275229965 0.27740819276684553 0.08599872477003505 -0.27740819276684553
1202.2644346174127 0.08080155065075478 -0.2695543242287796 0.9191984493492452 0.2695543242287796 0.9191984493492452 0.2695543242287796 0.08080155065075478 -0.2695543242287796
1244.514611771385 0.07589512315153535 -0.2618314087352019 0.9241048768484648 0.2618314087352019 0.9241048768484648 0.2618314087352019 0.07589512315153535 -0.2618314087352019
1288.249551693134 0.07126631936435199 -0.25424601396269525 0.9287336806356481 0.25424601396269525 0.9287336806356481 0.25424601396269525 0.07126631936435199 -0.25424601396269525
1333.5214321633239 0.06690222226453765 -0.2468037238227451 0.9330977777354624 0.2468037238227451 0.9330977777354624 0.2468037238227451 0.06690222226453765 -0.2468037238227451
1380.384264602885 0.06279017025202657 -0.23950920474857482 0.9372098297479735 0.23950920474857482 0.9372098297479735 0.23950920474857482 0.06279017025202657 -0.23950920474857482
1428.893958511103 0.058917798736758634 -0.23236627137928495 0.9410822012632414 0.23236627137928495 0.9410822012632414 0.23236627137928495 0.058917798736758634 -0.23236627137928495
1479.1083881682075 0.05527307441239864 -0.22537795102259559 0.9447269255876014 0.22537795102259559 0.9447269255876014 0.22537795102259559 0.05527307441239864 -0.22537795102259559
1531.0874616820304 0.05184432286498127 -0.21854654638986235 0.9481556771350188 0.21854654638986235 0.9481556771350188 0.21854654638986235 0.05184432286498127 -0.21854654638986235
1584.8931924611136 0.048620250153908334 -0.2118736961989673 0.9513797498460917 0.2118736961989673 0.9513797498460917 0.2118736961989673 0.048620250153908334 -0.2118736961989673
1640.5897731995396 0.045589958984273996 -0.20536043333202406 0.9544100410157261 0.20536043333202406 0.9544100410157261 0.20536043333202406 0.045589958984273996 -0.20536043333202406
1698.2436524617442 0.04274296006387566 -0.19900724031568845 0.9572570399361242 0.19900724031568845 0.9572570399361242 0.19900724031568845 0.04274296006387566 -0.19900724031568845
1757.9236139586924 0.04006917920734237 -0.19281410196258814 0.9599308207926575 0.19281410196258814 0.9599308207926575 0.19281410196258814 0.04006917920734237 -0.19281410196258814
1819.7008586099835 0.037558960715172895 -0.18678055507348248 0.9624410392848272 0.18678055507348248 0.9624410392848272 0.18678055507348248 0.037558960715172895 -0.18678055507348248
1883.6490894898002 0.035203067518483164 -0.18090573515186406 0.9647969324815168 0.18090573515186406 0.9647969324815168 0.18090573515186406 0.035203067518483164 -0.18090573515186406
1949.8445997580454 0.032992678542060276 -0.17518842012653169 0.9670073214579398 0.17518842012653169 0.9670073214579398 0.17518842012653169 0.032992678542060276 -0.17518842012653169
2018.3663636815609 0.030919383699830237 -0.16962707111391837 0.9690806163001697 0.16962707111391837 0.9690806163001697 0.16962707111391837 0.030919383699830237 -0.16962707111391837
2089.29613085404 0.028975176898831966 -0.16421987028142426 0.971024823101168 0.16421987028142426 0.971024823101168 0.16421987028142426 0.028975176898831966 -0.16421987028142426
2162.7185237270205 0.027152447390833893 -0.15896475589640463 0.9728475526091661 0.15896475589640463 0.9728475526091661 0.15896475589640463 0.027152447390833893 -0.15896475589640463
2238.7211385683395 0.025443969775287376 -0.1538594546635279 0.9745560302247126 0.1538594546635279 0.9745560302247126 0.1538594546635279 0.025443969775287376 -0.1538594546635279
2317.394649968479 0.02384289292371621 -0.14890151146662273 0.9761571070762839 0.14890151146662273 0.9761571070762839 0.14890151146662273 0.02384289292371621 -0.14890151146662273
2398.832919019491 0.022342728064122616 -0.14408831664050958 0.9776572719358773 0.14408831664050958 0.9776572719358773 0.14408831664050958 0.022342728064122616 -0.14408831664050958
2483.1331052955707 0.020937336234701225 -0.1394171309042578 0.9790626637652987 0.1394171309042578 0.9790626637652987 0.1394171309042578 0.020937336234701225 -0.1394171309042578
2570.3957827688632 0.019620915289169247 -0.13488510809035398 0.9803790847108306 0.13488510809035398 0.9803790847108306 0.13488510809035398 0.019620915289169247 -0.13488510809035398
2660.725059798809 0.018387986611369124 -0.13048931580490397 0.9816120133886309 0.13048931580490397 0.9816120133886309 0.13048931580490397 0.018387986611369124 -0.13048931580490397
2754.2287033381663 0.017233381674459116 -0.1262267541526616 0.9827666183255408 0.1262267541526616 0.9827666183255408 0.1262267541526616 0.017233381674459116 -0.1262267541526616
2851.018267503909 0.01615222855991848 -0.12209437265777093 0.9838477714400814 0.12209437265777093 0.9838477714400814 0.12209437265777093 0.01615222855991848 -0.12209437265777093
2951.209226666386 0.015139938533673177 -0.11808908550698034 0.9848600614663269 0.11808908550698034 0.9848600614663269 0.11808908550698034 0.015139938533673177 -0.11808908550698034
3054.9211132155133 0.01419219276078823 -0.11420778523704989 0.9858078072392117 0.11420778523704989 0.9858078072392117 0.11420778523704989 0.01419219276078823 -0.11420778523704989
3162.277660168379 0.013304929226245054 -0.11044735498238432 0.986695070773755 0.11044735498238432 0.986695070773755 0.11044735498238432 0.013304929226245054 -0.11044735498238432
3273.406948788382 0.012474329917193194 -0.10680467939284219 0.9875256700828067 0.10680467939284219 0.9875256700828067 0.10680467939284219 0.012474329917193194 -0.10680467939284219
3388.4415613920255 0.011696808311581427 -0.10327665432537134 0.9883031916884186 0.10327665432537134 0.9883031916884186 0.10327665432537134 0.011696808311581427 -0.10327665432537134
3507.5187395256803 0.010968997209083783 -0.09986019540679841 0.9890310027909162 0.09986019540679841 0.9890310027909162 0.09986019540679841 0.010968997209083783 -0.09986019540679841
3630.7805477010143 0.010287736932577856 -0.09655224555886834 0.9897122630674221 0.09655224555886834 0.9897122630674221 0.09655224555886834 0.010287736932577856 -0.09655224555886834
3758.374042884442 0.009650063921950475 -0.09334978157061818 0.9903499360780494 0.09334978157061818 0.9903499360780494 0.09334978157061818 0.009650063921950475 -0.09334978157061818
3890.451449942807 0.009053199736539777 -0.09024981979744523 0.99094680026346 0.09024981979744523 0.99094680026346 0.09024981979744523 0.009053199736539777 -0.09024981979744523
4027.170343254592 0.008494540477922786 -0.08724942106085296 0.9915054595220774 0.08724942106085296 0.9915054595220774 0.08724942106085296 0.008494540477922786 -0.08724942106085296
4168.693834703356 0.007971646640880575 -0.08434569481785886 0.9920283533591197 0.08434569481785886 0.9920283533591197 0.08434569481785886 0.007971646640880575 -0.08434569481785886
4315.190768277653 0.007482233397087112 -0.08153580266443163 0.9925177666029129 0.08153580266443163 0.9925177666029129 0.08153580266443163 0.007482233397087112 -0.08153580266443163
