!Murata Part Number: RCER71H475K3A2H03B
!These Parameters are Measured in Series Mode Connection
!       o--ll--o
!Port1            Port2
!       o------o
!Operation Temp=25[degC], DC Bias Voltage=0[V]
!Freq. Start=100[Hz] Stop=100[MHz], 401[Steps]
!Data Generated on Feb 18, 2020
# Hz S RI R 50
!Freq.(Hz) S11(Real) S11(Imag) S21(Real) S21(Imag) S12(Real) S12(Imag) S22(Real) S22(Imag)
100.0 0.921365012735102 -0.2663415289374773 0.0786349872648981 0.2663415289374773 0.0786349872648981 0.2663415289374773 0.921365012735102 -0.2663415289374773
103.51421666793439 0.9162813131025146 -0.2741345006045852 0.08371868689748542 0.2741345006045852 0.08371868689748542 0.2741345006045852 0.9162813131025146 -0.2741345006045852
107.15193052376064 0.9108986008054402 -0.28205356240007134 0.08910139919455991 0.28205356240007134 0.08910139919455991 0.28205356240007134 0.9108986008054402 -0.28205356240007134
110.9174815262401 0.9052035119965314 -0.29009034613540313 0.09479648800346868 0.29009034613540313 0.09479648800346868 0.29009034613540313 0.9052035119965314 -0.29009034613540313
114.81536214968828 0.8991826558423832 -0.29823531630824524 0.1008173441576169 0.29823531630824524 0.1008173441576169 0.29823531630824524 0.8991826558423832 -0.29823531630824524
118.85022274370185 0.8928227003112226 -0.30647770871812935 0.10717729968877733 0.30647770871812935 0.10717729968877733 0.30647770871812935 0.8928227003112226 -0.30647770871812935
123.02687708123815 0.8861104686229462 -0.3148054734213396 0.11388953137705388 0.3148054734213396 0.11388953137705388 0.3148054734213396 0.8861104686229462 -0.3148054734213396
127.35030810166617 0.8790330466050581 -0.32320522349465064 0.120966953394942 0.32320522349465064 0.120966953394942 0.32320522349465064 0.8790330466050581 -0.32320522349465064
131.8256738556407 0.8715779010276945 -0.33166219121992946 0.12842209897230558 0.33166219121992946 0.12842209897230558 0.33166219121992946 0.8715779010276945 -0.33166219121992946
136.45831365889245 0.8637330087854252 -0.3401601934305907 0.1362669912145747 0.3401601934305907 0.1362669912145747 0.3401601934305907 0.8637330087854252 -0.3401601934305907
141.25375446227542 0.8554869965520024 -0.3486816078694574 0.14451300344799745 0.3486816078694574 0.14451300344799745 0.3486816078694574 0.8554869965520024 -0.3486816078694574
146.21771744567184 0.8468292902569824 -0.3572073624877905 0.15317070974301755 0.3572073624877905 0.15317070974301755 0.3572073624877905 0.8468292902569824 -0.3572073624877905
151.35612484362082 0.837750273422067 -0.3657169396585111 0.1622497265779329 0.3657169396585111 0.1622497265779329 0.3657169396585111 0.837750273422067 -0.3657169396585111
156.6751070108149 0.8282414530537375 -0.3741883972739823 0.1717585469462624 0.3741883972739823 0.1717585469462624 0.3741883972739823 0.8282414530537375 -0.3741883972739823
162.181009735893 0.8182956314231222 -0.3825984086410065 0.18170436857687775 0.3825984086410065 0.18170436857687775 0.3825984086410065 0.8182956314231222 -0.3825984086410065
167.88040181225603 0.8079070816820954 -0.3909223229642935 0.1920929183179047 0.3909223229642935 0.1920929183179047 0.3909223229642935 0.8079070816820954 -0.3909223229642935
173.78008287493756 0.7970717248768795 -0.3991342480167654 0.20292827512312048 0.3991342480167654 0.20292827512312048 0.3991342480167654 0.7970717248768795 -0.3991342480167654
179.88709151287878 0.7857873055398459 -0.4072071563244897 0.21421269446015395 0.4072071563244897 0.21421269446015395 0.4072071563244897 0.7857873055398459 -0.4072071563244897
186.20871366628674 0.7740535626819505 -0.4151130158417979 0.22594643731804953 0.4151130158417979 0.22594643731804953 0.4151130158417979 0.7740535626819505 -0.4151130158417979
192.7524913190936 0.7618723926894649 -0.422822945657163 0.238127607310535 0.422822945657163 0.238127607310535 0.422822945657163 0.7618723926894649 -0.422822945657163
199.526231496888 0.7492480003678049 -0.4303073967552585 0.25075199963219524 0.4303073967552585 0.25075199963219524 0.4303073967552585 0.7492480003678049 -0.4303073967552585
206.53801558105292 0.736187034191507 -0.43753635727191104 0.26381296580849295 0.43753635727191104 0.26381296580849295 0.43753635727191104 0.736187034191507 -0.43753635727191104
213.79620895022322 0.7226987017315458 -0.4444795810277204 0.27730129826845407 0.4444795810277204 0.27730129826845407 0.4444795810277204 0.7226987017315458 -0.4444795810277204
221.30947096056377 0.7087948612565825 -0.4511068374289273 0.29120513874341725 0.4511068374289273 0.29120513874341725 0.4511068374289273 0.7087948612565825 -0.4511068374289273
229.08676527677733 0.6944900856581215 -0.4573881801014166 0.30550991434187846 0.4573881801014166 0.30550991434187846 0.4573881801014166 0.6944900856581215 -0.4573881801014166
237.13737056616552 0.6798016951416458 -0.4632942309004904 0.32019830485835415 0.4632942309004904 0.32019830485835415 0.4632942309004904 0.6798016951416458 -0.4632942309004904
245.47089156850305 0.6647497555621587 -0.4687964752437386 0.33525024443784146 0.4687964752437386 0.33525024443784146 0.4687964752437386 0.6647497555621587 -0.4687964752437386
254.09727055493053 0.649357039862506 -0.4738675640777254 0.350642960137494 0.4738675640777254 0.350642960137494 0.4738675640777254 0.649357039862506 -0.4738675640777254
263.0267991895382 0.6336489507885994 -0.4784816172430103 0.3663510492114006 0.4784816172430103 0.3663510492114006 0.4784816172430103 0.6336489507885994 -0.4784816172430103
272.27013080779125 0.6176534038919876 -0.4826145225769649 0.38234659610801225 0.4826145225769649 0.38234659610801225 0.4826145225769649 0.6176534038919876 -0.4826145225769649
281.83829312644536 0.6014006707644322 -0.48624422481797847 0.3985993292355679 0.48624422481797847 0.3985993292355679 0.48624422481797847 0.6014006707644322 -0.48624422481797847
291.7427014001167 0.5849231834516132 -0.489350998271233 0.4150768165483868 0.489350998271233 0.4150768165483868 0.489350998271233 0.5849231834516132 -0.489350998271233
301.9951720402016 0.5682553020284804 -0.49191769728206436 0.4317446979715196 0.49191769728206436 0.4317446979715196 0.49191769728206436 0.5682553020284804 -0.49191769728206436
312.6079367123955 0.5514330483473586 -0.4939299788467526 0.4485669516526414 0.4939299788467526 0.4485669516526414 0.4939299788467526 0.5514330483473586 -0.4939299788467526
323.59365692962825 0.5344938099499709 -0.49537649217200763 0.4655061900500292 0.49537649217200763 0.4655061900500292 0.49537649217200763 0.5344938099499709 -0.49537649217200763
334.96543915782763 0.5174760190242285 -0.49624903066335563 0.4825239809757715 0.49624903066335563 0.4825239809757715 0.49624903066335563 0.5174760190242285 -0.49624903066335563
346.7368504525316 0.5004188120467639 -0.4965426426594237 0.4995811879532363 0.4965426426594237 0.4995811879532363 0.4965426426594237 0.5004188120467639 -0.4965426426594237
358.9219346450052 0.48336167634841665 -0.4962556982052046 0.5166383236515832 0.4962556982052046 0.5166383236515832 0.4962556982052046 0.48336167634841665 -0.4962556982052046
371.53522909717253 0.46634409024489043 -0.49538991023674833 0.5336559097551097 0.49538991023674833 0.5336559097551097 0.49538991023674833 0.46634409024489043 -0.49538991023674833
384.59178204535357 0.4494051635700673 -0.4939503096907142 0.5505948364299328 0.4939503096907142 0.5505948364299328 0.4939503096907142 0.4494051635700673 -0.4939503096907142
398.10717055349727 0.43258328542632407 -0.49194517520993436 0.5674167145736758 0.49194517520993436 0.5674167145736758 0.49194517520993436 0.43258328542632407 -0.49194517520993436
412.0975190973302 0.4159157857264145 -0.4893859192448857 0.5840842142735854 0.4893859192448857 0.5840842142735854 0.4893859192448857 0.4159157857264145 -0.4893859192448857
426.5795188015926 0.39943861665710056 -0.48628693340692564 0.6005613833428997 0.48628693340692564 0.6005613833428997 0.48628693340692564 0.39943861665710056 -0.48628693340692564
441.57044735331243 0.38318605956712076 -0.48266539687268506 0.6168139404328792 0.48266539687268506 0.6168139404328792 0.48266539687268506 0.38318605956712076 -0.48266539687268506
457.0881896148751 0.367190462000695 -0.47854105243685185 0.6328095379993051 0.47854105243685185 0.6328095379993051 0.47854105243685185 0.367190462000695 -0.47854105243685185
473.15125896148055 0.3514820086980015 -0.47393595543734923 0.6485179913019985 0.47393595543734923 0.6485179913019985 0.47393595543734923 0.3514820086980015 -0.47393595543734923
489.77881936844625 0.33608852940534395 -0.46887420121623946 0.663911470594656 0.46887420121623946 0.663911470594656 0.46887420121623946 0.33608852940534395 -0.46887420121623946
506.9907082747043 0.32103534532091066 -0.46338163702452806 0.6789646546790894 0.46338163702452806 0.6789646546790894 0.46338163702452806 0.32103534532091066 -0.46338163702452806
524.8074602497726 0.3063451549873398 -0.45748556433159426 0.6936548450126604 0.45748556433159426 0.6936548450126604 0.45748556433159426 0.3063451549873398 -0.45748556433159426
543.2503314924331 0.2920379594671619 -0.45121443737086586 0.7079620405328382 0.45121443737086586 0.7079620405328382 0.45121443737086586 0.2920379594671619 -0.45121443737086586
562.3413251903492 0.2781310257343974 -0.44459756346043056 0.7218689742656026 0.44459756346043056 0.7218689742656026 0.44459756346043056 0.2781310257343974 -0.44459756346043056
582.1032177708714 0.2646388864122243 -0.43766481020414283 0.7353611135877759 0.43766481020414283 0.7353611135877759 0.43766481020414283 0.2646388864122243 -0.43766481020414283
602.5595860743578 0.25157337330287144 -0.43044632413296346 0.7484266266971286 0.43044632413296346 0.7484266266971286 0.43044632413296346 0.25157337330287144 -0.43044632413296346
623.7348354824193 0.23894368160505058 -0.4229722647175123 0.7610563183949495 0.4229722647175123 0.7610563183949495 0.4229722647175123 0.23894368160505058 -0.4229722647175123
645.6542290346556 0.22675646130244095 -0.4152725570012846 0.7732435386975589 0.4152725570012846 0.7732435386975589 0.4152725570012846 0.22675646130244095 -0.4152725570012846
668.3439175686148 0.21501593193377494 -0.4073766653987949 0.7849840680662249 0.4073766653987949 0.7849840680662249 0.4073766653987949 0.21501593193377494 -0.4073766653987949
691.8309709189366 0.20372401681489039 -0.39931339050073045 0.7962759831851097 0.39931339050073045 0.7962759831851097 0.39931339050073045 0.20372401681489039 -0.39931339050073045
716.1434102129019 0.19288049276509336 -0.39111069005237376 0.8071195072349067 0.39111069005237376 0.8071195072349067 0.39111069005237376 0.19288049276509336 -0.39111069005237376
741.3102413009174 0.18248315148003566 -0.3827955246413265 0.8175168485199644 0.3827955246413265 0.8175168485199644 0.3827955246413265 0.18248315148003566 -0.3827955246413265
767.3614893618189 0.1725279688744814 -0.3743937280608424 0.8274720311255187 0.3743937280608424 0.8274720311255187 0.3743937280608424 0.1725279688744814 -0.3743937280608424
794.3282347242814 0.16300927897290707 -0.3659299018162719 0.8369907210270929 0.3659299018162719 0.8369907210270929 0.3659299018162719 0.16300927897290707 -0.3659299018162719
822.2426499470711 0.15391994923576183 -0.3574273328204431 0.8460800507642381 0.3574273328204431 0.8460800507642381 0.3574273328204431 0.15391994923576183 -0.3574273328204431
851.1380382023765 0.14525155455687053 -0.34890793298156947 0.8547484454431293 0.34890793298156947 0.8547484454431293 0.34890793298156947 0.14525155455687053 -0.34890793298156947
881.0488730080142 0.13699454753669282 -0.34039219912349117 0.8630054524633073 0.34039219912349117 0.8630054524633073 0.34039219912349117 0.13699454753669282 -0.34039219912349117
912.0108393559099 0.12913842301252312 -0.3318991914889774 0.870861576987477 0.3318991914889774 0.870861576987477 0.3318991914889774 0.12913842301252312 -0.3318991914889774
944.0608762859234 0.12167187519790315 -0.3234465289566286 0.8783281248020967 0.3234465289566286 0.8783281248020967 0.3234465289566286 0.12167187519790315 -0.3234465289566286
977.2372209558108 0.11458294613945641 -0.3150503990432927 0.8854170538605434 0.3150503990432927 0.8854170538605434 0.3150503990432927 0.11458294613945641 -0.3150503990432927
1011.5794542598987 0.10785916453222964 -0.3067255807586519 0.8921408354677706 0.3067255807586519 0.8921408354677706 0.3067255807586519 0.10785916453222964 -0.3067255807586519
1047.1285480508998 0.10148767423880928 -0.29848547841815126 0.8985123257611909 0.29848547841815126 0.8985123257611909 0.29848547841815126 0.10148767423880928 -0.29848547841815126
1083.9269140212034 0.09545535212929863 -0.29034216459611906 0.9045446478707014 0.29034216459611906 0.9045446478707014 0.29034216459611906 0.09545535212929863 -0.29034216459611906
1122.0184543019632 0.08974891509678835 -0.28230643050459986 0.9102510849032116 0.28230643050459986 0.9102510849032116 0.28230643050459986 0.08974891509678835 -0.28230643050459986
1161.4486138403427 0.08435501630577197 -0.2743878422074439 0.915644983694228 0.2743878422074439 0.915644983694228 0.2743878422074439 0.08435501630577197 -0.2743878422074439
1202.2644346174127 0.0792603308998026 -0.2665948012167699 0.9207396691001973 0.2665948012167699 0.9207396691001973 0.2665948012167699 0.0792603308998026 -0.2665948012167699
1244.514611771385 0.07445163153122598 -0.25893460816408814 0.9255483684687741 0.25893460816408814 0.9255483684687741 0.25893460816408814 0.07445163153122598 -0.25893460816408814
1288.249551693134 0.06991585418240237 -0.2514135283861037 0.9300841458175977 0.2514135283861037 0.9300841458175977 0.2514135283861037 0.06991585418240237 -0.2514135283861037
1333.5214321633239 0.06564015482722241 -0.24403685841139072 0.9343598451727775 0.24403685841139072 0.9343598451727775 0.24403685841139072 0.06564015482722241 -0.24403685841139072
1380.384264602885 0.061611957536985895 -0.2368089924754662 0.9383880424630142 0.2368089924754662 0.9383880424630142 0.2368089924754662 0.061611957536985895 -0.2368089924754662
1428.893958511103 0.05781899466896569 -0.2297334883258251 0.9421810053310343 0.2297334883258251 0.9421810053310343 0.2297334883258251 0.05781899466896569 -0.2297334883258251
1479.1083881682075 0.054249339792331146 -0.22281313170343997 0.9457506602076687 0.22281313170343997 0.9457506602076687 0.22281313170343997 0.054249339792331146 -0.22281313170343997
1531.0874616820304 0.050891434007529976 -0.21604999900192504 0.94910856599247 0.21604999900192504 0.94910856599247 0.21604999900192504 0.050891434007529976 -0.21604999900192504
1584.8931924611136 0.04773410630449035 -0.20944551770934816 0.9522658936955096 0.20944551770934816 0.9522658936955096 0.20944551770934816 0.04773410630449035 -0.20944551770934816
1640.5897731995396 0.04476658858465649 -0.2030005243303343 0.9552334114153437 0.2030005243303343 0.9552334114153437 0.2030005243303343 0.04476658858465649 -0.2030005243303343
1698.2436524617442 0.04197852594416283 -0.19671531956772345 0.9580214740558372 0.19671531956772345 0.9580214740558372 0.19671531956772345 0.04197852594416283 -0.19671531956772345
1757.9236139586924 0.039359982782387636 -0.1905897206140067 0.9606400172176123 0.1905897206140067 0.9606400172176123 0.1905897206140067 0.039359982782387636 -0.1905897206140067
1819.7008586099835 0.036901445263422775 -0.18462311046360821 0.9630985547365772 0.18462311046360821 0.9630985547365772 0.18462311046360821 0.036901445263422775 -0.18462311046360821
1883.6490894898002 0.03459382061910676 -0.17881448420850102 0.9654061793808931 0.17881448420850102 0.9654061793808931 0.17881448420850102 0.03459382061910676 -0.17881448420850102
1949.8445997580454 0.03242843374241469 -0.17316249232241407 0.9675715662575852 0.17316249232241407 0.9675715662575852 0.17316249232241407 0.03242843374241469 -0.17316249232241407
2018.3663636815609 0.030397021480161643 -0.1676654809738109 0.9696029785198383 0.1676654809738109 0.9696029785198383 0.1676654809738109 0.030397021480161643 -0.1676654809738109
2089.29613085404 0.02849172499495802 -0.16232152943575523 0.9715082750050419 0.16232152943575523 0.9715082750050419 0.16232152943575523 0.02849172499495802 -0.16232152943575523
2162.7185237270205 0.02670508052875803 -0.15712848468251567 0.9732949194712419 0.15712848468251567 0.9732949194712419 0.15712848468251567 0.02670508052875803 -0.15712848468251567
2238.7211385683395 0.0250300088646329 -0.15208399327912725 0.9749699911353669 0.15208399327912725 0.9749699911353669 0.15208399327912725 0.0250300088646329 -0.15208399327912725
2317.394649968479 0.02345980374990015 -0.1471855306818605 0.9765401962500998 0.1471855306818605 0.9765401962500998 0.1471855306818605 0.02345980374990015 -0.1471855306818605
2398.832919019491 0.02198811951266091 -0.14243042807536924 0.9780118804873392 0.14243042807536924 0.9780118804873392 0.14243042807536924 0.02198811951266091 -0.14243042807536924
2483.1331052955707 0.020608958075251985 -0.13781589687684118 0.979391041924748 0.13781589687684118 0.979391041924748 0.13781589687684118 0.020608958075251985 -0.13781589687684118
2570.3957827688632 0.01931665554214476 -0.13333905103937274 0.9806833444578552 0.13333905103937274 0.9806833444578552 0.13333905103937274 0.01931665554214476 -0.13333905103937274
2660.725059798809 0.018105868516380616 -0.12899692728655276 0.9818941314836194 0.12899692728655276 0.9818941314836194 0.12899692728655276 0.018105868516380616 -0.12899692728655276
2754.2287033381663 0.01697156027763854 -0.12478650340835894 0.9830284397223616 0.12478650340835894 0.9830284397223616 0.12478650340835894 0.01697156027763854 -0.12478650340835894
2851.018267503909 0.015908986936350723 -0.12070471474535212 0.9840910130636492 0.12070471474535212 0.9840910130636492 0.12070471474535212 0.015908986936350723 -0.12070471474535212
2951.209226666386 0.014913683661754372 -0.11674846898415778 0.9850863163382457 0.11674846898415778 0.9850863163382457 0.11674846898415778 0.014913683661754372 -0.11674846898415778
3054.9211132155133 0.013981451067206515 -0.11291465938264769 0.9860185489327936 0.11291465938264769 0.9860185489327936 0.11291465938264769 0.013981451067206515 -0.11291465938264769
3162.277660168379 0.013108341823292145 -0.10920017653831546 0.9868916581767077 0.10920017653831546 0.9868916581767077 0.10920017653831546 0.013108341823292145 -0.10920017653831546
3273.406948788382 0.01229064755802233 -0.10560191880826773 0.9877093524419778 0.10560191880826773 0.9877093524419778 0.10560191880826773 0.01229064755802233 -0.10560191880826773
3388.4415613920255 0.011524886093543851 -0.10211680148416553 0.9884751139064563 0.10211680148416553 0.9884751139064563 0.10211680148416553 0.011524886093543851 -0.10211680148416553
3507.5187395256803 0.010807789060076076 -0.09874176482044171 0.9891922109399239 0.09874176482044171 0.9891922109399239 0.09874176482044171 0.010807789060076076 -0.09874176482044171
3630.7805477010143 0.010136289920076334 -0.09547378100924869 0.9898637100799237 0.09547378100924869 0.9898637100799237 0.09547378100924869 0.010136289920076334 -0.09547378100924869
3758.374042884442 0.009507512428756634 -0.09230986019087445 0.9904924875712432 0.09230986019087445 0.9904924875712432 0.09230986019087445 0.009507512428756634 -0.09230986019087445
3890.451449942807 0.008918759550900995 -0.08924705558381515 0.9910812404490988 0.08924705558381515 0.9910812404490988 0.08924705558381515 0.008918759550900995 -0.08924705558381515
4027.170343254592 0.00836750284835425 -0.08628246781427733 0.9916324971516456 0.08628246781427733 0.9916324971516456 0.08628246781427733 0.00836750284835425 -0.08628246781427733
4168.693834703356 0.007851372347490096 -0.08341324852058966 0.9921486276525099 0.08341324852058966 0.9921486276525099 0.08341324852058966 0.007851372347490096 -0.08341324852058966
4315.190768277653 0.007368146891357408 -0.080636603303789 0.9926318531086428 0.080636603303789 0.9926318531086428 0.080636603303789 0.007368146891357408 -0.080636603303789
