!Murata Part Number: RCER71H335K3M1H03A
!These Parameters are Measured in Series Mode Connection
!       o--ll--o
!Port1            Port2
!       o------o
!Operation Temp=25[degC], DC Bias Voltage=0[V]
!Freq. Start=100[Hz] Stop=100[MHz], 401[Steps]
!Data Generated on Jun 23, 2023
# Hz S RI R 50
!Freq.(Hz) S11(Real) S11(Imag) S21(Real) S21(Imag) S12(Real) S12(Imag) S22(Real) S22(Imag)
100.0 0.9610794440199962 -0.19082946334384823 0.038920555980003727 0.19082946334384823 0.038920555980003727 0.19082946334384823 0.9610794440199962 -0.19082946334384823
103.51421666793439 0.9584565128154628 -0.19696452352990593 0.04154348718453714 0.19696452352990593 0.04154348718453714 0.19696452352990593 0.9584565128154628 -0.19696452352990593
107.15193052376064 0.9556638505857883 -0.2032592277598816 0.04433614941421171 0.2032592277598816 0.04433614941421171 0.2032592277598816 0.9556638505857883 -0.2032592277598816
110.9174815262401 0.9526915351843593 -0.2097137637023289 0.0473084648156406 0.2097137637023289 0.0473084648156406 0.2097137637023289 0.9526915351843593 -0.2097137637023289
114.81536214968828 0.9495292256103027 -0.21632783871925623 0.05047077438969719 0.21632783871925623 0.05047077438969719 0.21632783871925623 0.9495292256103027 -0.21632783871925623
118.85022274370185 0.9461661677734506 -0.22310062796482613 0.05383383222654934 0.22310062796482613 0.05383383222654934 0.22310062796482613 0.9461661677734506 -0.22310062796482613
123.02687708123815 0.9425912043427157 -0.2300307196029223 0.05740879565728434 0.2300307196029223 0.05740879565728434 0.2300307196029223 0.9425912043427157 -0.2300307196029223
127.35030810166617 0.9387927892276794 -0.23711605728067542 0.061207210772320615 0.23711605728067542 0.061207210772320615 0.23711605728067542 0.9387927892276794 -0.23711605728067542
131.8256738556407 0.9347590072766483 -0.24435388006169967 0.0652409927233517 0.24435388006169967 0.0652409927233517 0.24435388006169967 0.9347590072766483 -0.24435388006169967
136.45831365889245 0.9304775998033809 -0.25174066009966334 0.06952240019661898 0.25174066009966334 0.06952240019661898 0.25174066009966334 0.9304775998033809 -0.25174066009966334
141.25375446227542 0.925935996577356 -0.25927203842035057 0.07406400342264398 0.25927203842035057 0.07406400342264398 0.25927203842035057 0.925935996577356 -0.25927203842035057
146.21771744567184 0.9211213549267632 -0.266942759278862 0.07887864507323684 0.266942759278862 0.07887864507323684 0.266942759278862 0.9211213549267632 -0.266942759278862
151.35612484362082 0.9160206066070501 -0.274746603668021 0.08397939339294987 0.274746603668021 0.08397939339294987 0.274746603668021 0.9160206066070501 -0.274746603668021
156.6751070108149 0.9106205130782317 -0.28267632267408793 0.08937948692176832 0.28267632267408793 0.08937948692176832 0.28267632267408793 0.9106205130782317 -0.28267632267408793
162.181009735893 0.9049077298084524 -0.2907235715057461 0.09509227019154771 0.2907235715057461 0.09509227019154771 0.2907235715057461 0.9049077298084524 -0.2907235715057461
167.88040181225603 0.8988688801764484 -0.2988788451607291 0.10113111982355165 0.2988788451607291 0.10113111982355165 0.2988788451607291 0.8988688801764484 -0.2988788451607291
173.78008287493756 0.8924906394784116 -0.3071314168394884 0.10750936052158838 0.3071314168394884 0.10750936052158838 0.3071314168394884 0.8924906394784116 -0.3071314168394884
179.88709151287878 0.8857598294521088 -0.3154692803643201 0.11424017054789118 0.3154692803643201 0.11424017054789118 0.3154692803643201 0.8857598294521088 -0.3154692803643201
186.20871366628674 0.8786635236098138 -0.32387909801192194 0.12133647639018626 0.32387909801192194 0.12133647639018626 0.32387909801192194 0.8786635236098138 -0.32387909801192194
192.7524913190936 0.8711891635187847 -0.3323461553130606 0.1288108364812153 0.3323461553130606 0.1288108364812153 0.3323461553130606 0.8711891635187847 -0.3323461553130606
199.526231496888 0.8633246859811867 -0.34085432450958164 0.13667531401881333 0.34085432450958164 0.13667531401881333 0.34085432450958164 0.8633246859811867 -0.34085432450958164
206.53801558105292 0.8550586608427571 -0.3493860384800197 0.1449413391572428 0.3493860384800197 0.1449413391572428 0.3493860384800197 0.8550586608427571 -0.3493860384800197
213.79620895022322 0.8463804389002979 -0.3579222770432659 0.1536195610997021 0.3579222770432659 0.1536195610997021 0.3579222770432659 0.8463804389002979 -0.3579222770432659
221.30947096056377 0.8372803090826844 -0.3664425676168513 0.1627196909173156 0.3664425676168513 0.1627196909173156 0.3664425676168513 0.8372803090826844 -0.3664425676168513
229.08676527677733 0.827749663750538 -0.37492500223344116 0.17225033624946204 0.37492500223344116 0.17225033624946204 0.37492500223344116 0.827749663750538 -0.37492500223344116
237.13737056616552 0.8177811705999486 -0.38334627289657375 0.18221882940005132 0.38334627289657375 0.18221882940005132 0.38334627289657375 0.8177811705999486 -0.38334627289657375
245.47089156850305 0.8073689492718613 -0.39168172717489635 0.19263105072813863 0.39168172717489635 0.19263105072813863 0.39168172717489635 0.8073689492718613 -0.39168172717489635
254.09727055493053 0.7965087503696354 -0.3999054457838 0.20349124963036458 0.3999054457838 0.20349124963036458 0.3999054457838 0.7965087503696354 -0.3999054457838
263.0267991895382 0.785198134184229 -0.4079903436760659 0.21480186581577101 0.4079903436760659 0.21480186581577101 0.4079903436760659 0.785198134184229 -0.4079903436760659
272.27013080779125 0.7734366460335675 -0.4159082958520891 0.22656335396643237 0.4159082958520891 0.22656335396643237 0.4159082958520891 0.7734366460335675 -0.4159082958520891
281.83829312644536 0.761225984756644 -0.42363028870108793 0.23877401524335612 0.42363028870108793 0.23877401524335612 0.42363028870108793 0.761225984756644 -0.42363028870108793
291.7427014001167 0.7485701605827836 -0.43112659719625807 0.2514298394172163 0.43112659719625807 0.2514298394172163 0.43112659719625807 0.7485701605827836 -0.43112659719625807
301.9951720402016 0.7354756383429957 -0.43836698769199395 0.26452436165700427 0.43836698769199395 0.26452436165700427 0.43836698769199395 0.7354756383429957 -0.43836698769199395
312.6079367123955 0.7219514618250007 -0.4453209454177036 0.2780485381749992 0.4453209454177036 0.2780485381749992 0.4453209454177036 0.7219514618250007 -0.4453209454177036
323.59365692962825 0.7080093550177081 -0.4519579250434232 0.29199064498229194 0.4519579250434232 0.29199064498229194 0.4519579250434232 0.7080093550177081 -0.4519579250434232
334.96543915782763 0.6936637960643599 -0.4582476219259922 0.3063362039356403 0.4582476219259922 0.3063362039356403 0.4582476219259922 0.6936637960643599 -0.4582476219259922
346.7368504525316 0.6789320599629046 -0.46416026085529477 0.3210679400370954 0.46416026085529477 0.3210679400370954 0.46416026085529477 0.6789320599629046 -0.46416026085529477
358.9219346450052 0.6638342264293678 -0.469666898337388 0.33616577357063215 0.469666898337388 0.33616577357063215 0.469666898337388 0.6638342264293678 -0.469666898337388
371.53522909717253 0.6483931498806796 -0.47473973370891553 0.35160685011932047 0.47473973370891553 0.35160685011932047 0.47473973370891553 0.6483931498806796 -0.47473973370891553
384.59178204535357 0.6326343891956271 -0.47935242371151526 0.36736561080437297 0.47935242371151526 0.36736561080437297 0.47935242371151526 0.6326343891956271 -0.47935242371151526
398.10717055349727 0.6165860957655362 -0.4834803946034049 0.3834139042344639 0.4834803946034049 0.3834139042344639 0.4834803946034049 0.6165860957655362 -0.4834803946034049
412.0975190973302 0.600278859329971 -0.48710114548410544 0.3997211406700289 0.48710114548410544 0.3997211406700289 0.48710114548410544 0.600278859329971 -0.48710114548410544
426.5795188015926 0.5837455121778298 -0.49019453628971793 0.4162544878221704 0.49019453628971793 0.4162544878221704 0.49019453628971793 0.5837455121778298 -0.49019453628971793
441.57044735331243 0.5670208934430176 -0.49274305390634243 0.4329791065569824 0.49274305390634243 0.4329791065569824 0.49274305390634243 0.5670208934430176 -0.49274305390634243
457.0881896148751 0.550141576391601 -0.4947320500655547 0.44985842360839906 0.4947320500655547 0.44985842360839906 0.4947320500655547 0.550141576391601 -0.4947320500655547
473.15125896148055 0.533145562734518 -0.4961499451350704 0.4668544372654822 0.4961499451350704 0.4668544372654822 0.4961499451350704 0.533145562734518 -0.4961499451350704
489.77881936844625 0.516071949055014 -0.4969883925946817 0.48392805094498614 0.4969883925946817 0.48392805094498614 0.4969883925946817 0.516071949055014 -0.4969883925946817
506.9907082747043 0.4989605713626858 -0.4972423998744959 0.5010394286373142 0.4972423998744959 0.5010394286373142 0.4972423998744959 0.4989605713626858 -0.4972423998744959
524.8074602497726 0.48185163453048485 -0.4969104022996335 0.518148365469515 0.4969104022996335 0.518148365469515 0.4969104022996335 0.48185163453048485 -0.4969104022996335
543.2503314924331 0.4647853338991145 -0.49599428809214413 0.5352146661008855 0.49599428809214413 0.5352146661008855 0.49599428809214413 0.4647853338991145 -0.49599428809214413
562.3413251903492 0.44780147661711134 -0.4944993736776845 0.5521985233828887 0.4944993736776845 0.5521985233828887 0.4944993736776845 0.44780147661711134 -0.4944993736776845
582.1032177708714 0.43093911030921767 -0.4924343298764376 0.5690608896907823 0.4924343298764376 0.5690608896907823 0.4924343298764376 0.43093911030921767 -0.4924343298764376
602.5595860743578 0.41423616642858835 -0.4898110608675097 0.5857638335714117 0.4898110608675097 0.5857638335714117 0.4898110608675097 0.41423616642858835 -0.4898110608675097
623.7348354824193 0.3977291251619158 -0.4866445390476188 0.6022708748380842 0.4866445390476188 0.6022708748380842 0.4866445390476188 0.3977291251619158 -0.4866445390476188
645.6542290346556 0.38145270804545783 -0.482952600007057 0.6185472919545421 0.482952600007057 0.6185472919545421 0.482952600007057 0.38145270804545783 -0.482952600007057
668.3439175686148 0.36543960355008576 -0.4787557027753722 0.6345603964499144 0.4787557027753722 0.6345603964499144 0.4787557027753722 0.36543960355008576 -0.4787557027753722
691.8309709189366 0.3497202298491408 -0.4740766612129686 0.6502797701508594 0.4740766612129686 0.6502797701508594 0.4740766612129686 0.3497202298491408 -0.4740766612129686
716.1434102129019 0.33432253784388016 -0.4689403529217885 0.6656774621561198 0.4689403529217885 0.6656774621561198 0.4689403529217885 0.33432253784388016 -0.4689403529217885
741.3102413009174 0.31927185633947863 -0.46337341230985035 0.6807281436605215 0.46337341230985035 0.6807281436605215 0.46337341230985035 0.31927185633947863 -0.46337341230985035
767.3614893618189 0.30459078009069923 -0.4574039144744044 0.6954092199093007 0.4574039144744044 0.6954092199093007 0.4574039144744044 0.30459078009069923 -0.4574039144744044
794.3282347242814 0.29029910031718964 -0.45106105638169613 0.7097008996828105 0.45106105638169613 0.7097008996828105 0.45106105638169613 0.29029910031718964 -0.45106105638169613
822.2426499470711 0.2764137762642043 -0.44437484144198425 0.7235862237357958 0.44437484144198425 0.7235862237357958 0.44437484144198425 0.2764137762642043 -0.44437484144198425
851.1380382023765 0.2629489454875378 -0.4373757730378744 0.7370510545124622 0.4373757730378744 0.7370510545124622 0.4373757730378744 0.2629489454875378 -0.4373757730378744
881.0488730080142 0.2499159697945377 -0.43009456189803197 0.7500840302054622 0.43009456189803197 0.7500840302054622 0.43009456189803197 0.2499159697945377 -0.43009456189803197
912.0108393559099 0.23732351318985323 -0.4225618514549277 0.7626764868101469 0.4225618514549277 0.7626764868101469 0.4225618514549277 0.23732351318985323 -0.4225618514549277
944.0608762859234 0.2251776477594969 -0.41480796452206325 0.7748223522405032 0.41480796452206325 0.7748223522405032 0.41480796452206325 0.2251776477594969 -0.41480796452206325
977.2372209558108 0.21348198317624367 -0.40686267380853713 0.7865180168237562 0.40686267380853713 0.7865180168237562 0.40686267380853713 0.21348198317624367 -0.40686267380853713
1011.5794542598987 0.20223781541283745 -0.3987549979883472 0.7977621845871625 0.3987549979883472 0.7977621845871625 0.3987549979883472 0.20223781541283745 -0.3987549979883472
1047.1285480508998 0.19144429029107585 -0.39051302428501244 0.8085557097089241 0.39051302428501244 0.8085557097089241 0.39051302428501244 0.19144429029107585 -0.39051302428501244
1083.9269140212034 0.18109857765507784 -0.38216375783990386 0.8189014223449221 0.38216375783990386 0.8189014223449221 0.38216375783990386 0.18109857765507784 -0.38216375783990386
1122.0184543019632 0.1711960522141819 -0.3737329975202248 0.8288039477858181 0.3737329975202248 0.8288039477858181 0.3737329975202248 0.1711960522141819 -0.3737329975202248
1161.4486138403427 0.16173047743258082 -0.36524523729945657 0.8382695225674192 0.36524523729945657 0.8382695225674192 0.36524523729945657 0.16173047743258082 -0.36524523729945657
1202.2644346174127 0.1526941892270476 -0.3567235919137044 0.8473058107729525 0.3567235919137044 0.8473058107729525 0.3567235919137044 0.1526941892270476 -0.3567235919137044
1244.514611771385 0.1440782766504724 -0.3481897451617316 0.8559217233495275 0.3481897451617316 0.8559217233495275 0.3481897451617316 0.1440782766504724 -0.3481897451617316
1288.249551693134 0.13587275716910338 -0.33966391897090503 0.8641272428308966 0.33966391897090503 0.8641272428308966 0.33966391897090503 0.13587275716910338 -0.33966391897090503
1333.5214321633239 0.12806674456961675 -0.331164861189277 0.8719332554303832 0.331164861189277 0.8719332554303832 0.331164861189277 0.12806674456961675 -0.331164861189277
1380.384264602885 0.12064860794553664 -0.3227098499771817 0.8793513920544632 0.3227098499771817 0.8793513920544632 0.3227098499771817 0.12064860794553664 -0.3227098499771817
1428.893958511103 0.11360612060097486 -0.31431471265024064 0.8863938793990251 0.31431471265024064 0.8863938793990251 0.31431471265024064 0.11360612060097486 -0.31431471265024064
1479.1083881682075 0.10692659806579684 -0.30599385685929026 0.8930734019342033 0.30599385685929026 0.8930734019342033 0.30599385685929026 0.10692659806579684 -0.30599385685929026
1531.0874616820304 0.10059702473525711 -0.29776031207109366 0.899402975264743 0.29776031207109366 0.899402975264743 0.29776031207109366 0.10059702473525711 -0.29776031207109366
1584.8931924611136 0.09460416892615867 -0.2896257794267877 0.9053958310738414 0.2896257794267877 0.9053958310738414 0.2896257794267877 0.09460416892615867 -0.2896257794267877
1640.5897731995396 0.08893468637984292 -0.2816006881936248 0.9110653136201572 0.2816006881936248 0.9110653136201572 0.2816006881936248 0.08893468637984292 -0.2816006881936248
1698.2436524617442 0.08357521244043258 -0.2736942571812912 0.9164247875595676 0.2736942571812912 0.9164247875595676 0.2736942571812912 0.08357521244043258 -0.2736942571812912
1757.9236139586924 0.07851244329657052 -0.2659145596596459 0.9214875567034297 0.2659145596596459 0.9214875567034297 0.2659145596596459 0.07851244329657052 -0.2659145596596459
1819.7008586099835 0.07373320679910005 -0.25826859048390804 0.9262667932009002 0.25826859048390804 0.9262667932009002 0.25826859048390804 0.07373320679910005 -0.25826859048390804
1883.6490894898002 0.06922452345899235 -0.25076233430099854 0.9307754765410077 0.25076233430099854 0.9307754765410077 0.25076233430099854 0.06922452345899235 -0.25076233430099854
1949.8445997580454 0.06497365829297108 -0.24340083387285066 0.9350263417070287 0.24340083387285066 0.9350263417070287 0.24340083387285066 0.06497365829297108 -0.24340083387285066
2018.3663636815609 0.06096816422250229 -0.23618825770596244 0.9390318357774976 0.23618825770596244 0.9390318357774976 0.23618825770596244 0.06096816422250229 -0.23618825770596244
2089.29613085404 0.057195917748865906 -0.22912796631901608 0.942804082251134 0.22912796631901608 0.942804082251134 0.22912796631901608 0.057195917748865906 -0.22912796631901608
2162.7185237270205 0.05364514762656238 -0.22222257661061878 0.9463548523734376 0.22222257661061878 0.9463548523734376 0.22222257661061878 0.05364514762656238 -0.22222257661061878
2238.7211385683395 0.050304457242734836 -0.21547402390629425 0.9496955427572652 0.21547402390629425 0.9496955427572652 0.21547402390629425 0.050304457242734836 -0.21547402390629425
2317.394649968479 0.04716284138474065 -0.20888362136755007 0.9528371586152595 0.20888362136755007 0.9528371586152595 0.20888362136755007 0.04716284138474065 -0.20888362136755007
2398.832919019491 0.044209698044268164 -0.20245211653631218 0.9557903019557318 0.20245211653631218 0.9557903019557318 0.20245211653631218 0.044209698044268164 -0.20245211653631218
2483.1331052955707 0.041434835866917 -0.19617974486581016 0.958565164133083 0.19617974486581016 0.958565164133083 0.19617974486581016 0.041434835866917 -0.19617974486581016
2570.3957827688632 0.03882847781302233 -0.19006628015485158 0.9611715221869777 0.19006628015485158 0.9611715221869777 0.19006628015485158 0.03882847781302233 -0.19006628015485158
2660.725059798809 0.03638126155045241 -0.18411108185731298 0.9636187384495478 0.18411108185731298 0.9636187384495478 0.18411108185731298 0.03638126155045241 -0.18411108185731298
2754.2287033381663 0.03408423705455087 -0.1783131392836025 0.9659157629454493 0.1783131392836025 0.9659157629454493 0.1783131392836025 0.03408423705455087 -0.1783131392836025
2851.018267503909 0.03192886184545877 -0.17267111274693975 0.968071138154541 0.17267111274693975 0.968071138154541 0.17267111274693975 0.03192886184545877 -0.17267111274693975
2951.209226666386 0.029906994249572397 -0.1671833717356022 0.9700930057504276 0.1671833717356022 0.9700930057504276 0.1671833717356022 0.029906994249572397 -0.1671833717356022
3054.9211132155133 0.02801088503050091 -0.16184803021388572 0.9719891149694991 0.16184803021388572 0.9719891149694991 0.16184803021388572 0.02801088503050091 -0.16184803021388572
3162.277660168379 0.026233167695987998 -0.15666297917037866 0.973766832304012 0.15666297917037866 0.973766832304012 0.15666297917037866 0.026233167695987998 -0.15666297917037866
3273.406948788382 0.0245668477511211 -0.15162591654318944 0.9754331522488787 0.15162591654318944 0.9754331522488787 0.15162591654318944 0.0245668477511211 -0.15162591654318944
3388.4415613920255 0.02300529113488213 -0.14673437465880262 0.976994708865118 0.14673437465880262 0.976994708865118 0.14673437465880262 0.02300529113488213 -0.14673437465880262
3507.5187395256803 0.021542212046719966 -0.14198574532499764 0.9784577879532801 0.14198574532499764 0.9784577879532801 0.14198574532499764 0.021542212046719966 -0.14198574532499764
3630.7805477010143 0.020171660342287692 -0.13737730271939097 0.9798283396577121 0.13737730271939097 0.9798283396577121 0.13737730271939097 0.020171660342287692 -0.13737730271939097
3758.374042884442 0.01888800865266867 -0.13290622421418288 0.9811119913473313 0.13290622421418288 0.9811119913473313 0.13290622421418288 0.01888800865266867 -0.13290622421418288
3890.451449942807 0.01768593935917016 -0.12856960927508784 0.9823140606408298 0.12856960927508784 0.9823140606408298 0.12856960927508784 0.01768593935917016 -0.12856960927508784
4027.170343254592 0.016560431535910948 -0.12436449656856724 0.9834395684640889 0.12436449656856724 0.9834395684640889 0.12436449656856724 0.016560431535910948 -0.12436449656856724
4168.693834703356 0.015506747954791003 -0.1202878794066973 0.984493252045209 0.1202878794066973 0.984493252045209 0.1202878794066973 0.015506747954791003 -0.1202878794066973
4315.190768277653 0.014520422231817971 -0.11633671965354456 0.9854795777681821 0.11633671965354456 0.9854795777681821 0.11633671965354456 0.014520422231817971 -0.11633671965354456
