!Murata Part Number: RCER71E106K3DBH03A
!These Parameters are Measured in Series Mode Connection
!       o--ll--o
!Port1            Port2
!       o------o
!Operation Temp=25[degC], DC Bias Voltage=0[V]
!Freq. Start=100[Hz] Stop=100[MHz], 401[Steps]
!Data Generated on Feb 18, 2020
# Hz S RI R 50
!Freq.(Hz) S11(Real) S11(Imag) S21(Real) S21(Imag) S12(Real) S12(Imag) S22(Real) S22(Imag)
100.0 0.722576706501476 -0.44510676138292077 0.2774232934985241 0.44510676138292077 0.2774232934985241 0.44510676138292077 0.722576706501476 -0.44510676138292077
103.51421666793439 0.7086400646890698 -0.45176770415921247 0.29135993531093013 0.45176770415921247 0.29135993531093013 0.45176770415921247 0.7086400646890698 -0.45176770415921247
107.15193052376064 0.6942976978847404 -0.45808085778554786 0.3057023021152596 0.45808085778554786 0.3057023021152596 0.45808085778554786 0.6942976978847404 -0.45808085778554786
110.9174815262401 0.6795670329759503 -0.46401616445861565 0.3204329670240498 0.46401616445861565 0.3204329670240498 0.46401616445861565 0.6795670329759503 -0.46401616445861565
114.81536214968828 0.6644683444177312 -0.46954442835111204 0.3355316555822687 0.46954442835111204 0.3355316555822687 0.46954442835111204 0.6644683444177312 -0.46954442835111204
118.85022274370185 0.6490247185734073 -0.4746376340914198 0.3509752814265928 0.4746376340914198 0.3509752814265928 0.4746376340914198 0.6490247185734073 -0.4746376340914198
123.02687708123815 0.6332619764333228 -0.47926926763663186 0.3667380235666772 0.47926926763663186 0.3667380235666772 0.47926926763663186 0.6332619764333228 -0.47926926763663186
127.35030810166617 0.6172085534340662 -0.48341463332644563 0.38279144656593367 0.48341463332644563 0.38279144656593367 0.48341463332644563 0.6172085534340662 -0.48341463332644563
131.8256738556407 0.6008953361488865 -0.4870511605486707 0.39910466385111365 0.4870511605486707 0.39910466385111365 0.4870511605486707 0.6008953361488865 -0.4870511605486707
136.45831365889245 0.5843554567595498 -0.4901586932883432 0.4156445432404503 0.4901586932883432 0.4156445432404503 0.4901586932883432 0.5843554567595498 -0.4901586932883432
141.25375446227542 0.5676240474091073 -0.49271975589528505 0.4323759525908926 0.49271975589528505 0.4323759525908926 0.49271975589528505 0.5676240474091073 -0.49271975589528505
146.21771744567184 0.5507379577260125 -0.4947197887032351 0.4492620422739874 0.4947197887032351 0.4492620422739874 0.4947197887032351 0.5507379577260125 -0.4947197887032351
151.35612484362082 0.5337354399510111 -0.49614734766981944 0.4662645600489889 0.49614734766981944 0.4662645600489889 0.49614734766981944 0.5337354399510111 -0.49614734766981944
156.6751070108149 0.5166558071366637 -0.49699426297050087 0.4833441928633364 0.49699426297050087 0.4833441928633364 0.49699426297050087 0.5166558071366637 -0.49699426297050087
162.181009735893 0.4995390707752395 -0.49725575244841985 0.5004609292247604 0.49725575244841985 0.5004609292247604 0.49725575244841985 0.4995390707752395 -0.49725575244841985
167.88040181225603 0.4824255648998389 -0.49693048696092584 0.5175744351001611 0.49693048696092584 0.5175744351001611 0.49693048696092584 0.4824255648998389 -0.49693048696092584
173.78008287493756 0.4653555641607038 -0.4960206059275316 0.5346444358392962 0.4960206059275316 0.5346444358392962 0.4960206059275316 0.4653555641607038 -0.4960206059275316
179.88709151287878 0.4483689035799735 -0.49453168272020753 0.5516310964200265 0.49453168272020753 0.5516310964200265 0.49453168272020753 0.4483689035799735 -0.49453168272020753
186.20871366628674 0.43150460762301 -0.4924726408880228 0.56849539237699 0.4924726408880228 0.56849539237699 0.4924726408880228 0.43150460762301 -0.4924726408880228
192.7524913190936 0.4148005358963095 -0.48985562351581524 0.5851994641036905 0.48985562351581524 0.5851994641036905 0.48985562351581524 0.4148005358963095 -0.48985562351581524
199.526231496888 0.398293052208074 -0.48669581922521554 0.6017069477919259 0.48669581922521554 0.6017069477919259 0.48669581922521554 0.398293052208074 -0.48669581922521554
206.53801558105292 0.3820167229374658 -0.4830112493864999 0.6179832770625341 0.4830112493864999 0.6179832770625341 0.4830112493864999 0.3820167229374658 -0.4830112493864999
213.79620895022322 0.3660040496924195 -0.4788225219809349 0.6339959503075805 0.4788225219809349 0.6339959503075805 0.4788225219809349 0.3660040496924195 -0.4788225219809349
221.30947096056377 0.35028524014128565 -0.47415255820637875 0.6497147598587143 0.47415255820637875 0.6497147598587143 0.47415255820637875 0.35028524014128565 -0.47415255820637875
229.08676527677733 0.3348880197323569 -0.4690262983371566 0.665111980267643 0.4690262983371566 0.665111980267643 0.4690262983371566 0.3348880197323569 -0.4690262983371566
237.13737056616552 0.319837485820329 -0.46347039352879876 0.680162514179671 0.46347039352879876 0.680162514179671 0.46347039352879876 0.319837485820329 -0.46347039352879876
245.47089156850305 0.30515600455040454 -0.4575128902073909 0.6948439954495953 0.4575128902073909 0.6948439954495953 0.4575128902073909 0.30515600455040454 -0.4575128902073909
254.09727055493053 0.290863149754461 -0.4511829134211352 0.7091368502455392 0.4511829134211352 0.7091368502455392 0.4511829134211352 0.290863149754461 -0.4511829134211352
263.0267991895382 0.27697568212746415 -0.44451035508605785 0.7230243178725357 0.44451035508605785 0.7230243178725357 0.44451035508605785 0.27697568212746415 -0.44451035508605785
272.27013080779125 0.2635075661053053 -0.43752557246274487 0.7364924338946947 0.43752557246274487 0.7364924338946947 0.43752557246274487 0.2635075661053053 -0.43752557246274487
281.83829312644536 0.2504700211770169 -0.4302591014943235 0.7495299788229832 0.4302591014943235 0.7495299788229832 0.4302591014943235 0.2504700211770169 -0.4302591014943235
291.7427014001167 0.23787160384488645 -0.4227413888566107 0.7621283961551137 0.4227413888566107 0.7621283961551137 0.4227413888566107 0.23787160384488645 -0.4227413888566107
301.9951720402016 0.22571831609621634 -0.41500254575717327 0.7742816839037836 0.41500254575717327 0.7742816839037836 0.41500254575717327 0.22571831609621634 -0.41500254575717327
312.6079367123955 0.21401373606345594 -0.40707212570571455 0.785986263936544 0.40707212570571455 0.785986263936544 0.40707212570571455 0.21401373606345594 -0.40707212570571455
323.59365692962825 0.20275916651170384 -0.39897892769385696 0.7972408334882962 0.39897892769385696 0.7972408334882962 0.39897892769385696 0.20275916651170384 -0.39897892769385696
334.96543915782763 0.19195379688593706 -0.3907508254926914 0.8080462031140628 0.3907508254926914 0.8080462031140628 0.3907508254926914 0.19195379688593706 -0.3907508254926914
346.7368504525316 0.18159487485340667 -0.3824146231200943 0.8184051251465932 0.3824146231200943 0.8184051251465932 0.3824146231200943 0.18159487485340667 -0.3824146231200943
358.9219346450052 0.17167788356656802 -0.3739959359594548 0.828322116433432 0.3739959359594548 0.828322116433432 0.3739959359594548 0.17167788356656802 -0.3739959359594548
371.53522909717253 0.16219672122570417 -0.36551909653413767 0.8378032787742957 0.36551909653413767 0.8378032787742957 0.36551909653413767 0.16219672122570417 -0.36551909653413767
384.59178204535357 0.15314387991613482 -0.3570070835597064 0.8468561200838652 0.3570070835597064 0.8468561200838652 0.3570070835597064 0.15314387991613482 -0.3570070835597064
398.10717055349727 0.14451062111262628 -0.34848147260634965 0.8554893788873739 0.34848147260634965 0.8554893788873739 0.34848147260634965 0.14451062111262628 -0.34848147260634965
412.0975190973302 0.136287145665965 -0.3399624065014627 0.8637128543340349 0.3399624065014627 0.8637128543340349 0.3399624065014627 0.136287145665965 -0.3399624065014627
426.5795188015926 0.12846275649918432 -0.33146858347878483 0.8715372435008157 0.33146858347878483 0.8715372435008157 0.33146858347878483 0.12846275649918432 -0.33146858347878483
441.57044735331243 0.12102601263225791 -0.32301726102618666 0.878973987367742 0.32301726102618666 0.878973987367742 0.32301726102618666 0.12102601263225791 -0.32301726102618666
457.0881896148751 0.11396487351577979 -0.3146242733885771 0.8860351264842203 0.3146242733885771 0.8860351264842203 0.3146242733885771 0.11396487351577979 -0.3146242733885771
473.15125896148055 0.10726683298056551 -0.3063040607347083 0.8927331670194346 0.3063040607347083 0.8927331670194346 0.3063040607347083 0.10726683298056551 -0.3063040607347083
489.77881936844625 0.10091904239802872 -0.2980697080865507 0.8990809576019712 0.2980697080865507 0.8990809576019712 0.2980697080865507 0.10091904239802872 -0.2980697080865507
506.9907082747043 0.09490842289441363 -0.2899329922276922 0.9050915771055862 0.2899329922276922 0.9050915771055862 0.2899329922276922 0.09490842289441363 -0.2899329922276922
524.8074602497726 0.08922176667101084 -0.2819044349442548 0.910778233328989 0.2819044349442548 0.910778233328989 0.2819044349442548 0.08922176667101084 -0.2819044349442548
543.2503314924331 0.08384582765408945 -0.2739933611005976 0.9161541723459107 0.2739933611005976 0.9161541723459107 0.2739933611005976 0.08384582765408945 -0.2739933611005976
562.3413251903492 0.07876740183510914 -0.2662079602062481 0.9212325981648907 0.2662079602062481 0.9212325981648907 0.2662079602062481 0.07876740183510914 -0.2662079602062481
582.1032177708714 0.07397339776709502 -0.25855535028499654 0.9260266022329051 0.25855535028499654 0.9260266022329051 0.25855535028499654 0.07397339776709502 -0.25855535028499654
602.5595860743578 0.06945089776039501 -0.25104164300780557 0.9305491022396052 0.25104164300780557 0.9305491022396052 0.25104164300780557 0.06945089776039501 -0.25104164300780557
623.7348354824193 0.06518721037410195 -0.24367200919520948 0.934812789625898 0.24367200919520948 0.934812789625898 0.24367200919520948 0.06518721037410195 -0.24367200919520948
645.6542290346556 0.061169914831769374 -0.23645074392999021 0.9388300851682306 0.23645074392999021 0.9388300851682306 0.23645074392999021 0.061169914831769374 -0.23645074392999021
668.3439175686148 0.05738689800511389 -0.2293813306457883 0.9426131019948861 0.2293813306457883 0.9426131019948861 0.2293813306457883 0.05738689800511389 -0.2293813306457883
691.8309709189366 0.05382638461031841 -0.22246650367114662 0.9461736153896816 0.22246650367114662 0.9461736153896816 0.22246650367114662 0.05382638461031841 -0.22246650367114662
716.1434102129019 0.05047696125115413 -0.21570830881099168 0.9495230387488458 0.21570830881099168 0.9495230387488458 0.21570830881099168 0.05047696125115413 -0.21570830881099168
741.3102413009174 0.04732759492393679 -0.20910816163884477 0.9526724050760631 0.20910816163884477 0.9526724050760631 0.20910816163884477 0.04732759492393679 -0.20910816163884477
767.3614893618189 0.044367646573478726 -0.20266690325345654 0.9556323534265212 0.20266690325345654 0.9556323534265212 0.20266690325345654 0.044367646573478726 -0.20266690325345654
794.3282347242814 0.04158688025854961 -0.19638485332366246 0.9584131197414504 0.19638485332366246 0.9584131197414504 0.19638485332366246 0.04158688025854961 -0.19638485332366246
822.2426499470711 0.03897546845145941 -0.19026186030572548 0.9610245315485406 0.19026186030572548 0.9610245315485406 0.19026186030572548 0.03897546845145941 -0.19026186030572548
851.1380382023765 0.036523993960511904 -0.1842973487690464 0.9634760060394881 0.1842973487690464 0.9634760060394881 0.1842973487690464 0.036523993960511904 -0.1842973487690464
881.0488730080142 0.034223448927283955 -0.17849036380966438 0.9657765510727161 0.17849036380966438 0.9657765510727161 0.17849036380966438 0.034223448927283955 -0.17849036380966438
912.0108393559099 0.03206523131380296 -0.17283961256725094 0.9679347686861969 0.17283961256725094 0.9679347686861969 0.17283961256725094 0.03206523131380296 -0.17283961256725094
944.0608762859234 0.03004113925837193 -0.16734350289109334 0.9699588607416281 0.16734350289109334 0.9699588607416281 0.16734350289109334 0.03004113925837193 -0.16734350289109334
977.2372209558108 0.028143363643530785 -0.16200017922461357 0.9718566363564693 0.16200017922461357 0.9718566363564693 0.16200017922461357 0.028143363643530785 -0.16200017922461357
1011.5794542598987 0.02636447918581916 -0.1568075557969893 0.9736355208141809 0.1568075557969893 0.9736355208141809 0.1568075557969893 0.02636447918581916 -0.1568075557969893
1047.1285480508998 0.024697434324879596 -0.15176334722506163 0.9753025656751202 0.15176334722506163 0.9753025656751202 0.15176334722506163 0.024697434324879596 -0.15176334722506163
1083.9269140212034 0.02313554015919807 -0.14686509663955824 0.9768644598408017 0.14686509663955824 0.9768644598408017 0.14686509663955824 0.02313554015919807 -0.14686509663955824
1122.0184543019632 0.021672458647517656 -0.14211020145723857 0.9783275413524821 0.14211020145723857 0.9783275413524821 0.14211020145723857 0.021672458647517656 -0.14211020145723857
1161.4486138403427 0.02030219026873999 -0.13749593692540057 0.97969780973126 0.13749593692540057 0.97969780973126 0.13749593692540057 0.02030219026873999 -0.13749593692540057
1202.2644346174127 0.019019061308943434 -0.13301947756768573 0.9809809386910566 0.13301947756768573 0.9809809386910566 0.13301947756768573 0.019019061308943434 -0.13301947756768573
1244.514611771385 0.01781771092197015 -0.12867791666068548 0.9821822890780301 0.12867791666068548 0.9821822890780301 0.12867791666068548 0.01781771092197015 -0.12867791666068548
1288.249551693134 0.016693078089805732 -0.12446828386982421 0.9833069219101944 0.12446828386982421 0.9833069219101944 0.12446828386982421 0.016693078089805732 -0.12446828386982421
1333.5214321633239 0.015640388590615076 -0.12038756117066324 0.9843596114093847 0.12038756117066324 0.9843596114093847 0.12038756117066324 0.015640388590615076 -0.12038756117066324
1380.384264602885 0.014655142065717124 -0.1164326971784092 0.9853448579342827 0.1164326971784092 0.9853448579342827 0.1164326971784092 0.014655142065717124 -0.1164326971784092
1428.893958511103 0.013733099261873693 -0.11260062000422541 0.9862669007381263 0.11260062000422541 0.9862669007381263 0.11260062000422541 0.013733099261873693 -0.11260062000422541
1479.1083881682075 0.012870269511931536 -0.1088882487521454 0.9871297304880683 0.1088882487521454 0.9871297304880683 0.1088882487521454 0.012870269511931536 -0.1088882487521454
1531.0874616820304 0.012062898504981054 -0.10529250376511959 0.9879371014950189 0.10529250376511959 0.9879371014950189 0.10529250376511959 0.012062898504981054 -0.10529250376511959
1584.8931924611136 0.011307456386674313 -0.10181031572313655 0.9886925436133255 0.10181031572313655 0.9886925436133255 0.10181031572313655 0.011307456386674313 -0.10181031572313655
1640.5897731995396 0.01060062622107606 -0.09843863369056138 0.989399373778924 0.09843863369056138 0.989399373778924 0.09843863369056138 0.01060062622107606 -0.09843863369056138
1698.2436524617442 0.009939292837304235 -0.09517443220392069 0.9900607071626957 0.09517443220392069 0.9900607071626957 0.09517443220392069 0.009939292837304235 -0.09517443220392069
1757.9236139586924 0.009320532077157492 -0.09201471748541541 0.9906794679228426 0.09201471748541541 0.9906794679228426 0.09201471748541541 0.009320532077157492 -0.09201471748541541
1819.7008586099835 0.008741600453840417 -0.08895653286153078 0.9912583995461598 0.08895653286153078 0.9912583995461598 0.08895653286153078 0.008741600453840417 -0.08895653286153078
1883.6490894898002 0.00819992522669934 -0.08599696346028801 0.9918000747733007 0.08599696346028801 0.9918000747733007 0.08599696346028801 0.00819992522669934 -0.08599696346028801
1949.8445997580454 0.007693094892498518 -0.08313314025499366 0.9923069051075016 0.08313314025499366 0.9923069051075016 0.08313314025499366 0.007693094892498518 -0.08313314025499366
2018.3663636815609 0.007218850090127572 -0.08036224351683333 0.9927811499098724 0.08036224351683333 0.9927811499098724 0.08036224351683333 0.007218850090127572 -0.08036224351683333
2089.29613085404 0.00677507491267064 -0.07768150573335841 0.9932249250873294 0.07768150573335841 0.9932249250873294 0.07768150573335841 0.00677507491267064 -0.07768150573335841
2162.7185237270205 0.006359788618423321 -0.07508821404486088 0.9936402113815768 0.07508821404486088 0.9936402113815768 0.07508821404486088 0.006359788618423321 -0.07508821404486088
2238.7211385683395 0.005971137730655828 -0.07257971224585034 0.9940288622693443 0.07257971224585034 0.9940288622693443 0.07257971224585034 0.005971137730655828 -0.07257971224585034
2317.394649968479 0.005607388514630633 -0.07015340239436141 0.9943926114853694 0.07015340239436141 0.9943926114853694 0.07015340239436141 0.005607388514630633 -0.07015340239436141
2398.832919019491 0.005266919819533472 -0.06780674606765281 0.9947330801804666 0.06780674606765281 0.9947330801804666 0.06780674606765281 0.005266919819533472 -0.06780674606765281
2483.1331052955707 0.0049482162725086485 -0.06553726529902569 0.9950517837274913 0.06553726529902569 0.9950517837274913 0.06553726529902569 0.0049482162725086485 -0.06553726529902569
2570.3957827688632 0.004649861811846358 -0.06334254322700363 0.9953501381881538 0.06334254322700363 0.9953501381881538 0.06334254322700363 0.004649861811846358 -0.06334254322700363
2660.725059798809 0.004370533546490967 -0.06122022448498481 0.9956294664535089 0.06122022448498481 0.9956294664535089 0.06122022448498481 0.004370533546490967 -0.06122022448498481
2754.2287033381663 0.004108995929367912 -0.05916801535670141 0.995891004070632 0.05916801535670141 0.995891004070632 0.05916801535670141 0.004108995929367912 -0.05916801535670141
2851.018267503909 0.0038640952325046216 -0.057183683720393626 0.9961359047674956 0.057183683720393626 0.9961359047674956 0.057183683720393626 0.0038640952325046216 -0.057183683720393626
2951.209226666386 0.0036347543124930683 -0.055265058802514505 0.9963652456875071 0.055265058802514505 0.9963652456875071 0.055265058802514505 0.0036347543124930683 -0.055265058802514505
3054.9211132155133 0.0034199676554569885 -0.053410030760006506 0.9965800323445432 0.053410030760006506 0.9965800323445432 0.053410030760006506 0.0034199676554569885 -0.053410030760006506
3162.277660168379 0.003218796691298683 -0.05161655010869911 0.9967812033087015 0.05161655010869911 0.9967812033087015 0.05161655010869911 0.003218796691298683 -0.05161655010869911
3273.406948788382 0.003030365367570218 -0.04988262701414172 0.9969696346324297 0.04988262701414172 0.9969696346324297 0.04988262701414172 0.003030365367570218 -0.04988262701414172
3388.4415613920255 0.002853855973809838 -0.04820633046016322 0.9971461440261903 0.04820633046016322 0.9971461440261903 0.04820633046016322 0.002853855973809838 -0.04820633046016322
3507.5187395256803 0.002688505207584382 -0.046585787309598635 0.9973114947924155 0.046585787309598635 0.9973114947924155 0.046585787309598635 0.002688505207584382 -0.046585787309598635
3630.7805477010143 0.002533600473769675 -0.04501918127090357 0.9974663995262303 0.04501918127090357 0.9974663995262303 0.04501918127090357 0.002533600473769675 -0.04501918127090357
3758.374042884442 0.0023884764087795706 -0.04350475178374452 0.9976115235912204 0.04350475178374452 0.9976115235912204 0.04350475178374452 0.0023884764087795706 -0.04350475178374452
3890.451449942807 0.0022525116215253807 -0.042040792836068035 0.9977474883784747 0.042040792836068035 0.9977474883784747 0.042040792836068035 0.0022525116215253807 -0.042040792836068035
4027.170343254592 0.002125125642864093 -0.040625651724585606 0.9978748743571358 0.040625651724585606 0.9978748743571358 0.040625651724585606 0.002125125642864093 -0.040625651724585606
4168.693834703356 0.002005776075193764 -0.03925772777002793 0.9979942239248063 0.03925772777002793 0.9979942239248063 0.03925772777002793 0.002005776075193764 -0.03925772777002793
