!Murata Part Number: RDEC72A475K3S1H03A
!These Parameters are Measured in Series Mode Connection
!       o--ll--o
!Port1            Port2
!       o------o
!Operation Temp=25[degC], DC Bias Voltage=0[V]
!Freq. Start=100[Hz] Stop=100[MHz], 401[Steps]
!Data Generated on Apr 21, 2023
# Hz S RI R 50
!Freq.(Hz) S11(Real) S11(Imag) S21(Real) S21(Imag) S12(Real) S12(Imag) S22(Real) S22(Imag)
100.0 0.9253675439668564 -0.2601633132710066 0.07463245603314363 0.2601633132710066 0.07463245603314363 0.2601633132710066 0.9253675439668564 -0.2601633132710066
103.51421666793439 0.9205124087996777 -0.26784105796730345 0.07948759120032237 0.26784105796730345 0.07948759120032237 0.26784105796730345 0.9205124087996777 -0.26784105796730345
107.15193052376064 0.9153699869215641 -0.27565058941131826 0.08463001307843601 0.27565058941131826 0.08463001307843601 0.27565058941131826 0.9153699869215641 -0.27565058941131826
110.9174815262401 0.9099270133974222 -0.2835845724513831 0.09007298660257781 0.2835845724513831 0.09007298660257781 0.2835845724513831 0.9099270133974222 -0.2835845724513831
114.81536214968828 0.9041701152624538 -0.2916345606710172 0.09582988473754628 0.2916345606710172 0.09582988473754628 0.2916345606710172 0.9041701152624538 -0.2916345606710172
118.85022274370185 0.8980858879179945 -0.2997909298295795 0.10191411208200554 0.2997909298295795 0.10191411208200554 0.2997909298295795 0.8980858879179945 -0.2997909298295795
123.02687708123815 0.8916609822213116 -0.30804281432169484 0.10833901777868832 0.30804281432169484 0.10833901777868832 0.30804281432169484 0.8916609822213116 -0.30804281432169484
127.35030810166617 0.8848822026759483 -0.316378048035924 0.11511779732405177 0.316378048035924 0.11511779732405177 0.316378048035924 0.8848822026759483 -0.316378048035924
131.8256738556407 0.8777366169859857 -0.32478311115071595 0.1222633830140142 0.32478311115071595 0.1222633830140142 0.32478311115071595 0.8777366169859857 -0.32478311115071595
136.45831365889245 0.8702116770594686 -0.3332430845561342 0.12978832294053136 0.3332430845561342 0.12978832294053136 0.3332430845561342 0.8702116770594686 -0.3332430845561342
141.25375446227542 0.8622953513309958 -0.34174161372685175 0.13770464866900434 0.34174161372685175 0.13770464866900434 0.34174161372685175 0.8622953513309958 -0.34174161372685175
146.21771744567184 0.853976268019929 -0.3502608839880229 0.1460237319800709 0.3502608839880229 0.1460237319800709 0.3502608839880229 0.853976268019929 -0.3502608839880229
151.35612484362082 0.8452438686487971 -0.3587816092024783 0.1547561313512029 0.3587816092024783 0.1547561313512029 0.3587816092024783 0.8452438686487971 -0.3587816092024783
156.6751070108149 0.8360885708179301 -0.3672830359560013 0.1639114291820699 0.3672830359560013 0.1639114291820699 0.3672830359560013 0.8360885708179301 -0.3672830359560013
162.181009735893 0.8265019388707604 -0.3757429653174175 0.17349806112923966 0.3757429653174175 0.17349806112923966 0.3757429653174175 0.8265019388707604 -0.3757429653174175
167.88040181225603 0.81647686069541 -0.3841377941918537 0.1835231393045899 0.3841377941918537 0.1835231393045899 0.3841377941918537 0.81647686069541 -0.3841377941918537
173.78008287493756 0.8060077285006333 -0.3924425781590461 0.19399227149936663 0.3924425781590461 0.19399227149936663 0.3924425781590461 0.8060077285006333 -0.3924425781590461
179.88709151287878 0.7950906209890302 -0.40063111748515834 0.20490937901096984 0.40063111748515834 0.20490937901096984 0.40063111748515834 0.7950906209890302 -0.40063111748515834
186.20871366628674 0.7837234839416662 -0.40867606770892245 0.21627651605833373 0.40867606770892245 0.21627651605833373 0.40867606770892245 0.7837234839416662 -0.40867606770892245
192.7524913190936 0.7719063058424211 -0.41654907582615186 0.22809369415757882 0.41654907582615186 0.22809369415757882 0.41654907582615186 0.7719063058424211 -0.41654907582615186
199.526231496888 0.7596412848264874 -0.4242209426290651 0.24035871517351257 0.4242209426290651 0.24035871517351257 0.4242209426290651 0.7596412848264874 -0.4242209426290651
206.53801558105292 0.746932982956122 -0.4316618112007073 0.253067017043878 0.4316618112007073 0.253067017043878 0.4316618112007073 0.746932982956122 -0.4316618112007073
213.79620895022322 0.7337884636296282 -0.43884138092703173 0.26621153637037176 0.43884138092703173 0.26621153637037176 0.43884138092703173 0.7337884636296282 -0.43884138092703173
221.30947096056377 0.7202174078380228 -0.44572914568220634 0.2797825921619772 0.44572914568220634 0.2797825921619772 0.44572914568220634 0.7202174078380228 -0.44572914568220634
229.08676527677733 0.7062322050179084 -0.4522946540842364 0.29376779498209177 0.4522946540842364 0.29376779498209177 0.4522946540842364 0.7062322050179084 -0.4522946540842364
237.13737056616552 0.6918480144256732 -0.45850778893148225 0.3081519855743267 0.45850778893148225 0.3081519855743267 0.45850778893148225 0.6918480144256732 -0.45850778893148225
245.47089156850305 0.6770827932898201 -0.46433906214453446 0.32291720671017976 0.46433906214453446 0.32291720671017976 0.46433906214453446 0.6770827932898201 -0.46433906214453446
254.09727055493053 0.6619572884913576 -0.4697599207849551 0.3380427115086424 0.4697599207849551 0.3380427115086424 0.4697599207849551 0.6619572884913576 -0.4697599207849551
263.0267991895382 0.6464949891758777 -0.4747430590381643 0.3535050108241222 0.4747430590381643 0.3535050108241222 0.4747430590381643 0.6464949891758777 -0.4747430590381643
272.27013080779125 0.6307220385057543 -0.4792627304689167 0.36927796149424574 0.4792627304689167 0.36927796149424574 0.4792627304689167 0.6307220385057543 -0.4792627304689167
281.83829312644536 0.614667103698465 -0.4832950544199692 0.3853328963015351 0.4832950544199692 0.3853328963015351 0.4832950544199692 0.614667103698465 -0.4832950544199692
291.7427014001167 0.5983612045399864 -0.4868183101598445 0.4016387954600136 0.4868183101598445 0.4016387954600136 0.4868183101598445 0.5983612045399864 -0.4868183101598445
301.9951720402016 0.5818375016748504 -0.4898132123202947 0.4181624983251496 0.4898132123202947 0.4181624983251496 0.4898132123202947 0.5818375016748504 -0.4898132123202947
312.6079367123955 0.5651310471142403 -0.4922631613162699 0.4348689528857596 0.4922631613162699 0.4348689528857596 0.4922631613162699 0.5651310471142403 -0.4922631613162699
323.59365692962825 0.548278500523072 -0.49415446281891756 0.45172149947692786 0.49415446281891756 0.45172149947692786 0.49415446281891756 0.548278500523072 -0.49415446281891756
334.96543915782763 0.5313178158967612 -0.4954765109519864 0.46868218410323886 0.4954765109519864 0.46868218410323886 0.4954765109519864 0.5313178158967612 -0.4954765109519864
346.7368504525316 0.5142879041696273 -0.4962219306885959 0.4857120958303726 0.4962219306885959 0.4857120958303726 0.4962219306885959 0.5142879041696273 -0.4962219306885959
358.9219346450052 0.49722827806486763 -0.49638667591160407 0.5027717219351323 0.49638667591160407 0.5027717219351323 0.49638667591160407 0.49722827806486763 -0.49638667591160407
371.53522909717253 0.4801786860630387 -0.4959700807291506 0.5198213139369615 0.4959700807291506 0.5198213139369615 0.4959700807291506 0.4801786860630387 -0.4959700807291506
384.59178204535357 0.46317874270401255 -0.49497486286135683 0.5368212572959876 0.49497486286135683 0.5368212572959876 0.49497486286135683 0.46317874270401255 -0.49497486286135683
398.10717055349727 0.4462675625300234 -0.49340707918282684 0.5537324374699766 0.49340707918282684 0.5537324374699766 0.49340707918282684 0.4462675625300234 -0.49340707918282684
412.0975190973302 0.42948340482117614 -0.49127603476424614 0.5705165951788239 0.49127603476424614 0.5705165951788239 0.49127603476424614 0.42948340482117614 -0.49127603476424614
426.5795188015926 0.4128633358791472 -0.4885941479516521 0.5871366641208529 0.4885941479516521 0.5871366641208529 0.4885941479516521 0.4128633358791472 -0.4885941479516521
441.57044735331243 0.39644291500146883 -0.4853767751047246 0.6035570849985311 0.4853767751047246 0.6035570849985311 0.4853767751047246 0.39644291500146883 -0.4853767751047246
457.0881896148751 0.3802559094901577 -0.4816419995437988 0.6197440905098424 0.4816419995437988 0.6197440905098424 0.4816419995437988 0.3802559094901577 -0.4816419995437988
473.15125896148055 0.36433404309502887 -0.4774103899968397 0.6356659569049712 0.4774103899968397 0.6356659569049712 0.4774103899968397 0.36433404309502887 -0.4774103899968397
489.77881936844625 0.348706781249766 -0.472704734370986 0.6512932187502338 0.472704734370986 0.6512932187502338 0.472704734370986 0.348706781249766 -0.472704734370986
506.9907082747043 0.33340115536582904 -0.4675497549888294 0.6665988446341709 0.4675497549888294 0.6665988446341709 0.4675497549888294 0.33340115536582904 -0.4675497549888294
524.8074602497726 0.3184416273529205 -0.4619718115291708 0.6815583726470795 0.4619718115291708 0.6815583726470795 0.4619718115291708 0.3184416273529205 -0.4619718115291708
543.2503314924331 0.30384999447880146 -0.4559985978078377 0.6961500055211985 0.4559985978078377 0.6961500055211985 0.4559985978078377 0.30384999447880146 -0.4559985978078377
562.3413251903492 0.2896453337037608 -0.4496588382473059 0.7103546662962391 0.4496588382473059 0.7103546662962391 0.4496588382473059 0.2896453337037608 -0.4496588382473059
582.1032177708714 0.27584398375658165 -0.44298198944205824 0.7241560162434184 0.44298198944205824 0.7241560162434184 0.44298198944205824 0.27584398375658165 -0.44298198944205824
602.5595860743578 0.26245956248169405 -0.4359979516619179 0.737540437518306 0.4359979516619179 0.737540437518306 0.4359979516619179 0.26245956248169405 -0.4359979516619179
623.7348354824193 0.2495030163950031 -0.42873679448214536 0.7504969836049971 0.42873679448214536 0.7504969836049971 0.42873679448214536 0.2495030163950031 -0.42873679448214536
645.6542290346556 0.2369826989440613 -0.42122850002088674 0.7630173010559389 0.42122850002088674 0.7630173010559389 0.42122850002088674 0.2369826989440613 -0.42122850002088674
668.3439175686148 0.2249044736748322 -0.4135027265337145 0.7750955263251678 0.4135027265337145 0.7750955263251678 0.4135027265337145 0.2249044736748322 -0.4135027265337145
691.8309709189366 0.21327183835404098 -0.40558859439018935 0.7867281616459589 0.40558859439018935 0.7867281616459589 0.40558859439018935 0.21327183835404098 -0.40558859439018935
716.1434102129019 0.20208606606996896 -0.3975144957629658 0.797913933930031 0.3975144957629658 0.797913933930031 0.3975144957629658 0.20208606606996896 -0.3975144957629658
741.3102413009174 0.19134635941907643 -0.3893079287154142 0.8086536405809236 0.3893079287154142 0.8086536405809236 0.3893079287154142 0.19134635941907643 -0.3893079287154142
767.3614893618189 0.18105001406254506 -0.38099535579340454 0.8189499859374549 0.38099535579340454 0.8189499859374549 0.38099535579340454 0.18105001406254506 -0.38099535579340454
794.3282347242814 0.17119258818654023 -0.372602086720325 0.8288074118134598 0.372602086720325 0.8288074118134598 0.372602086720325 0.17119258818654023 -0.372602086720325
822.2426499470711 0.16176807470377477 -0.3641521843666004 0.8382319252962255 0.3641521843666004 0.8382319252962255 0.3641521843666004 0.16176807470377477 -0.3641521843666004
851.1380382023765 0.1527690733740564 -0.3556683928171096 0.8472309266259435 0.3556683928171096 0.8472309266259435 0.3556683928171096 0.1527690733740564 -0.3556683928171096
881.0488730080142 0.1441869603818737 -0.34717208608995387 0.8558130396181265 0.34717208608995387 0.8558130396181265 0.34717208608995387 0.1441869603818737 -0.34717208608995387
912.0108393559099 0.1360120532757831 -0.33868323586347954 0.8639879467242169 0.33868323586347954 0.8639879467242169 0.33868323586347954 0.1360120532757831 -0.33868323586347954
944.0608762859234 0.12823376953576446 -0.33022039643903794 0.8717662304642355 0.33022039643903794 0.8717662304642355 0.33022039643903794 0.12823376953576446 -0.33022039643903794
977.2372209558108 0.12084077738146694 -0.321800705097178 0.8791592226185329 0.321800705097178 0.8791592226185329 0.321800705097178 0.12084077738146694 -0.321800705097178
1011.5794542598987 0.11382113775927738 -0.31343989598674893 0.8861788622407228 0.31343989598674893 0.8861788622407228 0.31343989598674893 0.11382113775927738 -0.31343989598674893
1047.1285480508998 0.10716243674433797 -0.3051523257114648 0.8928375632556619 0.3051523257114648 0.8928375632556619 0.3051523257114648 0.10716243674433797 -0.3051523257114648
1083.9269140212034 0.10085190786177557 -0.296951008838784 0.8991480921382247 0.296951008838784 0.8991480921382247 0.296951008838784 0.10085190786177557 -0.296951008838784
1122.0184543019632 0.09487654406777025 -0.288847661643811 0.9051234559322299 0.288847661643811 0.9051234559322299 0.288847661643811 0.09487654406777025 -0.288847661643811
1161.4486138403427 0.08922319933530314 -0.280852752509381 0.9107768006646968 0.280852752509381 0.9107768006646968 0.280852752509381 0.08922319933530314 -0.280852752509381
1202.2644346174127 0.08387867996206395 -0.27297555752619496 0.9161213200379361 0.27297555752619496 0.9161213200379361 0.27297555752619496 0.08387867996206395 -0.27297555752619496
1244.514611771385 0.07882982586052185 -0.26522421996843654 0.9211701741394782 0.26522421996843654 0.9211701741394782 0.26522421996843654 0.07882982586052185 -0.26522421996843654
1288.249551693134 0.07406358220451058 -0.2576058124559981 0.9259364177954895 0.2576058124559981 0.9259364177954895 0.2576058124559981 0.07406358220451058 -0.2576058124559981
1333.5214321633239 0.06956706189525695 -0.25012640075043596 0.930432938104743 0.25012640075043596 0.930432938104743 0.25012640075043596 0.06956706189525695 -0.25012640075043596
1380.384264602885 0.06532759937517622 -0.24279110826492237 0.9346724006248239 0.24279110826492237 0.9346724006248239 0.24279110826492237 0.06532759937517622 -0.24279110826492237
1428.893958511103 0.06133279636268693 -0.2356041804963172 0.9386672036373132 0.2356041804963172 0.9386672036373132 0.2356041804963172 0.06133279636268693 -0.2356041804963172
1479.1083881682075 0.05757056010846593 -0.22856904870821787 0.9424294398915343 0.22856904870821787 0.9424294398915343 0.22856904870821787 0.05757056010846593 -0.22856904870821787
1531.0874616820304 0.05402913478560003 -0.22168839230615323 0.9459708652143999 0.22168839230615323 0.9459708652143999 0.22168839230615323 0.05402913478560003 -0.22168839230615323
1584.8931924611136 0.050697126625488836 -0.21496419944914183 0.949302873374511 0.21496419944914183 0.949302873374511 0.21496419944914183 0.050697126625488836 -0.21496419944914183
1640.5897731995396 0.04756352340042288 -0.20839782553517042 0.952436476599577 0.20839782553517042 0.952436476599577 0.20839782553517042 0.04756352340042288 -0.20839782553517042
1698.2436524617442 0.04461770883461527 -0.2019900492816485 0.9553822911653845 0.2019900492816485 0.9553822911653845 0.2019900492816485 0.04461770883461527 -0.2019900492816485
1757.9236139586924 0.04184947249999347 -0.19574112619566264 0.9581505275000065 0.19574112619566264 0.9581505275000065 0.19574112619566264 0.04184947249999347 -0.19574112619566264
1819.7008586099835 0.039249015722935474 -0.18965083929323592 0.9607509842770643 0.18965083929323592 0.9607509842770643 0.18965083929323592 0.039249015722935474 -0.18965083929323592
1883.6490894898002 0.036806953994808565 -0.1837185469822328 0.9631930460051914 0.1837185469822328 0.9631930460051914 0.1837185469822328 0.036806953994808565 -0.1837185469822328
1949.8445997580454 0.034514316343894846 -0.17794322807065732 0.9654856836561052 0.17794322807065732 0.9654856836561052 0.17794322807065732 0.034514316343894846 -0.17794322807065732
2018.3663636815609 0.032362542090101705 -0.17232352390147937 0.9676374579098983 0.17232352390147937 0.9676374579098983 0.17232352390147937 0.032362542090101705 -0.17232352390147937
2089.29613085404 0.030343475367638227 -0.16685777764752627 0.9696565246323617 0.16685777764752627 0.9696565246323617 0.16685777764752627 0.030343475367638227 -0.16685777764752627
2162.7185237270205 0.028449357765281506 -0.16154407082607267 0.9715506422347187 0.16154407082607267 0.9715506422347187 0.16154407082607267 0.028449357765281506 -0.16154407082607267
2238.7211385683395 0.026672819399523148 -0.15638025711328718 0.9733271806004768 0.15638025711328718 0.9733271806004768 0.15638025711328718 0.026672819399523148 -0.15638025711328718
2317.394649968479 0.02500686870319143 -0.15136399355433455 0.9749931312968084 0.15136399355433455 0.9749931312968084 0.15136399355433455 0.02500686870319143 -0.15136399355433455
2398.832919019491 0.023444881181396628 -0.14649276927635888 0.9765551188186036 0.14649276927635888 0.9765551188186036 0.14649276927635888 0.023444881181396628 -0.14649276927635888
2483.1331052955707 0.021980587358044784 -0.14176393181941813 0.9780194126419551 0.14176393181941813 0.9780194126419551 0.14176393181941813 0.021980587358044784 -0.14176393181941813
2570.3957827688632 0.020608060109826 -0.13717471120530025 0.979391939890174 0.13717471120530025 0.979391939890174 0.13717471120530025 0.020608060109826 -0.13717471120530025
2660.725059798809 0.019321701560539473 -0.13272224186655487 0.9806782984394606 0.13272224186655487 0.9806782984394606 0.13272224186655487 0.019321701560539473 -0.13272224186655487
2754.2287033381663 0.018116229686846924 -0.12840358255852996 0.9818837703131532 0.12840358255852996 0.9818837703131532 0.12840358255852996 0.018116229686846924 -0.12840358255852996
2851.018267503909 0.016986664766963602 -0.12421573437612007 0.9830133352330364 0.12421573437612007 0.9830133352330364 0.12421573437612007 0.016986664766963602 -0.12421573437612007
2951.209226666386 0.01592831578628517 -0.12015565699471553 0.9840716842137149 0.12015565699471553 0.9840716842137149 0.12015565699471553 0.01592831578628517 -0.12015565699471553
3054.9211132155133 0.01493676689835424 -0.1162202832517936 0.9850632331016459 0.1162202832517936 0.9850632331016459 0.1162202832517936 0.01493676689835424 -0.1162202832517936
3162.277660168379 0.014007864025717461 -0.11240653218198493 0.9859921359742825 0.11240653218198493 0.9859921359742825 0.11240653218198493 0.014007864025717461 -0.11240653218198493
3273.406948788382 0.013137701672930263 -0.10871132061449307 0.9868622983270695 0.10871132061449307 0.9868622983270695 0.10871132061449307 0.013137701672930263 -0.10871132061449307
3388.4415613920255 0.012322610013041482 -0.1051315734376012 0.9876773899869585 0.1051315734376012 0.9876773899869585 0.1051315734376012 0.012322610013041482 -0.1051315734376012
3507.5187395256803 0.011559142299152756 -0.10166423263077848 0.9884408577008472 0.10166423263077848 0.9884408577008472 0.10166423263077848 0.011559142299152756 -0.10166423263077848
3630.7805477010143 0.01084406264392962 -0.09830626516067957 0.9891559373560703 0.09830626516067957 0.9891559373560703 0.09830626516067957 0.01084406264392962 -0.09830626516067957
3758.374042884442 0.010174334202089606 -0.09505466983314503 0.9898256657979102 0.09505466983314503 0.9898256657979102 0.09505466983314503 0.010174334202089606 -0.09505466983314503
3890.451449942807 0.009547107783779813 -0.09190648318917465 0.9904528922162203 0.09190648318917465 0.9904528922162203 0.09190648318917465 0.009547107783779813 -0.09190648318917465
4027.170343254592 0.008959710920277591 -0.08885878452875275 0.9910402890797225 0.08885878452875275 0.9910402890797225 0.08885878452875275 0.008959710920277591 -0.08885878452875275
4168.693834703356 0.008409637397523874 -0.08590870014233691 0.9915903626024762 0.08590870014233691 0.9915903626024762 0.08590870014233691 0.008409637397523874 -0.08590870014233691
4315.190768277653 0.007894537267571299 -0.08305340682574537 0.9921054627324286 0.08305340682574537 0.9921054627324286 0.08305340682574537 0.007894537267571299 -0.08305340682574537
