!Murata Part Number: RDEC71H475K2M1H03A
!These Parameters are Measured in Series Mode Connection
!       o--ll--o
!Port1            Port2
!       o------o
!Operation Temp=25[degC], DC Bias Voltage=0[V]
!Freq. Start=100[Hz] Stop=100[MHz], 401[Steps]
!Data Generated on Dec 23, 2019
# Hz S RI R 50
!Freq.(Hz) S11(Real) S11(Imag) S21(Real) S21(Imag) S12(Real) S12(Imag) S22(Real) S22(Imag)
100.0 0.9241323914354356 -0.2629599650725038 0.07586760856456441 0.2629599650725038 0.07586760856456441 0.2629599650725038 0.9241323914354356 -0.2629599650725038
103.51421666793439 0.9191889003192201 -0.27071200992340344 0.08081109968077992 0.27071200992340344 0.08081109968077992 0.27071200992340344 0.9191889003192201 -0.27071200992340344
107.15193052376064 0.9139523324165283 -0.2785948581476776 0.08604766758347165 0.2785948581476776 0.08604766758347165 0.2785948581476776 0.9139523324165283 -0.2785948581476776
110.9174815262401 0.908409275565391 -0.2866007468706747 0.09159072443460907 0.2866007468706747 0.09159072443460907 0.2866007468706747 0.908409275565391 -0.2866007468706747
114.81536214968828 0.9025462395125724 -0.29472077337131086 0.09745376048742763 0.29472077337131086 0.09745376048742763 0.29472077337131086 0.9025462395125724 -0.29472077337131086
118.85022274370185 0.896349736035732 -0.3029448304347467 0.10365026396426813 0.3029448304347467 0.10365026396426813 0.3029448304347467 0.896349736035732 -0.3029448304347467
123.02687708123815 0.8898063696793985 -0.31126154517719384 0.1101936303206015 0.31126154517719384 0.1101936303206015 0.31126154517719384 0.8898063696793985 -0.31126154517719384
127.35030810166617 0.8829029394581515 -0.31965822273175565 0.11709706054184862 0.31965822273175565 0.11709706054184862 0.31965822273175565 0.8829029394581515 -0.31965822273175565
131.8256738556407 0.8756265517329096 -0.32812079633599883 0.12437344826709056 0.32812079633599883 0.12437344826709056 0.32812079633599883 0.8756265517329096 -0.32812079633599883
136.45831365889245 0.8679647442842491 -0.33663378550531997 0.1320352557157507 0.33663378550531997 0.1320352557157507 0.33663378550531997 0.8679647442842491 -0.33663378550531997
141.25375446227542 0.859905621388353 -0.34518026410471186 0.1400943786116469 0.34518026410471186 0.1400943786116469 0.34518026410471186 0.859905621388353 -0.34518026410471186
146.21771744567184 0.851437999445765 -0.353741840237833 0.14856200055423502 0.353741840237833 0.14856200055423502 0.353741840237833 0.851437999445765 -0.353741840237833
151.35612484362082 0.8425515624210573 -0.3622986499481204 0.15744843757894264 0.3622986499481204 0.15744843757894264 0.3622986499481204 0.8425515624210573 -0.3622986499481204
156.6751070108149 0.8332370260248948 -0.37082936676310185 0.16676297397510528 0.37082936676310185 0.16676297397510528 0.37082936676310185 0.8332370260248948 -0.37082936676310185
162.181009735893 0.8234863092128177 -0.3793112291007191 0.17651369078718215 0.3793112291007191 0.17651369078718215 0.3793112291007191 0.8234863092128177 -0.3793112291007191
167.88040181225603 0.8132927111935357 -0.3877200874859587 0.18670728880646434 0.3877200874859587 0.18670728880646434 0.3877200874859587 0.8132927111935357 -0.3877200874859587
173.78008287493756 0.8026510917421872 -0.3960304733884019 0.19734890825781284 0.3960304733884019 0.19734890825781284 0.3960304733884019 0.8026510917421872 -0.3960304733884019
179.88709151287878 0.7915580522120201 -0.40421569127843476 0.20844194778797995 0.40421569127843476 0.20844194778797995 0.40421569127843476 0.7915580522120201 -0.40421569127843476
186.20871366628674 0.7800121142448633 -0.4122479352053829 0.21998788575513692 0.4122479352053829 0.21998788575513692 0.4122479352053829 0.7800121142448633 -0.4122479352053829
192.7524913190936 0.7680138928126661 -0.4200984308206844 0.23198610718733398 0.4200984308206844 0.23198610718733398 0.4200984308206844 0.7680138928126661 -0.4200984308206844
199.526231496888 0.7555662598972955 -0.42773760330235117 0.24443374010270436 0.42773760330235117 0.24443374010270436 0.42773760330235117 0.7555662598972955 -0.42773760330235117
206.53801558105292 0.7426744948532807 -0.4351352710861277 0.25732550514671926 0.4351352710861277 0.25732550514671926 0.4351352710861277 0.7426744948532807 -0.4351352710861277
213.79620895022322 0.7293464173185632 -0.4422608646810625 0.27065358268143674 0.4422608646810625 0.27065358268143674 0.4422608646810625 0.7293464173185632 -0.4422608646810625
221.30947096056377 0.7155924984615836 -0.44908366915463266 0.2844075015384165 0.44908366915463266 0.2844075015384165 0.44908366915463266 0.7155924984615836 -0.44908366915463266
229.08676527677733 0.7014259463977676 -0.45557308813222047 0.2985740536022324 0.45557308813222047 0.2985740536022324 0.45557308813222047 0.7014259463977676 -0.45557308813222047
237.13737056616552 0.6868627617905394 -0.4616989263898093 0.31313723820946043 0.4616989263898093 0.31313723820946043 0.4616989263898093 0.6868627617905394 -0.4616989263898093
245.47089156850305 0.671921759983009 -0.4674316873541136 0.32807824001699093 0.4674316873541136 0.32807824001699093 0.4674316873541136 0.671921759983009 -0.4674316873541136
254.09727055493053 0.6566245564926194 -0.47274288109179297 0.34337544350738053 0.47274288109179297 0.34337544350738053 0.47274288109179297 0.6566245564926194 -0.47274288109179297
263.0267991895382 0.6409955133416491 -0.4776053377024273 0.3590044866583509 0.4776053377024273 0.3590044866583509 0.4776053377024273 0.6409955133416491 -0.4776053377024273
272.27013080779125 0.6250616444832039 -0.4819935204632171 0.3749383555167961 0.4819935204632171 0.3749383555167961 0.4819935204632171 0.6250616444832039 -0.4819935204632171
281.83829312644536 0.6088524794985103 -0.4858838326408386 0.3911475205014896 0.4858838326408386 0.3911475205014896 0.4858838326408386 0.6088524794985103 -0.4858838326408386
291.7427014001167 0.5923998857618957 -0.48925491161853535 0.40760011423810416 0.48925491161853535 0.40760011423810416 0.48925491161853535 0.5923998857618957 -0.48925491161853535
301.9951720402016 0.5757378503618413 -0.4920879039103004 0.4242621496381588 0.4920879039103004 0.4242621496381588 0.4920879039103004 0.5757378503618413 -0.4920879039103004
312.6079367123955 0.5589022241902698 -0.49436671476754607 0.4410977758097304 0.49436671476754607 0.4410977758097304 0.49436671476754607 0.5589022241902698 -0.49436671476754607
323.59365692962825 0.541930431723038 -0.49607822643659066 0.45806956827696194 0.49607822643659066 0.45806956827696194 0.49607822643659066 0.541930431723038 -0.49607822643659066
334.96543915782763 0.5248611510651032 -0.49721247969667265 0.4751388489348968 0.49721247969667265 0.4751388489348968 0.49721247969667265 0.5248611510651032 -0.49721247969667265
346.7368504525316 0.5077339697765478 -0.49776281408591266 0.49226603022345217 0.49776281408591266 0.49226603022345217 0.49776281408591266 0.5077339697765478 -0.49776281408591266
358.9219346450052 0.4905890227861085 -0.49772596318326173 0.5094109772138914 0.49772596318326173 0.5094109772138914 0.49772596318326173 0.4905890227861085 -0.49772596318326173
371.53522909717253 0.4734666192982998 -0.4971021024241482 0.5265333807017003 0.4971021024241482 0.5265333807017003 0.4971021024241482 0.4734666192982998 -0.4971021024241482
384.59178204535357 0.4564068659783487 -0.49589484814357054 0.5435931340216512 0.49589484814357054 0.5435931340216512 0.49589484814357054 0.4564068659783487 -0.49589484814357054
398.10717055349727 0.43944929383628295 -0.4941112078135842 0.560550706163717 0.4941112078135842 0.560550706163717 0.4941112078135842 0.43944929383628295 -0.4941112078135842
412.0975190973302 0.42263249611988885 -0.49176148271960424 0.577367503880111 0.49176148271960424 0.577367503880111 0.49176148271960424 0.42263249611988885 -0.49176148271960424
426.5795188015926 0.4059937841708708 -0.48885912554840727 0.5940062158291292 0.48885912554840727 0.5940062158291292 0.48885912554840727 0.4059937841708708 -0.48885912554840727
441.57044735331243 0.38956886761664966 -0.48542055648957766 0.6104311323833503 0.48542055648957766 0.6104311323833503 0.48542055648957766 0.38956886761664966 -0.48542055648957766
457.0881896148751 0.3733915644902856 -0.48146494243670046 0.6266084355097145 0.48146494243670046 0.6266084355097145 0.48146494243670046 0.3733915644902856 -0.48146494243670046
473.15125896148055 0.3574935459306876 -0.4770139446784718 0.6425064540693124 0.4770139446784718 0.6425064540693124 0.4770139446784718 0.3574935459306876 -0.4770139446784718
489.77881936844625 0.3419041190588642 -0.47209144106702444 0.6580958809411359 0.47209144106702444 0.6580958809411359 0.47209144106702444 0.3419041190588642 -0.47209144106702444
506.9907082747043 0.3266500505016261 -0.46672322902645635 0.673349949498374 0.46672322902645635 0.673349949498374 0.46672322902645635 0.3266500505016261 -0.46672322902645635
524.8074602497726 0.31175543189059535 -0.4609367159157825 0.6882445681094045 0.4609367159157825 0.6882445681094045 0.4609367159157825 0.31175543189059535 -0.4609367159157825
543.2503314924331 0.2972415875483412 -0.45476060319537076 0.702758412451659 0.45476060319537076 0.702758412451659 0.45476060319537076 0.2972415875483412 -0.45476060319537076
562.3413251903492 0.2831270235268044 -0.44822457058224713 0.7168729764731956 0.44822457058224713 0.7168729764731956 0.44822457058224713 0.2831270235268044 -0.44822457058224713
582.1032177708714 0.26942741622120975 -0.4413589659433582 0.7305725837787902 0.4413589659433582 0.7305725837787902 0.4413589659433582 0.26942741622120975 -0.4413589659433582
602.5595860743578 0.2561556379724722 -0.43419450609857635 0.7438443620275277 0.43419450609857635 0.7438443620275277 0.43419450609857635 0.2561556379724722 -0.43419450609857635
623.7348354824193 0.24332181641115874 -0.42676199302208645 0.7566781835888413 0.42676199302208645 0.7566781835888413 0.42676199302208645 0.24332181641115874 -0.42676199302208645
645.6542290346556 0.23093342379584747 -0.4190920491779864 0.7690665762041526 0.4190920491779864 0.7690665762041526 0.4190920491779864 0.23093342379584747 -0.4190920491779864
668.3439175686148 0.21899539225957967 -0.41121487493878756 0.7810046077404202 0.41121487493878756 0.7810046077404202 0.41121487493878756 0.21899539225957967 -0.41121487493878756
691.8309709189366 0.20751025069391418 -0.4031600302465227 0.792489749306086 0.4031600302465227 0.792489749306086 0.4031600302465227 0.20751025069391418 -0.4031600302465227
716.1434102129019 0.19647827895884196 -0.39495624191386797 0.803521721041158 0.39495624191386797 0.803521721041158 0.39495624191386797 0.19647827895884196 -0.39495624191386797
741.3102413009174 0.18589767519186776 -0.386631237250524 0.8141023248081322 0.386631237250524 0.8141023248081322 0.386631237250524 0.18589767519186776 -0.386631237250524
767.3614893618189 0.17576473218128036 -0.3782116040561623 0.8242352678187197 0.3782116040561623 0.8242352678187197 0.3782116040561623 0.17576473218128036 -0.3782116040561623
794.3282347242814 0.16607401904582858 -0.3697226764580838 0.8339259809541714 0.3697226764580838 0.8339259809541714 0.3697226764580838 0.16607401904582858 -0.3697226764580838
822.2426499470711 0.15681856480419787 -0.36118844559669105 0.8431814351958019 0.36118844559669105 0.8431814351958019 0.36118844559669105 0.15681856480419787 -0.36118844559669105
851.1380382023765 0.14799004080219985 -0.35263149377755976 0.8520099591978002 0.35263149377755976 0.8520099591978002 0.35263149377755976 0.14799004080219985 -0.35263149377755976
881.0488730080142 0.13957893937444432 -0.3440729504139397 0.8604210606255558 0.3440729504139397 0.8604210606255558 0.3440729504139397 0.13957893937444432 -0.3440729504139397
912.0108393559099 0.131574746533691 -0.3355324678732607 0.8684252534663088 0.3355324678732607 0.8684252534663088 0.3355324678732607 0.131574746533691 -0.3355324678732607
944.0608762859234 0.12396610689094847 -0.3270282152086304 0.8760338931090514 0.3270282152086304 0.8760338931090514 0.3270282152086304 0.12396610689094847 -0.3270282152086304
977.2372209558108 0.11674097940128553 -0.3185768876926674 0.8832590205987144 0.3185768876926674 0.8832590205987144 0.3185768876926674 0.11674097940128553 -0.3185768876926674
1011.5794542598987 0.10988678289557745 -0.310193730066657 0.8901132171044226 0.310193730066657 0.8901132171044226 0.310193730066657 0.10988678289557745 -0.310193730066657
1047.1285480508998 0.10339053069091036 -0.3018925714629406 0.8966094693090898 0.3018925714629406 0.8966094693090898 0.3018925714629406 0.10339053069091036 -0.3018925714629406
1083.9269140212034 0.09723895386830497 -0.2936858700428116 0.9027610461316949 0.2936858700428116 0.9027610461316949 0.2936858700428116 0.09723895386830497 -0.2936858700428116
1122.0184543019632 0.09141861306396709 -0.28558476550665335 0.9085813869360329 0.28558476550665335 0.9085813869360329 0.28558476550665335 0.09141861306396709 -0.28558476550665335
1161.4486138403427 0.08591599883927749 -0.27759913776911355 0.9140840011607226 0.27759913776911355 0.9140840011607226 0.27759913776911355 0.08591599883927749 -0.27759913776911355
1202.2644346174127 0.08071762087631747 -0.26973767024221307 0.9192823791236825 0.26973767024221307 0.9192823791236825 0.26973767024221307 0.08071762087631747 -0.26973767024221307
1244.514611771385 0.07581008639201307 -0.2620079163269396 0.9241899136079869 0.2620079163269396 0.9241899136079869 0.2620079163269396 0.07581008639201307 -0.2620079163269396
1288.249551693134 0.07118016827777572 -0.25441636787368765 0.9288198317222243 0.25441636787368765 0.9288198317222243 0.25441636787368765 0.07118016827777572 -0.25441636787368765
1333.5214321633239 0.0668148635560325 -0.24696852452949172 0.9331851364439676 0.24696852452949172 0.9331851364439676 0.24696852452949172 0.0668148635560325 -0.24696852452949172
1380.384264602885 0.06270144280372618 -0.2396689630419726 0.9372985571962739 0.2396689630419726 0.9372985571962739 0.2396689630419726 0.06270144280372618 -0.2396689630419726
1428.893958511103 0.058827491229188386 -0.2325214057337578 0.9411725087708116 0.2325214057337578 0.9411725087708116 0.2325214057337578 0.058827491229188386 -0.2325214057337578
1479.1083881682075 0.05518094210613124 -0.2255287874950606 0.9448190578938688 0.2255287874950606 0.9448190578938688 0.2255287874950606 0.05518094210613124 -0.2255287874950606
1531.0874616820304 0.05175010327006314 -0.21869332076501893 0.9482498967299368 0.21869332076501893 0.9482498967299368 0.21869332076501893 0.05175010327006314 -0.21869332076501893
1584.8931924611136 0.0485236773711451 -0.2120165580836817 0.9514763226288548 0.2120165580836817 0.9514763226288548 0.2120165580836817 0.0485236773711451 -0.2120165580836817
1640.5897731995396 0.0454907765560272 -0.2054994518960425 0.9545092234439728 0.2054994518960425 0.9545092234439728 0.2054994518960425 0.0454907765560272 -0.2054994518960425
1698.2436524617442 0.04264093222189112 -0.19914241137740865 0.9573590677781088 0.19914241137740865 0.9573590677781088 0.19914241137740865 0.04264093222189112 -0.19914241137740865
1757.9236139586924 0.03996410045082224 -0.19294535612606345 0.9600358995491779 0.19294535612606345 0.9600358995491779 0.19294535612606345 0.03996410045082224 -0.19294535612606345
1819.7008586099835 0.03745066369351213 -0.1869077666352201 0.9625493363064878 0.1869077666352201 0.9625493363064878 0.1869077666352201 0.03745066369351213 -0.1869077666352201
1883.6490894898002 0.03509142922963634 -0.18102873151236865 0.9649085707703637 0.18102873151236865 0.9649085707703637 0.18102873151236865 0.03509142922963634 -0.18102873151236865
1949.8445997580454 0.032877624889314165 -0.17530699146105566 0.9671223751106859 0.17530699146105566 0.9671223751106859 0.17530699146105566 0.032877624889314165 -0.17530699146105566
2018.3663636815609 0.030800892476867316 -0.16974098007873306 0.9691991075231328 0.16974098007873306 0.9691991075231328 0.16974098007873306 0.030800892476867316 -0.16974098007873306
2089.29613085404 0.028853279295477957 -0.16432886155535928 0.9711467207045219 0.16432886155535928 0.9711467207045219 0.16432886155535928 0.028853279295477957 -0.16432886155535928
2162.7185237270205 0.02702722812997957 -0.15906856538178824 0.9729727718700204 0.15906856538178824 0.9729727718700204 0.15906856538178824 0.02702722812997957 -0.15906856538178824
2238.7211385683395 0.025315566005394693 -0.1539578181953728 0.9746844339946054 0.1539578181953728 0.9746844339946054 0.1539578181953728 0.025315566005394693 -0.1539578181953728
2317.394649968479 0.023711492001362695 -0.14899417290345238 0.9762885079986374 0.14899417290345238 0.9762885079986374 0.14899417290345238 0.023711492001362695 -0.14899417290345238
2398.832919019491 0.02220856436753827 -0.14417503523415293 0.977791435632462 0.14417503523415293 0.977791435632462 0.14417503523415293 0.02220856436753827 -0.14417503523415293
2483.1331052955707 0.020800687152572758 -0.13949768786890174 0.9791993128474271 0.13949768786890174 0.9791993128474271 0.13949768786890174 0.020800687152572758 -0.13949768786890174
2570.3957827688632 0.019482096529507796 -0.1349593123128548 0.980517903470492 0.1349593123128548 0.980517903470492 0.1349593123128548 0.019482096529507796 -0.1349593123128548
2660.725059798809 0.018247346973337648 -0.13055700865861053 0.9817526530266624 0.13055700865861053 0.9817526530266624 0.13055700865861053 0.018247346973337648 -0.13055700865861053
2754.2287033381663 0.017091297422104003 -0.12628781339566886 0.9829087025778961 0.12628781339566886 0.9829087025778961 0.12628781339566886 0.017091297422104003 -0.12628781339566886
2851.018267503909 0.0160090975310905 -0.12214871541352318 0.9839909024689094 0.12214871541352318 0.9839909024689094 0.12214871541352318 0.0160090975310905 -0.12214871541352318
2951.209226666386 0.014996174110368904 -0.11813667034046757 0.9850038258896312 0.11813667034046757 0.9850038258896312 0.11813667034046757 0.014996174110368904 -0.11813667034046757
3054.9211132155133 0.014048217818967436 -0.11424861335349991 0.9859517821810324 0.11424861335349991 0.9859517821810324 0.11424861335349991 0.014048217818967436 -0.11424861335349991
3162.277660168379 0.013161170174117063 -0.11048147058740156 0.9868388298258829 0.11048147058740156 0.9868388298258829 0.11048147058740156 0.013161170174117063 -0.11048147058740156
3273.406948788382 0.012331210921207732 -0.10683216926343597 0.9876687890787922 0.10683216926343597 0.9876687890787922 0.10683216926343597 0.012331210921207732 -0.10683216926343597
3388.4415613920255 0.01155474579906554 -0.10329764665032203 0.9884452542009344 0.10329764665032203 0.9884452542009344 0.10329764665032203 0.01155474579906554 -0.10329764665032203
3507.5187395256803 0.010828394725762773 -0.09987485796237944 0.9891716052742373 0.09987485796237944 0.9891716052742373 0.09987485796237944 0.010828394725762773 -0.09987485796237944
3630.7805477010143 0.010148980422213882 -0.09656078329213472 0.9898510195777861 0.09656078329213472 0.9898510195777861 0.09656078329213472 0.010148980422213882 -0.09656078329213472
3758.374042884442 0.009513517484120737 -0.09335243366731136 0.9904864825158792 0.09335243366731136 0.9904864825158792 0.09335243366731136 0.009513517484120737 -0.09335243366731136
3890.451449942807 0.008919201907250231 -0.09024685631507628 0.9910807980927497 0.09024685631507628 0.9910807980927497 0.09024685631507628 0.008919201907250231 -0.09024685631507628
4027.170343254592 0.00836340106640918 -0.08724113920972061 0.9916365989335906 0.08724113920972061 0.9916365989335906 0.08724113920972061 0.00836340106640918 -0.08724113920972061
4168.693834703356 0.007843644144692593 -0.08433241497364166 0.9921563558553074 0.08433241497364166 0.9921563558553074 0.08433241497364166 0.007843644144692593 -0.08433241497364166
4315.190768277653 0.007357613006503054 -0.08151786419557175 0.9926423869934968 0.08151786419557175 0.9926423869934968 0.08151786419557175 0.007357613006503054 -0.08151786419557175
