!Murata Part Number: RDEC71E106K2K1H03B
!These Parameters are Measured in Series Mode Connection
!       o--ll--o
!Port1            Port2
!       o------o
!Operation Temp=25[degC], DC Bias Voltage=0[V]
!Freq. Start=100[Hz] Stop=100[MHz], 401[Steps]
!Data Generated on Dec 23, 2019
# Hz S RI R 50
!Freq.(Hz) S11(Real) S11(Imag) S21(Real) S21(Imag) S12(Real) S12(Imag) S22(Real) S22(Imag)
100.0 0.7342960459976853 -0.4394638113484779 0.2657039540023147 0.4394638113484779 0.2657039540023147 0.4394638113484779 0.7342960459976853 -0.4394638113484779
103.51421666793439 0.720710950552006 -0.44640686571221677 0.27928904944799404 0.44640686571221677 0.27928904944799404 0.44640686571221677 0.720710950552006 -0.44640686571221677
107.15193052376064 0.7067067384499073 -0.4530289069242479 0.2932932615500926 0.4530289069242479 0.2932932615500926 0.4530289069242479 0.7067067384499073 -0.4530289069242479
110.9174815262401 0.6922982439667117 -0.45929931883430053 0.3077017560332883 0.45929931883430053 0.3077017560332883 0.45929931883430053 0.6922982439667117 -0.45929931883430053
114.81536214968828 0.6775031543254266 -0.46518805318849143 0.32249684567457343 0.46518805318849143 0.32249684567457343 0.46518805318849143 0.6775031543254266 -0.46518805318849143
118.85022274370185 0.66234201252409 -0.47066594198221556 0.3376579874759099 0.47066594198221556 0.3376579874759099 0.47066594198221556 0.66234201252409 -0.47066594198221556
123.02687708123815 0.6468381803881905 -0.4757050178785601 0.3531618196118096 0.4757050178785601 0.3531618196118096 0.4757050178785601 0.6468381803881905 -0.4757050178785601
127.35030810166617 0.6310177596388284 -0.48027883694100126 0.3689822403611715 0.48027883694100126 0.3689822403611715 0.48027883694100126 0.6310177596388284 -0.48027883694100126
131.8256738556407 0.614909469701845 -0.4843627974029603 0.38509053029815493 0.4843627974029603 0.38509053029815493 0.4843627974029603 0.614909469701845 -0.4843627974029603
136.45831365889245 0.5985444820429835 -0.4879344478397121 0.40145551795701656 0.4879344478397121 0.40145551795701656 0.4879344478397121 0.5985444820429835 -0.4879344478397121
141.25375446227542 0.5819562119654518 -0.4909737779512084 0.4180437880345484 0.4909737779512084 0.4180437880345484 0.4909737779512084 0.5819562119654518 -0.4909737779512084
146.21771744567184 0.565180070006892 -0.49346348523119987 0.4348199299931079 0.49346348523119987 0.4348199299931079 0.49346348523119987 0.565180070006892 -0.49346348523119987
151.35612484362082 0.5482531762744431 -0.49538921110238854 0.4517468237255568 0.49538921110238854 0.4517468237255568 0.49538921110238854 0.5482531762744431 -0.49538921110238854
156.6751070108149 0.5312140422071403 -0.49673974064146575 0.4687859577928597 0.49673974064146575 0.4687859577928597 0.49673974064146575 0.5312140422071403 -0.49673974064146575
162.181009735893 0.5141022253014437 -0.4975071607914422 0.4858977746985563 0.4975071607914422 0.4858977746985563 0.4975071607914422 0.5141022253014437 -0.4975071607914422
167.88040181225603 0.49695796322789537 -0.4976869729385228 0.5030420367721047 0.4976869729385228 0.5030420367721047 0.4976869729385228 0.49695796322789537 -0.4976869729385228
173.78008287493756 0.47982179446034967 -0.497278156881764 0.5201782055396503 0.497278156881764 0.5201782055396503 0.497278156881764 0.47982179446034967 -0.497278156881764
179.88709151287878 0.46273417299851144 -0.4962831845004397 0.5372658270014886 0.4962831845004397 0.5372658270014886 0.4962831845004397 0.46273417299851144 -0.4962831845004397
186.20871366628674 0.44573508496574726 -0.49470798277321515 0.5542649150342527 0.49470798277321515 0.5542649150342527 0.49470798277321515 0.44573508496574726 -0.49470798277321515
192.7524913190936 0.42886367479677767 -0.4925618471671529 0.5711363252032226 0.4925618471671529 0.5711363252032226 0.4925618471671529 0.42886367479677767 -0.4925618471671529
199.526231496888 0.41215788839735795 -0.4898573077345525 0.5878421116026419 0.4898573077345525 0.5878421116026419 0.4898573077345525 0.41215788839735795 -0.4898573077345525
206.53801558105292 0.39565414007777905 -0.48660995147570735 0.6043458599222211 0.48660995147570735 0.6043458599222211 0.48660995147570735 0.39565414007777905 -0.48660995147570735
213.79620895022322 0.37938700926382424 -0.48283820559605745 0.6206129907361758 0.48283820559605745 0.6206129907361758 0.48283820559605745 0.37938700926382424 -0.48283820559605745
221.30947096056377 0.363388972012993 -0.478563087166267 0.6366110279870071 0.478563087166267 0.6366110279870071 0.478563087166267 0.363388972012993 -0.478563087166267
229.08676527677733 0.34769017125820145 -0.4738079253540399 0.6523098287417985 0.4738079253540399 0.6523098287417985 0.4738079253540399 0.34769017125820145 -0.4738079253540399
237.13737056616552 0.3323182285179196 -0.46859806282016625 0.6676817714820803 0.46859806282016625 0.6676817714820803 0.46859806282016625 0.3323182285179196 -0.46859806282016625
245.47089156850305 0.31729809860390407 -0.4629605430543256 0.6827019013960959 0.4629605430543256 0.6827019013960959 0.4629605430543256 0.31729809860390407 -0.4629605430543256
254.09727055493053 0.302651967676089 -0.45692379037677827 0.6973480323239108 0.45692379037677827 0.6973480323239108 0.45692379037677827 0.302651967676089 -0.45692379037677827
263.0267991895382 0.28839919388447244 -0.45051728906926003 0.7116008061155276 0.45051728906926003 0.7116008061155276 0.45051728906926003 0.28839919388447244 -0.45051728906926003
272.27013080779125 0.27455628883831795 -0.4437712676499262 0.7254437111616822 0.4437712676499262 0.7254437111616822 0.4437712676499262 0.27455628883831795 -0.4437712676499262
281.83829312644536 0.2611369372831999 -0.43671639370719983 0.7388630627167999 0.43671639370719983 0.7388630627167999 0.43671639370719983 0.2611369372831999 -0.43671639370719983
291.7427014001167 0.2481520516662515 -0.4293834839937014 0.7518479483337486 0.4293834839937014 0.7518479483337486 0.4293834839937014 0.2481520516662515 -0.4293834839937014
301.9951720402016 0.23560985773979143 -0.4218032336931543 0.7643901422602085 0.4218032336931543 0.7643901422602085 0.4218032336931543 0.23560985773979143 -0.4218032336931543
312.6079367123955 0.22351600699454566 -0.41400596794823463 0.7764839930054545 0.41400596794823463 0.7764839930054545 0.41400596794823463 0.22351600699454566 -0.41400596794823463
323.59365692962825 0.21187371151936804 -0.4060214179107314 0.7881262884806318 0.4060214179107314 0.7881262884806318 0.4060214179107314 0.21187371151936804 -0.4060214179107314
334.96543915782763 0.2006838968415386 -0.39787852277760616 0.7993161031584615 0.39787852277760616 0.7993161031584615 0.39787852277760616 0.2006838968415386 -0.39787852277760616
346.7368504525316 0.18994536839238868 -0.3896052585326419 0.8100546316076114 0.3896052585326419 0.8100546316076114 0.3896052585326419 0.18994536839238868 -0.3896052585326419
358.9219346450052 0.17965498744597416 -0.38122849344253085 0.8203450125540257 0.38122849344253085 0.8203450125540257 0.38122849344253085 0.17965498744597416 -0.38122849344253085
371.53522909717253 0.16980785267093587 -0.37277386977164434 0.8301921473290641 0.37277386977164434 0.8301921473290641 0.37277386977164434 0.16980785267093587 -0.37277386977164434
384.59178204535357 0.16039748379448784 -0.3642657106889057 0.8396025162055123 0.3642657106889057 0.8396025162055123 0.3642657106889057 0.16039748379448784 -0.3642657106889057
398.10717055349727 0.1514160042805673 -0.35572695094564427 0.8485839957194328 0.35572695094564427 0.8485839957194328 0.35572695094564427 0.1514160042805673 -0.35572695094564427
412.0975190973302 0.14285432035126683 -0.34717908960316346 0.8571456796487332 0.34717908960316346 0.8571456796487332 0.34717908960316346 0.14285432035126683 -0.34717908960316346
426.5795188015926 0.13470229411402118 -0.3386421628777754 0.8652977058859788 0.3386421628777754 0.8652977058859788 0.3386421628777754 0.13470229411402118 -0.3386421628777754
441.57044735331243 0.1269489089816807 -0.3301347350413372 0.8730510910183192 0.3301347350413372 0.8730510910183192 0.3301347350413372 0.1269489089816807 -0.3301347350413372
457.0881896148751 0.11958242597668634 -0.3216739052573124 0.8804175740233139 0.3216739052573124 0.8804175740233139 0.3216739052573124 0.11958242597668634 -0.3216739052573124
473.15125896148055 0.11259052988511736 -0.3132753282355333 0.8874094701148827 0.3132753282355333 0.8874094701148827 0.3132753282355333 0.11259052988511736 -0.3132753282355333
489.77881936844625 0.10596046456523317 -0.30495324664231527 0.8940395354347668 0.30495324664231527 0.8940395354347668 0.30495324664231527 0.10596046456523317 -0.30495324664231527
506.9907082747043 0.09967915701460782 -0.2967205332957716 0.9003208429853922 0.2967205332957716 0.9003208429853922 0.2967205332957716 0.09967915701460782 -0.2967205332957716
524.8074602497726 0.09373333005849518 -0.2885887412991419 0.9062666699415047 0.2885887412991419 0.9062666699415047 0.2885887412991419 0.09373333005849518 -0.2885887412991419
543.2503314924331 0.08810960373988785 -0.280568160408653 0.9118903962601121 0.280568160408653 0.9118903962601121 0.280568160408653 0.08810960373988785 -0.280568160408653
562.3413251903492 0.08279458567038932 -0.2726678780889458 0.9172054143296107 0.2726678780889458 0.9172054143296107 0.2726678780889458 0.08279458567038932 -0.2726678780889458
582.1032177708714 0.07777495074312125 -0.2648958438717309 0.9222250492568789 0.2648958438717309 0.9222250492568789 0.2648958438717309 0.07777495074312125 -0.2648958438717309
602.5595860743578 0.07303751071765667 -0.25725893579651643 0.9269624892823434 0.25725893579651643 0.9269624892823434 0.25725893579651643 0.07303751071765667 -0.25725893579651643
623.7348354824193 0.06856927426609967 -0.24976302787165175 0.9314307257339005 0.24976302787165175 0.9314307257339005 0.24976302787165175 0.06856927426609967 -0.24976302787165175
645.6542290346556 0.06435749812271334 -0.2424130576462025 0.9356425018772866 0.2424130576462025 0.9356425018772866 0.2424130576462025 0.06435749812271334 -0.2424130576462025
668.3439175686148 0.060389730010748696 -0.23521309312597258 0.9396102699892512 0.23521309312597258 0.9396102699892512 0.23521309312597258 0.060389730010748696 -0.23521309312597258
691.8309709189366 0.05665384403297663 -0.2281663983987313 0.9433461559670232 0.2281663983987313 0.9433461559670232 0.2281663983987313 0.05665384403297663 -0.2281663983987313
716.1434102129019 0.05313806921026025 -0.22127549745352024 0.9468619307897396 0.22127549745352024 0.9468619307897396 0.22127549745352024 0.05313806921026025 -0.22127549745352024
741.3102413009174 0.049831011838384974 -0.21454223578644124 0.950168988161615 0.21454223578644124 0.950168988161615 0.21454223578644124 0.049831011838384974 -0.21454223578644124
767.3614893618189 0.04672167231001216 -0.2079678394806584 0.953278327689988 0.2079678394806584 0.953278327689988 0.2079678394806584 0.04672167231001216 -0.2079678394806584
794.3282347242814 0.04379945701838781 -0.20155297153186305 0.9562005429816122 0.20155297153186305 0.9562005429816122 0.20155297153186305 0.04379945701838781 -0.20155297153186305
822.2426499470711 0.041054185924339834 -0.19529778526277486 0.9589458140756602 0.19529778526277486 0.9589458140756602 0.19529778526277486 0.041054185924339834 -0.19529778526277486
851.1380382023765 0.038476096329818986 -0.18920197473215197 0.961523903670181 0.18920197473215197 0.961523903670181 0.18920197473215197 0.038476096329818986 -0.18920197473215197
881.0488730080142 0.03605584336116027 -0.1832648220960953 0.9639441566388397 0.1832648220960953 0.9639441566388397 0.1832648220960953 0.03605584336116027 -0.1832648220960953
912.0108393559099 0.03378449762449832 -0.17748524192306336 0.9662155023755015 0.17748524192306336 0.9662155023755015 0.17748524192306336 0.03378449762449832 -0.17748524192306336
944.0608762859234 0.03165354045524149 -0.17186182249983806 0.9683464595447585 0.17186182249983806 0.9683464595447585 0.17186182249983806 0.03165354045524149 -0.17186182249983806
977.2372209558108 0.029654857143896363 -0.16639286419457752 0.9703451428561037 0.16639286419457752 0.9703451428561037 0.16639286419457752 0.029654857143896363 -0.16639286419457752
1011.5794542598987 0.02778072848236305 -0.16107641496588973 0.9722192715176369 0.16107641496588973 0.9722192715176369 0.16107641496588973 0.02778072848236305 -0.16107641496588973
1047.1285480508998 0.026023820938471286 -0.15591030312431572 0.9739761790615288 0.15591030312431572 0.9739761790615288 0.15591030312431572 0.026023820938471286 -0.15591030312431572
1083.9269140212034 0.024377175732283093 -0.1508921674654816 0.975622824267717 0.1508921674654816 0.975622824267717 0.1508921674654816 0.024377175732283093 -0.1508921674654816
1122.0184543019632 0.022834197055711044 -0.14601948490308456 0.9771658029442889 0.14601948490308456 0.9771658029442889 0.14601948490308456 0.022834197055711044 -0.14601948490308456
1161.4486138403427 0.021388639647404284 -0.14128959573544714 0.9786113603525958 0.14128959573544714 0.9786113603525958 0.14128959573544714 0.021388639647404284 -0.14128959573544714
1202.2644346174127 0.02003459590766845 -0.13669972668214003 0.9799654040923317 0.13669972668214003 0.9799654040923317 0.13669972668214003 0.02003459590766845 -0.13669972668214003
1244.514611771385 0.018766482713401606 -0.13224701182762377 0.9812335172865985 0.13224701182762377 0.9812335172865985 0.13224701182762377 0.018766482713401606 -0.13224701182762377
1288.249551693134 0.01757902807059395 -0.12792851160743018 0.9824209719294061 0.12792851160743018 0.9824209719294061 0.12792851160743018 0.01757902807059395 -0.12792851160743018
1333.5214321633239 0.01646725772177103 -0.12374122996948149 0.9835327422782291 0.12374122996948149 0.9835327422782291 0.12374122996948149 0.01646725772177103 -0.12374122996948149
1380.384264602885 0.015426481807751899 -0.11968212983906486 0.9845735181922481 0.11968212983906486 0.9845735181922481 0.11968212983906486 0.015426481807751899 -0.11968212983906486
1428.893958511103 0.014452281667118632 -0.11574814701104438 0.9855477183328815 0.11574814701104438 0.9855477183328815 0.11574814701104438 0.014452281667118632 -0.11574814701104438
1479.1083881682075 0.013540496842712156 -0.11193620258734699 0.9864595031572878 0.11193620258734699 0.9864595031572878 0.11193620258734699 0.013540496842712156 -0.11193620258734699
1531.0874616820304 0.012687212352134271 -0.10824321407183447 0.9873127876478657 0.10824321407183447 0.9873127876478657 0.10824321407183447 0.012687212352134271 -0.10824321407183447
1584.8931924611136 0.011888746268490546 -0.10466610522853642 0.9881112537315097 0.10466610522853642 0.9881112537315097 0.10466610522853642 0.011888746268490546 -0.10466610522853642
1640.5897731995396 0.011141637648301101 -0.10120181480303336 0.9888583623516988 0.10120181480303336 0.9888583623516988 0.10120181480303336 0.011141637648301101 -0.10120181480303336
1698.2436524617442 0.010442634835479405 -0.09784730420065375 0.9895573651645204 0.09784730420065375 0.9895573651645204 0.09784730420065375 0.010442634835479405 -0.09784730420065375
1757.9236139586924 0.009788684163384829 -0.09459956420917714 0.990211315836615 0.09459956420917714 0.990211315836615 0.09459956420917714 0.009788684163384829 -0.09459956420917714
1819.7008586099835 0.009176919071049991 -0.09145562084798953 0.9908230809289502 0.09145562084798953 0.9908230809289502 0.09145562084798953 0.009176919071049991 -0.09145562084798953
1883.6490894898002 0.008604649644635025 -0.0884125404201502 0.9913953503553651 0.0884125404201502 0.9913953503553651 0.0884125404201502 0.008604649644635025 -0.0884125404201502
1949.8445997580454 0.008069352590846311 -0.08546743383863745 0.9919306474091537 0.08546743383863745 0.9919306474091537 0.08546743383863745 0.008069352590846311 -0.08546743383863745
2018.3663636815609 0.007568661645366893 -0.08261746029314458 0.9924313383546332 0.08261746029314458 0.9924313383546332 0.08261746029314458 0.007568661645366893 -0.08261746029314458
2089.29613085404 0.007100358416183692 -0.07985983031919838 0.9928996415838164 0.07985983031919838 0.9928996415838164 0.07985983031919838 0.007100358416183692 -0.07985983031919838
2162.7185237270205 0.006662363658980957 -0.07719180832705477 0.993337636341019 0.07719180832705477 0.993337636341019 0.07719180832705477 0.006662363658980957 -0.07719180832705477
2238.7211385683395 0.006252728979431342 -0.0746107146437716 0.9937472710205687 0.0746107146437716 0.9937472710205687 0.0746107146437716 0.006252728979431342 -0.0746107146437716
2317.394649968479 0.005869628955200385 -0.07211392711804486 0.9941303710447997 0.07211392711804486 0.9941303710447997 0.07211392711804486 0.005869628955200385 -0.07211392711804486
2398.832919019491 0.005511353668742976 -0.06969888233379341 0.994488646331257 0.06969888233379341 0.994488646331257 0.06969888233379341 0.005511353668742976 -0.06969888233379341
2483.1331052955707 0.005176301640479151 -0.06736307647507282 0.9948236983595208 0.06736307647507282 0.9948236983595208 0.06736307647507282 0.005176301640479151 -0.06736307647507282
2570.3957827688632 0.004862973150665481 -0.06510406588166233 0.9951370268493346 0.06510406588166233 0.9951370268493346 0.06510406588166233 0.004862973150665481 -0.06510406588166233
2660.725059798809 0.004569963937210468 -0.06291946733159197 0.9954300360627893 0.06291946733159197 0.9954300360627893 0.06291946733159197 0.004569963937210468 -0.06291946733159197
2754.2287033381663 0.004295959255803185 -0.06080695808393739 0.9957040407441968 0.06080695808393739 0.9957040407441968 0.06080695808393739 0.004295959255803185 -0.06080695808393739
2851.018267503909 0.004039728288024891 -0.0587642757124078 0.9959602717119751 0.0587642757124078 0.9959602717119751 0.0587642757124078 0.004039728288024891 -0.0587642757124078
2951.209226666386 0.003800118882583633 -0.056789217757575935 0.9961998811174162 0.056789217757575935 0.9961998811174162 0.056789217757575935 0.003800118882583633 -0.056789217757575935
3054.9211132155133 0.0035760526144448445 -0.054879641223051896 0.9964239473855553 0.054879641223051896 0.9964239473855553 0.054879641223051896 0.0035760526144448445 -0.054879641223051896
3162.277660168379 0.0033665201464164055 -0.05303346193847788 0.9966334798535836 0.05303346193847788 0.9966334798535836 0.05303346193847788 0.0033665201464164055 -0.05303346193847788
3273.406948788382 0.0031705768776765287 -0.051248653809931606 0.9968294231223235 0.051248653809931606 0.9968294231223235 0.051248653809931606 0.0031705768776765287 -0.051248653809931606
3388.4415613920255 0.0029873388637944634 -0.04952324797616128 0.9970126611362056 0.04952324797616128 0.9970126611362056 0.04952324797616128 0.0029873388637944634 -0.04952324797616128
3507.5187395256803 0.002815978992976743 -0.04785533188704974 0.9971840210070232 0.04785533188704974 0.9971840210070232 0.04785533188704974 0.002815978992976743 -0.04785533188704974
3630.7805477010143 0.002655723403561704 -0.04624304831881237 0.9973442765964383 0.04624304831881237 0.9973442765964383 0.04624304831881237 0.002655723403561704 -0.04624304831881237
3758.374042884442 0.002505848128169225 -0.04468459433868026 0.9974941518718307 0.04468459433868026 0.9974941518718307 0.04468459433868026 0.002505848128169225 -0.04468459433868026
3890.451449942807 0.0023656759503769957 -0.043178220230199085 0.9976343240496229 0.043178220230199085 0.9976343240496229 0.043178220230199085 0.0023656759503769957 -0.043178220230199085
4027.170343254592 0.002234573460326491 -0.04172222838879318 0.9977654265396735 0.04172222838879318 0.9977654265396735 0.04172222838879318 0.002234573460326491 -0.04172222838879318
4168.693834703356 0.002111948296247465 -0.04031497219588965 0.9978880517037524 0.04031497219588965 0.9978880517037524 0.04031497219588965 0.002111948296247465 -0.04031497219588965
