!Murata Part Number: RDEC71H106K3M1H03A
!These Parameters are Measured in Series Mode Connection
!       o--ll--o
!Port1            Port2
!       o------o
!Operation Temp=25[degC], DC Bias Voltage=0[V]
!Freq. Start=100[Hz] Stop=100[MHz], 401[Steps]
!Data Generated on Dec 23, 2019
# Hz S RI R 50
!Freq.(Hz) S11(Real) S11(Imag) S21(Real) S21(Imag) S12(Real) S12(Imag) S22(Real) S22(Imag)
100.0 0.7390536872286984 -0.43744431661232647 0.26094631277130165 0.43744431661232647 0.26094631277130165 0.43744431661232647 0.7390536872286984 -0.43744431661232647
103.51421666793439 0.7255908302038073 -0.4445024552156966 0.2744091697961927 0.4445024552156966 0.2744091697961927 0.4445024552156966 0.7255908302038073 -0.4445024552156966
107.15193052376064 0.7117036989264344 -0.4512484021938622 0.28829630107356546 0.4512484021938622 0.28829630107356546 0.4512484021938622 0.7117036989264344 -0.4512484021938622
110.9174815262401 0.6974063350830882 -0.45765137879665196 0.30259366491691186 0.45765137879665196 0.30259366491691186 0.45765137879665196 0.6974063350830882 -0.45765137879665196
114.81536214968828 0.6827156244479945 -0.46368109243317185 0.3172843755520055 0.46368109243317185 0.3172843755520055 0.46368109243317185 0.6827156244479945 -0.46368109243317185
118.85022274370185 0.6676513092772642 -0.4693080447898214 0.33234869072273576 0.4693080447898214 0.33234869072273576 0.4693080447898214 0.6676513092772642 -0.4693080447898214
123.02687708123815 0.6522359619359722 -0.4745038492508662 0.3477640380640279 0.4745038492508662 0.3477640380640279 0.4745038492508662 0.6522359619359722 -0.4745038492508662
127.35030810166617 0.6364949173749463 -0.479241552090446 0.3635050826250537 0.479241552090446 0.3635050826250537 0.479241552090446 0.6364949173749463 -0.479241552090446
131.8256738556407 0.6204561629601816 -0.48349595135275 0.3795438370398183 0.48349595135275 0.3795438370398183 0.48349595135275 0.6204561629601816 -0.48349595135275
136.45831365889245 0.6041501851732707 -0.48724390694293 0.3958498148267293 0.48724390694293 0.3958498148267293 0.48724390694293 0.6041501851732707 -0.48724390694293
141.25375446227542 0.587609773814807 -0.4904646352468857 0.41239022618519305 0.4904646352468857 0.41239022618519305 0.4904646352468857 0.587609773814807 -0.4904646352468857
146.21771744567184 0.570869785514928 -0.4931399816081812 0.42913021448507216 0.4931399816081812 0.42913021448507216 0.4931399816081812 0.570869785514928 -0.4931399816081812
151.35612484362082 0.5539668695400052 -0.49525466423082176 0.44603313045999493 0.49525466423082176 0.44603313045999493 0.49525466423082176 0.5539668695400052 -0.49525466423082176
156.6751070108149 0.5369391600316523 -0.49679648355226275 0.46306083996834757 0.49679648355226275 0.46306083996834757 0.49679648355226275 0.5369391600316523 -0.49679648355226275
162.181009735893 0.5198259398720831 -0.4977564918345968 0.4801740601279167 0.4977564918345968 0.4801740601279167 0.4977564918345968 0.5198259398720831 -0.4977564918345968
167.88040181225603 0.5026672822884867 -0.4981291186336621 0.4973327177115132 0.4981291186336621 0.4973327177115132 0.4981291186336621 0.5026672822884867 -0.4981291186336621
173.78008287493756 0.4855036770436945 -0.4979122488942404 0.5144963229563054 0.4979122488942404 0.5144963229563054 0.4979122488942404 0.4855036770436945 -0.4979122488942404
179.88709151287878 0.4683756485742351 -0.49710725164254904 0.5316243514257649 0.49710725164254904 0.5316243514257649 0.49710725164254904 0.4683756485742351 -0.49710725164254904
186.20871366628674 0.45132337370387804 -0.4957189585547373 0.548676626296122 0.4957189585547373 0.548676626296122 0.4957189585547373 0.45132337370387804 -0.4957189585547373
192.7524913190936 0.43438630656746036 -0.4937555930168187 0.5656136934325398 0.4937555930168187 0.5656136934325398 0.4937555930168187 0.43438630656746036 -0.4937555930168187
199.526231496888 0.41760281812614364 -0.49122865160040363 0.5823971818738563 0.49122865160040363 0.5823971818738563 0.49122865160040363 0.41760281812614364 -0.49122865160040363
206.53801558105292 0.4010098571547972 -0.48815274110456913 0.598990142845203 0.48815274110456913 0.598990142845203 0.48815274110456913 0.4010098571547972 -0.48815274110456913
213.79620895022322 0.38464263886084693 -0.48454537540723924 0.6153573611391531 0.48454537540723924 0.6153573611391531 0.48454537540723924 0.38464263886084693 -0.48454537540723924
221.30947096056377 0.36853436638825554 -0.4804267372877207 0.6314656336117443 0.4804267372877207 0.6314656336117443 0.4804267372877207 0.36853436638825554 -0.4804267372877207
229.08676527677733 0.3527159894147745 -0.47581941109407505 0.6472840105852254 0.47581941109407505 0.6472840105852254 0.47581941109407505 0.3527159894147745 -0.47581941109407505
237.13737056616552 0.3372160029147348 -0.4707480926152098 0.6627839970852653 0.4707480926152098 0.6627839970852653 0.4707480926152098 0.3372160029147348 -0.4707480926152098
245.47089156850305 0.32206028798458375 -0.4652392827705846 0.6779397120154163 0.4652392827705846 0.6779397120154163 0.4652392827705846 0.32206028798458375 -0.4652392827705846
254.09727055493053 0.3072719954638833 -0.4593209717548936 0.6927280045361166 0.4593209717548936 0.6927280045361166 0.4593209717548936 0.3072719954638833 -0.4593209717548936
263.0267991895382 0.2928714719761657 -0.4530223200863601 0.7071285280238342 0.4530223200863601 0.7071285280238342 0.4530223200863601 0.2928714719761657 -0.4530223200863601
272.27013080779125 0.2788762270009588 -0.44637334262969863 0.7211237729990412 0.44637334262969863 0.7211237729990412 0.44637334262969863 0.2788762270009588 -0.44637334262969863
281.83829312644536 0.26530093870150767 -0.4394046011294134 0.7346990612984924 0.4394046011294134 0.7346990612984924 0.4394046011294134 0.26530093870150767 -0.4394046011294134
291.7427014001167 0.2521574954942898 -0.4321469101312675 0.74784250450571 0.4321469101312675 0.74784250450571 0.4321469101312675 0.2521574954942898 -0.4321469101312675
301.9951720402016 0.23945506976921124 -0.4246310604266729 0.7605449302307887 0.4246310604266729 0.7605449302307887 0.4246310604266729 0.23945506976921124 -0.4246310604266729
312.6079367123955 0.22720021975749544 -0.41688756336327243 0.7727997802425045 0.41688756336327243 0.7727997802425045 0.41688756336327243 0.22720021975749544 -0.41688756336327243
323.59365692962825 0.2153970152939353 -0.40894641855963265 0.7846029847060647 0.40894641855963265 0.7846029847060647 0.40894641855963265 0.2153970152939353 -0.40894641855963265
334.96543915782763 0.2040471831209687 -0.4008369067734773 0.7959528168790314 0.4008369067734773 0.7959528168790314 0.4008369067734773 0.2040471831209687 -0.4008369067734773
346.7368504525316 0.1931502674184093 -0.3925874089271265 0.8068497325815907 0.3925874089271265 0.8068497325815907 0.3925874089271265 0.1931502674184093 -0.3925874089271265
358.9219346450052 0.18270380139549317 -0.3842252516112177 0.8172961986045068 0.3842252516112177 0.8172961986045068 0.3842252516112177 0.18270380139549317 -0.3842252516112177
371.53522909717253 0.17270348602996902 -0.37577657878313175 0.8272965139700309 0.37577657878313175 0.8272965139700309 0.37577657878313175 0.17270348602996902 -0.37577657878313175
384.59178204535357 0.1631433723603499 -0.36726624885920983 0.8368566276396501 0.36726624885920983 0.8368566276396501 0.36726624885920983 0.1631433723603499 -0.36726624885920983
398.10717055349727 0.15401604411074662 -0.35871775597416594 0.8459839558892532 0.35871775597416594 0.8459839558892532 0.35871775597416594 0.15401604411074662 -0.35871775597416594
412.0975190973302 0.14531279783284784 -0.35015317384708494 0.8546872021671522 0.35015317384708494 0.8546872021671522 0.35015317384708494 0.14531279783284784 -0.35015317384708494
426.5795188015926 0.13702381816869394 -0.341593120447485 0.8629761818313062 0.341593120447485 0.8629761818313062 0.341593120447485 0.13702381816869394 -0.341593120447485
441.57044735331243 0.1291383462554783 -0.3330567414907939 0.8708616537445218 0.3330567414907939 0.8708616537445218 0.3330567414907939 0.1291383462554783 -0.3330567414907939
457.0881896148751 0.12164483969705411 -0.32456171070191914 0.8783551603029459 0.32456171070191914 0.8783551603029459 0.32456171070191914 0.12164483969705411 -0.32456171070191914
473.15125896148055 0.11453112290624726 -0.31612424475887335 0.8854688770937527 0.31612424475887335 0.8854688770937527 0.31612424475887335 0.11453112290624726 -0.31612424475887335
489.77881936844625 0.1077845269702925 -0.3077591308555298 0.8922154730297075 0.3077591308555298 0.8922154730297075 0.3077591308555298 0.1077845269702925 -0.3077591308555298
506.9907082747043 0.10139201850395996 -0.29947976489338496 0.8986079814960402 0.29947976489338496 0.8986079814960402 0.29947976489338496 0.10139201850395996 -0.29947976489338496
524.8074602497726 0.09534031722864916 -0.2912981984169474 0.904659682771351 0.2912981984169474 0.904659682771351 0.2912981984169474 0.09534031722864916 -0.2912981984169474
543.2503314924331 0.08961600225011994 -0.2832251925370217 0.9103839977498802 0.2832251925370217 0.9103839977498802 0.2832251925370217 0.08961600225011994 -0.2832251925370217
562.3413251903492 0.08420560720331784 -0.27527027723259373 0.9157943927966821 0.27527027723259373 0.9157943927966821 0.27527027723259373 0.08420560720331784 -0.27527027723259373
582.1032177708714 0.07909570459178654 -0.2674418145782289 0.9209042954082135 0.2674418145782289 0.9209042954082135 0.2674418145782289 0.07909570459178654 -0.2674418145782289
602.5595860743578 0.07427297977408333 -0.2597470646038696 0.9257270202259167 0.2597470646038696 0.9257270202259167 0.2597470646038696 0.07427297977408333 -0.2597470646038696
623.7348354824193 0.06972429514366643 -0.25219225265286155 0.9302757048563337 0.25219225265286155 0.9302757048563337 0.25219225265286155 0.06972429514366643 -0.25219225265286155
645.6542290346556 0.06543674511537637 -0.24478263725807223 0.9345632548846237 0.24478263725807223 0.9345632548846237 0.24478263725807223 0.06543674511537637 -0.24478263725807223
668.3439175686148 0.06139770257453283 -0.23752257770225493 0.9386022974254671 0.23752257770225493 0.9386022974254671 0.23752257770225493 0.06139770257453283 -0.23752257770225493
691.8309709189366 0.05759485746735883 -0.2304156005652817 0.942405142532641 0.2304156005652817 0.942405142532641 0.2304156005652817 0.05759485746735883 -0.2304156005652817
716.1434102129019 0.05401624821733689 -0.22346446468621595 0.945983751782663 0.22346446468621595 0.945983751782663 0.22346446468621595 0.05401624821733689 -0.22346446468621595
741.3102413009174 0.050650286644354864 -0.21667122408168857 0.9493497133556452 0.21667122408168857 0.9493497133556452 0.21667122408168857 0.050650286644354864 -0.21667122408168857
767.3614893618189 0.0474857770449697 -0.21003728846344616 0.9525142229550303 0.21003728846344616 0.9525142229550303 0.21003728846344616 0.0474857770449697 -0.21003728846344616
794.3282347242814 0.044511930065348745 -0.20356348108739478 0.9554880699346512 0.20356348108739478 0.9554880699346512 0.20356348108739478 0.044511930065348745 -0.20356348108739478
822.2426499470711 0.041718371965653984 -0.19725009374441022 0.9582816280343459 0.19725009374441022 0.9582816280343459 0.19725009374441022 0.041718371965653984 -0.19725009374441022
851.1380382023765 0.03909514983770021 -0.1910969387702516 0.9609048501622999 0.1910969387702516 0.9609048501622999 0.1910969387702516 0.03909514983770021 -0.1910969387702516
881.0488730080142 0.03663273329823131 -0.18510339800887746 0.9633672667017685 0.18510339800887746 0.9633672667017685 0.18510339800887746 0.03663273329823131 -0.18510339800887746
912.0108393559099 0.0343220131394276 -0.1792684687111833 0.9656779868605725 0.1792684687111833 0.9656779868605725 0.1792684687111833 0.0343220131394276 -0.1792684687111833
944.0608762859234 0.03215429737733182 -0.17359080639054 0.9678457026226681 0.17359080639054 0.9678457026226681 0.17359080639054 0.03215429737733182 -0.17359080639054
977.2372209558108 0.03012130509859998 -0.16806876468842838 0.9698786949014001 0.16806876468842838 0.9698786949014001 0.16806876468842838 0.03012130509859998 -0.16806876468842838
1011.5794542598987 0.028215158466978283 -0.16270043232878556 0.9717848415330216 0.16270043232878556 0.9717848415330216 0.16270043232878556 0.028215158466978283 -0.16270043232878556
1047.1285480508998 0.026428373213662353 -0.15748366725927482 0.9735716267863376 0.15748366725927482 0.9735716267863376 0.15748366725927482 0.026428373213662353 -0.15748366725927482
1083.9269140212034 0.024753847900538035 -0.152416128092311 0.9752461520994621 0.152416128092311 0.9752461520994621 0.152416128092311 0.024753847900538035 -0.152416128092311
1122.0184543019632 0.02318485221246063 -0.14749530296907612 0.9768151477875395 0.14749530296907612 0.9768151477875395 0.14749530296907612 0.02318485221246063 -0.14749530296907612
1161.4486138403427 0.021715014504321586 -0.14271853597658313 0.9782849854956783 0.14271853597658313 0.9782849854956783 0.14271853597658313 0.021715014504321586 -0.14271853597658313
1202.2644346174127 0.02033830880073002 -0.13808305125170633 0.9796616911992699 0.13808305125170633 0.9796616911992699 0.13808305125170633 0.02033830880073002 -0.13808305125170633
1244.514611771385 0.019049041420682908 -0.1335859749075198 0.980950958579317 0.1335859749075198 0.980950958579317 0.1335859749075198 0.019049041420682908 -0.1335859749075198
1288.249551693134 0.01784183737655164 -0.12922435491675252 0.9821581626234485 0.12922435491675252 0.9821581626234485 0.12922435491675252 0.01784183737655164 -0.12922435491675252
1333.5214321633239 0.01671162667597012 -0.12499517908508506 0.9832883733240299 0.12499517908508506 0.9832883733240299 0.12499517908508506 0.01671162667597012 -0.12499517908508506
1380.384264602885 0.015653630636644073 -0.12089539124375115 0.984346369363356 0.12089539124375115 0.984346369363356 0.12089539124375115 0.015653630636644073 -0.12089539124375115
1428.893958511103 0.014663348307561469 -0.11692190578675456 0.9853366516924387 0.11692190578675456 0.9853366516924387 0.11692190578675456 0.014663348307561469 -0.11692190578675456
1479.1083881682075 0.013736543075411169 -0.11307162067324268 0.986263456924589 0.11307162067324268 0.986263456924589 0.11307162067324268 0.013736543075411169 -0.11307162067324268
1531.0874616820304 0.012869229522042731 -0.10934142901038912 0.9871307704779574 0.10934142901038912 0.9871307704779574 0.10934142901038912 0.012869229522042731 -0.10934142901038912
1584.8931924611136 0.01205766058735776 -0.10572822932670455 0.9879423394126421 0.10572822932670455 0.9879423394126421 0.10572822932670455 0.01205766058735776 -0.10572822932670455
1640.5897731995396 0.011298315081949927 -0.10222893464014898 0.9887016849180502 0.10222893464014898 0.9887016849180502 0.10222893464014898 0.011298315081949927 -0.10222893464014898
1698.2436524617442 0.0105878855849515 -0.09884048041985811 0.9894121144150486 0.09884048041985811 0.9894121144150486 0.09884048041985811 0.0105878855849515 -0.09884048041985811
1757.9236139586924 0.00992326675475546 -0.0955598315347913 0.9900767332452445 0.0955598315347913 0.9900767332452445 0.0955598315347913 0.00992326675475546 -0.0955598315347913
1819.7008586099835 0.00930154407343598 -0.09238398827721267 0.9906984559265644 0.09238398827721267 0.9906984559265644 0.09238398827721267 0.00930154407343598 -0.09238398827721267
1883.6490894898002 0.008719983039668918 -0.08930999154364913 0.991280016960331 0.08930999154364913 0.991280016960331 0.08930999154364913 0.008719983039668918 -0.08930999154364913
1949.8445997580454 0.008176018819662663 -0.08633492725086135 0.9918239811803373 0.08633492725086135 0.9918239811803373 0.08633492725086135 0.008176018819662663 -0.08633492725086135
2018.3663636815609 0.007667246360960677 -0.08345593005940315 0.9923327536390394 0.08345593005940315 0.9923327536390394 0.08345593005940315 0.007667246360960677 -0.08345593005940315
2089.29613085404 0.007191410969904172 -0.0806701864725504 0.9928085890300957 0.0806701864725504 0.9928085890300957 0.0806701864725504 0.007191410969904172 -0.0806701864725504
2162.7185237270205 0.006746399349987169 -0.07797493737373344 0.993253600650013 0.07797493737373344 0.993253600650013 0.07797493737373344 0.006746399349987169 -0.07797493737373344
2238.7211385683395 0.006330231095252377 -0.07536748006111739 0.9936697689047477 0.07536748006111739 0.9936697689047477 0.07536748006111739 0.006330231095252377 -0.07536748006111739
2317.394649968479 0.005941050630225962 -0.0728451698336329 0.9940589493697741 0.0728451698336329 0.9940589493697741 0.0728451698336329 0.005941050630225962 -0.0728451698336329
2398.832919019491 0.005577119585641116 -0.07040542117856868 0.9944228804143591 0.07040542117856868 0.9944228804143591 0.07040542117856868 0.005577119585641116 -0.07040542117856868
2483.1331052955707 0.005236809597327125 -0.06804570860680227 0.9947631904026728 0.06804570860680227 0.9947631904026728 0.06804570860680227 0.005236809597327125 -0.06804570860680227
2570.3957827688632 0.004918595514116692 -0.06576356717786959 0.9950814044858834 0.06576356717786959 0.9950814044858834 0.06576356717786959 0.004918595514116692 -0.06576356717786959
2660.725059798809 0.004621048999425543 -0.06355659275336675 0.9953789510005744 0.06355659275336675 0.9953789510005744 0.06355659275336675 0.004621048999425543 -0.06355659275336675
2754.2287033381663 0.004342832510259849 -0.06142244201364731 0.99565716748974 0.06142244201364731 0.99565716748974 0.06142244201364731 0.004342832510259849 -0.06142244201364731
2851.018267503909 0.004082693636783671 -0.059358832269433844 0.9959173063632163 0.059358832269433844 0.9959173063632163 0.059358832269433844 0.004082693636783671 -0.059358832269433844
2951.209226666386 0.0038394597852036143 -0.05736354109681232 0.9961605402147963 0.05736354109681232 0.9961605402147963 0.05736354109681232 0.0038394597852036143 -0.05736354109681232
3054.9211132155133 0.003612033186574313 -0.055434405821128484 0.9963879668134258 0.055434405821128484 0.9963879668134258 0.055434405821128484 0.003612033186574313 -0.055434405821128484
3162.277660168379 0.003399386214167942 -0.0535693228725591 0.9966006137858321 0.0535693228725591 0.9966006137858321 0.0535693228725591 0.003399386214167942 -0.0535693228725591
3273.406948788382 0.0032005569922564795 -0.05176624703359179 0.9967994430077435 0.05176624703359179 0.9967994430077435 0.05176624703359179 0.0032005569922564795 -0.05176624703359179
3388.4415613920255 0.003014645279499689 -0.050023190596312286 0.9969853547205003 0.050023190596312286 0.9969853547205003 0.050023190596312286 0.003014645279499689 -0.050023190596312286
3507.5187395256803 0.002840808610588986 -0.04833822244526131 0.9971591913894109 0.04833822244526131 0.9971591913894109 0.04833822244526131 0.002840808610588986 -0.04833822244526131
3630.7805477010143 0.0026782586803441298 -0.046709467079681675 0.9973217413196559 0.046709467079681675 0.9973217413196559 0.046709467079681675 0.0026782586803441298 -0.046709467079681675
3758.374042884442 0.002526257955074444 -0.04513510358721816 0.9974737420449256 0.04513510358721816 0.9974737420449256 0.04513510358721816 0.002526257955074444 -0.04513510358721816
3890.451449942807 0.0023841164966800998 -0.04361336457954597 0.9976158835033201 0.04361336457954597 0.9976158835033201 0.04361336457954597 0.0023841164966800998 -0.04361336457954597
4027.170343254592 0.002251188985666493 -0.04214253509898146 0.9977488110143335 0.04214253509898146 0.9977488110143335 0.04214253509898146 0.002251188985666493 -0.04214253509898146
4168.693834703356 0.0021268719299622246 -0.0407209515038538 0.9978731280700377 0.0407209515038538 0.9978731280700377 0.0407209515038538 0.0021268719299622246 -0.0407209515038538
4315.190768277653 0.0020106010471584415 -0.039347000339280104 0.9979893989528414 0.039347000339280104 0.9979893989528414 0.039347000339280104 0.0020106010471584415 -0.039347000339280104
