!Murata Part Number: RDEC71H226MWM1H03A
!These Parameters are Measured in Series Mode Connection
!       o--ll--o
!Port1            Port2
!       o------o
!Operation Temp=25[degC], DC Bias Voltage=0[V]
!Freq. Start=100[Hz] Stop=100[MHz], 401[Steps]
!Data Generated on Dec 23, 2019
# Hz S RI R 50
!Freq.(Hz) S11(Real) S11(Imag) S21(Real) S21(Imag) S12(Real) S12(Imag) S22(Real) S22(Imag)
100.0 0.3988387009034687 -0.4867851520770315 0.6011612990965315 0.4867851520770315 0.6011612990965315 0.4867851520770315 0.3988387009034687 -0.4867851520770315
103.51421666793439 0.3824963496494451 -0.4831898389671664 0.617503650350555 0.4831898389671664 0.617503650350555 0.4831898389671664 0.3824963496494451 -0.4831898389671664
107.15193052376064 0.366411700571737 -0.47908111059114 0.633588299428263 0.47908111059114 0.633588299428263 0.47908111059114 0.366411700571737 -0.47908111059114
110.9174815262401 0.35061608838128 -0.47448150493624464 0.64938391161872 0.47448150493624464 0.64938391161872 0.47448150493624464 0.35061608838128 -0.47448150493624464
114.81536214968828 0.3351383836210296 -0.4694157256790254 0.6648616163789705 0.4694157256790254 0.6648616163789705 0.4694157256790254 0.3351383836210296 -0.4694157256790254
118.85022274370185 0.3200048260396199 -0.46391033246507185 0.67999517396038 0.46391033246507185 0.67999517396038 0.46391033246507185 0.3200048260396199 -0.46391033246507185
123.02687708123815 0.30523890161327655 -0.45799342060287507 0.6947610983867234 0.45799342060287507 0.6947610983867234 0.45799342060287507 0.30523890161327655 -0.45799342060287507
127.35030810166617 0.29086126298007015 -0.45169429682111895 0.7091387370199299 0.45169429682111895 0.7091387370199299 0.45169429682111895 0.29086126298007015 -0.45169429682111895
131.8256738556407 0.2768896919907679 -0.44504315737590466 0.7231103080092319 0.44504315737590466 0.7231103080092319 0.44504315737590466 0.2768896919907679 -0.44504315737590466
136.45831365889245 0.2633391021472914 -0.4380707742629554 0.7366608978527087 0.4380707742629554 0.7366608978527087 0.4380707742629554 0.2633391021472914 -0.4380707742629554
141.25375446227542 0.2502215779175885 -0.4308081946261417 0.7497784220824116 0.4308081946261417 0.7497784220824116 0.4308081946261417 0.2502215779175885 -0.4308081946261417
146.21771744567184 0.23754644729937452 -0.42328645769637596 0.7624535527006255 0.42328645769637596 0.7624535527006255 0.42328645769637596 0.23754644729937452 -0.42328645769637596
151.35612484362082 0.2253203835601915 -0.41553633278265517 0.7746796164398085 0.41553633278265517 0.7746796164398085 0.41553633278265517 0.2253203835601915 -0.41553633278265517
156.6751070108149 0.21354753180459998 -0.4075880810062553 0.7864524681954 0.4075880810062553 0.7864524681954 0.4075880810062553 0.21354753180459998 -0.4075880810062553
162.181009735893 0.20222965590095238 -0.3994712426523942 0.7977703440990475 0.3994712426523942 0.7977703440990475 0.3994712426523942 0.20222965590095238 -0.3994712426523942
167.88040181225603 0.19136630132436544 -0.39121445123872134 0.8086336986756344 0.39121445123872134 0.8086336986756344 0.39121445123872134 0.19136630132436544 -0.39121445123872134
173.78008287493756 0.18095496961956126 -0.3828452746886783 0.819045030380439 0.3828452746886783 0.819045030380439 0.3828452746886783 0.18095496961956126 -0.3828452746886783
179.88709151287878 0.1709913004351651 -0.3743900833660922 0.8290086995648347 0.3743900833660922 0.8290086995648347 0.3743900833660922 0.1709913004351651 -0.3743900833660922
186.20871366628674 0.16146925740697363 -0.36587394418555624 0.8385307425930265 0.36587394418555624 0.8385307425930265 0.36587394418555624 0.16146925740697363 -0.36587394418555624
192.7524913190936 0.1523813145492119 -0.3573205395661265 0.8476186854507881 0.3573205395661265 0.8476186854507881 0.3573205395661265 0.1523813145492119 -0.3573205395661265
199.526231496888 0.14371864022885728 -0.34875210964395387 0.8562813597711426 0.34875210964395387 0.8562813597711426 0.34875210964395387 0.14371864022885728 -0.34875210964395387
206.53801558105292 0.1354712762298646 -0.3401894158991339 0.8645287237701355 0.3401894158991339 0.8645287237701355 0.3401894158991339 0.1354712762298646 -0.3401894158991339
213.79620895022322 0.1276283098454083 -0.3316517241769029 0.8723716901545917 0.3316517241769029 0.8723716901545917 0.3316517241769029 0.1276283098454083 -0.3316517241769029
221.30947096056377 0.12017803735370729 -0.32315680498475013 0.8798219626462928 0.32315680498475013 0.8798219626462928 0.32315680498475013 0.12017803735370729 -0.32315680498475013
229.08676527677733 0.11310811762624591 -0.3147209489152379 0.8868918823737542 0.3147209489152379 0.8868918823737542 0.3147209489152379 0.11310811762624591 -0.3147209489152379
237.13737056616552 0.10640571497864283 -0.30635899506885167 0.893594285021357 0.30635899506885167 0.893594285021357 0.30635899506885167 0.10640571497864283 -0.30635899506885167
245.47089156850305 0.10005763069901376 -0.2980843704215187 0.8999423693009861 0.2980843704215187 0.8999423693009861 0.2980843704215187 0.10005763069901376 -0.2980843704215187
254.09727055493053 0.09405042297364632 -0.28990913818744435 0.9059495770263537 0.28990913818744435 0.9059495770263537 0.28990913818744435 0.09405042297364632 -0.28990913818744435
263.0267991895382 0.08837051517426399 -0.281844053360239 0.9116294848257362 0.281844053360239 0.9116294848257362 0.281844053360239 0.08837051517426399 -0.281844053360239
272.27013080779125 0.08300429267575858 -0.27389862376554147 0.9169957073242413 0.27389862376554147 0.9169957073242413 0.27389862376554147 0.08300429267575858 -0.27389862376554147
281.83829312644536 0.0779381885398339 -0.26608117511915635 0.922061811460166 0.26608117511915635 0.922061811460166 0.26608117511915635 0.0779381885398339 -0.26608117511915635
291.7427014001167 0.07315875853121652 -0.2583989187499144 0.9268412414687833 0.2583989187499144 0.9268412414687833 0.2583989187499144 0.07315875853121652 -0.2583989187499144
301.9951720402016 0.06865274603220754 -0.2508580208109884 0.9313472539677924 0.2508580208109884 0.9313472539677924 0.2508580208109884 0.06865274603220754 -0.2508580208109884
312.6079367123955 0.06440713749192999 -0.2434636719632042 0.9355928625080702 0.2434636719632042 0.9355928625080702 0.2434636719632042 0.06440713749192999 -0.2434636719632042
323.59365692962825 0.060409209092380775 -0.23622015666597415 0.939590790907619 0.23622015666597415 0.939590790907619 0.23622015666597415 0.060409209092380775 -0.23622015666597415
334.96543915782763 0.05664656533796477 -0.22913092135364013 0.9433534346620353 0.22913092135364013 0.9433534346620353 0.22913092135364013 0.05664656533796477 -0.22913092135364013
346.7368504525316 0.053107170282081936 -0.22219864090582142 0.946892829717918 0.22219864090582142 0.946892829717918 0.22219864090582142 0.053107170282081936 -0.22219864090582142
358.9219346450052 0.04977937209681855 -0.21542528293900431 0.9502206279031814 0.21542528293900431 0.9502206279031814 0.21542528293900431 0.04977937209681855 -0.21542528293900431
371.53522909717253 0.04665192167282612 -0.20881216955276716 0.9533480783271738 0.20881216955276716 0.9533480783271738 0.20881216955276716 0.04665192167282612 -0.20881216955276716
384.59178204535357 0.0437139859087096 -0.20236003625781723 0.9562860140912903 0.20236003625781723 0.9562860140912903 0.20236003625781723 0.0437139859087096 -0.20236003625781723
398.10717055349727 0.04095515631500332 -0.19606908789480518 0.9590448436849969 0.19606908789480518 0.9590448436849969 0.19606908789480518 0.04095515631500332 -0.19606908789480518
412.0975190973302 0.03836545351907913 -0.1899390514233244 0.9616345464809208 0.1899390514233244 0.9616345464809208 0.1899390514233244 0.03836545351907913 -0.1899390514233244
426.5795188015926 0.035935328215781034 -0.18396922552035197 0.964064671784219 0.18396922552035197 0.964064671784219 0.18396922552035197 0.035935328215781034 -0.18396922552035197
441.57044735331243 0.033655659065602396 -0.17815852697752962 0.9663443409343975 0.17815852697752962 0.9663443409343975 0.17815852697752962 0.033655659065602396 -0.17815852697752962
457.0881896148751 0.031517747998938035 -0.17250553392802895 0.9684822520010621 0.17250553392802895 0.9684822520010621 0.17250553392802895 0.031517747998938035 -0.17250553392802895
473.15125896148055 0.029513313342244253 -0.16700852596721583 0.9704866866577558 0.16700852596721583 0.9704866866577558 0.16700852596721583 0.029513313342244253 -0.16700852596721583
489.77881936844625 0.02763448114051261 -0.16166552125784767 0.9723655188594875 0.16166552125784767 0.9723655188594875 0.16166552125784767 0.02763448114051261 -0.16166552125784767
506.9907082747043 0.02587377501081664 -0.15647431073095172 0.9741262249891831 0.15647431073095172 0.9741262249891831 0.15647431073095172 0.02587377501081664 -0.15647431073095172
524.8074602497726 0.024224104824191208 -0.15143248950867805 0.9757758951758089 0.15143248950867805 0.9757758951758089 0.15143248950867805 0.024224104824191208 -0.15143248950867805
543.2503314924331 0.022678754477991035 -0.1465374856860366 0.9773212455220089 0.1465374856860366 0.9773212455220089 0.1465374856860366 0.022678754477991035 -0.1465374856860366
562.3413251903492 0.021231368988290866 -0.1417865866152073 0.9787686310117092 0.1417865866152073 0.9787686310117092 0.1417865866152073 0.021231368988290866 -0.1417865866152073
582.1032177708714 0.01987594110189782 -0.1371769628396716 0.9801240588981021 0.1371769628396716 0.9801240588981021 0.1371769628396716 0.01987594110189782 -0.1371769628396716
602.5595860743578 0.01860679760014497 -0.1327056898263036 0.981393202399855 0.1327056898263036 0.981393202399855 0.1327056898263036 0.01860679760014497 -0.1327056898263036
623.7348354824193 0.01741858544178004 -0.12836976764227165 0.9825814145582199 0.12836976764227165 0.9825814145582199 0.12836976764227165 0.01741858544178004 -0.12836976764227165
645.6542290346556 0.01630625786986897 -0.12416613872055653 0.983693742130131 0.12416613872055653 0.983693742130131 0.12416613872055653 0.01630625786986897 -0.12416613872055653
668.3439175686148 0.015265060587595507 -0.12009170385346986 0.9847349394124045 0.12009170385346986 0.9847349394124045 0.12009170385346986 0.015265060587595507 -0.12009170385346986
691.8309709189366 0.014290518090030851 -0.11614333654807839 0.9857094819099691 0.11614333654807839 0.9857094819099691 0.11614333654807839 0.014290518090030851 -0.11614333654807839
716.1434102129019 0.013378420223234606 -0.11231789587118335 0.9866215797767652 0.11231789587118335 0.9866215797767652 0.11231789587118335 0.013378420223234606 -0.11231789587118335
741.3102413009174 0.012524809028289638 -0.10861223790471299 0.9874751909717104 0.10861223790471299 0.9874751909717104 0.10861223790471299 0.012524809028289638 -0.10861223790471299
767.3614893618189 0.011725965915922235 -0.10502322592526342 0.9882740340840778 0.10502322592526342 0.9882740340840778 0.10502322592526342 0.011725965915922235 -0.10502322592526342
794.3282347242814 0.010978399207070609 -0.10154773941424976 0.9890216007929294 0.10154773941424976 0.9890216007929294 0.10154773941424976 0.010978399207070609 -0.10154773941424976
822.2426499470711 0.01027883206599161 -0.09818268199784748 0.9897211679340083 0.09818268199784748 0.9897211679340083 0.09818268199784748 0.01027883206599161 -0.09818268199784748
851.1380382023765 0.00962419084509499 -0.09492498840874958 0.9903758091549051 0.09492498840874958 0.9903758091549051 0.09492498840874958 0.00962419084509499 -0.09492498840874958
881.0488730080142 0.009011593854521997 -0.09177163055483041 0.990988406145478 0.09177163055483041 0.990988406145478 0.09177163055483041 0.009011593854521997 -0.09177163055483041
912.0108393559099 0.008438340564402829 -0.08871962277318828 0.9915616594355975 0.08871962277318828 0.9915616594355975 0.08871962277318828 0.008438340564402829 -0.08871962277318828
944.0608762859234 0.007901901243595915 -0.0857660263417895 0.9920980987564041 0.0857660263417895 0.9920980987564041 0.0857660263417895 0.007901901243595915 -0.0857660263417895
977.2372209558108 0.00739990703540123 -0.08290795331511629 0.992600092964599 0.08290795331511629 0.992600092964599 0.08290795331511629 0.00739990703540123 -0.08290795331511629
1011.5794542598987 0.0069301404681190205 -0.0801425697448456 0.9930698595318812 0.0801425697448456 0.9930698595318812 0.0801425697448456 0.0069301404681190205 -0.0801425697448456
1047.1285480508998 0.006490526396276227 -0.07746709834168246 0.993509473603724 0.07746709834168246 0.993509473603724 0.07746709834168246 0.006490526396276227 -0.07746709834168246
1083.9269140212034 0.0060791233667505705 -0.07487882063002892 0.9939208766332497 0.07487882063002892 0.9939208766332497 0.07487882063002892 0.0060791233667505705 -0.07487882063002892
1122.0184543019632 0.0056941154027845085 -0.07237507864317377 0.9943058845972155 0.07237507864317377 0.9943058845972155 0.07237507864317377 0.0056941154027845085 -0.07237507864317377
1161.4486138403427 0.005333804197907427 -0.0699532762031152 0.9946661958020926 0.0699532762031152 0.9946661958020926 0.0699532762031152 0.005333804197907427 -0.0699532762031152
1202.2644346174127 0.004996601710994816 -0.06761087982593182 0.9950033982890052 0.06761087982593182 0.9950033982890052 0.06761087982593182 0.004996601710994816 -0.06761087982593182
1244.514611771385 0.0046810231530253175 -0.06534541929075934 0.9953189768469747 0.06534541929075934 0.9953189768469747 0.06534541929075934 0.0046810231530253175 -0.06534541929075934
1288.249551693134 0.004385680355500123 -0.06315448790785556 0.9956143196444998 0.06315448790785556 0.9956143196444998 0.06315448790785556 0.004385680355500123 -0.06315448790785556
1333.5214321633239 0.004109275509929465 -0.06103574251889285 0.9958907244900705 0.06103574251889285 0.9958907244900705 0.06103574251889285 0.004109275509929465 -0.06103574251889285
1380.384264602885 0.003850595267247551 -0.05898690326045813 0.9961494047327525 0.05898690326045813 0.9961494047327525 0.05898690326045813 0.003850595267247551 -0.05898690326045813
1428.893958511103 0.003608505185480738 -0.057005753119715896 0.9963914948145192 0.057005753119715896 0.9963914948145192 0.057005753119715896 0.003608505185480738 -0.057005753119715896
1479.1083881682075 0.0033819445134664642 -0.05509013730925849 0.9966180554865334 0.05509013730925849 0.9966180554865334 0.05509013730925849 0.0033819445134664642 -0.05509013730925849
1531.0874616820304 0.0031699212979119785 -0.05323796248630135 0.9968300787020878 0.05323796248630135 0.9968300787020878 0.05323796248630135 0.0031699212979119785 -0.05323796248630135
1584.8931924611136 0.0029715078006078578 -0.051447195839549945 0.997028492199392 0.051447195839549945 0.997028492199392 0.051447195839549945 0.0029715078006078578 -0.051447195839549945
1640.5897731995396 0.002785836212189821 -0.04971586406525868 0.9972141637878101 0.04971586406525868 0.9972141637878101 0.04971586406525868 0.002785836212189821 -0.04971586406525868
1698.2436524617442 0.0026120946484923784 -0.04804205225220892 0.9973879053515075 0.04804205225220892 0.9973879053515075 0.04804205225220892 0.0026120946484923784 -0.04804205225220892
1757.9236139586924 0.0024495234152769473 -0.04642390269356027 0.997550476584723 0.04642390269356027 0.997550476584723 0.04642390269356027 0.0024495234152769473 -0.04642390269356027
1819.7008586099835 0.002297411526958895 -0.04485961364177584 0.9977025884730409 0.04485961364177584 0.9977025884730409 0.04485961364177584 0.002297411526958895 -0.04485961364177584
1883.6490894898002 0.002155093464912854 -0.04334743802110778 0.9978449065350872 0.04334743802110778 0.9978449065350872 0.04334743802110778 0.002155093464912854 -0.04334743802110778
1949.8445997580454 0.0020219461610079094 -0.0418856821104606 0.997978053838992 0.0418856821104606 0.997978053838992 0.0418856821104606 0.0020219461610079094 -0.0418856821104606
2018.3663636815609 0.0018973861922142404 -0.040472704207851075 0.9981026138077858 0.040472704207851075 0.9981026138077858 0.040472704207851075 0.0018973861922142404 -0.040472704207851075
2089.29613085404 0.0017808671724246898 -0.03910691328616013 0.9982191328275754 0.03910691328616013 0.9982191328275754 0.03910691328616013 0.0017808671724246898 -0.03910691328616013
2162.7185237270205 0.0016718773280401623 -0.0377867676484484 0.9983281226719599 0.0377867676484484 0.9983281226719599 0.0377867676484484 0.0016718773280401623 -0.0377867676484484
2238.7211385683395 0.0015699372443634385 -0.036510773589786064 0.9984300627556367 0.036510773589786064 0.9984300627556367 0.036510773589786064 0.0015699372443634385 -0.036510773589786064
2317.394649968479 0.001474597770417512 -0.03527748407134323 0.9985254022295826 0.03527748407134323 0.9985254022295826 0.03527748407134323 0.001474597770417512 -0.03527748407134323
2398.832919019491 0.001385438070435474 -0.03408549741140203 0.9986145619295645 0.03408549741140203 0.9986145619295645 0.03408549741140203 0.001385438070435474 -0.03408549741140203
2483.1331052955707 0.0013020638109424716 -0.032933455996987805 0.9986979361890577 0.032933455996987805 0.9986979361890577 0.032933455996987805 0.0013020638109424716 -0.032933455996987805
2570.3957827688632 0.0012241054730503435 -0.03182004501897431 0.9987758945269499 0.03182004501897431 0.9987758945269499 0.03182004501897431 0.0012241054730503435 -0.03182004501897431
2660.725059798809 0.001151216780296639 -0.03074399123279126 0.9988487832197033 0.03074399123279126 0.9988487832197033 0.03074399123279126 0.001151216780296639 -0.03074399123279126
2754.2287033381663 0.0010830732330684022 -0.02970406174624585 0.9989169267669317 0.02970406174624585 0.9989169267669317 0.02970406174624585 0.0010830732330684022 -0.02970406174624585
2851.018267503909 0.0010193707413454767 -0.02869906283545545 0.9989806292586544 0.02869906283545545 0.9989806292586544 0.02869906283545545 0.0010193707413454767 -0.02869906283545545
2951.209226666386 9.598243481685121E-4 -0.027727838789466844 0.9990401756518315 0.027727838789466844 0.9990401756518315 0.027727838789466844 9.598243481685121E-4 -0.027727838789466844
3054.9211132155133 9.04167036875751E-4 -0.02678927078379809 0.9990958329631243 0.02678927078379809 0.9990958329631243 0.02678927078379809 9.04167036875751E-4 -0.02678927078379809
3162.277660168379 8.521486157544412E-4 -0.025882275782872007 0.9991478513842456 0.025882275782872007 0.9991478513842456 0.025882275782872007 8.521486157544412E-4 -0.025882275782872007
3273.406948788382 8.035346743137859E-4 -0.025005805471105872 0.9991964653256864 0.025005805471105872 0.9991964653256864 0.025005805471105872 8.035346743137859E-4 -0.025005805471105872
3388.4415613920255 7.581056059046382E-4 -0.02415884521227008 0.9992418943940952 0.02415884521227008 0.9992418943940952 0.02415884521227008 7.581056059046382E-4 -0.02415884521227008
3507.5187395256803 7.15655691886077E-4 -0.023340413036619354 0.999284344308114 0.023340413036619354 0.999284344308114 0.023340413036619354 7.15655691886077E-4 -0.023340413036619354
3630.7805477010143 6.759922429712458E-4 -0.022549558655228046 0.9993240077570289 0.022549558655228046 0.9993240077570289 0.022549558655228046 6.759922429712458E-4 -0.022549558655228046
3758.374042884442 6.389347937757648E-4 -0.021785362500915794 0.999361065206224 0.021785362500915794 0.999361065206224 0.021785362500915794 6.389347937757648E-4 -0.021785362500915794
3890.451449942807 6.043143469438661E-4 -0.021046934795126634 0.9993956856530563 0.021046934795126634 0.9993956856530563 0.021046934795126634 6.043143469438661E-4 -0.021046934795126634
4027.170343254592 5.719726635428074E-4 -0.020333414640118664 0.9994280273364572 0.020333414640118664 0.9994280273364572 0.020333414640118664 5.719726635428074E-4 -0.020333414640118664
4168.693834703356 5.417615966979217E-4 -0.019643969135826264 0.9994582384033022 0.019643969135826264 0.9994582384033022 0.019643969135826264 5.417615966979217E-4 -0.019643969135826264
