!Murata Part Number: RDEC72A475MWM1H03A
!These Parameters are Measured in Series Mode Connection
!       o--ll--o
!Port1            Port2
!       o------o
!Operation Temp=25[degC], DC Bias Voltage=0[V]
!Freq. Start=100[Hz] Stop=100[MHz], 401[Steps]
!Data Generated on Dec 23, 2019
# Hz S RI R 50
!Freq.(Hz) S11(Real) S11(Imag) S21(Real) S21(Imag) S12(Real) S12(Imag) S22(Real) S22(Imag)
100.0 0.934548415380744 -0.24566080375659832 0.06545158461925606 0.24566080375659832 0.06545158461925606 0.24566080375659832 0.934548415380744 -0.24566080375659832
103.51421666793439 0.9302146828859339 -0.2530797770483127 0.06978531711406596 0.2530797770483127 0.06978531711406596 0.2530797770483127 0.9302146828859339 -0.2530797770483127
107.15193052376064 0.9256181976398447 -0.26064137564298656 0.07438180236015522 0.26064137564298656 0.07438180236015522 0.26064137564298656 0.9256181976398447 -0.26064137564298656
110.9174815262401 0.9207462032334075 -0.2683401245537654 0.07925379676659249 0.2683401245537654 0.07925379676659249 0.2683401245537654 0.9207462032334075 -0.2683401245537654
114.81536214968828 0.9155857383555398 -0.27616958606349556 0.0844142616444602 0.27616958606349556 0.0844142616444602 0.27616958606349556 0.9155857383555398 -0.27616958606349556
118.85022274370185 0.91012369290343 -0.2841222951649252 0.08987630709657002 0.2841222951649252 0.08987630709657002 0.2841222951649252 0.91012369290343 -0.2841222951649252
123.02687708123815 0.9043468729129176 -0.2921896959027386 0.09565312708708242 0.2921896959027386 0.09565312708708242 0.2921896959027386 0.9043468729129176 -0.2921896959027386
127.35030810166617 0.8982420748325344 -0.3003620795666034 0.10175792516746554 0.3003620795666034 0.10175792516746554 0.3003620795666034 0.8982420748325344 -0.3003620795666034
131.8256738556407 0.8917961695968104 -0.3086285258197255 0.10820383040318975 0.3086285258197255 0.10820383040318975 0.3086285258197255 0.8917961695968104 -0.3086285258197255
136.45831365889245 0.8849961968627855 -0.31697684798586473 0.1150038031372146 0.31697684798586473 0.1150038031372146 0.31697684798586473 0.8849961968627855 -0.31697684798586473
141.25375446227542 0.8778294696555066 -0.3253935438562083 0.1221705303444934 0.3253935438562083 0.1221705303444934 0.3253935438562083 0.8778294696555066 -0.3253935438562083
146.21771744567184 0.8702836895209594 -0.33386375351199 0.12971631047904067 0.33386375351199 0.12971631047904067 0.33386375351199 0.8702836895209594 -0.33386375351199
151.35612484362082 0.8623470721061652 -0.3423712257844299 0.1376529278938348 0.3423712257844299 0.1376529278938348 0.3423712257844299 0.8623470721061652 -0.3423712257844299
156.6751070108149 0.8540084828743445 -0.35089829508469766 0.1459915171256555 0.35089829508469766 0.1459915171256555 0.35089829508469766 0.8540084828743445 -0.35089829508469766
162.181009735893 0.8452575824172606 -0.3594258704264836 0.15474241758273938 0.3594258704264836 0.15474241758273938 0.3594258704264836 0.8452575824172606 -0.3594258704264836
167.88040181225603 0.8360849805473453 -0.3679334385248478 0.16391501945265488 0.3679334385248478 0.16391501945265488 0.3679334385248478 0.8360849805473453 -0.3679334385248478
173.78008287493756 0.8264823980406376 -0.3763990828789569 0.17351760195936242 0.3763990828789569 0.17351760195936242 0.3763990828789569 0.8264823980406376 -0.3763990828789569
179.88709151287878 0.8164428345613421 -0.3847995207242785 0.183557165438658 0.3847995207242785 0.183557165438658 0.3847995207242785 0.8164428345613421 -0.3847995207242785
186.20871366628674 0.8059607409353636 -0.3931101596626342 0.1940392590646363 0.3931101596626342 0.1940392590646363 0.3931101596626342 0.8059607409353636 -0.3931101596626342
192.7524913190936 0.7950321935613585 -0.4013051756372988 0.20496780643864146 0.4013051756372988 0.20496780643864146 0.4013051756372988 0.7950321935613585 -0.4013051756372988
199.526231496888 0.7836550683639144 -0.40935761370684354 0.21634493163608562 0.40935761370684354 0.21634493163608562 0.40935761370684354 0.7836550683639144 -0.40935761370684354
206.53801558105292 0.7718292113175047 -0.4172395127788165 0.22817078868249538 0.4172395127788165 0.22817078868249538 0.4172395127788165 0.7718292113175047 -0.4172395127788165
213.79620895022322 0.7595566022173612 -0.42492205508789077 0.24044339778263887 0.42492205508789077 0.24044339778263887 0.42492205508789077 0.7595566022173612 -0.42492205508789077
221.30947096056377 0.7468415080623102 -0.4323757407409984 0.2531584919376899 0.4323757407409984 0.2531584919376899 0.4323757407409984 0.7468415080623102 -0.4323757407409984
229.08676527677733 0.7336906221646292 -0.43957058710613295 0.26630937783537084 0.43957058710613295 0.26630937783537084 0.43957058710613295 0.7336906221646292 -0.43957058710613295
237.13737056616552 0.7201131849339162 -0.4464763521983865 0.2798868150660838 0.4464763521983865 0.2798868150660838 0.4464763521983865 0.7201131849339162 -0.4464763521983865
245.47089156850305 0.7061210822166509 -0.45306278052793403 0.2938789177833489 0.45306278052793403 0.2938789177833489 0.45306278052793403 0.7061210822166509 -0.45306278052793403
254.09727055493053 0.6917289171302206 -0.45929986913714194 0.3082710828697794 0.45929986913714194 0.3082710828697794 0.45929986913714194 0.6917289171302206 -0.45929986913714194
263.0267991895382 0.6769540515265421 -0.46515815079036554 0.32304594847345797 0.46515815079036554 0.32304594847345797 0.46515815079036554 0.6769540515265421 -0.46515815079036554
272.27013080779125 0.6618166135687577 -0.4706089905181155 0.3381833864312424 0.4706089905181155 0.3381833864312424 0.4706089905181155 0.6618166135687577 -0.4706089905181155
281.83829312644536 0.6463394684114977 -0.4756248909893531 0.35366053158850225 0.4756248909893531 0.35366053158850225 0.4756248909893531 0.6463394684114977 -0.4756248909893531
291.7427014001167 0.6305481496404475 -0.4801798015270088 0.3694518503595527 0.4801798015270088 0.3694518503595527 0.4801798015270088 0.6305481496404475 -0.4801798015270088
301.9951720402016 0.614470749941425 -0.4842494250290694 0.38552925005857497 0.4842494250290694 0.38552925005857497 0.4842494250290694 0.614470749941425 -0.4842494250290694
312.6079367123955 0.5981377704148477 -0.4878115166465564 0.40186222958515233 0.4878115166465564 0.40186222958515233 0.4878115166465564 0.5981377704148477 -0.4878115166465564
323.59365692962825 0.5815819290011084 -0.4908461678329524 0.4184180709988917 0.4908461678329524 0.4184180709988917 0.4908461678329524 0.5815819290011084 -0.4908461678329524
334.96543915782763 0.5648379296002203 -0.4933360693439403 0.43516207039977967 0.4933360693439403 0.43516207039977967 0.4933360693439403 0.5648379296002203 -0.4933360693439403
346.7368504525316 0.5479421946121609 -0.49526674695026407 0.452057805387839 0.49526674695026407 0.452057805387839 0.49526674695026407 0.5479421946121609 -0.49526674695026407
358.9219346450052 0.530932564744556 -0.49662676403855294 0.469067435255444 0.49662676403855294 0.469067435255444 0.49662676403855294 0.530932564744556 -0.49662676403855294
371.53522909717253 0.513847970981167 -0.49740788591182816 0.48615202901883303 0.49740788591182816 0.48615202901883303 0.49740788591182816 0.513847970981167 -0.49740788591182816
384.59178204535357 0.4967280845281821 -0.49760520144758297 0.5032719154718177 0.49760520144758297 0.5032719154718177 0.49760520144758297 0.4967280845281821 -0.49760520144758297
398.10717055349727 0.4796129513095961 -0.49721719879914567 0.5203870486904041 0.49721719879914567 0.5203870486904041 0.49721719879914567 0.4796129513095961 -0.49721719879914567
412.0975190973302 0.4625426181291339 -0.496245792996882 0.5374573818708661 0.496245792996882 0.5374573818708661 0.496245792996882 0.4625426181291339 -0.496245792996882
426.5795188015926 0.44555675792524674 -0.4946963045721999 0.5544432420747535 0.4946963045721999 0.5544432420747535 0.4946963045721999 0.44555675792524674 -0.4946963045721999
441.57044735331243 0.42869430160072614 -0.492577389635627 0.5713056983992739 0.492577389635627 0.5713056983992739 0.492577389635627 0.42869430160072614 -0.492577389635627
457.0881896148751 0.41199308370580756 -0.4899009231341348 0.5880069162941924 0.4899009231341348 0.5880069162941924 0.4899009231341348 0.41199308370580756 -0.4899009231341348
473.15125896148055 0.3954895088032043 -0.4866818382367113 0.6045104911967958 0.4866818382367113 0.6045104911967958 0.4866818382367113 0.3954895088032043 -0.4866818382367113
489.77881936844625 0.37921824466814147 -0.48293792589969375 0.6207817553318584 0.48293792589969375 0.6207817553318584 0.48293792589969375 0.37921824466814147 -0.48293792589969375
506.9907082747043 0.36321194761019937 -0.4786895996006278 0.6367880523898006 0.4786895996006278 0.6367880523898006 0.4786895996006278 0.36321194761019937 -0.4786895996006278
524.8074602497726 0.34750102418938267 -0.47395963096745825 0.6524989758106173 0.47395963096745825 0.6524989758106173 0.47395963096745825 0.34750102418938267 -0.47395963096745825
543.2503314924331 0.33211343248492625 -0.4687728625463098 0.6678865675150737 0.4687728625463098 0.6678865675150737 0.4687728625463098 0.33211343248492625 -0.4687728625463098
562.3413251903492 0.31707452491299987 -0.46315590423595804 0.6829254750870002 0.46315590423595804 0.6829254750870002 0.46315590423595804 0.31707452491299987 -0.46315590423595804
582.1032177708714 0.30240693342912095 -0.4571368199725381 0.6975930665708789 0.4571368199725381 0.6975930665708789 0.4571368199725381 0.30240693342912095 -0.4571368199725381
602.5595860743578 0.2881304968394757 -0.4507448110874799 0.7118695031605243 0.4507448110874799 0.7118695031605243 0.4507448110874799 0.2881304968394757 -0.4507448110874799
623.7348354824193 0.2742622289231455 -0.4440099024079884 0.7257377710768546 0.4440099024079884 0.7257377710768546 0.4440099024079884 0.2742622289231455 -0.4440099024079884
645.6542290346556 0.2608163251672307 -0.4369626366528129 0.7391836748327694 0.4369626366528129 0.7391836748327694 0.4369626366528129 0.2608163251672307 -0.4369626366528129
668.3439175686148 0.24780420516281065 -0.42963378203160024 0.7521957948371892 0.42963378203160024 0.7521957948371892 0.42963378203160024 0.24780420516281065 -0.42963378203160024
691.8309709189366 0.23523458711606848 -0.42205405722119604 0.7647654128839314 0.42205405722119604 0.7647654128839314 0.42205405722119604 0.23523458711606848 -0.42205405722119604
716.1434102129019 0.2231135905011199 -0.41425387710419864 0.7768864094988801 0.41425387710419864 0.7768864094988801 0.41425387710419864 0.2231135905011199 -0.41425387710419864
741.3102413009174 0.21144486261634596 -0.4062631218492057 0.7885551373836539 0.4062631218492057 0.7885551373836539 0.4062631218492057 0.21144486261634596 -0.4062631218492057
767.3614893618189 0.2002297246945917 -0.3981109311201434 0.7997702753054083 0.3981109311201434 0.7997702753054083 0.3981109311201434 0.2002297246945917 -0.3981109311201434
794.3282347242814 0.18946733324426146 -0.38982552445063084 0.8105326667557384 0.38982552445063084 0.8105326667557384 0.38982552445063084 0.18946733324426146 -0.38982552445063084
822.2426499470711 0.17915485244407017 -0.3814340481297963 0.8208451475559297 0.3814340481297963 0.8208451475559297 0.3814340481297963 0.17915485244407017 -0.3814340481297963
851.1380382023765 0.16928763365765603 -0.37296244833384823 0.8307123663423441 0.37296244833384823 0.8307123663423441 0.37296244833384823 0.16928763365765603 -0.37296244833384823
881.0488730080142 0.15985939845325822 -0.3644353697129731 0.8401406015467416 0.3644353697129731 0.8401406015467416 0.3644353697129731 0.15985939845325822 -0.3644353697129731
912.0108393559099 0.15086242188641333 -0.35587607821054973 0.8491375781135867 0.35587607821054973 0.8491375781135867 0.35587607821054973 0.15086242188641333 -0.35587607821054973
944.0608762859234 0.14228771320972194 -0.347306406551542 0.857712286790278 0.347306406551542 0.857712286790278 0.347306406551542 0.14228771320972194 -0.347306406551542
977.2372209558108 0.13412519159488545 -0.33874672058586847 0.8658748084051145 0.33874672058586847 0.8658748084051145 0.33874672058586847 0.13412519159488545 -0.33874672058586847
1011.5794542598987 0.1263638548726384 -0.330215904504246 0.8736361451273615 0.330215904504246 0.8736361451273615 0.330215904504246 0.1263638548726384 -0.330215904504246
1047.1285480508998 0.11899193970299367 -0.3217313628501836 0.8810080602970062 0.3217313628501836 0.8810080602970062 0.3217313628501836 0.11899193970299367 -0.3217313628501836
1083.9269140212034 0.11199707197125441 -0.3133090372228704 0.8880029280287456 0.3133090372228704 0.8880029280287456 0.3133090372228704 0.11199707197125441 -0.3133090372228704
1122.0184543019632 0.10536640655715579 -0.30496343559146033 0.8946335934428444 0.30496343559146033 0.8946335934428444 0.30496343559146033 0.10536640655715579 -0.30496343559146033
1161.4486138403427 0.09908675594039641 -0.2967076722114851 0.9009132440596038 0.2967076722114851 0.9009132440596038 0.2967076722114851 0.09908675594039641 -0.2967076722114851
1202.2644346174127 0.09314470738301009 -0.2885535162389766 0.9068552926169896 0.2885535162389766 0.9068552926169896 0.2885535162389766 0.09314470738301009 -0.2885535162389766
1244.514611771385 0.08752672866666232 -0.28051144726822663 0.9124732713333379 0.28051144726822663 0.9124732713333379 0.28051144726822663 0.08752672866666232 -0.28051144726822663
1288.249551693134 0.08221926256168771 -0.2725907161667725 0.9177807374383123 0.2725907161667725 0.9177807374383123 0.2725907161667725 0.08221926256168771 -0.2725907161667725
1333.5214321633239 0.07720881036629211 -0.2647994097390347 0.9227911896337081 0.2647994097390347 0.9227911896337081 0.2647994097390347 0.07720881036629211 -0.2647994097390347
1380.384264602885 0.07248200498146809 -0.2571445179120056 0.9275179950185319 0.2571445179120056 0.9275179950185319 0.2571445179120056 0.07248200498146809 -0.2571445179120056
1428.893958511103 0.0680256740829851 -0.24963200229759583 0.9319743259170149 0.24963200229759583 0.9319743259170149 0.24963200229759583 0.0680256740829851 -0.24963200229759583
1479.1083881682075 0.06382689401979946 -0.24226686514273432 0.9361731059802005 0.24226686514273432 0.9361731059802005 0.24226686514273432 0.06382689401979946 -0.24226686514273432
1531.0874616820304 0.059873035112008616 -0.2350532178271842 0.9401269648879914 0.2350532178271842 0.9401269648879914 0.2350532178271842 0.059873035112008616 -0.2350532178271842
1584.8931924611136 0.05615179904459462 -0.22799434820810874 0.9438482009554052 0.22799434820810874 0.9438482009554052 0.22799434820810874 0.05615179904459462 -0.22799434820810874
1640.5897731995396 0.05265124905910862 -0.22109278623835424 0.9473487509408915 0.22109278623835424 0.9473487509408915 0.22109278623835424 0.05265124905910862 -0.22109278623835424
1698.2436524617442 0.04935983363730008 -0.21435036740137328 0.9506401663626999 0.21435036740137328 0.9506401663626999 0.21435036740137328 0.04935983363730008 -0.21435036740137328
1757.9236139586924 0.046266404351412646 -0.20776829360943141 0.9537335956485874 0.20776829360943141 0.9537335956485874 0.20776829360943141 0.046266404351412646 -0.20776829360943141
1819.7008586099835 0.04336022852802321 -0.2013471913032984 0.9566397714719765 0.2013471913032984 0.9566397714719765 0.2013471913032984 0.04336022852802321 -0.2013471913032984
1883.6490894898002 0.040630997338162646 -0.19508716657142317 0.9593690026618373 0.19508716657142317 0.9593690026618373 0.19508716657142317 0.040630997338162646 -0.19508716657142317
1949.8445997580454 0.03806882988796378 -0.18898785717523228 0.9619311701120361 0.18898785717523228 0.9619311701120361 0.18898785717523228 0.03806882988796378 -0.18898785717523228
2018.3663636815609 0.03566427384287829 -0.1830484814254452 0.9643357261571217 0.1830484814254452 0.9643357261571217 0.1830484814254452 0.03566427384287829 -0.1830484814254452
2089.29613085404 0.033408303075941746 -0.1772678839029969 0.9665916969240582 0.1772678839029969 0.9665916969240582 0.1772678839029969 0.033408303075941746 -0.1772678839029969
2162.7185237270205 0.03129231278775327 -0.17164457805821318 0.9687076872122468 0.17164457805821318 0.9687076872122468 0.17164457805821318 0.03129231278775327 -0.17164457805821318
2238.7211385683395 0.029308112503646663 -0.16617678575419115 0.9706918874963534 0.16617678575419115 0.9706918874963534 0.16617678575419115 0.029308112503646663 -0.16617678575419115
2317.394649968479 0.027447917312641686 -0.16086247384578473 0.9725520826873583 0.16086247384578473 0.9725520826873583 0.16086247384578473 0.027447917312641686 -0.16086247384578473
2398.832919019491 0.025704337673688973 -0.15569938790504403 0.974295662326311 0.15569938790504403 0.974295662326311 0.15569938790504403 0.025704337673688973 -0.15569938790504403
2483.1331052955707 0.02407036807782369 -0.1506850832181961 0.9759296319221763 0.1506850832181961 0.9759296319221763 0.1506850832181961 0.02407036807782369 -0.1506850832181961
2570.3957827688632 0.022539374820370727 -0.14581695318904603 0.9774606251796293 0.14581695318904603 0.9774606251796293 0.14581695318904603 0.022539374820370727 -0.14581695318904603
2660.725059798809 0.021105083105444105 -0.14109225528968652 0.978894916894556 0.14109225528968652 0.978894916894556 0.14109225528968652 0.021105083105444105 -0.14109225528968652
2754.2287033381663 0.019761563675729243 -0.13650813470226675 0.9802384363242709 0.13650813470226675 0.9802384363242709 0.13650813470226675 0.019761563675729243 -0.13650813470226675
2851.018267503909 0.018503219133931343 -0.1320616457958348 0.9814967808660687 0.1320616457958348 0.9814967808660687 0.1320616457958348 0.018503219133931343 -0.1320616457958348
2951.209226666386 0.017324770098276397 -0.12774977158043826 0.9826752299017236 0.12774977158043826 0.9826752299017236 0.12774977158043826 0.017324770098276397 -0.12774977158043826
3054.9211132155133 0.01622124131297818 -0.1235694412771854 0.9837787586870219 0.1235694412771854 0.9837787586870219 0.1235694412771854 0.01622124131297818 -0.1235694412771854
3162.277660168379 0.015187947815523423 -0.1195175461382242 0.9848120521844765 0.1195175461382242 0.9848120521844765 0.1195175461382242 0.015187947815523423 -0.1195175461382242
3273.406948788382 0.014220481245840749 -0.11559095364493158 0.9857795187541594 0.11559095364493158 0.9857795187541594 0.11559095364493158 0.014220481245840749 -0.11559095364493158
3388.4415613920255 0.013314696367753454 -0.11178652020631787 0.9866853036322466 0.11178652020631787 0.9866853036322466 0.11178652020631787 0.013314696367753454 -0.11178652020631787
3507.5187395256803 0.012466697860404994 -0.10810110247299314 0.987533302139595 0.10810110247299314 0.987533302139595 0.10810110247299314 0.012466697860404994 -0.10810110247299314
3630.7805477010143 0.011672827426412668 -0.10453156737523206 0.9883271725735873 0.10453156737523206 0.9883271725735873 0.10453156737523206 0.011672827426412668 -0.10453156737523206
3758.374042884442 0.010929651254169072 -0.10107480098688375 0.989070348745831 0.10107480098688375 0.989070348745831 0.10107480098688375 0.010929651254169072 -0.10107480098688375
3890.451449942807 0.010233947863788985 -0.0977277163102493 0.9897660521362108 0.0977277163102493 0.9897660521362108 0.0977277163102493 0.010233947863788985 -0.0977277163102493
4027.170343254592 0.0095826963595111 -0.09448726007070089 0.990417303640489 0.09448726007070089 0.990417303640489 0.09448726007070089 0.0095826963595111 -0.09448726007070089
4168.693834703356 0.008973065105731716 -0.0913504186038121 0.9910269348942684 0.0913504186038121 0.9910269348942684 0.0913504186038121 0.008973065105731716 -0.0913504186038121
4315.190768277653 0.008402400839105836 -0.0883142229121721 0.9915975991608943 0.0883142229121721 0.9915975991608943 0.0883142229121721 0.008402400839105836 -0.0883142229121721
