!Murata Part Number: RDEC71E226K3M1H03A
!These Parameters are Measured in Series Mode Connection
!       o--ll--o
!Port1            Port2
!       o------o
!Operation Temp=25[degC], DC Bias Voltage=0[V]
!Freq. Start=100[Hz] Stop=100[MHz], 401[Steps]
!Data Generated on Sep 3, 2020
# Hz S RI R 50
!Freq.(Hz) S11(Real) S11(Imag) S21(Real) S21(Imag) S12(Real) S12(Imag) S22(Real) S22(Imag)
100.0 0.48935177774158994 -0.4906717866673614 0.51064822225841 0.4906717866673614 0.51064822225841 0.4906717866673614 0.48935177774158994 -0.4906717866673614
103.51421666793439 0.47259859594049125 -0.4900191265785534 0.5274014040595087 0.4900191265785534 0.5274014040595087 0.4900191265785534 0.47259859594049125 -0.4900191265785534
107.15193052376064 0.4559095863561689 -0.4888045407265253 0.5440904136438313 0.4888045407265253 0.5440904136438313 0.4888045407265253 0.4559095863561689 -0.4888045407265253
110.9174815262401 0.43932273068154953 -0.4870352234366876 0.5606772693184504 0.4870352234366876 0.5606772693184504 0.4870352234366876 0.43932273068154953 -0.4870352234366876
114.81536214968828 0.42287503453763686 -0.48472153945682755 0.5771249654623632 0.48472153945682755 0.5771249654623632 0.48472153945682755 0.42287503453763686 -0.48472153945682755
118.85022274370185 0.40660219467932635 -0.48187687331640755 0.5933978053206738 0.48187687331640755 0.5933978053206738 0.48187687331640755 0.40660219467932635 -0.48187687331640755
123.02687708123815 0.3905382922875816 -0.4785174384799282 0.6094617077124184 0.4785174384799282 0.6094617077124184 0.4785174384799282 0.3905382922875816 -0.4785174384799282
127.35030810166617 0.3747155177368508 -0.4746620512523658 0.6252844822631493 0.4746620512523658 0.6252844822631493 0.4746620512523658 0.3747155177368508 -0.4746620512523658
131.8256738556407 0.35916393120710777 -0.4703318751523451 0.6408360687928921 0.4703318751523451 0.6408360687928921 0.4703318751523451 0.35916393120710777 -0.4703318751523451
136.45831365889245 0.34391126238741965 -0.4655501420028393 0.6560887376125802 0.4655501420028393 0.6560887376125802 0.4655501420028393 0.34391126238741965 -0.4655501420028393
141.25375446227542 0.32898275134398636 -0.460341856289173 0.6710172486560136 0.460341856289173 0.6710172486560136 0.460341856289173 0.32898275134398636 -0.460341856289173
146.21771744567184 0.3144010314510667 -0.4547334894015798 0.6855989685489333 0.4547334894015798 0.6855989685489333 0.4547334894015798 0.3144010314510667 -0.4547334894015798
151.35612484362082 0.3001860541555371 -0.44875267022745396 0.6998139458444629 0.44875267022745396 0.6998139458444629 0.44875267022745396 0.3001860541555371 -0.44875267022745396
156.6751070108149 0.28635505430642233 -0.4424278782092629 0.7136449456935777 0.4424278782092629 0.7136449456935777 0.4424278782092629 0.28635505430642233 -0.4424278782092629
162.181009735893 0.27292255386321745 -0.4357881444678598 0.7270774461367827 0.4357881444678598 0.7270774461367827 0.4357881444678598 0.27292255386321745 -0.4357881444678598
167.88040181225603 0.2599004010258824 -0.4288627659426619 0.7400995989741175 0.4288627659426619 0.7400995989741175 0.4288627659426619 0.2599004010258824 -0.4288627659426619
173.78008287493756 0.2472978412203975 -0.4216810367573974 0.7527021587796027 0.4216810367573974 0.7527021587796027 0.4216810367573974 0.2472978412203975 -0.4216810367573974
179.88709151287878 0.23512161593301803 -0.414272000220606 0.7648783840669818 0.414272000220606 0.7648783840669818 0.414272000220606 0.23512161593301803 -0.414272000220606
186.20871366628674 0.223376085111892 -0.4066642240497322 0.776623914888108 0.4066642240497322 0.776623914888108 0.4066642240497322 0.223376085111892 -0.4066642240497322
192.7524913190936 0.21206336873741932 -0.3988856005988282 0.7879366312625807 0.3988856005988282 0.7879366312625807 0.3988856005988282 0.21206336873741932 -0.3988856005988282
199.526231496888 0.20118350318796097 -0.39096317310036993 0.798816496812039 0.39096317310036993 0.798816496812039 0.39096317310036993 0.20118350318796097 -0.39096317310036993
206.53801558105292 0.19073460817646343 -0.3829229882237691 0.8092653918235366 0.3829229882237691 0.8092653918235366 0.3829229882237691 0.19073460817646343 -0.3829229882237691
213.79620895022322 0.18071306028495884 -0.37478997462351415 0.8192869397150412 0.37478997462351415 0.8192869397150412 0.37478997462351415 0.18071306028495884 -0.37478997462351415
221.30947096056377 0.17111366945531772 -0.3665878466095527 0.8288863305446824 0.3665878466095527 0.8288863305446824 0.3665878466095527 0.17111366945531772 -0.3665878466095527
229.08676527677733 0.16192985518377134 -0.3583390316273607 0.8380701448162287 0.3583390316273607 0.8380701448162287 0.3583390316273607 0.16192985518377134 -0.3583390316273607
237.13737056616552 0.15315381959244032 -0.350064619886393 0.8468461804075598 0.350064619886393 0.8468461804075598 0.350064619886393 0.15315381959244032 -0.350064619886393
245.47089156850305 0.14477671499409267 -0.3417843342205696 0.8552232850059073 0.3417843342205696 0.8552232850059073 0.3417843342205696 0.14477671499409267 -0.3417843342205696
254.09727055493053 0.13678880400974522 -0.33351651809737715 0.863211195990255 0.33351651809737715 0.863211195990255 0.33351651809737715 0.13678880400974522 -0.33351651809737715
263.0267991895382 0.12917961072829792 -0.32527813960491775 0.870820389271702 0.32527813960491775 0.870820389271702 0.32527813960491775 0.12917961072829792 -0.32527813960491775
272.27013080779125 0.1219380618018032 -0.3170848092291619 0.8780619381981969 0.3170848092291619 0.8780619381981969 0.3170848092291619 0.1219380618018032 -0.3170848092291619
281.83829312644536 0.11505261674057503 -0.30895080927610646 0.8849473832594249 0.30895080927610646 0.8849473832594249 0.30895080927610646 0.11505261674057503 -0.30895080927610646
291.7427014001167 0.10851138700319017 -0.3008891328845896 0.8914886129968098 0.3008891328845896 0.8914886129968098 0.3008891328845896 0.10851138700319017 -0.3008891328845896
301.9951720402016 0.10230224376392136 -0.29291153070434767 0.8976977562360788 0.29291153070434767 0.8976977562360788 0.29291153070434767 0.10230224376392136 -0.29291153070434767
312.6079367123955 0.09641291448279886 -0.2850285634702338 0.903587085517201 0.2850285634702338 0.903587085517201 0.2850285634702338 0.09641291448279886 -0.2850285634702338
323.59365692962825 0.0908310686016408 -0.27724965887789327 0.9091689313983591 0.27724965887789327 0.9091689313983591 0.27724965887789327 0.0908310686016408 -0.27724965887789327
334.96543915782763 0.08554439284483083 -0.2695831713501745 0.9144556071551692 0.2695831713501745 0.9144556071551692 0.2695831713501745 0.08554439284483083 -0.2695831713501745
346.7368504525316 0.08054065671927141 -0.26203644346984983 0.9194593432807286 0.26203644346984983 0.9194593432807286 0.26203644346984983 0.08054065671927141 -0.26203644346984983
358.9219346450052 0.07580776888760958 -0.2546158680367903 0.9241922311123907 0.2546158680367903 0.9241922311123907 0.2546158680367903 0.07580776888760958 -0.2546158680367903
371.53522909717253 0.0713338251368354 -0.2473269498817373 0.9286661748631648 0.2473269498817373 0.9286661748631648 0.2473269498817373 0.0713338251368354 -0.2473269498817373
384.59178204535357 0.06710714868532161 -0.2401743667306202 0.9328928513146784 0.2401743667306202 0.9328928513146784 0.2401743667306202 0.06710714868532161 -0.2401743667306202
398.10717055349727 0.0631163235700056 -0.23316202856046764 0.9368836764299944 0.23316202856046764 0.9368836764299944 0.23316202856046764 0.0631163235700056 -0.23316202856046764
412.0975190973302 0.059350221836262006 -0.22629313501882495 0.9406497781637382 0.22629313501882495 0.9406497781637382 0.22629313501882495 0.059350221836262006 -0.22629313501882495
426.5795188015926 0.05579802522038199 -0.21957023059261707 0.9442019747796179 0.21957023059261707 0.9442019747796179 0.21957023059261707 0.05579802522038199 -0.21957023059261707
441.57044735331243 0.05244924197233638 -0.21299525730965319 0.9475507580276638 0.21299525730965319 0.9475507580276638 0.21299525730965319 0.05244924197233638 -0.21299525730965319
457.0881896148751 0.04929371941809097 -0.2065696048371759 0.950706280581909 0.2065696048371759 0.950706280581909 0.2065696048371759 0.04929371941809097 -0.2065696048371759
473.15125896148055 0.046321652809056486 -0.20029415790812044 0.9536783471909436 0.20029415790812044 0.9536783471909436 0.20029415790812044 0.046321652809056486 -0.20029415790812044
489.77881936844625 0.04352359095367476 -0.19416934105850564 0.9564764090463252 0.19416934105850564 0.9564764090463252 0.19416934105850564 0.04352359095367476 -0.19416934105850564
506.9907082747043 0.04089043907452545 -0.1881951607002343 0.9591095609254745 0.1881951607002343 0.9591095609254745 0.1881951607002343 0.04089043907452545 -0.1881951607002343
524.8074602497726 0.03841345928506906 -0.18237124458420498 0.961586540714931 0.18237124458420498 0.961586540714931 0.18237124458420498 0.03841345928506906 -0.18237124458420498
543.2503314924331 0.036084269034172875 -0.17669687873069498 0.9639157309658272 0.17669687873069498 0.9639157309658272 0.17669687873069498 0.036084269034172875 -0.17669687873069498
562.3413251903492 0.033894837824481334 -0.17117104191902494 0.9661051621755188 0.17117104191902494 0.9661051621755188 0.17117104191902494 0.033894837824481334 -0.17117104191902494
582.1032177708714 0.031837482472770164 -0.16579243783799996 0.9681625175272299 0.16579243783799996 0.9681625175272299 0.16579243783799996 0.031837482472770164 -0.16579243783799996
602.5595860743578 0.029904861146698762 -0.16055952500380935 0.9700951388533011 0.16055952500380935 0.9700951388533011 0.16055952500380935 0.029904861146698762 -0.16055952500380935
623.7348354824193 0.028089966382705042 -0.15547054455403322 0.971910033617295 0.15547054455403322 0.971910033617295 0.15547054455403322 0.028089966382705042 -0.15547054455403322
645.6542290346556 0.026386117263904187 -0.1505235460260766 0.9736138827360958 0.1505235460260766 0.9736138827360958 0.1505235460260766 0.026386117263904187 -0.1505235460260766
668.3439175686148 0.02478695091440338 -0.1457164112264342 0.9752130490855967 0.1457164112264342 0.9752130490855967 0.1457164112264342 0.02478695091440338 -0.1457164112264342
691.8309709189366 0.02328641344704761 -0.14104687629427434 0.9767135865529524 0.14104687629427434 0.9767135865529524 0.14104687629427434 0.02328641344704761 -0.14104687629427434
716.1434102129019 0.02187875048486632 -0.1365125520593369 0.9781212495151338 0.1365125520593369 0.9781212495151338 0.1365125520593369 0.02187875048486632 -0.1365125520593369
741.3102413009174 0.020558497362012082 -0.1321109427903785 0.9794415026379881 0.1321109427903785 0.9794415026379881 0.1321109427903785 0.020558497362012082 -0.1321109427903785
767.3614893618189 0.019320469097418514 -0.12783946342658414 0.9806795309025813 0.12783946342658414 0.9806795309025813 0.12783946342658414 0.019320469097418514 -0.12783946342658414
794.3282347242814 0.018159750223433236 -0.12369545538063043 0.9818402497765667 0.12369545538063043 0.9818402497765667 0.12369545538063043 0.018159750223433236 -0.12369545538063043
822.2426499470711 0.017071684542028617 -0.1196762009985015 0.9829283154579717 0.1196762009985015 0.9829283154579717 0.1196762009985015 0.017071684542028617 -0.1196762009985015
851.1380382023765 0.016051864872625332 -0.11577893675777301 0.9839481351273746 0.11577893675777301 0.9839481351273746 0.11577893675777301 0.016051864872625332 -0.11577893675777301
881.0488730080142 0.015096122847885328 -0.11200086528287011 0.9849038771521147 0.11200086528287011 0.9849038771521147 0.11200086528287011 0.015096122847885328 -0.11200086528287011
912.0108393559099 0.014200518806889668 -0.10833916625278184 0.9857994811931104 0.10833916625278184 0.9857994811931104 0.10833916625278184 0.014200518806889668 -0.10833916625278184
944.0608762859234 0.01336133182878682 -0.1047910062738335 0.9866386681712132 0.1047910062738335 0.9866386681712132 0.1047910062738335 0.01336133182878682 -0.1047910062738335
977.2372209558108 0.012575049944182912 -0.10135354778735498 0.987424950055817 0.10135354778735498 0.987424950055817 0.10135354778735498 0.012575049944182912 -0.10135354778735498
1011.5794542598987 0.011838360556174387 -0.0980239570794042 0.9881616394438257 0.0980239570794042 0.9881616394438257 0.0980239570794042 0.011838360556174387 -0.0980239570794042
1047.1285480508998 0.011148141097939598 -0.09479941145708332 0.9888518589020604 0.09479941145708332 0.9888518589020604 0.09479941145708332 0.011148141097939598 -0.09479941145708332
1083.9269140212034 0.010501449949168528 -0.09167710565339085 0.9894985500508316 0.09167710565339085 0.9894985500508316 0.09167710565339085 0.010501449949168528 -0.09167710565339085
1122.0184543019632 0.009895517629287871 -0.08865425751996332 0.9901044823707122 0.08865425751996332 0.9901044823707122 0.08865425751996332 0.009895517629287871 -0.08865425751996332
1161.4486138403427 0.009327738281412886 -0.08572811306446657 0.9906722617185872 0.08572811306446657 0.9906722617185872 0.08572811306446657 0.009327738281412886 -0.08572811306446657
1202.2644346174127 0.0087956614572086 -0.08289595088676602 0.9912043385427914 0.08289595088676602 0.9912043385427914 0.08289595088676602 0.0087956614572086 -0.08289595088676602
1244.514611771385 0.008296984209365251 -0.08015508606534791 0.9917030157906347 0.08015508606534791 0.9917030157906347 0.08015508606534791 0.008296984209365251 -0.08015508606534791
1288.249551693134 0.007829543495176868 -0.0775028735427546 0.9921704565048229 0.0775028735427546 0.9921704565048229 0.0775028735427546 0.007829543495176868 -0.0775028735427546
1333.5214321633239 0.007391308891756922 -0.07493671105603975 0.992608691108243 0.07493671105603975 0.992608691108243 0.07493671105603975 0.007391308891756922 -0.07493671105603975
1380.384264602885 0.006980375620731335 -0.0724540416554378 0.9930196243792688 0.0724540416554378 0.9930196243792688 0.0724540416554378 0.006980375620731335 -0.0724540416554378
1428.893958511103 0.00659495787782061 -0.07005235585157854 0.9934050421221794 0.07005235585157854 0.9934050421221794 0.07005235585157854 0.00659495787782061 -0.07005235585157854
1479.1083881682075 0.006233382460565602 -0.06772919342866171 0.9937666175394344 0.06772919342866171 0.9937666175394344 0.06772919342866171 0.006233382460565602 -0.06772919342866171
1531.0874616820304 0.005894082685574645 -0.06548214495805053 0.9941059173144255 0.06548214495805053 0.9941059173144255 0.06548214495805053 0.005894082685574645 -0.06548214495805053
1584.8931924611136 0.005575592585082792 -0.06330885304375171 0.9944244074149173 0.06330885304375171 0.9944244074149173 0.06330885304375171 0.005575592585082792 -0.06330885304375171
1640.5897731995396 0.005276541371328872 -0.061207013328245546 0.9947234586286712 0.061207013328245546 0.9947234586286712 0.061207013328245546 0.005276541371328872 -0.061207013328245546
1698.2436524617442 0.004995648156282392 -0.05917437528412972 0.9950043518437176 0.05917437528412972 0.9950043518437176 0.05917437528412972 0.004995648156282392 -0.05917437528412972
1757.9236139586924 0.0047317169135994725 -0.05720874281407488 0.9952682830864004 0.05720874281407488 0.9952682830864004 0.05720874281407488 0.0047317169135994725 -0.05720874281407488
1819.7008586099835 0.004483631669359663 -0.05530797467868917 0.9955163683306403 0.05530797467868917 0.9955163683306403 0.05530797467868917 0.004483631669359663 -0.05530797467868917
1883.6490894898002 0.004250351908133801 -0.05346998476909465 0.9957496480918663 0.05346998476909465 0.9957496480918663 0.05346998476909465 0.004250351908133801 -0.05346998476909465
1949.8445997580454 0.004030908181249631 -0.05169274223836695 0.9959690918187504 0.05169274223836695 0.9959690918187504 0.05169274223836695 0.004030908181249631 -0.05169274223836695
2018.3663636815609 0.0038243979047413133 -0.04997427150353141 0.9961756020952588 0.04997427150353141 0.9961756020952588 0.04997427150353141 0.0038243979047413133 -0.04997427150353141
2089.29613085404 0.003629981335365305 -0.04831265212758292 0.9963700186646347 0.04831265212758292 0.9963700186646347 0.04831265212758292 0.003629981335365305 -0.04831265212758292
2162.7185237270205 0.0034468777142032496 -0.046706018589049235 0.9965531222857966 0.046706018589049235 0.9965531222857966 0.046706018589049235 0.0034468777142032496 -0.046706018589049235
2238.7211385683395 0.0032743615687059286 -0.04515255994498296 0.9967256384312939 0.04515255994498296 0.9967256384312939 0.04515255994498296 0.0032743615687059286 -0.04515255994498296
2317.394649968479 0.0031117591655061266 -0.043650519391974944 0.9968882408344938 0.043650519391974944 0.9968882408344938 0.043650519391974944 0.0031117591655061266 -0.043650519391974944
2398.832919019491 0.0029584451078796194 -0.04219819372885209 0.9970415548921204 0.04219819372885209 0.9970415548921204 0.04219819372885209 0.0029584451078796194 -0.04219819372885209
2483.1331052955707 0.0028138390732944515 -0.04079393272415513 0.9971861609267055 0.04079393272415513 0.9971861609267055 0.04079393272415513 0.0028138390732944515 -0.04079393272415513
2570.3957827688632 0.002677402687990411 -0.03943613839128373 0.9973225973120097 0.03943613839128373 0.9973225973120097 0.03943613839128373 0.002677402687990411 -0.03943613839128373
2660.725059798809 0.0025486365369054766 -0.03812326417431875 0.9974513634630944 0.03812326417431875 0.9974513634630944 0.03812326417431875 0.0025486365369054766 -0.03812326417431875
2754.2287033381663 0.002427077308452845 -0.03685381404794476 0.9975729226915472 0.03685381404794476 0.9975729226915472 0.03685381404794476 0.002427077308452845 -0.03685381404794476
2851.018267503909 0.0023122950745994957 -0.03562634153555145 0.9976877049254006 0.03562634153555145 0.9976877049254006 0.03562634153555145 0.0023122950745994957 -0.03562634153555145
2951.209226666386 0.0022038907073664554 -0.03443944865042455 0.9977961092926334 0.03443944865042455 0.9977961092926334 0.03443944865042455 0.0022038907073664554 -0.03443944865042455
3054.9211132155133 0.002101493433238437 -0.03329178476587563 0.9978985065667616 0.03329178476587563 0.9978985065667616 0.03329178476587563 0.002101493433238437 -0.03329178476587563
3162.277660168379 0.00200475852703012 -0.03218204542113565 0.9979952414729699 0.03218204542113565 0.9979952414729699 0.03218204542113565 0.00200475852703012 -0.03218204542113565
3273.406948788382 0.0019133651465180097 -0.031108971070776127 0.9980866348534819 0.031108971070776127 0.9980866348534819 0.031108971070776127 0.0019133651465180097 -0.031108971070776127
3388.4415613920255 0.0018270143086367495 -0.03007134578625889 0.9981729856913631 0.03007134578625889 0.9981729856913631 0.03007134578625889 0.0018270143086367495 -0.03007134578625889
3507.5187395256803 0.001745427007296932 -0.02906799591889655 0.998254572992703 0.02906799591889655 0.998254572992703 0.02906799591889655 0.001745427007296932 -0.02906799591889655
3630.7805477010143 0.001668342471958206 -0.02809778873398535 0.9983316575280418 0.02809778873398535 0.9983316575280418 0.02809778873398535 0.001668342471958206 -0.02809778873398535
3758.374042884442 0.0015955165650444949 -0.027159631026121577 0.9984044834349555 0.027159631026121577 0.9984044834349555 0.027159631026121577 0.0015955165650444949 -0.027159631026121577
3890.451449942807 0.0015267203151778802 -0.026252467725717578 0.9984732796848221 0.026252467725717578 0.9984732796848221 0.026252467725717578 0.0015267203151778802 -0.026252467725717578
4027.170343254592 0.0014617385820940335 -0.025375280506494863 0.998538261417906 0.025375280506494863 0.998538261417906 0.025375280506494863 0.0014617385820940335 -0.025375280506494863
4168.693834703356 0.0014003688480402133 -0.024527086403262583 0.9985996311519599 0.024527086403262583 0.9985996311519599 0.024527086403262583 0.0014003688480402133 -0.024527086403262583
