!Murata Part Number: RDEC71E476MWM1H03A
!These Parameters are Measured in Series Mode Connection
!       o--ll--o
!Port1            Port2
!       o------o
!Operation Temp=25[degC], DC Bias Voltage=0[V]
!Freq. Start=100[Hz] Stop=100[MHz], 401[Steps]
!Data Generated on Jun 1, 2023
# Hz S RI R 50
!Freq.(Hz) S11(Real) S11(Imag) S21(Real) S21(Imag) S12(Real) S12(Imag) S22(Real) S22(Imag)
100.0 0.20901333451540857 -0.3994324758403371 0.7909866654845914 0.3994324758403371 0.7909866654845914 0.3994324758403371 0.20901333451540857 -0.3994324758403371
103.51421666793439 0.19820368751069273 -0.3913445465313192 0.8017963124893074 0.3913445465313192 0.8017963124893074 0.3913445465313192 0.19820368751069273 -0.3913445465313192
107.15193052376064 0.1878329926428875 -0.3831500722416431 0.8121670073571126 0.3831500722416431 0.8121670073571126 0.3831500722416431 0.1878329926428875 -0.3831500722416431
110.9174815262401 0.17789647100632416 -0.3748741871620629 0.8221035289936759 0.3748741871620629 0.8221035289936759 0.3748741871620629 0.17789647100632416 -0.3748741871620629
114.81536214968828 0.16838780122869068 -0.36654070274516715 0.8316121987713093 0.36654070274516715 0.8316121987713093 0.36654070274516715 0.16838780122869068 -0.36654070274516715
118.85022274370185 0.15929930450135055 -0.35817204146794307 0.8407006954986496 0.35817204146794307 0.8407006954986496 0.35817204146794307 0.15929930450135055 -0.35817204146794307
123.02687708123815 0.15062212560885543 -0.34978919322306523 0.8493778743911445 0.34978919322306523 0.8493778743911445 0.34978919322306523 0.15062212560885543 -0.34978919322306523
127.35030810166617 0.14234640759627776 -0.34141169235299723 0.8576535924037223 0.34141169235299723 0.8576535924037223 0.34141169235299723 0.14234640759627776 -0.34141169235299723
131.8256738556407 0.13446145814870758 -0.33305761318564203 0.8655385418512923 0.33305761318564203 0.8655385418512923 0.33305761318564203 0.13446145814870758 -0.33305761318564203
136.45831365889245 0.12695590617768893 -0.32474358184922913 0.873044093822311 0.32474358184922913 0.873044093822311 0.32474358184922913 0.12695590617768893 -0.32474358184922913
141.25375446227542 0.11981784750493697 -0.3164848021279316 0.880182152495063 0.3164848021279316 0.880182152495063 0.3164848021279316 0.11981784750493697 -0.3164848021279316
146.21771744567184 0.11303497889733481 -0.3082950931584961 0.8869650211026653 0.3082950931584961 0.8869650211026653 0.3082950931584961 0.11303497889733481 -0.3082950931584961
151.35612484362082 0.10659472003421758 -0.3001869368520991 0.8934052799657825 0.3001869368520991 0.8934052799657825 0.3001869368520991 0.10659472003421758 -0.3001869368520991
156.6751070108149 0.10048432327551299 -0.29217153304523813 0.8995156767244871 0.29217153304523813 0.8995156767244871 0.29217153304523813 0.10048432327551299 -0.29217153304523813
162.181009735893 0.09469097134631752 -0.2842588605299298 0.9053090286536826 0.2842588605299298 0.9053090286536826 0.2842588605299298 0.09469097134631752 -0.2842588605299298
167.88040181225603 0.08920186326016104 -0.27645774227876757 0.9107981367398388 0.27645774227876757 0.9107981367398388 0.27645774227876757 0.08920186326016104 -0.27645774227876757
173.78008287493756 0.08400428897085004 -0.26877591335738643 0.91599571102915 0.26877591335738643 0.91599571102915 0.26877591335738643 0.08400428897085004 -0.26877591335738643
179.88709151287878 0.07908569337347307 -0.2612200901993323 0.9209143066265271 0.2612200901993323 0.9209143066265271 0.2612200901993323 0.07908569337347307 -0.2612200901993323
186.20871366628674 0.07443373037160436 -0.2537960401009423 0.9255662696283957 0.2537960401009423 0.9255662696283957 0.2537960401009423 0.07443373037160436 -0.2537960401009423
192.7524913190936 0.07003630779307315 -0.2465086499721447 0.929963692206927 0.2465086499721447 0.929963692206927 0.2465086499721447 0.07003630779307315 -0.2465086499721447
199.526231496888 0.06588162397425289 -0.23936199354944673 0.9341183760257471 0.23936199354944673 0.9341183760257471 0.23936199354944673 0.06588162397425289 -0.23936199354944673
206.53801558105292 0.06195819684622054 -0.23235939643694434 0.9380418031537794 0.23235939643694434 0.9380418031537794 0.23235939643694434 0.06195819684622054 -0.23235939643694434
213.79620895022322 0.058254886348920384 -0.22550349848778628 0.9417451136510796 0.22550349848778628 0.9417451136510796 0.22550349848778628 0.058254886348920384 -0.22550349848778628
221.30947096056377 0.05476091097519889 -0.21879631317067835 0.9452390890248011 0.21879631317067835 0.9452390890248011 0.21879631317067835 0.05476091097519889 -0.21879631317067835
229.08676527677733 0.05146585920869893 -0.21223928368280037 0.9485341407913009 0.21223928368280037 0.9485341407913009 0.21223928368280037 0.05146585920869893 -0.21223928368280037
237.13737056616552 0.04835969657138645 -0.20583333567158985 0.9516403034286134 0.20583333567158985 0.9516403034286134 0.20583333567158985 0.04835969657138645 -0.20583333567158985
245.47089156850305 0.04543276894096086 -0.19957892651331716 0.9545672310590392 0.19957892651331716 0.9545672310590392 0.19957892651331716 0.04543276894096086 -0.19957892651331716
254.09727055493053 0.04267580273833431 -0.193476091166789 0.9573241972616657 0.193476091166789 0.9573241972616657 0.193476091166789 0.04267580273833431 -0.193476091166789
263.0267991895382 0.0400799025231848 -0.1875244846767205 0.9599200974768153 0.1875244846767205 0.9599200974768153 0.1875244846767205 0.0400799025231848 -0.1875244846767205
272.27013080779125 0.03763654647338678 -0.18172342144446713 0.962363453526613 0.18172342144446713 0.962363453526613 0.18172342144446713 0.03763654647338678 -0.18172342144446713
281.83829312644536 0.03533758016362773 -0.17607191141523515 0.9646624198363725 0.17607191141523515 0.9646624198363725 0.17607191141523515 0.03533758016362773 -0.17607191141523515
291.7427014001167 0.033175209001097286 -0.17056869335205402 0.9668247909989027 0.17056869335205402 0.9668247909989027 0.17056869335205402 0.033175209001097286 -0.17056869335205402
301.9951720402016 0.031141989622801236 -0.16521226537921557 0.9688580103771987 0.16521226537921557 0.9688580103771987 0.16521226537921557 0.031141989622801236 -0.16521226537921557
312.6079367123955 0.029230820510493218 -0.16000091298305905 0.9707691794895069 0.16000091298305905 0.9707691794895069 0.16000091298305905 0.029230820510493218 -0.16000091298305905
323.59365692962825 0.027434932035825824 -0.15493273465737464 0.9725650679641741 0.15493273465737464 0.9725650679641741 0.15493273465737464 0.027434932035825824 -0.15493273465737464
334.96543915782763 0.025747876110229457 -0.15000566537563437 0.9742521238897708 0.15000566537563437 0.9742521238897708 0.15000566537563437 0.025747876110229457 -0.15000566537563437
346.7368504525316 0.024163515581160082 -0.1452174980639672 0.9758364844188401 0.1452174980639672 0.9758364844188401 0.1452174980639672 0.024163515581160082 -0.1452174980639672
358.9219346450052 0.02267601348846436 -0.14056590323832144 0.9773239865115355 0.14056590323832144 0.9773239865115355 0.14056590323832144 0.02267601348846436 -0.14056590323832144
371.53522909717253 0.02127982227132841 -0.13604844695749674 0.9787201777286715 0.13604844695749674 0.9787201777286715 0.13604844695749674 0.02127982227132841 -0.13604844695749674
384.59178204535357 0.019969672997151185 -0.13166260723140671 0.9800303270028486 0.13166260723140671 0.9800303270028486 0.13166260723140671 0.019969672997151185 -0.13166260723140671
398.10717055349727 0.018740564668222506 -0.12740578901162586 0.9812594353317777 0.12740578901162586 0.9812594353317777 0.12740578901162586 0.018740564668222506 -0.12740578901162586
412.0975190973302 0.01758775364977721 -0.12327533787939379 0.9824122463502226 0.12327533787939379 0.9824122463502226 0.12327533787939379 0.01758775364977721 -0.12327533787939379
426.5795188015926 0.016506743253344308 -0.11926855253510699 0.9834932567466557 0.11926855253510699 0.9834932567466557 0.11926855253510699 0.016506743253344308 -0.11926855253510699
441.57044735331243 0.015493273501842996 -0.11538269618309391 0.984506726498157 0.11538269618309391 0.984506726498157 0.11538269618309391 0.015493273501842996 -0.11538269618309391
457.0881896148751 0.01454331109717036 -0.1116150068962561 0.9854566889028294 0.1116150068962561 0.9854566889028294 0.1116150068962561 0.01454331109717036 -0.1116150068962561
473.15125896148055 0.01365303960670038 -0.10796270703697596 0.9863469603932997 0.10796270703697596 0.9863469603932997 0.10796270703697596 0.01365303960670038 -0.10796270703697596
489.77881936844625 0.01281884988184882 -0.10442301180352886 0.9871811501181511 0.10442301180352886 0.9871811501181511 0.10442301180352886 0.01281884988184882 -0.10442301180352886
506.9907082747043 0.012037330719382544 -0.10099313696502074 0.9879626692806176 0.10099313696502074 0.9879626692806176 0.10099313696502074 0.012037330719382544 -0.10099313696502074
524.8074602497726 0.011305259774245827 -0.09767030584251588 0.9886947402257541 0.09767030584251588 0.9886947402257541 0.09767030584251588 0.011305259774245827 -0.09767030584251588
543.2503314924331 0.010619594731167654 -0.09445175558943095 0.9893804052688323 0.09445175558943095 0.9893804052688323 0.09445175558943095 0.010619594731167654 -0.09445175558943095
562.3413251903492 0.009977464741068878 -0.09133474282033205 0.9900225352589311 0.09133474282033205 0.9900225352589311 0.09133474282033205 0.009977464741068878 -0.09133474282033205
582.1032177708714 0.00937616212721088 -0.0883165486338975 0.9906238378727891 0.0883165486338975 0.9906238378727891 0.0883165486338975 0.00937616212721088 -0.0883165486338975
602.5595860743578 0.008813134365046722 -0.08539448307288884 0.9911868656349534 0.08539448307288884 0.9911868656349534 0.08539448307288884 0.008813134365046722 -0.08539448307288884
623.7348354824193 0.008285976338806981 -0.0825658890614325 0.9917140236611929 0.0825658890614325 0.9917140236611929 0.0825658890614325 0.008285976338806981 -0.0825658890614325
645.6542290346556 0.007792422876946342 -0.07982814585767188 0.9922075771230535 0.07982814585767188 0.9922075771230535 0.07982814585767188 0.007792422876946342 -0.07982814585767188
668.3439175686148 0.0073303415676785715 -0.07717867205784604 0.9926696584323214 0.07717867205784604 0.9926696584323214 0.07717867205784604 0.0073303415676785715 -0.07717867205784604
691.8309709189366 0.006897725854930541 -0.07461492818603006 0.9931022741450694 0.07461492818603006 0.9931022741450694 0.07461492818603006 0.006897725854930541 -0.07461492818603006
716.1434102129019 0.006492688414150775 -0.07213441890209528 0.9935073115858493 0.07213441890209528 0.9935073115858493 0.07213441890209528 0.006492688414150775 -0.07213441890209528
741.3102413009174 0.006113454806518287 -0.06973469485887544 0.9938865451934817 0.06973469485887544 0.9938865451934817 0.06973469485887544 0.006113454806518287 -0.06973469485887544
767.3614893618189 0.0057583574092189916 -0.06741335423803853 0.9942416425907808 0.06741335423803853 0.9942416425907808 0.06741335423803853 0.0057583574092189916 -0.06741335423803853
794.3282347242814 0.005425829618595997 -0.06516804399273664 0.9945741703814042 0.06516804399273664 0.9945741703814042 0.06516804399273664 0.005425829618595997 -0.06516804399273664
822.2426499470711 0.0051144003221421964 -0.06299646082372824 0.9948855996778578 0.06299646082372824 0.9948855996778578 0.06299646082372824 0.0051144003221421964 -0.06299646082372824
851.1380382023765 0.0048226886344944365 -0.06089635191432508 0.9951773113655059 0.06089635191432508 0.9951773113655059 0.06089635191432508 0.0048226886344944365 -0.06089635191432508
881.0488730080142 0.004549398891811243 -0.05886551544819746 0.9954506011081887 0.05886551544819746 0.9954506011081887 0.05886551544819746 0.004549398891811243 -0.05886551544819746
912.0108393559099 0.00429331589817527 -0.05690180093277813 0.9957066841018246 0.05690180093277813 0.9957066841018246 0.05690180093277813 0.00429331589817527 -0.05690180093277813
944.0608762859234 0.004053300416958518 -0.05500310934971961 0.9959466995830413 0.05500310934971961 0.9959466995830413 0.05500310934971961 0.004053300416958518 -0.05500310934971961
977.2372209558108 0.003828284899426461 -0.0531673931525859 0.9961717151005733 0.0531673931525859 0.9961717151005733 0.0531673931525859 0.003828284899426461 -0.0531673931525859
1011.5794542598987 0.0036172694422383165 -0.05139265613068438 0.9963827305577617 0.05139265613068438 0.9963827305577617 0.05139265613068438 0.0036172694422383165 -0.05139265613068438
1047.1285480508998 0.003419317964928643 -0.04967695315666767 0.9965806820350712 0.04967695315666767 0.9965806820350712 0.04967695315666767 0.003419317964928643 -0.04967695315666767
1083.9269140212034 0.003233554597934089 -0.048018389834247985 0.9967664454020659 0.048018389834247985 0.9967664454020659 0.048018389834247985 0.003233554597934089 -0.048018389834247985
1122.0184543019632 0.0030591602712646496 -0.04641512206106794 0.9969408397287353 0.04641512206106794 0.9969408397287353 0.04641512206106794 0.0030591602712646496 -0.04641512206106794
1161.4486138403427 0.002895369493518212 -0.04486535552045387 0.9971046305064817 0.04486535552045387 0.9971046305064817 0.04486535552045387 0.002895369493518212 -0.04486535552045387
1202.2644346174127 0.0027414673106098985 -0.043367345114442055 0.99725853268939 0.043367345114442055 0.99725853268939 0.043367345114442055 0.0027414673106098985 -0.043367345114442055
1244.514611771385 0.0025967864333442717 -0.04191939434911266 0.9974032135666557 0.04191939434911266 0.9974032135666557 0.04191939434911266 0.0025967864333442717 -0.04191939434911266
1288.249551693134 0.0024607045228107844 -0.0405198546818946 0.9975392954771893 0.0405198546818946 0.9975392954771893 0.0405198546818946 0.0024607045228107844 -0.0405198546818946
1333.5214321633239 0.0023326416225433696 -0.039167124839122505 0.9976673583774567 0.039167124839122505 0.9976673583774567 0.039167124839122505 0.0023326416225433696 -0.039167124839122505
1380.384264602885 0.0022120577264662105 -0.03785965011074572 0.9977879422735336 0.03785965011074572 0.9977879422735336 0.03785965011074572 0.0022120577264662105 -0.03785965011074572
1428.893958511103 0.002098450471860485 -0.0365959216277224 0.9979015495281391 0.0365959216277224 0.9979015495281391 0.0365959216277224 0.002098450471860485 -0.0365959216277224
1479.1083881682075 0.0019913529469399987 -0.03537447562629738 0.9980086470530599 0.03537447562629738 0.9980086470530599 0.03537447562629738 0.0019913529469399987 -0.03537447562629738
1531.0874616820304 0.0018903316031223896 -0.03419389270208456 0.9981096683968778 0.03419389270208456 0.9981096683968778 0.03419389270208456 0.0018903316031223896 -0.03419389270208456
1584.8931924611136 0.0017949842627271292 -0.03305279705567547 0.9982050157372728 0.03305279705567547 0.9982050157372728 0.03305279705567547 0.0017949842627271292 -0.03305279705567547
1640.5897731995396 0.0017049382136166496 -0.031949855730405256 0.9982950617863835 0.031949855730405256 0.9982950617863835 0.031949855730405256 0.0017049382136166496 -0.031949855730405256
1698.2436524617442 0.001619848383210329 -0.030883777841951045 0.9983801516167896 0.030883777841951045 0.9983801516167896 0.030883777841951045 0.001619848383210329 -0.030883777841951045
1757.9236139586924 0.0015393955853237622 -0.02985331379864373 0.9984606044146762 0.02985331379864373 0.9984606044146762 0.02985331379864373 0.0015393955853237622 -0.02985331379864373
1819.7008586099835 0.001463284834391676 -0.028857254510763444 0.9985367151656082 0.028857254510763444 0.9985367151656082 0.028857254510763444 0.001463284834391676 -0.028857254510763444
1883.6490894898002 0.0013912437227896924 -0.02789443058668186 0.9986087562772105 0.02789443058668186 0.9986087562772105 0.02789443058668186 0.0013912437227896924 -0.02789443058668186
1949.8445997580454 0.0013230208581404702 -0.026963711513519364 0.9986769791418596 0.026963711513519364 0.9986769791418596 0.026963711513519364 0.0013230208581404702 -0.026963711513519364
2018.3663636815609 0.0012583843586329148 -0.026064004820007935 0.9987416156413672 0.026064004820007935 0.9987416156413672 0.026064004820007935 0.0012583843586329148 -0.026064004820007935
2089.29613085404 0.0011971204054570216 -0.02519425521948024 0.9988028795945432 0.02519425521948024 0.9988028795945432 0.02519425521948024 0.0011971204054570216 -0.02519425521948024
2162.7185237270205 0.0011390318524211339 -0.024353443731330412 0.998860968147579 0.024353443731330412 0.998860968147579 0.024353443731330412 0.0011390318524211339 -0.024353443731330412
2238.7211385683395 0.0010839368936359822 -0.023540586779882147 0.998916063106364 0.023540586779882147 0.998916063106364 0.023540586779882147 0.0010839368936359822 -0.023540586779882147
2317.394649968479 0.0010316677907905344 -0.02275473527032321 0.9989683322092094 0.02275473527032321 0.9989683322092094 0.02275473527032321 0.0010316677907905344 -0.02275473527032321
2398.832919019491 9.8206966198627E-4 -0.02199497364218127 0.9990179303380137 0.02199497364218127 0.9990179303380137 0.02199497364218127 9.8206966198627E-4 -0.02199497364218127
2483.1331052955707 9.349993343268727E-4 -0.021260418901677767 0.9990650006656729 0.021260418901677767 0.9990650006656729 0.021260418901677767 9.349993343268727E-4 -0.021260418901677767
2570.3957827688632 8.903242624782149E-4 -0.02055021963516 0.9991096757375217 0.02055021963516 0.9991096757375217 0.02055021963516 8.903242624782149E-4 -0.02055021963516
2660.725059798809 8.479215152281995E-4 -0.019863555006628467 0.9991520784847717 0.019863555006628467 0.9991520784847717 0.019863555006628467 8.479215152281995E-4 -0.019863555006628467
2754.2287033381663 8.076768317072899E-4 -0.01919963374310886 0.9991923231682928 0.01919963374310886 0.9991923231682928 0.01919963374310886 8.076768317072899E-4 -0.01919963374310886
2851.018267503909 7.694837484064018E-4 -0.018557693112226943 0.9992305162515936 0.018557693112226943 0.9992305162515936 0.018557693112226943 7.694837484064018E-4 -0.018557693112226943
2951.209226666386 7.332427974842934E-4 -0.017936997896807333 0.9992667572025157 0.017936997896807333 0.9992667572025157 0.017936997896807333 7.332427974842934E-4 -0.017936997896807333
3054.9211132155133 6.988607761305554E-4 -0.017336839371612324 0.9993011392238694 0.017336839371612324 0.9993011392238694 0.017336839371612324 6.988607761305554E-4 -0.017336839371612324
3162.277660168379 6.662500859835661E-4 -0.01675653428746046 0.9993337499140165 0.01675653428746046 0.9993337499140165 0.01675653428746046 6.662500859835661E-4 -0.01675653428746046
3273.406948788382 6.353281408350411E-4 -0.01619542386791608 0.9993646718591651 0.01619542386791608 0.9993646718591651 0.01619542386791608 6.353281408350411E-4 -0.01619542386791608
3388.4415613920255 6.060168401206655E-4 -0.015652872823533025 0.9993939831598795 0.015652872823533025 0.9993939831598795 0.015652872823533025 6.060168401206655E-4 -0.015652872823533025
3507.5187395256803 5.782421050313019E-4 -0.015128268388285371 0.9994217578949687 0.015128268388285371 0.9994217578949687 0.015128268388285371 5.782421050313019E-4 -0.015128268388285371
3630.7805477010143 5.519334735065596E-4 -0.014621019382350105 0.9994480665264933 0.014621019382350105 0.9994480665264933 0.014621019382350105 5.519334735065596E-4 -0.014621019382350105
3758.374042884442 5.270237499100738E-4 -0.014130555304846953 0.9994729762500899 0.014130555304846953 0.9994729762500899 0.014130555304846953 5.270237499100738E-4 -0.014130555304846953
3890.451449942807 5.034487048443741E-4 -0.013656325459520283 0.9994965512951555 0.013656325459520283 0.9994965512951555 0.013656325459520283 5.034487048443741E-4 -0.013656325459520283
4027.170343254592 4.811468203462616E-4 -0.013197798115693413 0.9995188531796538 0.013197798115693413 0.9995188531796538 0.013197798115693413 4.811468203462616E-4 -0.013197798115693413
