!Murata Part Number: RDEC71H475K2P1H03B
!These Parameters are Measured in Series Mode Connection
!       o--ll--o
!Port1            Port2
!       o------o
!Operation Temp=25[degC], DC Bias Voltage=0[V]
!Freq. Start=100[Hz] Stop=100[MHz], 401[Steps]
!Data Generated on Dec 23, 2019
# Hz S RI R 50
!Freq.(Hz) S11(Real) S11(Imag) S21(Real) S21(Imag) S12(Real) S12(Imag) S22(Real) S22(Imag)
100.0 0.9241361317700173 -0.26296231890298066 0.07586386822998277 0.26296231890298066 0.07586386822998277 0.26296231890298066 0.9241361317700173 -0.26296231890298066
103.51421666793439 0.9191928390689142 -0.2707145910434493 0.08080716093108584 0.2707145910434493 0.08080716093108584 0.2707145910434493 0.9191928390689142 -0.2707145910434493
107.15193052376064 0.9139564751204616 -0.27859768655797285 0.08604352487953836 0.27859768655797285 0.08604352487953836 0.27859768655797285 0.9139564751204616 -0.27859768655797285
110.9174815262401 0.9084136271773122 -0.28660384400189626 0.0915863728226879 0.28660384400189626 0.0915863728226879 0.28660384400189626 0.9084136271773122 -0.28660384400189626
114.81536214968828 0.9025508042692101 -0.29472416213097724 0.09744919573078989 0.29472416213097724 0.09744919573078989 0.29472416213097724 0.9025508042692101 -0.29472416213097724
118.85022274370185 0.8963545173119573 -0.3029485352456414 0.10364548268804263 0.3029485352456414 0.10364548268804263 0.3029485352456414 0.8963545173119573 -0.3029485352456414
123.02687708123815 0.8898113698300645 -0.3112655920053188 0.11018863016993544 0.3112655920053188 0.11018863016993544 0.3112655920053188 0.8898113698300645 -0.3112655920053188
127.35030810166617 0.8829081596467236 -0.31966263910157794 0.11709184035327638 0.31966263910157794 0.11709184035327638 0.31966263910157794 0.8829081596467236 -0.31966263910157794
131.8256738556407 0.8756319917472986 -0.3281256113305831 0.12436800825270145 0.3281256113305831 0.12436800825270145 0.3281256113305831 0.8756319917472986 -0.3281256113305831
136.45831365889245 0.8679704023405964 -0.3366390297487943 0.1320295976594036 0.3366390297487943 0.1320295976594036 0.3366390297487943 0.8679704023405964 -0.3366390297487943
141.25375446227542 0.859911493923918 -0.34518596972440924 0.14008850607608192 0.34518596972440924 0.14008850607608192 0.34518596972440924 0.859911493923918 -0.34518596972440924
146.21771744567184 0.8514440809025129 -0.35374804080339534 0.1485559190974872 0.35374804080339534 0.1485559190974872 0.35374804080339534 0.8514440809025129 -0.35374804080339534
151.35612484362082 0.8425578450220317 -0.36230538038486176 0.15744215497796837 0.36230538038486176 0.15744215497796837 0.36230538038486176 0.8425578450220317 -0.36230538038486176
156.6751070108149 0.8332434995460006 -0.37083666323701325 0.16675650045399934 0.37083666323701325 0.16675650045399934 0.37083666323701325 0.8332434995460006 -0.37083666323701325
162.181009735893 0.8234929607531972 -0.3793191288726791 0.17650703924680264 0.3793191288726791 0.17650703924680264 0.3793191288726791 0.8234929607531972 -0.3793191288726791
167.88040181225603 0.8132995249482973 -0.38772862873299363 0.18670047505170273 0.38772862873299363 0.18670047505170273 0.38772862873299363 0.8132995249482973 -0.38772862873299363
173.78008287493756 0.8026580487818252 -0.3960396949902464 0.19734195121817477 0.3960396949902464 0.19734195121817477 0.3960396949902464 0.8026580487818252 -0.3960396949902464
179.88709151287878 0.791565130273409 -0.40422563256816485 0.20843486972659095 0.40422563256816485 0.20843486972659095 0.40422563256816485 0.791565130273409 -0.40422563256816485
186.20871366628674 0.7800192875392126 -0.4122586356835543 0.2199807124607875 0.4122586356835543 0.2199807124607875 0.4122586356835543 0.7800192875392126 -0.4122586356835543
192.7524913190936 0.7680211318562408 -0.42010992983319534 0.2319788681437593 0.42010992983319534 0.2319788681437593 0.42010992983319534 0.7680211318562408 -0.42010992983319534
199.526231496888 0.755573531371018 -0.4277499396831633 0.24442646862898199 0.4277499396831633 0.24442646862898199 0.4277499396831633 0.755573531371018 -0.4277499396831633
206.53801558105292 0.7426817614974994 -0.435148482767002 0.2573182385025006 0.435148482767002 0.2573182385025006 0.435148482767002 0.7426817614974994 -0.435148482767002
213.79620895022322 0.7293536378692668 -0.4422749882715848 0.27064636213073323 0.4422749882715848 0.27064636213073323 0.4422749882715848 0.7293536378692668 -0.4422749882715848
221.30947096056377 0.7155996276341321 -0.44909873949697743 0.2844003723658679 0.44909873949697743 0.2844003723658679 0.44909873949697743 0.7155996276341321 -0.44909873949697743
229.08676527677733 0.7014329349237802 -0.45558913783630534 0.29856706507621966 0.45558913783630534 0.29856706507621966 0.45558913783630534 0.7014329349237802 -0.45558913783630534
237.13737056616552 0.6868695565128997 -0.4617159853556691 0.3131304434871003 0.4617159853556691 0.3131304434871003 0.4617159853556691 0.6868695565128997 -0.4617159853556691
245.47089156850305 0.6719283040130215 -0.46744978228943007 0.32807169598697844 0.46744978228943007 0.32807169598697844 0.46744978228943007 0.6719283040130215 -0.46744978228943007
254.09727055493053 0.6566307894321795 -0.4727620350334944 0.34336921056782055 0.4727620350334944 0.34336921056782055 0.4727620350334944 0.6566307894321795 -0.4727620350334944
263.0267991895382 0.6410013715718794 -0.47762556955206226 0.35899862842812064 0.47762556955206226 0.35899862842812064 0.47762556955206226 0.6410013715718794 -0.47762556955206226
272.27013080779125 0.6250670615194138 -0.4820148445463566 0.3749329384805862 0.4820148445463566 0.3749329384805862 0.4820148445463566 0.6250670615194138 -0.4820148445463566
281.83829312644536 0.6088573864095744 -0.48590625830102113 0.39114261359042546 0.48590625830102113 0.39114261359042546 0.48590625830102113 0.6088573864095744 -0.48590625830102113
291.7427014001167 0.5924042116502979 -0.4892784428561918 0.40759578834970206 0.4892784428561918 0.40759578834970206 0.4892784428561918 0.5924042116502979 -0.4892784428561918
301.9951720402016 0.5757415228987552 -0.49211253907666164 0.4242584771012448 0.49211253907666164 0.4242584771012448 0.49211253907666164 0.5757415228987552 -0.49211253907666164
312.6079367123955 0.5589051701982221 -0.4943924463227292 0.44109482980177805 0.4943924463227292 0.44109482980177805 0.4943924463227292 0.5589051701982221 -0.4943924463227292
323.59365692962825 0.541932577797007 -0.4961050407798804 0.458067422202993 0.4961050407798804 0.458067422202993 0.4961050407798804 0.541932577797007 -0.4961050407798804
334.96543915782763 0.5248624242214341 -0.4972403570754994 0.47513757577856586 0.4972403570754994 0.47513757577856586 0.4972403570754994 0.5248624242214341 -0.4972403570754994
346.7368504525316 0.5077342981178775 -0.4977917285882169 0.49226570188212243 0.4977917285882169 0.49226570188212243 0.4977917285882169 0.5077342981178775 -0.4977917285882169
358.9219346450052 0.4905883361696604 -0.497755882815885 0.5094116638303394 0.497755882815885 0.5094116638303394 0.497755882815885 0.4905883361696604 -0.497755882815885
371.53522909717253 0.47346484999448374 -0.49713298927769073 0.5265351500055163 0.49713298927769073 0.5265351500055163 0.49713298927769073 0.47346484999448374 -0.49713298927769073
384.59178204535357 0.4564039493066025 -0.49592665864188973 0.5435960506933974 0.49592665864188973 0.5435960506933974 0.49592665864188973 0.4564039493066025 -0.49592665864188973
398.10717055349727 0.43944516876554124 -0.49414389304386636 0.5605548312344588 0.49414389304386636 0.5605548312344588 0.49414389304386636 0.43944516876554124 -0.49414389304386636
412.0975190973302 0.422627105821934 -0.49179498883682843 0.577372894178066 0.49179498883682843 0.577372894178066 0.49179498883682843 0.422627105821934 -0.49179498883682843
426.5795188015926 0.405987076516087 -0.4888933942461136 0.594012923483913 0.4888933942461136 0.594012923483913 0.4888933942461136 0.405987076516087 -0.4888933942461136
441.57044735331243 0.3895607956032959 -0.48545552552723864 0.6104392043967041 0.48545552552723864 0.6104392043967041 0.48545552552723864 0.3895607956032959 -0.48545552552723864
457.0881896148751 0.3733820866002642 -0.4815005462127269 0.6266179133997358 0.4815005462127269 0.6266179133997358 0.4815005462127269 0.3733820866002642 -0.4815005462127269
473.15125896148055 0.35748262640682327 -0.4770501148370123 0.6425173735931767 0.4770501148370123 0.6425173735931767 0.4770501148370123 0.35748262640682327 -0.4770501148370123
489.77881936844625 0.34189172810083757 -0.4721281071262595 0.6581082718991624 0.4721281071262595 0.6581082718991624 0.4721281071262595 0.34189172810083757 -0.4721281071262595
506.9907082747043 0.32663616437983606 -0.4667603190160426 0.673363835620164 0.4667603190160426 0.673363835620164 0.4667603190160426 0.32663616437983606 -0.4667603190160426
524.8074602497726 0.3117400329792666 -0.4609741570114501 0.6882599670207333 0.4609741570114501 0.6882599670207333 0.4609741570114501 0.3117400329792666 -0.4609741570114501
543.2503314924331 0.29722466428108313 -0.45479832233938416 0.7027753357189169 0.45479832233938416 0.7027753357189169 0.45479832233938416 0.29722466428108313 -0.45479832233938416
562.3413251903492 0.2831085702794875 -0.448262495079446 0.7168914297205125 0.448262495079446 0.7168914297205125 0.448262495079446 0.2831085702794875 -0.448262495079446
582.1032177708714 0.2694074331284231 -0.4413970240237453 0.7305925668715769 0.4413970240237453 0.7305925668715769 0.4413970240237453 0.2694074331284231 -0.4413970240237453
602.5595860743578 0.2561341306849232 -0.43423262743884433 0.7438658693150767 0.43423262743884433 0.7438658693150767 0.43423262743884433 0.2561341306849232 -0.43423262743884433
623.7348354824193 0.24329879580215955 -0.42680010922000483 0.7567012041978405 0.42680010922000483 0.7567012041978405 0.42680010922000483 0.24329879580215955 -0.42680010922000483
645.6542290346556 0.230908905625509 -0.41913009417513586 0.769091094374491 0.41913009417513586 0.769091094374491 0.41913009417513586 0.230908905625509 -0.41913009417513586
668.3439175686148 0.21896939680551467 -0.41125278538867455 0.7810306031944853 0.41125278538867455 0.7810306031944853 0.41125278538867455 0.21896939680551467 -0.41125278538867455
691.8309709189366 0.20748280235716252 -0.40319774582657836 0.7925171976428373 0.40319774582657836 0.7925171976428373 0.40319774582657836 0.20748280235716252 -0.40319774582657836
716.1434102129019 0.19644940585341186 -0.3949937055811853 0.8035505941465881 0.3949937055811853 0.8035505941465881 0.3949937055811853 0.19644940585341186 -0.3949937055811853
741.3102413009174 0.18586740872577232 -0.38666839544239323 0.8141325912742278 0.38666839544239323 0.8141325912742278 0.38666839544239323 0.18586740872577232 -0.38666839544239323
767.3614893618189 0.1757331066362832 -0.37824840683749417 0.8242668933637168 0.37824840683749417 0.8242668933637168 0.37824840683749417 0.1757331066362832 -0.37824840683749417
794.3282347242814 0.1660410711623399 -0.3697590776186616 0.8339589288376601 0.3697590776186616 0.8339589288376601 0.3697590776186616 0.1660410711623399 -0.3697590776186616
822.2426499470711 0.15678433337691902 -0.3612244027018569 0.843215666623081 0.3612244027018569 0.843215666623081 0.3612244027018569 0.15678433337691902 -0.3612244027018569
851.1380382023765 0.14795456629124296 -0.3526669681764281 0.8520454337087571 0.3526669681764281 0.8520454337087571 0.3526669681764281 0.14795456629124296 -0.3526669681764281
881.0488730080142 0.13954226353577837 -0.344107907209549 0.8604577364642216 0.344107907209549 0.8604577364642216 0.344107907209549 0.13954226353577837 -0.344107907209549
912.0108393559099 0.1315369120719224 -0.33556687585923933 0.8684630879280778 0.33556687585923933 0.8684630879280778 0.33556687585923933 0.1315369120719224 -0.33556687585923933
944.0608762859234 0.12392715713664541 -0.3270620467769888 0.8760728428633546 0.3270620467769888 0.8760728428633546 0.3270620467769888 0.12392715713664541 -0.3270620467769888
977.2372209558108 0.11670095801432329 -0.31861011871724687 0.8832990419856765 0.31861011871724687 0.8832990419856765 0.31861011871724687 0.11670095801432329 -0.31861011871724687
1011.5794542598987 0.10984573359532408 -0.3102263397665943 0.8901542664046759 0.3102263397665943 0.8901542664046759 0.3102263397665943 0.10984573359532408 -0.3102263397665943
1047.1285480508998 0.10334849701349388 -0.3019245422502628 0.8966515029865063 0.3019245422502628 0.8966515029865063 0.3019245422502628 0.10334849701349388 -0.3019245422502628
1083.9269140212034 0.09719597895071178 -0.29371718735797997 0.9028040210492881 0.29371718735797997 0.9028040210492881 0.29371718735797997 0.09719597895071178 -0.29371718735797997
1122.0184543019632 0.0913747394543079 -0.285615417645541 0.908625260545692 0.285615417645541 0.908625260545692 0.285615417645541 0.0913747394543079 -0.285615417645541
1161.4486138403427 0.08587126833222652 -0.27762911570454757 0.9141287316677735 0.27762911570454757 0.9141287316677735 0.27762911570454757 0.08587126833222652 -0.27762911570454757
1202.2644346174127 0.08067207437247147 -0.26976696744285 0.9193279256275283 0.26976696744285 0.9193279256275283 0.26976696744285 0.08067207437247147 -0.26976696744285
1244.514611771385 0.07576376377972556 -0.26203652857588455 0.9242362362202742 0.26203652857588455 0.9242362362202742 0.26203652857588455 0.07576376377972556 -0.26203652857588455
1288.249551693134 0.07113310833589007 -0.2544442930889171 0.9288668916641099 0.2544442930889171 0.9288668916641099 0.2544442930889171 0.07113310833589007 -0.2544442930889171
1333.5214321633239 0.0667671038758589 -0.24699576258781056 0.9332328961241412 0.24699576258781056 0.9332328961241412 0.24699576258781056 0.0667671038758589 -0.24699576258781056
1380.384264602885 0.06265301972857205 -0.23969551560792665 0.937346980271428 0.23969551560792665 0.937346980271428 0.23969551560792665 0.06265301972857205 -0.23969551560792665
1428.893958511103 0.05877843980975491 -0.23254727609463927 0.941221560190245 0.23254727609463927 0.941221560190245 0.23254727609463927 0.05877843980975491 -0.23254727609463927
1479.1083881682075 0.0551312960701211 -0.22555398040288735 0.9448687039298789 0.22555398040288735 0.9448687039298789 0.22555398040288735 0.0551312960701211 -0.22555398040288735
1531.0874616820304 0.05169989500440146 -0.21871784228613936 0.9483001049955982 0.21871784228613936 0.9483001049955982 0.21871784228613936 0.05169989500440146 -0.21871784228613936
1584.8931924611136 0.048472937915290615 -0.2120404154564565 0.9515270620847093 0.2120404154564565 0.9515270620847093 0.2120404154564565 0.048472937915290615 -0.2120404154564565
1640.5897731995396 0.04543953560493883 -0.20552265339687847 0.9545604643950611 0.20552265339687847 0.9545604643950611 0.20552265339687847 0.04543953560493883 -0.20552265339687847
1698.2436524617442 0.04258921813731234 -0.19916496619527205 0.9574107818626878 0.19916496619527205 0.9574107818626878 0.19916496619527205 0.04258921813731234 -0.19916496619527205
1757.9236139586924 0.03991194027964799 -0.1929672742454727 0.9600880597203519 0.1929672742454727 0.9600880597203519 0.1929672742454727 0.03991194027964799 -0.1929672742454727
1819.7008586099835 0.037398083192107974 -0.18692905872761656 0.9626019168078923 0.18692905872761656 0.9626019168078923 0.18692905872761656 0.037398083192107974 -0.18692905872761656
1883.6490894898002 0.03503845289308322 -0.18104940883567555 0.964961547106917 0.18104940883567555 0.964961547106917 0.18104940883567555 0.03503845289308322 -0.18104940883567555
1949.8445997580454 0.03282427598465507 -0.17532706576717347 0.9671757240153451 0.17532706576717347 0.9671757240153451 0.17532706576717347 0.03282427598465507 -0.17532706576717347
2018.3663636815609 0.030747193079529923 -0.16976046352866372 0.9692528069204702 0.16976046352866372 0.9692528069204702 0.16976046352866372 0.030747193079529923 -0.16976046352866372
2089.29613085404 0.028799250328140947 -0.16434776664161807 0.971200749671859 0.16434776664161807 0.971200749671859 0.16434776664161807 0.028799250328140947 -0.16434776664161807
2162.7185237270205 0.026972889403238137 -0.15908690485773166 0.9730271105967618 0.15908690485773166 0.9730271105967618 0.15908690485773166 0.026972889403238137 -0.15908690485773166
2238.7211385683395 0.025260936259662324 -0.15397560501105892 0.9747390637403377 0.15397560501105892 0.9747390637403377 0.15397560501105892 0.025260936259662324 -0.15397560501105892
2317.394649968479 0.02365658894952131 -0.14901142014763807 0.9763434110504786 0.14901142014763807 0.9763434110504786 0.14901142014763807 0.02365658894952131 -0.14901142014763807
2398.832919019491 0.022153404737917735 -0.14419175608203477 0.9778465952620823 0.14419175608203477 0.9778465952620823 0.14419175608203477 0.022153404737917735 -0.14419175608203477
2483.1331052955707 0.020745286731902603 -0.13951389553520854 0.9792547132680975 0.13951389553520854 0.9792547132680975 0.13951389553520854 0.020745286731902603 -0.13951389553520854
2570.3957827688632 0.0194264702055401 -0.1349750200099106 0.98057352979446 0.1349750200099106 0.98057352979446 0.1349750200099106 0.0194264702055401 -0.1349750200099106
2660.725059798809 0.01819150877688998 -0.13057222955899825 0.9818084912231099 0.13057222955899825 0.9818084912231099 0.13057222955899825 0.01819150877688998 -0.13057222955899825
2754.2287033381663 0.01703526056831559 -0.12630256059913872 0.9829647394316845 0.12630256059913872 0.9829647394316845 0.12630256059913872 0.01703526056831559 -0.12630256059913872
2851.018267503909 0.015952874459723824 -0.12216300191780713 0.9840471255402762 0.12216300191780713 0.9840471255402762 0.12216300191780713 0.015952874459723824 -0.12216300191780713
2951.209226666386 0.014939776525023322 -0.11815050901567857 0.9850602234749769 0.11815050901567857 0.9850602234749769 0.11815050901567857 0.014939776525023322 -0.11815050901567857
3054.9211132155133 0.013991656725101194 -0.11426201691981255 0.9860083432748987 0.11426201691981255 0.9860083432748987 0.11426201691981255 0.013991656725101194 -0.11426201691981255
3162.277660168379 0.013104455915799887 -0.11049445159572924 0.9868955440842 0.11049445159572924 0.9868955440842 0.11049445159572924 0.013104455915799887 -0.11049445159572924
3273.406948788382 0.012274353216548413 -0.10684474007883873 0.9877256467834515 0.10684474007883873 0.9877256467834515 0.10684474007883873 0.012274353216548413 -0.10684474007883873
3388.4415613920255 0.01149775377427803 -0.10330981943789655 0.9885022462257219 0.10330981943789655 0.9885022462257219 0.10330981943789655 0.01149775377427803 -0.10330981943789655
3507.5187395256803 0.010771276947850366 -0.09988664467540097 0.9892287230521496 0.09988664467540097 0.9892287230521496 0.09988664467540097 0.010771276947850366 -0.09988664467540097
3630.7805477010143 0.010091744930264735 -0.0965721956622374 0.9899082550697351 0.0965721956622374 0.9899082550697351 0.0965721956622374 0.010091744930264735 -0.0965721956622374
3758.374042884442 0.009456171819219327 -0.09336348319650999 0.9905438281807808 0.09336348319650999 0.9905438281807808 0.09336348319650999 0.009456171819219327 -0.09336348319650999
3890.451449942807 0.008861753141018813 -0.09025755426944725 0.9911382468589811 0.09025755426944725 0.9911382468589811 0.09025755426944725 0.008861753141018813 -0.09025755426944725
4027.170343254592 0.008305855828201035 -0.08725149661457586 0.991694144171799 0.08725149661457586 0.991694144171799 0.08725149661457586 0.008305855828201035 -0.08725149661457586
4168.693834703356 0.007786008647465076 -0.08434244261004128 0.9922139913525347 0.08434244261004128 0.9922139913525347 0.08434244261004128 0.007786008647465076 -0.08434244261004128
4315.190768277653 0.007299893071403492 -0.08152757259803568 0.9927001069285963 0.08152757259803568 0.9927001069285963 0.08152757259803568 0.007299893071403492 -0.08152757259803568
