!Murata Part Number: RDEC72A475K3K1H03B
!These Parameters are Measured in Series Mode Connection
!       o--ll--o
!Port1            Port2
!       o------o
!Operation Temp=25[degC], DC Bias Voltage=0[V]
!Freq. Start=100[Hz] Stop=100[MHz], 401[Steps]
!Data Generated on Apr 21, 2023
# Hz S RI R 50
!Freq.(Hz) S11(Real) S11(Imag) S21(Real) S21(Imag) S12(Real) S12(Imag) S22(Real) S22(Imag)
100.0 0.9253644940609347 -0.2601614066823685 0.07463550593906529 0.2601614066823685 0.07463550593906529 0.2601614066823685 0.9253644940609347 -0.2601614066823685
103.51421666793439 0.9205091965796699 -0.2678389674214351 0.07949080342033006 0.2678389674214351 0.07949080342033006 0.2678389674214351 0.9205091965796699 -0.2678389674214351
107.15193052376064 0.9153666077294507 -0.2756482987201001 0.08463339227054938 0.2756482987201001 0.08463339227054938 0.2756482987201001 0.9153666077294507 -0.2756482987201001
110.9174815262401 0.9099234630286531 -0.28358206426162247 0.09007653697134699 0.28358206426162247 0.09007653697134699 0.28358206426162247 0.9099234630286531 -0.28358206426162247
114.81536214968828 0.9041663900710907 -0.29163181642402686 0.0958336099289093 0.29163181642402686 0.0958336099289093 0.29163181642402686 0.9041663900710907 -0.29163181642402686
118.85022274370185 0.8980819849326935 -0.29978792972719587 0.10191801506730658 0.29978792972719587 0.10191801506730658 0.29978792972719587 0.8980819849326935 -0.29978792972719587
123.02687708123815 0.8916568992723087 -0.3080395373003844 0.10834310072769132 0.3080395373003844 0.10834310072769132 0.3080395373003844 0.8916568992723087 -0.3080395373003844
127.35030810166617 0.8848779385330258 -0.3163744717507862 0.11512206146697414 0.3163744717507862 0.11512206146697414 0.3163744717507862 0.8848779385330258 -0.3163744717507862
131.8256738556407 0.8777321715071633 -0.3247792119713394 0.12226782849283661 0.3247792119713394 0.12226782849283661 0.3247792119713394 0.8777321715071633 -0.3247792119713394
136.45831365889245 0.8702070513498864 -0.33323883757639305 0.12979294865011357 0.33323883757639305 0.12979294865011357 0.33323883757639305 0.8702070513498864 -0.33323883757639305
141.25375446227542 0.8622905479111457 -0.34173699279082587 0.13770945208885424 0.34173699279082587 0.13770945208885424 0.34173699279082587 0.8622905479111457 -0.34173699279082587
146.21771744567184 0.8539712910020236 -0.35025586173428847 0.1460287089979764 0.35025586173428847 0.1460287089979764 0.35025586173428847 0.8539712910020236 -0.35025586173428847
151.35612484362082 0.845238723919666 -0.3587761571290207 0.1547612760803339 0.3587761571290207 0.1547612760803339 0.3587761571290207 0.845238723919666 -0.3587761571290207
156.6751070108149 0.8360832662264022 -0.3672771245079541 0.16391673377359792 0.3672771245079541 0.16391673377359792 0.3672771245079541 0.8360832662264022 -0.3672771245079541
162.181009735893 0.8264964844170185 -0.3757365639996991 0.1735035155829815 0.3757365639996991 0.1735035155829815 0.3757365639996991 0.8264964844170185 -0.3757365639996991
167.88040181225603 0.8164712687193354 -0.38413087170856475 0.18352873128066471 0.38413087170856475 0.18352873128066471 0.38413087170856475 0.8164712687193354 -0.38413087170856475
173.78008287493756 0.8060020138656655 -0.3924351025811803 0.19399798613433447 0.3924351025811803 0.19399798613433447 0.3924351025811803 0.8060020138656655 -0.3924351025811803
179.88709151287878 0.7950848012576138 -0.4006230564477675 0.20491519874238612 0.4006230564477675 0.20491519874238612 0.4006230564477675 0.7950848012576138 -0.4006230564477675
186.20871366628674 0.7837175795379178 -0.40866738863835794 0.21628242046208213 0.40866738863835794 0.21628242046208213 0.40866738863835794 0.7837175795379178 -0.40866738863835794
192.7524913190936 0.7719003401972881 -0.4165397461973696 0.22809965980271169 0.4165397461973696 0.22809965980271169 0.4165397461973696 0.7719003401972881 -0.4165397461973696
199.526231496888 0.7596352845003891 -0.4242109302522503 0.24036471549961094 0.4242109302522503 0.24036471549961094 0.4242109302522503 0.7596352845003891 -0.4242109302522503
206.53801558105292 0.7469269777338914 -0.4316510845356353 0.2530730222661085 0.4316510845356353 0.2530730222661085 0.4316510845356353 0.7469269777338914 -0.4316510845356353
213.79620895022322 0.7337824865825522 -0.4388299094226764 0.26621751341744776 0.4388299094226764 0.26621751341744776 0.4388299094226764 0.7337824865825522 -0.4388299094226764
221.30947096056377 0.720211495347908 -0.44571690013813065 0.27978850465209193 0.44571690013813065 0.27978850465209193 0.44571690013813065 0.720211495347908 -0.44571690013813065
229.08676527677733 0.7062263967584297 -0.4522816070293141 0.2937736032415703 0.4522816070293141 0.2937736032415703 0.4522816070293141 0.7062263967584297 -0.4522816070293141
237.13737056616552 0.6918423532967813 -0.45849391501451003 0.30815764670321877 0.45849391501451003 0.30815764670321877 0.45849391501451003 0.6918423532967813 -0.45849391501451003
245.47089156850305 0.6770773253017158 -0.46432433853036953 0.3229226746982842 0.46432433853036953 0.3229226746982842 0.46432433853036953 0.6770773253017158 -0.46432433853036953
254.09727055493053 0.6619520625954838 -0.4697443275489859 0.3380479374045162 0.4697443275489859 0.3380479374045162 0.4697443275489859 0.6619520625954838 -0.4697443275489859
263.0267991895382 0.6464900570415033 -0.4747265795512407 0.3535099429584967 0.4747265795512407 0.3535099429584967 0.4747265795512407 0.6464900570415033 -0.4747265795512407
272.27013080779125 0.6307174542420263 -0.47924535176438143 0.3692825457579736 0.47924535176438143 0.3692825457579736 0.47924535176438143 0.6307174542420263 -0.47924535176438143
281.83829312644536 0.6146629235232375 -0.48327676753418897 0.3853370764767625 0.48327676753418897 0.3853370764767625 0.48327676753418897 0.6146629235232375 -0.48327676753418897
291.7427014001167 0.5983574863982407 -0.4867991104376597 0.4016425136017591 0.4867991104376597 0.4016425136017591 0.4867991104376597 0.5983574863982407 -0.4867991104376597
301.9951720402016 0.5818343048110676 -0.4897930996771276 0.41816569518893243 0.4897930996771276 0.41816569518893243 0.4897930996771276 0.5818343048110676 -0.4897930996771276
312.6079367123955 0.565128431604583 -0.4922421404492593 0.43487156839541696 0.4922421404492593 0.43487156839541696 0.4922421404492593 0.565128431604583 -0.4922421404492593
323.59365692962825 0.5482765267746309 -0.4941325433603761 0.4517234732253692 0.4941325433603761 0.4517234732253692 0.4941325433603761 0.5482765267746309 -0.4941325433603761
334.96543915782763 0.5313165441223437 -0.49545370755968243 0.4686834558776562 0.49545370755968243 0.4686834558776562 0.49545370755968243 0.5313165441223437 -0.49545370755968243
346.7368504525316 0.5142873938475608 -0.4961982630688207 0.4857126061524392 0.4961982630688207 0.4857126061524392 0.4961982630688207 0.5142873938475608 -0.4961982630688207
358.9219346450052 0.49722858739398546 -0.49636216877262274 0.5027714126060144 0.49636216877262274 0.5027714126060144 0.49636216877262274 0.49722858739398546 -0.49636216877262274
371.53522909717253 0.48017987142340685 -0.49594476366441614 0.5198201285765932 0.49594476366441614 0.5198201285765932 0.49594476366441614 0.48017987142340685 -0.49594476366441614
384.59178204535357 0.4631808581339735 -0.49494877016369215 0.5368191418660265 0.49494877016369215 0.5368191418660265 0.49494877016369215 0.4631808581339735 -0.49494877016369215
398.10717055349727 0.44627065922981207 -0.4933802495925895 0.553729340770188 0.4933802495925895 0.553729340770188 0.4933802495925895 0.44627065922981207 -0.4933802495925895
412.0975190973302 0.4294875306926906 -0.4912485111562059 0.5705124693073095 0.4912485111562059 0.5705124693073095 0.4912485111562059 0.4294875306926906 -0.4912485111562059
426.5795188015926 0.4128685351104713 -0.4885659769668524 0.5871314648895285 0.4885659769668524 0.5871314648895285 0.4885659769668524 0.4128685351104713 -0.4885659769668524
441.57044735331243 0.3964492277034907 -0.4853480067349191 0.6035507722965091 0.4853480067349191 0.6035507722965091 0.4853480067349191 0.3964492277034907 -0.4853480067349191
457.0881896148751 0.38026337139116123 -0.4816126866770916 0.6197366286088388 0.4816126866770916 0.6197366286088388 0.4816126866770916 0.38026337139116123 -0.4816126866770916
473.15125896148055 0.36434268529752983 -0.4773805879338839 0.6356573147024701 0.4773805879338839 0.6356573147024701 0.4773805879338839 0.36434268529752983 -0.4773805879338839
489.77881936844625 0.3487166300521783 -0.47267450032149816 0.6512833699478218 0.47267450032149816 0.6512833699478218 0.47267450032149816 0.3487166300521783 -0.47267450032149816
506.9907082747043 0.3334122321498576 -0.46751914755825064 0.6665877678501424 0.46751914755825064 0.6665877678501424 0.46751914755825064 0.3334122321498576 -0.46751914755825064
524.8074602497726 0.31845394853596076 -0.4619408902050706 0.6815460514640393 0.4619408902050706 0.6815460514640393 0.4619408902050706 0.31845394853596076 -0.4619408902050706
543.2503314924331 0.3038635715291132 -0.455967422455137 0.696136428470887 0.455967422455137 0.696136428470887 0.455967422455137 0.3038635715291132 -0.455967422455137
562.3413251903492 0.2896601732148582 -0.4496274686206427 0.7103398267851418 0.4496274686206427 0.7103398267851418 0.4496274686206427 0.2896601732148582 -0.4496274686206427
582.1032177708714 0.2758600875761506 -0.44295048472266835 0.7241399124238493 0.44295048472266835 0.7241399124238493 0.44295048472266835 0.2758600875761506 -0.44295048472266835
602.5595860743578 0.26247692788945104 -0.43596637002531646 0.737523072110549 0.43596637002531646 0.737523072110549 0.43596637002531646 0.26247692788945104 -0.43596637002531646
623.7348354824193 0.24952163632324864 -0.428705192701717 0.7504783636767515 0.428705192701717 0.7504783636767515 0.428705192701717 0.24952163632324864 -0.428705192701717
645.6542290346556 0.23700256223426536 -0.42119693311128475 0.7629974377657346 0.42119693311128475 0.7629974377657346 0.42119693311128475 0.23700256223426536 -0.42119693311128475
668.3439175686148 0.2249255653633917 -0.41347124743676505 0.7750744346366083 0.41347124743676505 0.7750744346366083 0.41347124743676505 0.2249255653633917 -0.41347124743676505
691.8309709189366 0.21329413998036745 -0.4055572537048465 0.7867058600196325 0.4055572537048465 0.7867058600196325 0.4055572537048465 0.21329413998036745 -0.4055572537048465
716.1434102129019 0.20210955600026323 -0.39748334151979986 0.7978904439997367 0.39748334151979986 0.7978904439997367 0.39748334151979986 0.20210955600026323 -0.39748334151979986
741.3102413009174 0.19137101317949515 -0.38927700619515093 0.8086289868205049 0.38927700619515093 0.8086289868205049 0.38927700619515093 0.19137101317949515 -0.38927700619515093
767.3614893618189 0.18107580467593964 -0.38096470738820554 0.8189241953240602 0.38096470738820554 0.8189241953240602 0.38096470738820554 0.18107580467593964 -0.38096470738820554
794.3282347242814 0.17121948650751073 -0.3725717518357961 0.8287805134924893 0.3725717518357961 0.8287805134924893 0.3725717518357961 0.17121948650751073 -0.3725717518357961
822.2426499470711 0.16179604974740322 -0.36412219936195667 0.8382039502525969 0.36412219936195667 0.8382039502525969 0.36412219936195667 0.16179604974740322 -0.36412219936195667
851.1380382023765 0.15279809263434216 -0.3556387909805019 0.8472019073656579 0.3556387909805019 0.8472019073656579 0.3556387909805019 0.15279809263434216 -0.3556387909805019
881.0488730080142 0.1442169901365538 -0.34714289764566003 0.8557830098634461 0.34714289764566003 0.8557830098634461 0.34714289764566003 0.1442169901365538 -0.34714289764566003
912.0108393559099 0.13604305887487544 -0.3386544880074917 0.8639569411251246 0.3386544880074917 0.8639569411251246 0.3386544880074917 0.13604305887487544 -0.3386544880074917
944.0608762859234 0.12826571567178843 -0.3301921133994946 0.8717342843282118 0.3301921133994946 0.8717342843282118 0.3301921133994946 0.12826571567178843 -0.3301921133994946
977.2372209558108 0.12087362833987987 -0.32177290821611176 0.8791263716601202 0.32177290821611176 0.8791263716601202 0.32177290821611176 0.12087362833987987 -0.32177290821611176
1011.5794542598987 0.11385485764818974 -0.31341260381970926 0.8861451423518102 0.31341260381970926 0.8861451423518102 0.31341260381970926 0.11385485764818974 -0.31341260381970926
1047.1285480508998 0.10719698970304208 -0.3051255541417291 0.892803010296958 0.3051255541417291 0.892803010296958 0.3051255541417291 0.10719698970304208 -0.3051255541417291
1083.9269140212034 0.10088725824803108 -0.2969247712030657 0.8991127417519688 0.2969247712030657 0.8991127417519688 0.2969247712030657 0.10088725824803108 -0.2969247712030657
1122.0184543019632 0.09491265662414108 -0.28882196886661304 0.9050873433758588 0.28882196886661304 0.9050873433758588 0.28882196886661304 0.09491265662414108 -0.28882196886661304
1161.4486138403427 0.08926003933512665 -0.28082761324339023 0.9107399606648734 0.28082761324339023 0.9107399606648734 0.28082761324339023 0.08926003933512665 -0.28082761324339023
1202.2644346174127 0.08391621333586889 -0.27295097829638654 0.9160837866641311 0.27295097829638654 0.9160837866641311 0.27295097829638654 0.08391621333586889 -0.27295097829638654
1244.514611771385 0.07886801930389077 -0.2652002053178251 0.9211319806961091 0.2652002053178251 0.9211319806961091 0.2652002053178251 0.07886801930389077 -0.2652002053178251
1288.249551693134 0.0741024032685158 -0.2575823650912403 0.9258975967314842 0.2575823650912403 0.9258975967314842 0.2575823650912403 0.0741024032685158 -0.2575823650912403
1333.5214321633239 0.06960647906068891 -0.25010352168574607 0.930393520939311 0.25010352168574607 0.930393520939311 0.25010352168574607 0.06960647906068891 -0.25010352168574607
1380.384264602885 0.06536758211183831 -0.24276879696300951 0.9346324178881616 0.24276879696300951 0.9346324178881616 0.24276879696300951 0.06536758211183831 -0.24276879696300951
1428.893958511103 0.06137331517505126 -0.23558243500527867 0.9386266848249488 0.23558243500527867 0.9386266848249488 0.23558243500527867 0.06137331517505126 -0.23558243500527867
1479.1083881682075 0.05761158656898154 -0.22854786579353203 0.9423884134310184 0.22854786579353203 0.9423884134310184 0.22854786579353203 0.05761158656898154 -0.22854786579353203
1531.0874616820304 0.05407064155691907 -0.2216677675771085 0.945929358443081 0.2216677675771085 0.945929358443081 0.2216677675771085 0.05407064155691907 -0.2216677675771085
1584.8931924611136 0.050739087472832914 -0.21494412747920294 0.949260912527167 0.21494412747920294 0.949260912527167 0.21494412747920294 0.050739087472832914 -0.21494412747920294
1640.5897731995396 0.04760591319525717 -0.20837829997593793 0.9523940868047429 0.20837829997593793 0.9523940868047429 0.20837829997593793 0.04760591319525717 -0.20837829997593793
1698.2436524617442 0.04466050355073159 -0.20197106297019304 0.9553394964492683 0.20197106297019304 0.9553394964492683 0.20197106297019304 0.04466050355073159 -0.20197106297019304
1757.9236139586924 0.04189264920303264 -0.19572267125513157 0.9581073507969676 0.19572267125513157 0.9581073507969676 0.19572267125513157 0.04189264920303264 -0.19572267125513157
1819.7008586099835 0.03929255255430324 -0.1896329072267207 0.9607074474456967 0.1896329072267207 0.9607074474456967 0.1896329072267207 0.03929255255430324 -0.1896329072267207
1883.6490894898002 0.03685083015086228 -0.18370112875996839 0.9631491698491378 0.18370112875996839 0.9631491698491378 0.18370112875996839 0.03685083015086228 -0.18370112875996839
1949.8445997580454 0.03455851205120109 -0.17792631421068664 0.965441487948799 0.17792631421068664 0.965441487948799 0.17792631421068664 0.03455851205120109 -0.17792631421068664
2018.3663636815609 0.032407038577489014 -0.17230710454396936 0.9675929614225107 0.17230710454396936 0.9675929614225107 0.17230710454396936 0.032407038577489014 -0.17230710454396936
2089.29613085404 0.030388254835696175 -0.1668418426229624 0.9696117451643039 0.1668418426229624 0.9696117451643039 0.1668418426229624 0.030388254835696175 -0.1668418426229624
2162.7185237270205 0.028494403353887515 -0.16152860971758848 0.9715055966461126 0.16152860971758848 0.9715055966461126 0.16152860971758848 0.028494403353887515 -0.16152860971758848
2238.7211385683395 0.026718115153912734 -0.15636525931340994 0.9732818848460871 0.15636525931340994 0.9732818848460871 0.15636525931340994 0.026718115153912734 -0.15636525931340994
2317.394649968479 0.025052399539025865 -0.15134944831644026 0.9749476004609742 0.15134944831644026 0.9749476004609742 0.15134944831644026 0.025052399539025865 -0.15134944831644026
2398.832919019491 0.02349063284922486 -0.14647866576113963 0.9765093671507752 0.14647866576113963 0.9765093671507752 0.14647866576113963 0.02349063284922486 -0.14647866576113963
2483.1331052955707 0.022026546407504396 -0.14175025913666953 0.9779734535924954 0.14175025913666953 0.9779734535924954 0.14175025913666953 0.022026546407504396 -0.14175025913666953
2570.3957827688632 0.02065421385387945 -0.1371614584513333 0.9793457861461207 0.1371614584513333 0.9793457861461207 0.1371614584513333 0.02065421385387945 -0.1371614584513333
2660.725059798809 0.01936803803999868 -0.13270939815753532 0.9806319619600014 0.13270939815753532 0.9806319619600014 0.13270939815753532 0.01936803803999868 -0.13270939815753532
2754.2287033381663 0.018162737635399568 -0.12839113706003918 0.9818372623646007 0.12839113706003918 0.9818372623646007 0.12839113706003918 0.018162737635399568 -0.12839113706003918
2851.018267503909 0.017033333576879188 -0.12420367632922334 0.9829666664231208 0.12420367632922334 0.9829666664231208 0.12420367632922334 0.017033333576879188 -0.12420367632922334
2951.209226666386 0.015975135474947187 -0.12014397573881358 0.984024864525053 0.12014397573881358 0.984024864525053 0.12014397573881358 0.015975135474947187 -0.12014397573881358
3054.9211132155133 0.014983728075736377 -0.11620896824452037 0.9850162719242638 0.11620896824452037 0.9850162719242638 0.11620896824452037 0.014983728075736377 -0.11620896824452037
3162.277660168379 0.01405495786289669 -0.11239557301640225 0.9859450421371032 0.11239557301640225 0.9859450421371032 0.11239557301640225 0.01405495786289669 -0.11239557301640225
3273.406948788382 0.013184919871707714 -0.10870070703382052 0.9868150801282922 0.10870070703382052 0.9868150801282922 0.10870070703382052 0.013184919871707714 -0.10870070703382052
3388.4415613920255 0.01236994477672212 -0.10512129534770456 0.9876300552232781 0.10512129534770456 0.9876300552232781 0.10512129534770456 0.01236994477672212 -0.10512129534770456
3507.5187395256803 0.011606586304518095 -0.10165428011062785 0.9883934136954817 0.10165428011062785 0.9883934136954817 0.10165428011062785 0.011606586304518095 -0.10165428011062785
3630.7805477010143 0.01089160901442283 -0.09829662847097412 0.9891083909855773 0.09829662847097412 0.9891083909855773 0.09829662847097412 0.01089160901442283 -0.09829662847097412
3758.374042884442 0.010221976482219347 -0.09504533942328709 0.9897780235177807 0.09504533942328709 0.9897780235177807 0.09504533942328709 0.010221976482219347 -0.09504533942328709
3890.451449942807 0.009594839914738449 -0.09189744970276487 0.9904051600852615 0.09189744970276487 0.9904051600852615 0.09189744970276487 0.009594839914738449 -0.09189744970276487
4027.170343254592 0.009007527216759867 -0.08885003880776271 0.9909924727832399 0.08885003880776271 0.9909924727832399 0.08885003880776271 0.009007527216759867 -0.08885003880776271
4168.693834703356 0.008457532525724464 -0.08590023323010498 0.9915424674742757 0.08590023323010498 0.9915424674742757 0.08590023323010498 0.008457532525724464 -0.08590023323010498
4315.190768277653 0.007942506224333182 -0.0830452099689286 0.9920574937756669 0.0830452099689286 0.9920574937756669 0.0830452099689286 0.007942506224333182 -0.0830452099689286
