!Murata Part Number: RDEC71E226K3S1H03A
!These Parameters are Measured in Series Mode Connection
!       o--ll--o
!Port1            Port2
!       o------o
!Operation Temp=25[degC], DC Bias Voltage=0[V]
!Freq. Start=100[Hz] Stop=100[MHz], 401[Steps]
!Data Generated on Sep 3, 2020
# Hz S RI R 50
!Freq.(Hz) S11(Real) S11(Imag) S21(Real) S21(Imag) S12(Real) S12(Imag) S22(Real) S22(Imag)
100.0 0.48935079942955956 -0.4906963423017579 0.5106492005704405 0.4906963423017579 0.5106492005704405 0.4906963423017579 0.48935079942955956 -0.4906963423017579
103.51421666793439 0.4725967342039187 -0.49004445418069287 0.5274032657960811 0.49004445418069287 0.5274032657960811 0.49004445418069287 0.4725967342039187 -0.49004445418069287
107.15193052376064 0.45590679021792274 -0.48883060512088394 0.5440932097820771 0.48883060512088394 0.5440932097820771 0.48883060512088394 0.45590679021792274 -0.48883060512088394
110.9174815262401 0.43931895211002026 -0.4870619852959048 0.5606810478899796 0.4870619852959048 0.5606810478899796 0.4870619852959048 0.43931895211002026 -0.4870619852959048
114.81536214968828 0.42287022887294573 -0.4847489556297444 0.5771297711270543 0.4847489556297444 0.5771297711270543 0.4847489556297444 0.42287022887294573 -0.4847489556297444
118.85022274370185 0.40659632101246795 -0.48190489720664265 0.5934036789875322 0.48190489720664265 0.5934036789875322 0.48190489720664265 0.40659632101246795 -0.48190489720664265
123.02687708123815 0.39053131378582806 -0.47854602046700145 0.6094686862141719 0.47854602046700145 0.6094686862141719 0.47854602046700145 0.39053131378582806 -0.47854602046700145
127.35030810166617 0.37470740191028357 -0.47469113914646327 0.6252925980897166 0.47469113914646327 0.6252925980897166 0.47469113914646327 0.37470740191028357 -0.47469113914646327
131.8256738556407 0.35915465011280384 -0.47036141467321674 0.6408453498871962 0.47036141467321674 0.6408453498871962 0.47036141467321674 0.35915465011280384 -0.47036141467321674
136.45831365889245 0.3439007927695285 -0.465580077273056 0.6560992072304715 0.465580077273056 0.6560992072304715 0.465580077273056 0.3439007927695285 -0.465580077273056
141.25375446227542 0.32897107470962106 -0.46037213033204055 0.671028925290379 0.46037213033204055 0.671028925290379 0.46037213033204055 0.32897107470962106 -0.46037213033204055
146.21771744567184 0.3143881340835303 -0.4547640446343841 0.6856118659164698 0.4547640446343841 0.6856118659164698 0.4547640446343841 0.3143881340835303 -0.4547640446343841
151.35612484362082 0.3001719270678523 -0.44878344894136146 0.6998280729321475 0.44878344894136146 0.6998280729321475 0.44878344894136146 0.3001719270678523 -0.44878344894136146
156.6751070108149 0.2863396931393902 -0.4424588230280819 0.7136603068606099 0.4424588230280819 0.7136603068606099 0.4424588230280819 0.2863396931393902 -0.4424588230280819
162.181009735893 0.2729059587332534 -0.43581919877891956 0.7270940412667466 0.43581919877891956 0.7270940412667466 0.43581919877891956 0.2729059587332534 -0.43581919877891956
167.88040181225603 0.25988257632866374 -0.42889387429424314 0.7401174236713363 0.42889387429424314 0.7401174236713363 0.42889387429424314 0.25988257632866374 -0.42889387429424314
173.78008287493756 0.24727879539687844 -0.4217121452183782 0.7527212046031215 0.4217121452183782 0.7527212046031215 0.4217121452183782 0.24727879539687844 -0.4217121452183782
179.88709151287878 0.23510136120465422 -0.41430305669923967 0.7648986387953457 0.41430305669923967 0.7648986387953457 0.41430305669923967 0.23510136120465422 -0.41430305669923967
186.20871366628674 0.22335463719196466 -0.4066951785696747 0.7766453628080353 0.4066951785696747 0.7766453628080353 0.4066951785696747 0.22335463719196466 -0.4066951785696747
192.7524913190936 0.21204074652519875 -0.3989164055316717 0.7879592534748012 0.3989164055316717 0.7879592534748012 0.3989164055316717 0.21204074652519875 -0.3989164055316717
199.526231496888 0.20115972845211927 -0.3909937833549592 0.7988402715478808 0.3909937833549592 0.7988402715478808 0.3909937833549592 0.20115972845211927 -0.3909937833549592
206.53801558105292 0.19070970523367964 -0.3829533613934728 0.8092902947663204 0.3829533613934728 0.8092902947663204 0.3829533613934728 0.19070970523367964 -0.3829533613934728
213.79620895022322 0.18068705567908658 -0.37482007109337534 0.8193129443209135 0.37482007109337534 0.8193129443209135 0.37482007109337534 0.18068705567908658 -0.37482007109337534
221.30947096056377 0.17108659164183915 -0.3666176296258406 0.8289134083581606 0.3666176296258406 0.8289134083581606 0.3666176296258406 0.17108659164183915 -0.3666176296258406
229.08676527677733 0.16190173422357995 -0.35836846733250466 0.8380982657764201 0.35836846733250466 0.8380982657764201 0.35836846733250466 0.16190173422357995 -0.35836846733250466
237.13737056616552 0.15312468685829742 -0.35009367732258484 0.8468753131417025 0.35009367732258484 0.8468753131417025 0.35009367732258484 0.15312468685829742 -0.35009367732258484
245.47089156850305 0.14474660289242416 -0.34181298530551135 0.855253397107576 0.34181298530551135 0.855253397107576 0.34181298530551135 0.14474660289242416 -0.34181298530551135
254.09727055493053 0.13675774571979418 -0.3335447375757129 0.8632422542802058 0.3335447375757129 0.8632422542802058 0.3335447375757129 0.13675774571979418 -0.3335447375757129
263.0267991895382 0.12914763996005132 -0.3253059049788629 0.8708523600399488 0.3253059049788629 0.8708523600399488 0.3253059049788629 0.12914763996005132 -0.3253059049788629
272.27013080779125 0.1219052125735672 -0.3171121006717298 0.8780947874264329 0.3171121006717298 0.8780947874264329 0.3171121006717298 0.1219052125735672 -0.3171121006717298
281.83829312644536 0.1150189231765995 -0.30897760953015807 0.8849810768234005 0.30897760953015807 0.8849810768234005 0.30897760953015807 0.1150189231765995 -0.30897760953015807
291.7427014001167 0.10847688315133355 -0.3009154271507115 0.8915231168486665 0.3009154271507115 0.8915231168486665 0.3009154271507115 0.10847688315133355 -0.3009154271507115
301.9951720402016 0.10226696343300758 -0.29293730652030664 0.8977330365669924 0.29293730652030664 0.8977330365669924 0.29293730652030664 0.10226696343300758 -0.29293730652030664
312.6079367123955 0.09637689109904411 -0.28505381058448725 0.9036231089009558 0.28505381058448725 0.9036231089009558 0.28505381058448725 0.09637689109904411 -0.28505381058448725
323.59365692962825 0.09079433508331304 -0.2772743691193489 0.909205664916687 0.2772743691193489 0.909205664916687 0.2772743691193489 0.09079433508331304 -0.2772743691193489
334.96543915782763 0.08550698149414905 -0.2696073384961186 0.914493018505851 0.2696073384961186 0.914493018505851 0.2696073384961186 0.08550698149414905 -0.2696073384961186
346.7368504525316 0.08050259913044114 -0.26206006311369107 0.9194974008695589 0.26206006311369107 0.9194974008695589 0.26206006311369107 0.08050259913044114 -0.26206006311369107
358.9219346450052 0.07576909586982568 -0.2546389374570116 0.9242309041301744 0.2546389374570116 0.9242309041301744 0.2546389374570116 0.07576909586982568 -0.2546389374570116
371.53522909717253 0.071294566651052 -0.2473494679132122 0.9287054333489478 0.2473494679132122 0.9287054333489478 0.2473494679132122 0.071294566651052 -0.2473494679132122
384.59178204535357 0.06706733379358773 -0.24019633363923487 0.9329326662064121 0.24019633363923487 0.9329326662064121 0.24019633363923487 0.06706733379358773 -0.24019633363923487
398.10717055349727 0.06307598039618559 -0.2331834459217962 0.9369240196038146 0.2331834459217962 0.9369240196038146 0.2331834459217962 0.06307598039618559 -0.2331834459217962
412.0975190973302 0.059309377537000225 -0.22631400560143616 0.940690622463 0.22631400560143616 0.940690622463 0.22631400560143616 0.059309377537000225 -0.22631400560143616
426.5795188015926 0.05575670596522203 -0.21959055824643994 0.944243294034778 0.21959055824643994 0.944243294034778 0.21959055824643994 0.05575670596522203 -0.21959055824643994
441.57044735331243 0.05240747293196674 -0.21301504685970266 0.9475925270680332 0.21301504685970266 0.9475925270680332 0.21301504685970266 0.05240747293196674 -0.21301504685970266
457.0881896148751 0.04925152475975518 -0.20658886198282977 0.9507484752402446 0.20658886198282977 0.9507484752402446 0.20658886198282977 0.04925152475975518 -0.20658886198282977
473.15125896148055 0.04627905569823491 -0.20031288912804668 0.9537209443017649 0.20031288912804668 0.9537209443017649 0.20031288912804668 0.04627905569823491 -0.20031288912804668
489.77881936844625 0.0434806135612151 -0.19418755352126513 0.956519386438785 0.19418755352126513 0.956519386438785 0.19418755352126513 0.0434806135612151 -0.19418755352126513
506.9907082747043 0.040847102588467785 -0.18821286218051866 0.9591528974115323 0.18821286218051866 0.9591528974115323 0.18821286218051866 0.040847102588467785 -0.18821286218051866
524.8074602497726 0.0383697839264781 -0.1823884433846223 0.9616302160735221 0.1823884433846223 0.9616302160735221 0.1823884433846223 0.0383697839264781 -0.1823884433846223
543.2503314924331 0.0360402740763535 -0.1767135836089726 0.9639597259236466 0.1767135836089726 0.9639597259236466 0.1767135836089726 0.0360402740763535 -0.1767135836089726
562.3413251903492 0.033850541615014135 -0.17118726202046938 0.9661494583849858 0.17118726202046938 0.9661494583849858 0.17118726202046938 0.033850541615014135 -0.17118726202046938
582.1032177708714 0.03179290245785996 -0.16580818263302946 0.9682070975421401 0.16580818263302946 0.9682070975421401 0.16580818263302946 0.03179290245785996 -0.16580818263302946
602.5595860743578 0.02986001389738169 -0.16057480423035542 0.9701399861026184 0.16057480423035542 0.9701399861026184 0.16057480423035542 0.02986001389738169 -0.16057480423035542
623.7348354824193 0.028044867622508563 -0.15548536816459618 0.9719551323774913 0.15548536816459618 0.9719551323774913 0.15548536816459618 0.028044867622508563 -0.15548536816459618
645.6542290346556 0.02634078189759979 -0.15053792413921235 0.9736592181024 0.15053792413921235 0.9736592181024 0.15053792413921235 0.02634078189759979 -0.15053792413921235
668.3439175686148 0.024741393057532382 -0.1457303540824422 0.9752586069424678 0.1457303540824422 0.9752586069424678 0.1457303540824422 0.024741393057532382 -0.1457303540824422
691.8309709189366 0.02324064645593898 -0.1410603942148566 0.9767593535440612 0.1410603942148566 0.9767593535440612 0.1410603942148566 0.02324064645593898 -0.1410603942148566
716.1434102129019 0.02183278698690014 -0.13652565541099898 0.9781672130130997 0.13652565541099898 0.9781672130130997 0.13652565541099898 0.02183278698690014 -0.13652565541099898
741.3102413009174 0.02051234928591382 -0.13212364195134413 0.9794876507140862 0.13212364195134413 0.9794876507140862 0.13212364195134413 0.02051234928591382 -0.13212364195134413
767.3614893618189 0.019274147703398258 -0.12785176875700094 0.9807258522966019 0.12785176875700094 0.9807258522966019 0.12785176875700094 0.019274147703398258 -0.12785176875700094
794.3282347242814 0.018113266133010314 -0.12370737719584825 0.9818867338669895 0.12370737719584825 0.9818867338669895 0.12370737719584825 0.018113266133010314 -0.12370737719584825
822.2426499470711 0.017025047767406046 -0.11968774954521352 0.9829749522325937 0.11968774954521352 0.9829749522325937 0.11968774954521352 0.017025047767406046 -0.11968774954521352
851.1380382023765 0.01600508484549975 -0.11579012219281459 0.9839949151545004 0.11579012219281459 0.9839949151545004 0.11579012219281459 0.01600508484549975 -0.11579012219281459
881.0488730080142 0.01504920844759775 -0.11201169765448045 0.9849507915524022 0.11201169765448045 0.9849507915524022 0.11201169765448045 0.01504920844759775 -0.11201169765448045
912.0108393559099 0.014153478387839992 -0.10834965548414147 0.9858465216121599 0.10834965548414147 0.9858465216121599 0.10834965548414147 0.014153478387839992 -0.10834965548414147
944.0608762859234 0.013314173247050311 -0.104801162148699 0.9866858267529495 0.104801162148699 0.9866858267529495 0.104801162148699 0.013314173247050311 -0.104801162148699
977.2372209558108 0.012527780583281155 -0.1013633799376222 0.9874722194167188 0.1013633799376222 0.9874722194167188 0.1013633799376222 0.012527780583281155 -0.1013633799376222
1011.5794542598987 0.011790987351965434 -0.09803347497444014 0.9882090126480345 0.09803347497444014 0.9882090126480345 0.09803347497444014 0.011790987351965434 -0.09803347497444014
1047.1285480508998 0.011100670562602982 -0.09480862439467619 0.9888993294373969 0.09480862439467619 0.9888993294373969 0.09480862439467619 0.011100670562602982 -0.09480862439467619
1083.9269140212034 0.010453888194270329 -0.09168602275217703 0.9895461118057297 0.09168602275217703 0.9895461118057297 0.09168602275217703 0.010453888194270329 -0.09168602275217703
1122.0184543019632 0.009847870387919441 -0.08866288771319912 0.9901521296120804 0.08866288771319912 0.9901521296120804 0.08866288771319912 0.009847870387919441 -0.08866288771319912
1161.4486138403427 0.009280010929403847 -0.08573646509502154 0.990719989070596 0.08573646509502154 0.990719989070596 0.08573646509502154 0.009280010929403847 -0.08573646509502154
1202.2644346174127 0.00874785903342096 -0.0829040333032233 0.9912521409665789 0.0829040333032233 0.9912521409665789 0.0829040333032233 0.00874785903342096 -0.0829040333032233
1244.514611771385 0.00824911143508058 -0.08016290721910536 0.9917508885649193 0.08016290721910536 0.9917508885649193 0.08016290721910536 0.00824911143508058 -0.08016290721910536
1288.249551693134 0.007781604792592677 -0.07751044158602882 0.9922183952074073 0.07751044158602882 0.9922183952074073 0.07751044158602882 0.007781604792592677 -0.07751044158602882
1333.5214321633239 0.007343308401611957 -0.0749440339406825 0.9926566915983882 0.0749440339406825 0.9926566915983882 0.0749440339406825 0.007343308401611957 -0.0749440339406825
1380.384264602885 0.006932317219082088 -0.07246112713248193 0.993067682780918 0.07246112713248193 0.993067682780918 0.07246112713248193 0.006932317219082088 -0.07246112713248193
1428.893958511103 0.006546845191993565 -0.0700592114714374 0.9934531548080064 0.0700592114714374 0.9934531548080064 0.0700592114714374 0.006546845191993565 -0.0700592114714374
1479.1083881682075 0.006185218884311096 -0.06773582654191232 0.9938147811156891 0.06773582654191232 0.9938147811156891 0.06773582654191232 0.006185218884311096 -0.06773582654191232
1531.0874616820304 0.0058458713934493095 -0.06548856271673731 0.9941541286065507 0.06548856271673731 0.9941541286065507 0.06548856271673731 0.0058458713934493095 -0.06548856271673731
1584.8931924611136 0.0055273365460880635 -0.06331506240315314 0.9944726634539118 0.06331506240315314 0.9944726634539118 0.06331506240315314 0.0055273365460880635 -0.06331506240315314
1640.5897731995396 0.005228243361833149 -0.06121302104905076 0.9947717566381667 0.06121302104905076 0.9947717566381667 0.06121302104905076 0.005228243361833149 -0.06121302104905076
1698.2436524617442 0.004947310772254336 -0.059180187934977826 0.9950526892277458 0.059180187934977826 0.9950526892277458 0.059180187934977826 0.004947310772254336 -0.059180187934977826
1757.9236139586924 0.004683342582179484 -0.057214366774413106 0.9953166574178206 0.057214366774413106 0.9953166574178206 0.057214366774413106 0.004683342582179484 -0.057214366774413106
1819.7008586099835 0.004435222659795936 -0.05531341614191093 0.995564777340204 0.05531341614191093 0.995564777340204 0.05531341614191093 0.004435222659795936 -0.05531341614191093
1883.6490894898002 0.0042019103421085825 -0.053475249745920994 0.9957980896578916 0.053475249745920994 0.9957980896578916 0.053475249745920994 0.0042019103421085825 -0.053475249745920994
1949.8445997580454 0.003982436042620451 -0.05169783656043878 0.9960175639573795 0.05169783656043878 0.9960175639573795 0.05169783656043878 0.003982436042620451 -0.05169783656043878
2018.3663636815609 0.003775897048721023 -0.04997920082718248 0.9962241029512791 0.04997920082718248 0.9962241029512791 0.04997920082718248 0.003775897048721023 -0.04997920082718248
2089.29613085404 0.0035814534971638115 -0.04831742193776549 0.9964185465028359 0.04831742193776549 0.9964185465028359 0.04831742193776549 0.0035814534971638115 -0.04831742193776549
2162.7185237270205 0.003398324517152999 -0.0467106342033873 0.9966016754828472 0.0467106342033873 0.9966016754828472 0.0467106342033873 0.003398324517152999 -0.0467106342033873
2238.7211385683395 0.003225784531892291 -0.04515702651792855 0.9967742154681077 0.04515702651792855 0.9967742154681077 0.04515702651792855 0.003225784531892291 -0.04515702651792855
2317.394649968479 0.0030631597109231808 -0.04365484191904599 0.9969368402890766 0.04365484191904599 0.9969368402890766 0.04365484191904599 0.0030631597109231808 -0.04365484191904599
2398.832919019491 0.002909824567131151 -0.04220237705093072 0.9970901754328689 0.04220237705093072 0.9970901754328689 0.04220237705093072 0.002909824567131151 -0.04220237705093072
2483.1331052955707 0.002765198693859484 -0.04079798153182667 0.9972348013061404 0.04079798153182667 0.9972348013061404 0.04079798153182667 0.002765198693859484 -0.04079798153182667
2570.3957827688632 0.0026287436390722402 -0.03944005722919859 0.9973712563609277 0.03944005722919859 0.9973712563609277 0.03944005722919859 0.0026287436390722402 -0.03944005722919859
2660.725059798809 0.0024999599148828526 -0.03812705744555946 0.9975000400851172 0.03812705744555946 0.9975000400851172 0.03812705744555946 0.0024999599148828526 -0.03812705744555946
2754.2287033381663 0.002378384141951798 -0.03685748601838224 0.9976216158580482 0.03685748601838224 0.9976216158580482 0.03685748601838224 0.002378384141951798 -0.03685748601838224
2851.018267503909 0.0022635863292042287 -0.035629896338175544 0.9977364136707958 0.035629896338175544 0.9977364136707958 0.035629896338175544 0.0022635863292042287 -0.035629896338175544
2951.209226666386 0.002155167289987636 -0.03444289028963459 0.9978448327100125 0.03444289028963459 0.9978448327100125 0.03444289028963459 0.002155167289987636 -0.03444289028963459
3054.9211132155133 0.002052756196157261 -0.033295117121718454 0.9979472438038427 0.033295117121718454 0.9979472438038427 0.033295117121718454 0.002052756196157261 -0.033295117121718454
3162.277660168379 0.0019560082716364824 -0.03218527225347951 0.9980439917283634 0.03218527225347951 0.9980439917283634 0.03218527225347951 0.0019560082716364824 -0.03218527225347951
3273.406948788382 0.0018646026267610904 -0.031112096023410016 0.9981353973732386 0.031112096023410016 0.9981353973732386 0.031112096023410016 0.0018646026267610904 -0.031112096023410016
3388.4415613920255 0.0017782402342062303 -0.03007437239090835 0.9982217597657936 0.03007437239090835 0.9982217597657936 0.03007437239090835 0.0017782402342062303 -0.03007437239090835
3507.5187395256803 0.001696642046552888 -0.02907092759914831 0.998303357953447 0.02907092759914831 0.998303357953447 0.02907092759914831 0.001696642046552888 -0.02907092759914831
3630.7805477010143 0.001619547254627475 -0.02810062880911442 0.9983804527453726 0.02810062880911442 0.9983804527453726 0.02810062880911442 0.001619547254627475 -0.02810062880911442
3758.374042884442 0.0015467116847009417 -0.02716238271481577 0.9984532883152992 0.02716238271481577 0.9984532883152992 0.02716238271481577 0.0015467116847009417 -0.02716238271481577
3890.451449942807 0.0014779063315235234 -0.026255134149695866 0.9985220936684766 0.026255134149695866 0.9985220936684766 0.026255134149695866 0.0014779063315235234 -0.026255134149695866
4027.170343254592 0.0014129160230574097 -0.02537786469401706 0.9985870839769426 0.02537786469401706 0.9985870839769426 0.02537786469401706 0.0014129160230574097 -0.02537786469401706
4168.693834703356 0.0013515382117076711 -0.02452959129252922 0.9986484617882921 0.02452959129252922 0.9986484617882921 0.02452959129252922 0.0013515382117076711 -0.02452959129252922
