!Murata Part Number: RDEC71H106K3S1H03A
!These Parameters are Measured in Series Mode Connection
!       o--ll--o
!Port1            Port2
!       o------o
!Operation Temp=25[degC], DC Bias Voltage=0[V]
!Freq. Start=100[Hz] Stop=100[MHz], 401[Steps]
!Data Generated on Dec 23, 2019
# Hz S RI R 50
!Freq.(Hz) S11(Real) S11(Imag) S21(Real) S21(Imag) S12(Real) S12(Imag) S22(Real) S22(Imag)
100.0 0.7390597280825418 -0.4374555029652445 0.2609402719174582 0.4374555029652445 0.2609402719174582 0.4374555029652445 0.7390597280825418 -0.4374555029652445
103.51421666793439 0.7255968229993721 -0.44451440853161955 0.27440317700062783 0.44451440853161955 0.27440317700062783 0.44451440853161955 0.7255968229993721 -0.44451440853161955
107.15193052376064 0.7117096050002499 -0.45126115105684333 0.28829039499975007 0.45126115105684333 0.28829039499975007 0.45126115105684333 0.7117096050002499 -0.45126115105684333
110.9174815262401 0.6974121124562317 -0.45766494981565736 0.3025878875437685 0.45766494981565736 0.3025878875437685 0.45766494981565736 0.6974121124562317 -0.45766494981565736
114.81536214968828 0.6827212279199898 -0.4636955098391202 0.31727877208001004 0.4636955098391202 0.31727877208001004 0.4636955098391202 0.6827212279199898 -0.4636955098391202
118.85022274370185 0.6676566905732509 -0.46932333003060267 0.33234330942674906 0.46932333003060267 0.33234330942674906 0.46932333003060267 0.6676566905732509 -0.46932333003060267
123.02687708123815 0.6522410699092372 -0.47452002059212944 0.34775893009076275 0.47452002059212944 0.34775893009076275 0.47452002059212944 0.6522410699092372 -0.47452002059212944
127.35030810166617 0.6364996982656587 -0.4792586242305676 0.36350030173434134 0.4792586242305676 0.36350030173434134 0.4792586242305676 0.6364996982656587 -0.4792586242305676
131.8256738556407 0.6204605607097438 -0.4835139350607839 0.3795394392902563 0.4835139350607839 0.3795394392902563 0.4835139350607839 0.6204605607097438 -0.4835139350607839
136.45831365889245 0.6041541417921729 -0.48726280872847416 0.3958458582078271 0.48726280872847416 0.3958458582078271 0.48726280872847416 0.6041541417921729 -0.48726280872847416
141.25375446227542 0.5876132298002719 -0.4904844570706283 0.4123867701997282 0.4904844570706283 0.4123867701997282 0.4904844570706283 0.5876132298002719 -0.4904844570706283
146.21771744567184 0.5708726803130375 -0.4931607206414105 0.42912731968696255 0.4931607206414105 0.42912731968696255 0.4931607206414105 0.5708726803130375 -0.4931607206414105
151.35612484362082 0.5539691420454819 -0.4952763126713737 0.446030857954518 0.4952763126713737 0.446030857954518 0.4952763126713737 0.5539691420454819 -0.4952763126713737
156.6751070108149 0.536940749117083 -0.49681902850327253 0.4630592508829171 0.49681902850327253 0.4630592508829171 0.49681902850327253 0.536940749117083 -0.49681902850327253
162.181009735893 0.5198267849372022 -0.49777991525102244 0.48017321506279775 0.49777991525102244 0.48017321506279775 0.49777991525102244 0.5198267849372022 -0.49777991525102244
167.88040181225603 0.5026673238192435 -0.498153397339925 0.4973326761807566 0.498153397339925 0.4973326761807566 0.498153397339925 0.5026673238192435 -0.498153397339925
173.78008287493756 0.48550285717024455 -0.49793735467452505 0.5144971428297556 0.49793735467452505 0.5144971428297556 0.49793735467452505 0.48550285717024455 -0.49793735467452505
179.88709151287878 0.4683739116167869 -0.4971331514034038 0.5316260883832131 0.4971331514034038 0.5316260883832131 0.4971331514034038 0.4683739116167869 -0.4971331514034038
186.20871366628674 0.4513206666954762 -0.49574561455769395 0.5486793333045238 0.49574561455769395 0.5486793333045238 0.49574561455769395 0.4513206666954762 -0.49574561455769395
192.7524913190936 0.43438257974332384 -0.49378296317688525 0.5656174202566763 0.49378296317688525 0.5656174202566763 0.49378296317688525 0.43438257974332384 -0.49378296317688525
199.526231496888 0.4175980253700541 -0.4912566898445593 0.582401974629946 0.4912566898445593 0.582401974629946 0.4912566898445593 0.4175980253700541 -0.4912566898445593
206.53801558105292 0.40100395639423253 -0.4881813977828776 0.5989960436057675 0.4881813977828776 0.5989960436057675 0.4881813977828776 0.40100395639423253 -0.4881813977828776
213.79620895022322 0.38463559240400785 -0.48457459774795536 0.6153644075959923 0.48457459774795536 0.6153644075959923 0.48457459774795536 0.38463559240400785 -0.48457459774795536
221.30947096056377 0.36852614119777194 -0.48045646988683344 0.6314738588022281 0.48045646988683344 0.6314738588022281 0.48045646988683344 0.36852614119777194 -0.48045646988683344
229.08676527677733 0.3527065573146471 -0.4758495964291546 0.647293442685353 0.4758495964291546 0.647293442685353 0.4758495964291546 0.3527065573146471 -0.4758495964291546
237.13737056616552 0.33720534072886227 -0.4707786715731884 0.6627946592711377 0.4707786715731884 0.6627946592711377 0.4707786715731884 0.33720534072886227 -0.4707786715731884
245.47089156850305 0.3220483776069975 -0.465270195179219 0.6779516223930026 0.465270195179219 0.6779516223930026 0.465270195179219 0.3220483776069975 -0.465270195179219
254.09727055493053 0.3072588238624725 -0.4593521569080842 0.6927411761375276 0.4593521569080842 0.6927411761375276 0.4593521569080842 0.3072588238624725 -0.4593521569080842
263.0267991895382 0.2928570311331837 -0.45305371725421684 0.7071429688668164 0.45305371725421684 0.7071429688668164 0.45305371725421684 0.2928570311331837 -0.45305371725421684
272.27013080779125 0.2788605137948934 -0.44640489154518664 0.7211394862051066 0.44640489154518664 0.7211394862051066 0.44640489154518664 0.2788605137948934 -0.44640489154518664
281.83829312644536 0.26528395473596 -0.43943624244452817 0.73471604526404 0.43943624244452817 0.73471604526404 0.43943624244452817 0.26528395473596 -0.43943624244452817
291.7427014001167 0.2521392468803021 -0.4321785858369298 0.7478607531196979 0.4321785858369298 0.7478607531196979 0.4321785858369298 0.2521392468803021 -0.4321785858369298
301.9951720402016 0.23943556686802317 -0.424662714231829 0.7605644331319769 0.424662714231829 0.7605644331319769 0.424662714231829 0.23943556686802317 -0.424662714231829
312.6079367123955 0.22717947689099277 -0.4169191410299927 0.7728205231090073 0.4169191410299927 0.7728205231090073 0.4169191410299927 0.22717947689099277 -0.4169191410299927
323.59365692962825 0.21537505043009694 -0.40897786819226245 0.784624949569903 0.40897786819226245 0.784624949569903 0.40897786819226245 0.21537505043009694 -0.40897786819226245
334.96543915782763 0.20402401754145896 -0.40086817906107847 0.7959759824585411 0.40086817906107847 0.7959759824585411 0.40086817906107847 0.20402401754145896 -0.40086817906107847
346.7368504525316 0.1931259253751158 -0.3926184573395205 0.806874074624884 0.3926184573395205 0.806874074624884 0.3926184573395205 0.1931259253751158 -0.3926184573395205
358.9219346450052 0.182678309762325 -0.3842560325498742 0.8173216902376751 0.3842560325498742 0.8173216902376751 0.3842560325498742 0.182678309762325 -0.3842560325498742
371.53522909717253 0.17267687395563336 -0.37580705168894013 0.8273231260443668 0.37580705168894013 0.8273231260443668 0.37580705168894013 0.17267687395563336 -0.37580705168894013
384.59178204535357 0.16311567092715595 -0.36729637627980455 0.836884329072844 0.36729637627980455 0.836884329072844 0.36729637627980455 0.16311567092715595 -0.36729637627980455
398.10717055349727 0.15398728600377368 -0.3587475035939627 0.8460127139962265 0.3587475035939627 0.8460127139962265 0.3587475035939627 0.15398728600377368 -0.3587475035939627
412.0975190973302 0.1452830170230897 -0.3501825104835201 0.8547169829769105 0.3501825104835201 0.8547169829769105 0.3501825104835201 0.1452830170230897 -0.3501825104835201
426.5795188015926 0.13699304961307965 -0.34162201801716574 0.8630069503869202 0.34162201801716574 0.8630069503869202 0.34162201801716574 0.13699304961307965 -0.34162201801716574
441.57044735331243 0.12910662561598604 -0.33308517494934464 0.8708933743840139 0.33308517494934464 0.8708933743840139 0.33308517494934464 0.12910662561598604 -0.33308517494934464
457.0881896148751 0.12161220308050154 -0.3245896579613027 0.8783877969194984 0.3245896579613027 0.8783877969194984 0.3245896579613027 0.12161220308050154 -0.3245896579613027
473.15125896148055 0.11449760662576373 -0.31615168658586174 0.8855023933742362 0.31615168658586174 0.8855023933742362 0.31615168658586174 0.11449760662576373 -0.31615168658586174
489.77881936844625 0.10775016732896504 -0.30778605075483384 0.892249832671035 0.30778605075483384 0.892249832671035 0.30778605075483384 0.10775016732896504 -0.30778605075483384
506.9907082747043 0.10135685160070138 -0.2995061489787306 0.8986431483992986 0.2995061489787306 0.8986431483992986 0.2995061489787306 0.10135685160070138 -0.2995061489787306
524.8074602497726 0.09530437878595939 -0.2913240352731324 0.9046956212140407 0.2913240352731324 0.9046956212140407 0.2913240352731324 0.09530437878595939 -0.2913240352731324
543.2503314924331 0.08957932746310185 -0.2832504730757011 0.9104206725368981 0.2832504730757011 0.9104206725368981 0.2832504730757011 0.08957932746310185 -0.2832504730757011
562.3413251903492 0.08416823060906241 -0.27529499454425727 0.9158317693909374 0.27529499454425727 0.9158317693909374 0.27529499454425727 0.08416823060906241 -0.27529499454425727
582.1032177708714 0.079057659958053 -0.2674659637825322 0.9209423400419469 0.2674659637825322 0.9209423400419469 0.2674659637825322 0.079057659958053 -0.2674659637825322
602.5595860743578 0.0742343000060633 -0.25977064270019523 0.9257656999939367 0.25977064270019523 0.9257656999939367 0.25977064270019523 0.0742343000060633 -0.25977064270019523
623.7348354824193 0.06968501220753007 -0.2522152583727066 0.9303149877924698 0.2522152583727066 0.9303149877924698 0.2522152583727066 0.06968501220753007 -0.2522152583727066
645.6542290346556 0.0653968899772483 -0.24480507092059778 0.9346031100227518 0.24480507092059778 0.9346031100227518 0.24480507092059778 0.0653968899772483 -0.24480507092059778
668.3439175686148 0.06135730515352756 -0.23754444107409023 0.9386426948464724 0.23754444107409023 0.9386426948464724 0.23754444107409023 0.06135730515352756 -0.23754444107409023
691.8309709189366 0.05755394660131577 -0.2304368967254529 0.9424460533986843 0.2304368967254529 0.9424460533986843 0.2304368967254529 0.05755394660131577 -0.2304368967254529
716.1434102129019 0.05397485163992781 -0.22348519789687146 0.9460251483600721 0.22348519789687146 0.9460251483600721 0.22348519789687146 0.05397485163992781 -0.22348519789687146
741.3102413009174 0.05060843097228655 -0.2166913996651161 0.9493915690277134 0.2166913996651161 0.9493915690277134 0.2166913996651161 0.05060843097228655 -0.2166913996651161
767.3614893618189 0.04744348777406679 -0.21005691268571827 0.9525565122259333 0.21005691268571827 0.9525565122259333 0.21005691268571827 0.04744348777406679 -0.21005691268571827
794.3282347242814 0.04446923157437479 -0.20358256104884967 0.9555307684256252 0.20358256104884967 0.9555307684256252 0.20358256104884967 0.04446923157437479 -0.20358256104884967
822.2426499470711 0.04167528752680615 -0.19726863727705693 0.958324712473194 0.19726863727705693 0.958324712473194 0.19726863727705693 0.04167528752680615 -0.19726863727705693
851.1380382023765 0.039051701632794804 -0.19111495434209308 0.9609482983672052 0.19111495434209308 0.9609482983672052 0.19111495434209308 0.039051701632794804 -0.19111495434209308
881.0488730080142 0.03658894243967948 -0.1851208946350657 0.9634110575603205 0.1851208946350657 0.9634110575603205 0.1851208946350657 0.03658894243967948 -0.1851208946350657
912.0108393559099 0.034277899695182856 -0.17928545587185493 0.9657221003048173 0.17928545587185493 0.9657221003048173 0.17928545587185493 0.034277899695182856 -0.17928545587185493
944.0608762859234 0.03210988039907046 -0.17360729395513042 0.9678901196009293 0.17360729395513042 0.9678901196009293 0.17360729395513042 0.03210988039907046 -0.17360729395513042
977.2372209558108 0.03007660265247208 -0.1680847628462212 0.9699233973475281 0.1680847628462212 0.9699233973475281 0.1680847628462212 0.03007660265247208 -0.1680847628462212
1011.5794542598987 0.028170187666339858 -0.16271595152542578 0.9718298123336602 0.16271595152542578 0.9718298123336602 0.16271595152542578 0.028170187666339858 -0.16271595152542578
1047.1285480508998 0.026383150253267627 -0.1574987181389521 0.9736168497467326 0.1574987181389521 0.9736168497467326 0.1574987181389521 0.026383150253267627 -0.1574987181389521
1083.9269140212034 0.024708388091734316 -0.1524307214453069 0.9752916119082654 0.1524307214453069 0.9752916119082654 0.1524307214453069 0.024708388091734316 -0.1524307214453069
1122.0184543019632 0.023139170018987056 -0.14750944968436092 0.976860829981013 0.14750944968436092 0.976860829981013 0.14750944968436092 0.023139170018987056 -0.14750944968436092
1161.4486138403427 0.021669123578366967 -0.14273224699914622 0.9783308764216331 0.14273224699914622 0.9783308764216331 0.14273224699914622 0.021669123578366967 -0.14273224699914622
1202.2644346174127 0.020292222018953997 -0.13809633754430622 0.9797077779810458 0.13809633754430622 0.9797077779810458 0.13809633754430622 0.020292222018953997 -0.13809633754430622
1244.514611771385 0.019002770919949237 -0.13359884741654587 0.9809972290800508 0.13359884741654587 0.9809972290800508 0.13359884741654587 0.019002770919949237 -0.13359884741654587
1288.249551693134 0.01779539458916203 -0.12923682454189672 0.982204605410838 0.12923682454189672 0.982204605410838 0.12923682454189672 0.01779539458916203 -0.12923682454189672
1333.5214321633239 0.01666502236422331 -0.1250072566525354 0.9833349776357767 0.1250072566525354 0.9833349776357767 0.1250072566525354 0.01666502236422331 -0.1250072566525354
1380.384264602885 0.015606874926576302 -0.12090708748262725 0.9843931250734236 0.12090708748262725 0.9843931250734236 0.12090708748262725 0.015606874926576302 -0.12090708748262725
1428.893958511103 0.014616450721752963 -0.11693323130852051 0.9853835492782469 0.11693323130852051 0.9853835492782469 0.11693323130852051 0.014616450721752963 -0.11693323130852051
1479.1083881682075 0.013689512564768145 -0.11308258595384522 0.9863104874352319 0.11308258595384522 0.9863104874352319 0.11308258595384522 0.013689512564768145 -0.11308258595384522
1531.0874616820304 0.012822074496486195 -0.10935204437488331 0.9871779255035138 0.10935204437488331 0.9871779255035138 0.10935204437488331 0.012822074496486195 -0.10935204437488331
1584.8931924611136 0.012010388945369488 -0.10573850493614331 0.9879896110546305 0.10573850493614331 0.9879896110546305 0.10573850493614331 0.012010388945369488 -0.10573850493614331
1640.5897731995396 0.011250934238942606 -0.10223888048052707 0.9887490657610576 0.10223888048052707 0.9887490657610576 0.10223888048052707 0.011250934238942606 -0.10223888048052707
1698.2436524617442 0.010540402500444194 -0.09885010629291494 0.9894595974995558 0.09885010629291494 0.9894595974995558 0.09885010629291494 0.010540402500444194 -0.09885010629291494
1757.9236139586924 0.00987568795834787 -0.09556914705049091 0.9901243120416522 0.09556914705049091 0.9901243120416522 0.09556914705049091 0.00987568795834787 -0.09556914705049091
1819.7008586099835 0.009253875689585304 -0.0923930028477319 0.9907461243104144 0.0923930028477319 0.9907461243104144 0.0923930028477319 0.009253875689585304 -0.0923930028477319
1883.6490894898002 0.008672230811281921 -0.08931871437871908 0.9913277691887182 0.08931871437871908 0.9913277691887182 0.08931871437871908 0.008672230811281921 -0.08931871437871908
1949.8445997580454 0.008128188130522686 -0.08634336735431711 0.991871811869477 0.08634336735431711 0.991871811869477 0.08634336735431711 0.008128188130522686 -0.08634336735431711
2018.3663636815609 0.0076193422570155715 -0.08346409622681185 0.9923806577429842 0.08346409622681185 0.9923806577429842 0.08346409622681185 0.0076193422570155715 -0.08346409622681185
2089.29613085404 0.007143438179445621 -0.08067808728979527 0.9928565618205544 0.08067808728979527 0.9928565618205544 0.08067808728979527 0.007143438179445621 -0.08067808728979527
2162.7185237270205 0.0066983623027558545 -0.07798258121644422 0.9933016376972441 0.07798258121644422 0.9933016376972441 0.07798258121644422 0.0066983623027558545 -0.07798258121644422
2238.7211385683395 0.006282133940506319 -0.07537487509484707 0.9937178660594937 0.07537487509484707 0.9937178660594937 0.07537487509484707 0.006282133940506319 -0.07537487509484707
2317.394649968479 0.0058928972538113125 -0.0728523240146889 0.9941071027461887 0.0728523240146889 0.9941071027461887 0.0728523240146889 0.0058928972538113125 -0.0728523240146889
2398.832919019491 0.005528913626106228 -0.07041234225541632 0.9944710863738937 0.07041234225541632 0.9944710863738937 0.07041234225541632 0.005528913626106228 -0.07041234225541632
2483.1331052955707 0.005188554461121487 -0.06805240412196607 0.9948114455388786 0.06805240412196607 0.9948114455388786 0.06805240412196607 0.005188554461121487 -0.06805240412196607
2570.3957827688632 0.004870294389916538 -0.0657700444702649 0.9951297056100834 0.0657700444702649 0.9951297056100834 0.0657700444702649 0.004870294389916538 -0.0657700444702649
2660.725059798809 0.004572704871627969 -0.06356285896100174 0.9954272951283719 0.06356285896100174 0.9954272951283719 0.06356285896100174 0.004572704871627969 -0.06356285896100174
2754.2287033381663 0.004294448171686632 -0.06142850407664116 0.9957055518283132 0.06142850407664116 0.9957055518283132 0.06142850407664116 0.004294448171686632 -0.06142850407664116
2851.018267503909 0.004034271700635307 -0.05936469693330281 0.9959657282993647 0.05936469693330281 0.9959657282993647 0.05936469693330281 0.004034271700635307 -0.05936469693330281
2951.209226666386 0.0037910026963030247 -0.057369214915980724 0.996208997303697 0.057369214915980724 0.996208997303697 0.057369214915980724 0.0037910026963030247 -0.057369214915980724
3054.9211132155133 0.0035635432319384825 -0.055439895162626186 0.9964364567680614 0.055439895162626186 0.9964364567680614 0.055439895162626186 0.0035635432319384825 -0.055439895162626186
3162.277660168379 0.003350865532944427 -0.053574633919871856 0.9966491344670556 0.053574633919871856 0.9966491344670556 0.053574633919871856 0.003350865532944427 -0.053574633919871856
3273.406948788382 0.0031520075850602334 -0.051771385790633936 0.9968479924149397 0.051771385790633936 0.9968479924149397 0.051771385790633936 0.0031520075850602334 -0.051771385790633936
3388.4415613920255 0.0029660690171842054 -0.05002816289149562 0.997033930982816 0.05002816289149562 0.997033930982816 0.05002816289149562 0.0029660690171842054 -0.05002816289149562
3507.5187395256803 0.002792207242484149 -0.04834303393563651 0.9972077927575157 0.04834303393563651 0.9972077927575157 0.04834303393563651 0.002792207242484149 -0.04834303393563651
3630.7805477010143 0.002629633841991649 -0.04671412325513201 0.9973703661580086 0.04671412325513201 0.9973703661580086 0.04671412325513201 0.002629633841991649 -0.04671412325513201
3758.374042884442 0.00247761117549013 -0.04513960977468701 0.9975223888245096 0.04513960977468701 0.9975223888245096 0.04513960977468701 0.00247761117549013 -0.04513960977468701
3890.451449942807 0.0023354492051707644 -0.043617725947283005 0.9976645507948291 0.043617725947283005 0.9976645507948291 0.043617725947283005 0.0023354492051707644 -0.043617725947283005
4027.170343254592 0.0022025025182276724 -0.04214675666079303 0.9977974974817723 0.04214675666079303 0.9977974974817723 0.04214675666079303 0.0022025025182276724 -0.04214675666079303
4168.693834703356 0.002078167535281515 -0.04072503812334621 0.9979218324647186 0.04072503812334621 0.9979218324647186 0.04072503812334621 0.002078167535281515 -0.04072503812334621
4315.190768277653 0.001961879892247797 -0.03935095673408496 0.9980381201077522 0.03935095673408496 0.9980381201077522 0.03935095673408496 0.001961879892247797 -0.03935095673408496
