!Murata Part Number: RDEC71E475K2S1H03A
!These Parameters are Measured in Series Mode Connection
!       o--ll--o
!Port1            Port2
!       o------o
!Operation Temp=25[degC], DC Bias Voltage=0[V]
!Freq. Start=100[Hz] Stop=100[MHz], 401[Steps]
!Data Generated on Dec 23, 2019
# Hz S RI R 50
!Freq.(Hz) S11(Real) S11(Imag) S21(Real) S21(Imag) S12(Real) S12(Imag) S22(Real) S22(Imag)
100.0 0.9234932375598895 -0.26285600596394515 0.07650676244011033 0.26285600596394515 0.07650676244011033 0.26285600596394515 0.9234932375598895 -0.26285600596394515
103.51421666793439 0.9185499156104983 -0.2705986896329535 0.0814500843895018 0.2705986896329535 0.0814500843895018 0.2705986896329535 0.9185499156104983 -0.2705986896329535
107.15193052376064 0.9133132845245301 -0.2784720594474808 0.08668671547546988 0.2784720594474808 0.08668671547546988 0.2784720594474808 0.9133132845245301 -0.2784720594474808
110.9174815262401 0.9077699133625735 -0.28646828448998607 0.09223008663742649 0.28646828448998607 0.09223008663742649 0.28646828448998607 0.9077699133625735 -0.28646828448998607
114.81536214968828 0.9019062990690765 -0.2945783882377848 0.09809370093092348 0.2945783882377848 0.09809370093092348 0.2945783882377848 0.9019062990690765 -0.2945783882377848
118.85022274370185 0.8957089475365395 -0.30279218394047464 0.1042910524634604 0.30279218394047464 0.1042910524634604 0.30279218394047464 0.8957089475365395 -0.30279218394047464
123.02687708123815 0.889164465412557 -0.3110982135682396 0.110835534587443 0.3110982135682396 0.110835534587443 0.3110982135682396 0.889164465412557 -0.3110982135682396
127.35030810166617 0.8822596630038863 -0.31948369175632046 0.11774033699611375 0.31948369175632046 0.11774033699611375 0.31948369175632046 0.8822596630038863 -0.31948369175632046
131.8256738556407 0.8749816684773775 -0.32793445632694307 0.12501833152262265 0.32793445632694307 0.12501833152262265 0.32793445632694307 0.8749816684773775 -0.32793445632694307
136.45831365889245 0.8673180533671472 -0.3364349271167585 0.13268194663285293 0.3364349271167585 0.13268194663285293 0.3364349271167585 0.8673180533671472 -0.3364349271167585
141.25375446227542 0.859256969168999 -0.3449680749685068 0.14074303083100093 0.3449680749685068 0.14074303083100093 0.3449680749685068 0.859256969168999 -0.3449680749685068
146.21771744567184 0.8507872945360245 -0.3535154028522632 0.14921270546397547 0.3535154028522632 0.14921270546397547 0.3535154028522632 0.8507872945360245 -0.3535154028522632
151.35612484362082 0.8418987922842299 -0.3620569411554779 0.15810120771577005 0.3620569411554779 0.15810120771577005 0.3620569411554779 0.8418987922842299 -0.3620569411554779
156.6751070108149 0.8325822750763706 -0.3705712592125408 0.16741772492362933 0.3705712592125408 0.16741772492362933 0.3705712592125408 0.8325822750763706 -0.3705712592125408
162.181009735893 0.822829778280455 -0.37903549512384566 0.17717022171954494 0.37903549512384566 0.17717022171954494 0.37903549512384566 0.822829778280455 -0.37903549512384566
167.88040181225603 0.8126347381035424 -0.3874254058313868 0.18736526189645772 0.3874254058313868 0.18736526189645772 0.3874254058313868 0.8126347381035424 -0.3874254058313868
173.78008287493756 0.8019921726910519 -0.3957154392633759 0.19800782730894817 0.3957154392633759 0.19800782730894817 0.3957154392633759 0.8019921726910519 -0.3957154392633759
179.88709151287878 0.7908988634691159 -0.4038788301260199 0.20910113653088414 0.4038788301260199 0.20910113653088414 0.4038788301260199 0.7908988634691159 -0.4038788301260199
186.20871366628674 0.7793535336075496 -0.41188772060014095 0.22064646639245047 0.41188772060014095 0.22064646639245047 0.41188772060014095 0.7793535336075496 -0.41188772060014095
192.7524913190936 0.7673570201113132 -0.41971330679012797 0.23264297988868676 0.41971330679012797 0.23264297988868676 0.41971330679012797 0.7673570201113132 -0.41971330679012797
199.526231496888 0.7549124357284541 -0.42732601127270925 0.2450875642715458 0.42732601127270925 0.2450875642715458 0.42732601127270925 0.7549124357284541 -0.42732601127270925
206.53801558105292 0.7420253166134495 -0.43469568150737425 0.2579746833865506 0.43469568150737425 0.2579746833865506 0.43469568150737425 0.7420253166134495 -0.43469568150737425
213.79620895022322 0.7287037515280315 -0.44179181320804334 0.2712962484719685 0.44179181320804334 0.2712962484719685 0.44179181320804334 0.7287037515280315 -0.44179181320804334
221.30947096056377 0.7149584883177252 -0.4485837970512207 0.28504151168227465 0.4485837970512207 0.28504151168227465 0.4485837970512207 0.7149584883177252 -0.4485837970512207
229.08676527677733 0.7008030134900751 -0.45504118632932355 0.2991969865099249 0.45504118632932355 0.2991969865099249 0.45504118632932355 0.7008030134900751 -0.45504118632932355
237.13737056616552 0.6862536009550326 -0.4611339823744252 0.3137463990449674 0.4611339823744252 0.3137463990449674 0.4611339823744252 0.6862536009550326 -0.4611339823744252
245.47089156850305 0.6713293263791301 -0.4668329338072683 0.32867067362086977 0.4668329338072683 0.32867067362086977 0.4668329338072683 0.6713293263791301 -0.4668329338072683
254.09727055493053 0.6560520441564016 -0.472109844942681 0.34394795584359833 0.472109844942681 0.34394795584359833 0.472109844942681 0.6560520441564016 -0.472109844942681
263.0267991895382 0.6404463247061736 -0.476937888041188 0.3595536752938264 0.476937888041188 0.3595536752938264 0.476937888041188 0.6404463247061736 -0.476937888041188
272.27013080779125 0.6245393506580489 -0.48129191357354456 0.3754606493419511 0.48129191357354456 0.3754606493419511 0.48129191357354456 0.6245393506580489 -0.48129191357354456
281.83829312644536 0.6083607714558292 -0.48514875229401777 0.39163922854417077 0.48514875229401777 0.39163922854417077 0.48514875229401777 0.6083607714558292 -0.48514875229401777
291.7427014001167 0.5919425169744997 -0.4884875027289863 0.40805748302550027 0.4884875027289863 0.40805748302550027 0.4884875027289863 0.5919425169744997 -0.4884875027289863
301.9951720402016 0.5753185718597558 -0.4912897977025971 0.4246814281402442 0.4912897977025971 0.4246814281402442 0.4912897977025971 0.5753185718597558 -0.4912897977025971
312.6079367123955 0.5585247134240097 -0.49354004375476423 0.4414752865759902 0.49354004375476423 0.4414752865759902 0.49354004375476423 0.5585247134240097 -0.49354004375476423
323.59365692962825 0.5415982170187799 -0.4952256277622296 0.45840178298122025 0.4952256277622296 0.45840178298122025 0.4952256277622296 0.5415982170187799 -0.4952256277622296
334.96543915782763 0.524577533802343 -0.4963370857428011 0.475422466197657 0.4963370857428011 0.475422466197657 0.4963370857428011 0.524577533802343 -0.4963370857428011
346.7368504525316 0.50750194668701 -0.49686822968665284 0.49249805331298985 0.49686822968665284 0.49249805331298985 0.49686822968665284 0.50750194668701 -0.49686822968665284
358.9219346450052 0.4904112109410536 -0.4968162292861445 0.5095887890589463 0.4968162292861445 0.5095887890589463 0.4968162292861445 0.4904112109410536 -0.4968162292861445
371.53522909717253 0.4733451864027175 -0.4961816465869171 0.5266548135972825 0.4961816465869171 0.5266548135972825 0.4961816465869171 0.4733451864027175 -0.4961816465869171
384.59178204535357 0.45634346851462715 -0.49496842281078235 0.5436565314853727 0.49496842281078235 0.5436565314853727 0.49496842281078235 0.45634346851462715 -0.49496842281078235
398.10717055349727 0.4394450253949347 -0.4931838178534684 0.5605549746050654 0.4931838178534684 0.5605549746050654 0.4931838178534684 0.4394450253949347 -0.4931838178534684
412.0975190973302 0.4226878479278161 -0.49083830418484237 0.5773121520721838 0.49083830418484237 0.5773121520721838 0.49083830418484237 0.4226878479278161 -0.49083830418484237
426.5795188015926 0.406108619394062 -0.48794541802509406 0.5938913806059379 0.48794541802509406 0.5938913806059379 0.48794541802509406 0.406108619394062 -0.48794541802509406
441.57044735331243 0.3897424104972728 -0.4845215716920443 0.6102575895027271 0.4845215716920443 0.6102575895027271 0.4845215716920443 0.3897424104972728 -0.4845215716920443
457.0881896148751 0.373622404806918 -0.4805858318745599 0.626377595193082 0.4805858318745599 0.626377595193082 0.4805858318745599 0.373622404806918 -0.4805858318745599
473.15125896148055 0.35777965867737505 -0.4761596692570257 0.642220341322625 0.4761596692570257 0.642220341322625 0.4761596692570257 0.35777965867737505 -0.4761596692570257
489.77881936844625 0.34224289865742197 -0.47126668538289157 0.6577571013425781 0.47126668538289157 0.6577571013425781 0.47126668538289157 0.34224289865742197 -0.47126668538289157
506.9907082747043 0.32703835832394446 -0.4659323228955543 0.6729616416760555 0.4659323228955543 0.6729616416760555 0.4659323228955543 0.32703835832394446 -0.4659323228955543
524.8074602497726 0.31218965540176036 -0.46018356533706123 0.6878103445982396 0.46018356533706123 0.6878103445982396 0.46018356533706123 0.31218965540176036 -0.46018356533706123
543.2503314924331 0.297717709009189 -0.4540486325336088 0.702282290990811 0.4540486325336088 0.702282290990811 0.4540486325336088 0.297717709009189 -0.4540486325336088
562.3413251903492 0.28364069593114827 -0.44755667727364684 0.7163593040688518 0.44755667727364684 0.7163593040688518 0.44755667727364684 0.28364069593114827 -0.44755667727364684
582.1032177708714 0.2699740439956105 -0.44073748851740585 0.7300259560043895 0.44073748851740585 0.7300259560043895 0.44073748851740585 0.2699740439956105 -0.44073748851740585
602.5595860743578 0.25673045993470567 -0.43362120579726204 0.7432695400652943 0.43362120579726204 0.7432695400652943 0.43362120579726204 0.25673045993470567 -0.43362120579726204
623.7348354824193 0.2439199885600204 -0.4262380488093545 0.7560800114399795 0.4262380488093545 0.7560800114399795 0.4262380488093545 0.2439199885600204 -0.4262380488093545
645.6542290346556 0.23155009967654502 -0.41861806549067804 0.7684499003234548 0.41861806549067804 0.7684499003234548 0.41861806549067804 0.23155009967654502 -0.41861806549067804
668.3439175686148 0.21962579889824244 -0.4107909011527311 0.7803742011017574 0.4107909011527311 0.7803742011017574 0.4107909011527311 0.21962579889824244 -0.4107909011527311
691.8309709189366 0.20814975840174763 -0.40278559052966706 0.7918502415982523 0.40278559052966706 0.7918502415982523 0.40278559052966706 0.20814975840174763 -0.40278559052966706
716.1434102129019 0.19712246365024363 -0.3946303739185427 0.8028775363497563 0.3946303739185427 0.8028775363497563 0.3946303739185427 0.19712246365024363 -0.3946303739185427
741.3102413009174 0.18654237222105363 -0.3863525379598368 0.8134576277789461 0.3863525379598368 0.8134576277789461 0.3863525379598368 0.18654237222105363 -0.3863525379598368
767.3614893618189 0.176406081060099 -0.3779782810413297 0.8235939189399009 0.3779782810413297 0.8235939189399009 0.3779782810413297 0.176406081060099 -0.3779782810413297
794.3282347242814 0.16670849874562574 -0.3695326028165682 0.8332915012543742 0.3695326028165682 0.8332915012543742 0.3695326028165682 0.16670849874562574 -0.3695326028165682
822.2426499470711 0.15744301965427326 -0.36103921691512686 0.8425569803457267 0.36103921691512686 0.8425569803457267 0.36103921691512686 0.15744301965427326 -0.36103921691512686
851.1380382023765 0.14860169726754552 -0.3525204855867882 0.8513983027324544 0.3525204855867882 0.8513983027324544 0.3525204855867882 0.14860169726754552 -0.3525204855867882
881.0488730080142 0.14017541422046784 -0.34399737476354914 0.8598245857795324 0.34399737476354914 0.8598245857795324 0.34399737476354914 0.14017541422046784 -0.34399737476354914
912.0108393559099 0.13215404706314712 -0.3354894278376751 0.8678459529368527 0.3354894278376751 0.8678459529368527 0.3354894278376751 0.13215404706314712 -0.3354894278376751
944.0608762859234 0.12452662406865461 -0.3270147563346749 0.8754733759313454 0.3270147563346749 0.8754733759313454 0.3270147563346749 0.12452662406865461 -0.3270147563346749
977.2372209558108 0.11728147476794579 -0.31859004559976095 0.8827185252320544 0.31859004559976095 0.8827185252320544 0.31859004559976095 0.11728147476794579 -0.31859004559976095
1011.5794542598987 0.11040637021735264 -0.31023057360708306 0.8895936297826472 0.31023057360708306 0.8895936297826472 0.31023057360708306 0.11040637021735264 -0.31023057360708306
1047.1285480508998 0.10388865330149646 -0.30195024103459184 0.8961113466985036 0.30195024103459184 0.8961113466985036 0.30195024103459184 0.10388865330149646 -0.30195024103459184
1083.9269140212034 0.0977153586409976 -0.29376161081568525 0.9022846413590025 0.29376161081568525 0.9022846413590025 0.29376161081568525 0.0977153586409976 -0.29376161081568525
1122.0184543019632 0.09187332190843414 -0.28567595547417685 0.9081266780915659 0.28567595547417685 0.9081266780915659 0.28567595547417685 0.09187332190843414 -0.28567595547417685
1161.4486138403427 0.08634927855722754 -0.2777033106644957 0.9136507214427725 0.2777033106644957 0.9136507214427725 0.2777033106644957 0.08634927855722754 -0.2777033106644957
1202.2644346174127 0.08112995213717601 -0.2698525334680233 0.9188700478628241 0.2698525334680233 0.9188700478628241 0.2698525334680233 0.08112995213717601 -0.2698525334680233
1244.514611771385 0.07620213250873412 -0.2621313641335802 0.9237978674912661 0.2621313641335802 0.9237978674912661 0.2621313641335802 0.07620213250873412 -0.2621313641335802
1288.249551693134 0.07155274437792096 -0.2545464900905262 0.928447255622079 0.2545464900905262 0.928447255622079 0.2545464900905262 0.07155274437792096 -0.2545464900905262
1333.5214321633239 0.06716890665744661 -0.2471036112028477 0.9328310933425533 0.2471036112028477 0.9328310933425533 0.2471036112028477 0.06716890665744661 -0.2471036112028477
1380.384264602885 0.06303798322001469 -0.23980750536882353 0.9369620167799854 0.23980750536882353 0.9369620167799854 0.23980750536882353 0.06303798322001469 -0.23980750536882353
1428.893958511103 0.05914762564964307 -0.23266209370097218 0.9408523743503568 0.23266209370097218 0.9408523743503568 0.23266209370097218 0.05914762564964307 -0.23266209370097218
1479.1083881682075 0.05548580861906688 -0.2256705046431784 0.944514191380933 0.2256705046431784 0.944514191380933 0.2256705046431784 0.05548580861906688 -0.2256705046431784
1531.0874616820304 0.05204085852861129 -0.21883513649498113 0.9479591414713886 0.21883513649498113 0.9479591414713886 0.21883513649498113 0.05204085852861129 -0.21883513649498113
1584.8931924611136 0.04880147603690981 -0.21215771791620155 0.9511985239630902 0.21215771791620155 0.9511985239630902 0.21215771791620155 0.04880147603690981 -0.21215771791620155
1640.5897731995396 0.04575675309889384 -0.20563936607807337 0.9542432469011061 0.20563936607807337 0.9542432469011061 0.20563936607807337 0.04575675309889384 -0.20563936607807337
1698.2436524617442 0.04289618510373444 -0.199280642209773 0.9571038148962655 0.199280642209773 0.9571038148962655 0.199280642209773 0.04289618510373444 -0.199280642209773
1757.9236139586924 0.04020967867678811 -0.19308160436196517 0.959790321323212 0.19308160436196517 0.959790321323212 0.19308160436196517 0.04020967867678811 -0.19308160436196517
1819.7008586099835 0.03768755567675566 -0.18704185727211875 0.9623124443232445 0.18704185727211875 0.9623124443232445 0.18704185727211875 0.03768755567675566 -0.18704185727211875
1883.6490894898002 0.03532055388362426 -0.1811605992704513 0.9646794461163756 0.1811605992704513 0.9646794461163756 0.1811605992704513 0.03532055388362426 -0.1811605992704513
1949.8445997580454 0.03309982483573941 -0.17543666621110626 0.9669001751642604 0.17543666621110626 0.9669001751642604 0.17543666621110626 0.03309982483573941 -0.17543666621110626
2018.3663636815609 0.03101692923652945 -0.16986857245125261 0.9689830707634705 0.16986857245125261 0.9689830707634705 0.16986857245125261 0.03101692923652945 -0.16986857245125261
2089.29613085404 0.02906383031379034 -0.16445454893196887 0.9709361696862099 0.16445454893196887 0.9709361696862099 0.16445454893196887 0.02906383031379034 -0.16445454893196887
2162.7185237270205 0.027232885477663855 -0.15919257843975557 0.972767114522336 0.15919257843975557 0.972767114522336 0.15919257843975557 0.027232885477663855 -0.15919257843975557
2238.7211385683395 0.025516836587999935 -0.15408042814704714 0.974483163412 0.15408042814704714 0.974483163412 0.15408042814704714 0.025516836587999935 -0.15408042814704714
2317.394649968479 0.023908799108039187 -0.14911567954481847 0.9760912008919606 0.14911567954481847 0.9760912008919606 0.14911567954481847 0.023908799108039187 -0.14911567954481847
2398.832919019491 0.022402250389548014 -0.14429575589098212 0.9775977496104519 0.14429575589098212 0.9775977496104519 0.14429575589098212 0.022402250389548014 -0.14429575589098212
2483.1331052955707 0.020991017304840633 -0.13961794730529553 0.9790089826951593 0.13961794730529553 0.9790089826951593 0.13961794730529553 0.020991017304840633 -0.13961794730529553
2570.3957827688632 0.01966926341363338 -0.13507943364552497 0.9803307365863666 0.13507943364552497 0.9803307365863666 0.13507943364552497 0.01966926341363338 -0.13507943364552497
2660.725059798809 0.018431475827422425 -0.130677305301097 0.9815685241725776 0.130677305301097 0.9815685241725776 0.130677305301097 0.018431475827422425 -0.130677305301097
2754.2287033381663 0.01727245191105212 -0.1264085820398695 0.9827275480889477 0.1264085820398695 0.9827275480889477 0.1264085820398695 0.01727245191105212 -0.1264085820398695
2851.018267503909 0.016187285940296777 -0.12227023004134255 0.9838127140597034 0.12227023004134255 0.9838127140597034 0.12227023004134255 0.016187285940296777 -0.12227023004134255
2951.209226666386 0.015171355815545353 -0.1182591772459613 0.9848286441844547 0.1182591772459613 0.9848286441844547 0.1182591772459613 0.015171355815545353 -0.1182591772459613
3054.9211132155133 0.014220309914961525 -0.11437232714542594 0.9857796900850384 0.11437232714542594 0.9857796900850384 0.11437232714542594 0.014220309914961525 -0.11437232714542594
3162.277660168379 0.013330054155688805 -0.11060657113338923 0.986669945844311 0.11060657113338923 0.986669945844311 0.11060657113338923 0.013330054155688805 -0.11060657113338923
3273.406948788382 0.012496739318666659 -0.10695879952981951 0.9875032606813334 0.10695879952981951 0.9875032606813334 0.10695879952981951 0.012496739318666659 -0.10695879952981951
3388.4415613920255 0.01171674868129763 -0.10342591138582789 0.9882832513187024 0.10342591138582789 0.9882832513187024 0.10342591138582789 0.01171674868129763 -0.10342591138582789
3507.5187395256803 0.0109866859924357 -0.1000048231690881 0.9890133140075644 0.1000048231690881 0.9890133140075644 0.1000048231690881 0.0109866859924357 -0.1000048231690881
3630.7805477010143 0.010303363815822607 -0.09669247642325463 0.9896966361841774 0.09669247642325463 0.9896966361841774 0.09669247642325463 0.010303363815822607 -0.09669247642325463
3758.374042884442 0.009663792261055378 -0.0934858444881423 0.9903362077389449 0.0934858444881423 0.9903362077389449 0.0934858444881423 0.009663792261055378 -0.0934858444881423
3890.451449942807 0.009065168115293882 -0.09038193836097276 0.9909348318847059 0.09038193836097276 0.9909348318847059 0.09038193836097276 0.009065168115293882 -0.09038193836097276
4027.170343254592 0.00850486438408445 -0.0873778117728137 0.9914951356159155 0.0873778117728137 0.9914951356159155 0.0873778117728137 0.00850486438408445 -0.0873778117728137
4168.693834703356 0.007980420245753175 -0.08447056554849446 0.992019579754247 0.08447056554849446 0.992019579754247 0.08447056554849446 0.007980420245753175 -0.08447056554849446
4315.190768277653 0.007489531420686334 -0.08165735131284045 0.9925104685793138 0.08165735131284045 0.9925104685793138 0.08165735131284045 0.007489531420686334 -0.08165735131284045
