!Murata Part Number: RDEC71E106K2P1H03B
!These Parameters are Measured in Series Mode Connection
!       o--ll--o
!Port1            Port2
!       o------o
!Operation Temp=25[degC], DC Bias Voltage=0[V]
!Freq. Start=100[Hz] Stop=100[MHz], 401[Steps]
!Data Generated on Dec 23, 2019
# Hz S RI R 50
!Freq.(Hz) S11(Real) S11(Imag) S21(Real) S21(Imag) S12(Real) S12(Imag) S22(Real) S22(Imag)
100.0 0.7343032766098546 -0.4394775894531694 0.2656967233901453 0.4394775894531694 0.2656967233901453 0.4394775894531694 0.7343032766098546 -0.4394775894531694
103.51421666793439 0.7207181073567632 -0.44642157712563796 0.2792818926432368 0.44642157712563796 0.2792818926432368 0.44642157712563796 0.7207181073567632 -0.44642157712563796
107.15193052376064 0.706713773705123 -0.45304458522433094 0.293286226294877 0.45304458522433094 0.293286226294877 0.45304458522433094 0.706713773705123 -0.45304458522433094
110.9174815262401 0.6923051059792396 -0.45931599507527077 0.3076948940207604 0.45931599507527077 0.3076948940207604 0.45931599507527077 0.6923051059792396 -0.45931599507527077
114.81536214968828 0.677509787583079 -0.46520575541493386 0.32249021241692105 0.46520575541493386 0.32249021241692105 0.46520575541493386 0.677509787583079 -0.46520575541493386
118.85022274370185 0.6623483578926351 -0.4706846947433695 0.337651642107365 0.4706846947433695 0.337651642107365 0.4706846947433695 0.6623483578926351 -0.4706846947433695
123.02687708123815 0.6468441753754893 -0.47572484175248353 0.3531558246245107 0.47572484175248353 0.3531558246245107 0.47572484175248353 0.6468441753754893 -0.47572484175248353
127.35030810166617 0.6310233387266498 -0.4802997480789246 0.3689766612733502 0.4802997480789246 0.3689766612733502 0.4802997480789246 0.6310233387266498 -0.4802997480789246
131.8256738556407 0.6149145647441281 -0.48438480710454174 0.3850854352558719 0.48438480710454174 0.3850854352558719 0.48438480710454174 0.6149145647441281 -0.48438480710454174
136.45831365889245 0.5985490227274396 -0.487957562169965 0.40145097727256046 0.487957562169965 0.40145097727256046 0.487957562169965 0.5985490227274396 -0.487957562169965
141.25375446227542 0.5819601263334457 -0.49099799740956085 0.41803987366655415 0.49099799740956085 0.41803987366655415 0.49099799740956085 0.5819601263334457 -0.49099799740956085
146.21771744567184 0.5651832850246354 -0.4934888044824493 0.4348167149753646 0.4934888044824493 0.4348167149753646 0.4934888044824493 0.5651832850246354 -0.4934888044824493
151.35612484362082 0.5482556184467177 -0.4954156187782242 0.45174438155328217 0.4954156187782242 0.45174438155328217 0.4954156187782242 0.5482556184467177 -0.4954156187782242
156.6751070108149 0.5312156382231696 -0.49676721921978134 0.46878436177683036 0.49676721921978134 0.46878436177683036 0.49676721921978134 0.5312156382231696 -0.49676721921978134
162.181009735893 0.5141029027011943 -0.49753568655887725 0.48589709729880576 0.49753568655887725 0.48589709729880576 0.49753568655887725 0.5141029027011943 -0.49753568655887725
167.88040181225603 0.49695765107611556 -0.49771651603962513 0.5030423489238844 0.49771651603962513 0.5030423489238844 0.49771651603962513 0.49695765107611556 -0.49771651603962513
173.78008287493756 0.4798204240150799 -0.49730868145593493 0.52017957598492 0.49730868145593493 0.52017957598492 0.49730868145593493 0.4798204240150799 -0.49730868145593493
179.88709151287878 0.46273167836067713 -0.4963146489054938 0.5372683216393228 0.4963146489054938 0.5372683216393228 0.4963146489054938 0.46273167836067713 -0.4963146489054938
186.20871366628674 0.445731403696778 -0.4947403398920629 0.554268596303222 0.4947403398920629 0.554268596303222 0.4947403398920629 0.445731403696778 -0.4947403398920629
192.7524913190936 0.42885874849197797 -0.4925950447918917 0.571141251508022 0.4925950447918917 0.571141251508022 0.4925950447918917 0.42885874849197797 -0.4925950447918917
199.526231496888 0.41215166320395935 -0.48989128902023155 0.5878483367960405 0.48989128902023155 0.5878483367960405 0.48989128902023155 0.41215166320395935 -0.48989128902023155
206.53801558105292 0.39564656714816127 -0.4866446554542875 0.6043534328518388 0.4866446554542875 0.6043534328518388 0.4866446554542875 0.39564656714816127 -0.4866446554542875
213.79620895022322 0.3793780451362495 -0.4828735677397011 0.6206219548637507 0.4828735677397011 0.6206219548637507 0.4828735677397011 0.3793780451362495 -0.4828735677397011
221.30947096056377 0.36337857891425135 -0.4785990399880994 0.6366214210857485 0.4785990399880994 0.6366214210857485 0.4785990399880994 0.36337857891425135 -0.4785990399880994
229.08676527677733 0.34767831732473786 -0.47384439903396275 0.6523216826752621 0.47384439903396275 0.6523216826752621 0.47384439903396275 0.34767831732473786 -0.47384439903396275
237.13737056616552 0.33230488793419427 -0.4686349858431639 0.6676951120658057 0.4686349858431639 0.6676951120658057 0.4686349858431639 0.33230488793419427 -0.4686349858431639
245.47089156850305 0.31728325165886107 -0.4629978428489864 0.6827167483411388 0.4629978428489864 0.6827167483411388 0.4629978428489864 0.31728325165886107 -0.4629978428489864
254.09727055493053 0.30263560074056517 -0.45696139394240193 0.6973643992594349 0.45696139394240193 0.6973643992594349 0.45696139394240193 0.30263560074056517 -0.45696139394240193
263.0267991895382 0.28838129931412676 -0.4505551235808967 0.7116187006858734 0.4505551235808967 0.7116187006858734 0.4505551235808967 0.28838129931412676 -0.4505551235808967
272.27013080779125 0.2745368648081369 -0.44380926103192936 0.725463135191863 0.44380926103192936 0.725463135191863 0.44380926103192936 0.2745368648081369 -0.44380926103192936
281.83829312644536 0.26111598756080434 -0.4367544751672962 0.7388840124391958 0.4367544751672962 0.7388840124391958 0.4367544751672962 0.26111598756080434 -0.4367544751672962
291.7427014001167 0.24812958533208518 -0.42942158451112145 0.7518704146679148 0.42942158451112145 0.7518704146679148 0.42942158451112145 0.24812958533208518 -0.42942158451112145
301.9951720402016 0.23558588886280643 -0.42184128645596186 0.7644141111371935 0.42184128645596186 0.7644141111371935 0.42184128645596186 0.23558588886280643 -0.42184128645596186
312.6079367123955 0.2234905542722251 -0.41404390873656133 0.7765094457277748 0.41404390873656133 0.7765094457277748 0.41404390873656133 0.2234905542722251 -0.41404390873656133
323.59365692962825 0.2118467978908835 -0.40605918542413133 0.7881532021091165 0.40605918542413133 0.7881532021091165 0.40605918542413133 0.2118467978908835 -0.40605918542413133
334.96543915782763 0.20065554908254463 -0.3979160589061302 0.7993444509174554 0.3979160589061302 0.7993444509174554 0.3979160589061302 0.20065554908254463 -0.3979160589061302
346.7368504525316 0.18991561669946644 -0.38964250857247457 0.8100843833005336 0.38964250857247457 0.8100843833005336 0.38964250857247457 0.18991561669946644 -0.38964250857247457
358.9219346450052 0.1796238650180833 -0.3812654062580943 0.8203761349819165 0.3812654062580943 0.8203761349819165 0.3812654062580943 0.1796238650180833 -0.3812654062580943
371.53522909717253 0.16977539529446836 -0.37281039790695936 0.8302246047055314 0.37281039790695936 0.8302246047055314 0.37281039790695936 0.16977539529446836 -0.37281039790695936
384.59178204535357 0.160363729437679 -0.36430181043169424 0.8396362705623212 0.36430181043169424 0.8396362705623212 0.36430181043169424 0.160363729437679 -0.36430181043169424
398.10717055349727 0.15138099270214367 -0.3557625823481681 0.8486190072978562 0.3557625823481681 0.8486190072978562 0.3557625823481681 0.15138099270214367 -0.3557625823481681
412.0975190973302 0.14281809272733598 -0.3472142164641372 0.857181907272664 0.3472142164641372 0.857181907272664 0.3472142164641372 0.14281809272733598 -0.3472142164641372
426.5795188015926 0.13466489268635679 -0.33867675268987646 0.865335107313643 0.33867675268987646 0.865335107313643 0.33867675268987646 0.13466489268635679 -0.33867675268987646
441.57044735331243 0.12691037672975347 -0.33016875890888736 0.8730896232702464 0.33016875890888736 0.8730896232702464 0.33016875890888736 0.12691037672975347 -0.33016875890888736
457.0881896148751 0.11954280631505178 -0.32170733778863814 0.8804571936849483 0.32170733778863814 0.8804571936849483 0.32170733778863814 0.11954280631505178 -0.32170733778863814
473.15125896148055 0.11254986638710719 -0.31330814741435664 0.8874501336128928 0.31330814741435664 0.8874501336128928 0.31330814741435664 0.11254986638710719 -0.31330814741435664
489.77881936844625 0.10591880071331167 -0.30498543368228914 0.8940811992866883 0.30498543368228914 0.8940811992866883 0.30498543368228914 0.10591880071331167 -0.30498543368228914
506.9907082747043 0.09963653597725629 -0.2967520724819931 0.9003634640227438 0.2967520724819931 0.9003634640227438 0.2967520724819931 0.09963653597725629 -0.2967520724819931
524.8074602497726 0.09368979449306686 -0.2886196198201458 0.9063102055069331 0.2886196198201458 0.9063102055069331 0.2886196198201458 0.09368979449306686 -0.2886196198201458
543.2503314924331 0.08806519562053816 -0.2805983681820487 0.9119348043794617 0.2805983681820487 0.9119348043794617 0.2805983681820487 0.08806519562053816 -0.2805983681820487
562.3413251903492 0.0827493461399199 -0.27269740758350103 0.9172506538600801 0.27269740758350103 0.9172506538600801 0.27269740758350103 0.0827493461399199 -0.27269740758350103
582.1032177708714 0.07772891998737705 -0.26492468992835666 0.9222710800126229 0.26492468992835666 0.9222710800126229 0.26492468992835666 0.07772891998737705 -0.26492468992835666
602.5595860743578 0.07299072786097649 -0.25728709545026185 0.9270092721390236 0.25728709545026185 0.9270092721390236 0.25728709545026185 0.07299072786097649 -0.25728709545026185
623.7348354824193 0.06852177728623274 -0.24979050017649376 0.9314782227137673 0.24979050017649376 0.9314782227137673 0.24979050017649376 0.06852177728623274 -0.24979050017649376
645.6542290346556 0.06430932378357225 -0.24243984350411096 0.9356906762164275 0.24243984350411096 0.9356906762164275 0.24243984350411096 0.06430932378357225 -0.24243984350411096
668.3439175686148 0.06034091381136211 -0.23523919512144867 0.9396590861886377 0.23523919512144867 0.9396590861886377 0.23523919512144867 0.06034091381136211 -0.23523919512144867
691.8309709189366 0.05660442017102971 -0.22819182063976487 0.9433955798289704 0.22819182063976487 0.9433955798289704 0.22819182063976487 0.05660442017102971 -0.22819182063976487
716.1434102129019 0.05308807055865928 -0.22130024541968424 0.9469119294413406 0.22130024541968424 0.9469119294413406 0.22130024541968424 0.05308807055865928 -0.22130024541968424
741.3102413009174 0.04978046993334875 -0.21456631618463948 0.9502195300666512 0.21456631618463948 0.9502195300666512 0.21456631618463948 0.04978046993334875 -0.21456631618463948
767.3614893618189 0.0466706173492728 -0.20799126010886781 0.9533293826507272 0.20799126010886781 0.9533293826507272 0.20799126010886781 0.0466706173492728 -0.20799126010886781
794.3282347242814 0.04374791786817343 -0.2015757411510621 0.9562520821318267 0.2015757411510621 0.9562520821318267 0.2015757411510621 0.04374791786817343 -0.2015757411510621
822.2426499470711 0.04100219013390597 -0.19531991347711883 0.9589978098660942 0.19531991347711883 0.9589978098660942 0.19531991347711883 0.04100219013390597 -0.19531991347711883
851.1380382023765 0.03842367015239441 -0.18922347187735344 0.9615763298476057 0.18922347187735344 0.9615763298476057 0.18922347187735344 0.03842367015239441 -0.18922347187735344
881.0488730080142 0.03600301178027036 -0.18328569913587486 0.9639969882197296 0.18328569913587486 0.9639969882197296 0.18328569913587486 0.03600301178027036 -0.18328569913587486
912.0108393559099 0.03373128438472661 -0.17750551035346893 0.9662687156152735 0.17750551035346893 0.9662687156152735 0.17750551035346893 0.03373128438472661 -0.17750551035346893
944.0608762859234 0.03159996809658328 -0.17188149426117222 0.9684000319034167 0.17188149426117222 0.9684000319034167 0.17188149426117222 0.03159996809658328 -0.17188149426117222
977.2372209558108 0.029600947038948677 -0.16641195159063243 0.9703990529610514 0.16641195159063243 0.9703990529610514 0.16641195159063243 0.029600947038948677 -0.16641195159063243
1011.5794542598987 0.027726500875679325 -0.1610949305901552 0.9722734991243209 0.1610949305901552 0.9722734991243209 0.1610949305901552 0.027726500875679325 -0.1610949305901552
1047.1285480508998 0.02596929498748902 -0.1559282597928062 0.974030705012511 0.1559282597928062 0.974030705012511 0.1559282597928062 0.02596929498748902 -0.1559282597928062
1083.9269140212034 0.024322369549306465 -0.15090957815581604 0.9756776304506934 0.15090957815581604 0.9756776304506934 0.15090957815581604 0.024322369549306465 -0.15090957815581604
1122.0184543019632 0.02277912775049785 -0.14603636269944337 0.9772208722495023 0.14603636269944337 0.9772208722495023 0.14603636269944337 0.02277912775049785 -0.14603636269944337
1161.4486138403427 0.021333323369968994 -0.14130595377903402 0.978666676630031 0.14130595377903402 0.978666676630031 0.14130595377903402 0.021333323369968994 -0.14130595377903402
1202.2644346174127 0.019979047890969243 -0.13671557812677854 0.9800209521090308 0.13671557812677854 0.9800209521090308 0.13671557812677854 0.019979047890969243 -0.13671557812677854
1244.514611771385 0.01871071731562996 -0.13226236980012712 0.98128928268437 0.13226236980012712 0.98128928268437 0.13226236980012712 0.01871071731562996 -0.13226236980012712
1288.249551693134 0.017523058816830944 -0.1279433891723936 0.9824769411831691 0.1279433891723936 0.9824769411831691 0.1279433891723936 0.017523058816830944 -0.1279433891723936
1333.5214321633239 0.016411097344815065 -0.12375564009815959 0.983588902655185 0.12375564009815959 0.983588902655185 0.12375564009815959 0.016411097344815065 -0.12375564009815959
1380.384264602885 0.015370142287958594 -0.11969608538201143 0.9846298577120415 0.11969608538201143 0.9846298577120415 0.11969608538201143 0.015370142287958594 -0.11969608538201143
1428.893958511103 0.014395774271125296 -0.11576166067420679 0.9856042257288747 0.11576166067420679 0.9856042257288747 0.11576166067420679 0.014395774271125296 -0.11576166067420679
1479.1083881682075 0.013483832160947302 -0.1119492869113251 0.9865161678390527 0.1119492869113251 0.9865161678390527 0.1119492869113251 0.013483832160947302 -0.1119492869113251
1531.0874616820304 0.012630400335036797 -0.10825588141402939 0.9873695996649632 0.10825588141402939 0.9873695996649632 0.10825588141402939 0.012630400335036797 -0.10825588141402939
1584.8931924611136 0.011831796261384553 -0.10467836774793218 0.9881682037386156 0.10467836774793218 0.9881682037386156 0.10467836774793218 0.011831796261384553 -0.10467836774793218
1640.5897731995396 0.011084558424890506 -0.1012136844473703 0.9889154415751095 0.1012136844473703 0.9889154415751095 0.1012136844473703 0.011084558424890506 -0.1012136844473703
1698.2436524617442 0.010385434629942316 -0.09785879269576886 0.9896145653700577 0.09785879269576886 0.9896145653700577 0.09785879269576886 0.010385434629942316 -0.09785879269576886
1757.9236139586924 0.009731370701061018 -0.09461068305030289 0.9902686292989388 0.09461068305030289 0.9902686292989388 0.09461068305030289 0.009731370701061018 -0.09461068305030289
1819.7008586099835 0.009119499597726332 -0.09146638129281695 0.9908805004022737 0.09146638129281695 0.9908805004022737 0.09146638129281695 0.009119499597726332 -0.09146638129281695
1883.6490894898002 0.008547130954443274 -0.08842295348347705 0.9914528690455569 0.08842295348347705 0.9914528690455569 0.08842295348347705 0.008547130954443274 -0.08842295348347705
1949.8445997580454 0.008011741052795654 -0.08547751028843575 0.9919882589472042 0.08547751028843575 0.9919882589472042 0.08547751028843575 0.008011741052795654 -0.08547751028843575
2018.3663636815609 0.007510963228540397 -0.08262721064789587 0.9924890367714596 0.08262721064789587 0.9924890367714596 0.08262721064789587 0.007510963228540397 -0.08262721064789587
2089.29613085404 0.007042578713633047 -0.0798692648463561 0.9929574212863669 0.0798692648463561 0.9929574212863669 0.0798692648463561 0.007042578713633047 -0.0798692648463561
2162.7185237270205 0.006604507910358306 -0.0772009370425062 0.9933954920896415 0.0772009370425062 0.9933954920896415 0.0772009370425062 0.006604507910358306 -0.0772009370425062
2238.7211385683395 0.00619480209240029 -0.07461954731218205 0.9938051979075997 0.07461954731218205 0.9938051979075997 0.07461954731218205 0.00619480209240029 -0.07461954731218205
2317.394649968479 0.005811635525670775 -0.07212247325397753 0.9941883644743292 0.07212247325397753 0.9941883644743292 0.07212247325397753 0.005811635525670775 -0.07212247325397753
2398.832919019491 0.005453297999975823 -0.06970715120350798 0.9945467020000239 0.06970715120350798 0.9945467020000239 0.06970715120350798 0.005453297999975823 -0.06970715120350798
2483.1331052955707 0.0051181877611092465 -0.06737107709891495 0.9948818122388909 0.06737107709891495 0.9948818122388909 0.06737107709891495 0.0051181877611092465 -0.06737107709891495
2570.3957827688632 0.004804804831689713 -0.06511180703696431 0.99519519516831 0.06511180703696431 0.99519519516831 0.06511180703696431 0.004804804831689713 -0.06511180703696431
2660.725059798809 0.00451174470799007 -0.06292695755601345 0.9954882552920097 0.06292695755601345 0.9954882552920097 0.06292695755601345 0.00451174470799007 -0.06292695755601345
2754.2287033381663 0.004237692419127747 -0.06081420567918107 0.9957623075808723 0.06081420567918107 0.9957623075808723 0.06081420567918107 0.004237692419127747 -0.06081420567918107
2851.018267503909 0.003981416934285299 -0.058771288748253075 0.9960185830657148 0.058771288748253075 0.9960185830657148 0.058771288748253075 0.003981416934285299 -0.058771288748253075
2951.209226666386 0.0037417659031002046 -0.05679600407617851 0.9962582340968998 0.05679600407617851 0.9962582340968998 0.05679600407617851 0.0037417659031002046 -0.05679600407617851
3054.9211132155133 0.003517660713995627 -0.05488620844346348 0.9964823392860044 0.05488620844346348 0.9964823392860044 0.05488620844346348 0.003517660713995627 -0.05488620844346348
3162.277660168379 0.003308091855009318 -0.05303981746134535 0.9966919081449909 0.05303981746134535 0.9966919081449909 0.05303981746134535 0.003308091855009318 -0.05303981746134535
3273.406948788382 0.0031121145616073748 -0.05125480482233916 0.9968878854383926 0.05125480482233916 0.9968878854383926 0.05125480482233916 0.0031121145616073748 -0.05125480482233916
3388.4415613920255 0.0029288447360312814 -0.04952920145658424 0.997071155263969 0.04952920145658424 0.997071155263969 0.04952920145658424 0.0029288447360312814 -0.04952920145658424
3507.5187395256803 0.0027574551229091397 -0.04786109461039124 0.9972425448770907 0.04786109461039124 0.9972425448770907 0.04786109461039124 0.0027574551229091397 -0.04786109461039124
3630.7805477010143 0.0025971717261521034 -0.04624862686149906 0.9974028282738479 0.04624862686149906 0.9974028282738479 0.04624862686149906 0.0025971717261521034 -0.04624862686149906
3758.374042884442 0.0024472704525410854 -0.04468999508379491 0.9975527295474588 0.04468999508379491 0.9975527295474588 0.04468999508379491 0.0024472704525410854 -0.04468999508379491
3890.451449942807 0.0023070739678733095 -0.04318344937263175 0.9976929260321267 0.04318344937263175 0.9976929260321267 0.04318344937263175 0.0023070739678733095 -0.04318344937263175
4027.170343254592 0.0021759487520700317 -0.04172729194039437 0.9978240512479299 0.04172729194039437 0.9978240512479299 0.04172729194039437 0.0021759487520700317 -0.04172729194039437
4168.693834703356 0.002053302340232539 -0.040319875990611695 0.9979466976597673 0.040319875990611695 0.9979466976597673 0.040319875990611695 0.002053302340232539 -0.040319875990611695
