!Murata Part Number: RDEC71E475K2M1H03A
!These Parameters are Measured in Series Mode Connection
!       o--ll--o
!Port1            Port2
!       o------o
!Operation Temp=25[degC], DC Bias Voltage=0[V]
!Freq. Start=100[Hz] Stop=100[MHz], 401[Steps]
!Data Generated on Dec 23, 2019
# Hz S RI R 50
!Freq.(Hz) S11(Real) S11(Imag) S21(Real) S21(Imag) S12(Real) S12(Imag) S22(Real) S22(Imag)
100.0 0.9234895063021851 -0.2628536331442788 0.07651049369781489 0.2628536331442788 0.07651049369781489 0.2628536331442788 0.9234895063021851 -0.2628536331442788
103.51421666793439 0.9185459867163337 -0.2705960890888186 0.08145401328366632 0.2705960890888186 0.08145401328366632 0.2705960890888186 0.9185459867163337 -0.2705960890888186
107.15193052376064 0.9133091525034553 -0.2784692111773263 0.08669084749654478 0.2784692111773263 0.08669084749654478 0.2784692111773263 0.9133091525034553 -0.2784692111773263
110.9174815262401 0.9077655733142584 -0.28646516706379693 0.0922344266857416 0.28646516706379693 0.0922344266857416 0.28646516706379693 0.9077655733142584 -0.28646516706379693
114.81536214968828 0.9019017468154177 -0.29457497875079947 0.09809825318458236 0.29457497875079947 0.09809825318458236 0.29457497875079947 0.9019017468154177 -0.29457497875079947
118.85022274370185 0.8957041797669582 -0.3027884579754424 0.10429582023304179 0.3027884579754424 0.10429582023304179 0.3027884579754424 0.8957041797669582 -0.3027884579754424
123.02687708123815 0.8891594798426024 -0.31109414516828304 0.11084052015739765 0.31109414516828304 0.11084052015739765 0.31109414516828304 0.8891594798426024 -0.31109414516828304
127.35030810166617 0.8822544585470075 -0.3194792534106535 0.11774554145299239 0.3194792534106535 0.11774554145299239 0.3194792534106535 0.8822544585470075 -0.3194792534106535
131.8256738556407 0.8749762454294302 -0.32792961897186756 0.12502375457056983 0.32792961897186756 0.12502375457056983 0.32792961897186756 0.8749762454294302 -0.32792961897186756
136.45831365889245 0.8673124136028493 -0.33642966015450376 0.13268758639715064 0.33642966015450376 0.13268758639715064 0.33642966015450376 0.8673124136028493 -0.33642966015450376
141.25375446227542 0.8592511163491494 -0.34496234630657824 0.1407488836508505 0.34496234630657824 0.1407488836508505 0.34496234630657824 0.8592511163491494 -0.34496234630657824
146.21771744567184 0.8507812343238429 -0.3535091789660145 0.14921876567615722 0.3535091789660145 0.14921876567615722 0.3535091789660145 0.8507812343238429 -0.3535091789660145
151.35612484362082 0.8418925325686785 -0.3620501871766078 0.15810746743132156 0.3620501871766078 0.15810746743132156 0.3620501871766078 0.8418925325686785 -0.3620501871766078
156.6751070108149 0.8325758261997784 -0.3705639390461141 0.16742417380022154 0.3705639390461141 0.16742417380022154 0.3705639390461141 0.8325758261997784 -0.3705639390461141
162.181009735893 0.8228231532672 -0.3790275715962499 0.1771768467327999 0.3790275715962499 0.1771768467327999 0.3790275715962499 0.8228231532672 -0.3790275715962499
167.88040181225603 0.812627952885966 -0.3874168408713344 0.18737204711403393 0.3874168408713344 0.18737204711403393 0.3874168408713344 0.812627952885966 -0.3874168408713344
173.78008287493756 0.8019852463282091 -0.3957061941176448 0.19801475367179094 0.3957061941176448 0.19801475367179094 0.3957061941176448 0.8019852463282091 -0.3957061941176448
179.88709151287878 0.7908918183534156 -0.4038688656110802 0.20910818164658454 0.4038688656110802 0.20910818164658454 0.4038688656110802 0.7908918183534156 -0.4038688656110802
186.20871366628674 0.7793463956538537 -0.4118769973901353 0.22065360434614625 0.4118769973901353 0.22065360434614625 0.4118769973901353 0.7793463956538537 -0.4118769973901353
192.7524913190936 0.767349818922656 -0.41970178574086625 0.23265018107734392 0.41970178574086625 0.23265018107734392 0.41970178574086625 0.767349818922656 -0.41970178574086625
199.526231496888 0.7549052047322513 -0.4273136537804085 0.24509479526774863 0.4273136537804085 0.24509479526774863 0.4273136537804085 0.7549052047322513 -0.4273136537804085
206.53801558105292 0.7420180931619321 -0.4346824498998277 0.257981906838068 0.4346824498998277 0.257981906838068 0.4346824498998277 0.7420180931619321 -0.4346824498998277
213.79620895022322 0.7286965769566752 -0.44177767116478345 0.27130342304332483 0.44177767116478345 0.27130342304332483 0.44177767116478345 0.7286965769566752 -0.44177767116478345
221.30947096056377 0.7149514079556927 -0.44856871004805554 0.28504859204430755 0.44856871004805554 0.28504859204430755 0.44856871004805554 0.7149514079556927 -0.44856871004805554
229.08676527677733 0.7007960766171697 -0.4550251221014321 0.2992039233828304 0.4550251221014321 0.2992039233828304 0.4550251221014321 0.7007960766171697 -0.4550251221014321
237.13737056616552 0.6862468607003854 -0.46111691139103744 0.3137531392996145 0.46111691139103744 0.3137531392996145 0.46111691139103744 0.6862468607003854 -0.46111691139103744
245.47089156850305 0.67132283955781 -0.4668148297498777 0.32867716044218986 0.4668148297498777 0.32867716044218986 0.4668148297498777 0.67132283955781 -0.4668148297498777
254.09727055493053 0.6560458710413626 -0.4720906851778018 0.3439541289586374 0.4720906851778018 0.3439541289586374 0.4720906851778018 0.6560458710413626 -0.4720906851778018
263.0267991895382 0.6404405287343843 -0.47691765407793957 0.3595594712656156 0.47691765407793957 0.3595594712656156 0.47691765407793957 0.6404405287343843 -0.47691765407793957
272.27013080779125 0.6245339980712775 -0.4812705914958577 0.3754660019287226 0.4812705914958577 0.3754660019287226 0.4812705914958577 0.6245339980712775 -0.4812705914958577
281.83829312644536 0.6083559308783132 -0.48512633315708303 0.3916440691216867 0.48512633315708303 0.3916440691216867 0.48512633315708303 0.6083559308783132 -0.48512633315708303
291.7427014001167 0.5919382589315744 -0.488463982909717 0.4080617410684257 0.488463982909717 0.4080617410684257 0.488463982909717 0.5919382589315744 -0.488463982909717
301.9951720402016 0.5753149682433474 -0.49126517919440027 0.42468503175665256 0.49126517919440027 0.42468503175665256 0.49126517919440027 0.5753149682433474 -0.49126517919440027
312.6079367123955 0.558521836912672 -0.49351433439779746 0.44147816308732796 0.49351433439779746 0.44147816308732796 0.49351433439779746 0.558521836912672 -0.49351433439779746
323.59365692962825 0.5415961404615597 -0.49519884140156045 0.4584038595384403 0.49519884140156045 0.4584038595384403 0.49519884140156045 0.5415961404615597 -0.49519884140156045
334.96543915782763 0.5245763295771414 -0.4963092423084488 0.47542367042285855 0.4963092423084488 0.47542367042285855 0.4963092423084488 0.5245763295771414 -0.4963092423084488
346.7368504525316 0.5075016860451765 -0.4968393551913252 0.49249831395482346 0.4968393551913252 0.49249831395482346 0.4968393551913252 0.5075016860451765 -0.4968393551913252
358.9219346450052 0.4904119633506685 -0.49678635573852226 0.5095880366493315 0.49678635573852226 0.5095880366493315 0.49678635573852226 0.4904119633506685 -0.49678635573852226
371.53522909717253 0.47334701890332354 -0.4961508118205027 0.5266529810966767 0.4961508118205027 0.5266529810966767 0.4961508118205027 0.47334701890332354 -0.4961508118205027
384.59178204535357 0.4563464450960629 -0.49493667023052623 0.5436535549039369 0.49493667023052623 0.5436535549039369 0.49493667023052623 0.4563464450960629 -0.49493667023052623
398.10717055349727 0.4394492064123841 -0.4931511961045349 0.5605507935876158 0.4931511961045349 0.5605507935876158 0.4931511961045349 0.4394492064123841 -0.4931511961045349
412.0975190973302 0.4226932895642494 -0.4908048667498716 0.5773067104357507 0.4908048667498716 0.5773067104357507 0.4908048667498716 0.4226932895642494 -0.4908048667498716
426.5795188015926 0.40611537317994617 -0.48791122275809057 0.5938846268200538 0.48791122275809057 0.5938846268200538 0.48791122275809057 0.40611537317994617 -0.48791122275809057
441.57044735331243 0.38975052289583256 -0.48448668029850184 0.6102494771041674 0.48448668029850184 0.6102494771041674 0.48448668029850184 0.38975052289583256 -0.48448668029850184
457.0881896148751 0.3736319168713964 -0.4805503093485592 0.6263680831286036 0.4805503093485592 0.6263680831286036 0.4805503093485592 0.3736319168713964 -0.4805503093485592
473.15125896148055 0.3577906057847751 -0.476123583286793 0.6422093942152248 0.476123583286793 0.6422093942152248 0.476123583286793 0.3577906057847751 -0.476123583286793
489.77881936844625 0.34225531032116974 -0.4712301057366613 0.6577446896788302 0.4712301057366613 0.6577446896788302 0.4712301057366613 0.34225531032116974 -0.4712301057366613
506.9907082747043 0.3270522580859031 -0.4658953207995459 0.6729477419140969 0.4658953207995459 0.6729477419140969 0.4658953207995459 0.3270522580859031 -0.4658953207995459
524.8074602497726 0.31220506080210453 -0.4601462128569872 0.6877949391978955 0.4601462128569872 0.6877949391978955 0.4601462128569872 0.31220506080210453 -0.4601462128569872
543.2503314924331 0.2977346316308982 -0.45401100197041194 0.7022653683691018 0.45401100197041194 0.7022653683691018 0.45401100197041194 0.2977346316308982 -0.45401100197041194
562.3413251903492 0.28365914151434296 -0.44751884058317315 0.7163408584856571 0.44751884058317315 0.7163408584856571 0.44751884058317315 0.28365914151434296 -0.44751884058317315
582.1032177708714 0.26999401261567485 -0.4406995167625194 0.7300059873843253 0.4406995167625194 0.7300059873843253 0.4406995167625194 0.26999401261567485 -0.4406995167625194
602.5595860743578 0.25675194623714537 -0.4335831686395511 0.7432480537628547 0.4335831686395511 0.7432480537628547 0.4335831686395511 0.25675194623714537 -0.4335831686395511
623.7348354824193 0.24394298204429696 -0.4262000140461422 0.7560570179557031 0.4262000140461422 0.7560570179557031 0.4262000140461422 0.24394298204429696 -0.4262000140461422
645.6542290346556 0.23157458502070244 -0.4185800986415802 0.7684254149792976 0.4185800986415802 0.7684254149792976 0.4185800986415802 0.23157458502070244 -0.4185800986415802
668.3439175686148 0.21965175631599174 -0.41075306509856546 0.7803482436840082 0.41075306509856546 0.7803482436840082 0.41075306509856546 0.21965175631599174 -0.41075306509856546
691.8309709189366 0.2081771640237617 -0.402747945205151 0.7918228359762384 0.402747945205151 0.7918228359762384 0.402747945205151 0.2081771640237617 -0.402747945205151
716.1434102129019 0.19715128992171743 -0.39459297605895766 0.8028487100782826 0.39459297605895766 0.8028487100782826 0.39459297605895766 0.19715128992171743 -0.39459297605895766
741.3102413009174 0.18657258830805926 -0.3863154409007185 0.8134274116919405 0.3863154409007185 0.8134274116919405 0.3863154409007185 0.18657258830805926 -0.3863154409007185
767.3614893618189 0.1764376532578797 -0.3779415345692824 0.8235623467421201 0.3779415345692824 0.8235623467421201 0.3779415345692824 0.1764376532578797 -0.3779415345692824
794.3282347242814 0.16674139088268405 -0.3694962530684994 0.8332586091173159 0.3694962530684994 0.8332586091173159 0.3694962530684994 0.16674139088268405 -0.3694962530684994
822.2426499470711 0.15747719348688427 -0.3610033063225729 0.8425228065131157 0.3610033063225729 0.8425228065131157 0.3610033063225729 0.15747719348688427 -0.3610033063225729
851.1380382023765 0.14863711286013204 -0.3524850528615314 0.8513628871398681 0.3524850528615314 0.8513628871398681 0.3524850528615314 0.14863711286013204 -0.3524850528615314
881.0488730080142 0.1402120303080826 -0.343962454920416 0.8597879696919172 0.343962454920416 0.8597879696919172 0.343962454920416 0.1402120303080826 -0.343962454920416
912.0108393559099 0.13219182139309363 -0.3354550522502298 0.8678081786069065 0.3354550522502298 0.8678081786069065 0.3354550522502298 0.13219182139309363 -0.3354550522502298
944.0608762859234 0.1245655137190197 -0.32698095281946876 0.8754344862809803 0.32698095281946876 0.8754344862809803 0.32698095281946876 0.1245655137190197 -0.32698095281946876
977.2372209558108 0.11732143644151127 -0.31855683852485794 0.8826785635584887 0.31855683852485794 0.8826785635584887 0.31855683852485794 0.11732143644151127 -0.31855683852485794
1011.5794542598987 0.11044736050996991 -0.3101979840207169 0.8895526394900302 0.3101979840207169 0.8895526394900302 0.3101979840207169 0.11044736050996991 -0.3101979840207169
1047.1285480508998 0.1039306289445626 -0.3019182868100233 0.8960693710554375 0.3019182868100233 0.8960693710554375 0.3019182868100233 0.1039306289445626 -0.3019182868100233
1083.9269140212034 0.09775827671814524 -0.2937303068085902 0.9022417232818546 0.2937303068085902 0.9022417232818546 0.2937303068085902 0.09775827671814524 -0.2937303068085902
1122.0184543019632 0.0919171400469482 -0.2856453136891936 0.9080828599530519 0.2856453136891936 0.9080828599530519 0.2856453136891936 0.0919171400469482 -0.2856453136891936
1161.4486138403427 0.08639395509503017 -0.27767334042787983 0.9136060449049698 0.27767334042787983 0.9136060449049698 0.27767334042787983 0.08639395509503017 -0.27767334042787983
1202.2644346174127 0.08117544626648182 -0.2698232416036955 0.9188245537335183 0.2698232416036955 0.9188245537335183 0.2698232416036955 0.08117544626648182 -0.2698232416036955
1244.514611771385 0.07624840439767397 -0.2621027551401785 0.9237515956023261 0.2621027551401785 0.9237515956023261 0.2621027551401785 0.07624840439767397 -0.2621027551401785
1288.249551693134 0.071599755271575 -0.254518566317406 0.9284002447284251 0.254518566317406 0.9284002447284251 0.254518566317406 0.071599755271575 -0.254518566317406
1333.5214321633239 0.06721661895981688 -0.24707637302327956 0.9327833810401831 0.24707637302327956 0.9327833810401831 0.24707637302327956 0.06721661895981688 -0.24707637302327956
1380.384264602885 0.06308636055851716 -0.23978095134893587 0.9369136394414829 0.23978095134893587 0.9369136394414829 0.23978095134893587 0.06308636055851716 -0.23978095134893587
1428.893958511103 0.05919663292370954 -0.23263622076325566 0.9408033670762904 0.23263622076325566 0.9408033670762904 0.23263622076325566 0.05919663292370954 -0.23263622076325566
1479.1083881682075 0.0555354120344298 -0.2256453082236163 0.9444645879655702 0.2256453082236163 0.9444645879655702 0.2256453082236163 0.0555354120344298 -0.2256453082236163
1531.0874616820304 0.05209102561880125 -0.21881061069309438 0.9479089743811987 0.21881061069309438 0.9479089743811987 0.21881061069309438 0.05209102561880125 -0.21881061069309438
1584.8931924611136 0.048852175673434875 -0.21213385563749326 0.9511478243265651 0.21213385563749326 0.9511478243265651 0.21213385563749326 0.048852175673434875 -0.21213385563749326
1640.5897731995396 0.04580795549149392 -0.205616159168532 0.9541920445085059 0.205616159168532 0.9541920445085059 0.205616159168532 0.04580795549149392 -0.205616159168532
1698.2436524617442 0.04294786179201863 -0.19925808158224229 0.9570521382079813 0.19925808158224229 0.9570521382079813 0.19925808158224229 0.04294786179201863 -0.19925808158224229
1757.9236139586924 0.040261802514471354 -0.19305968011431748 0.9597381974855285 0.19305968011431748 0.9597381974855285 0.19305968011431748 0.040261802514471354 -0.19305968011431748
1819.7008586099835 0.037740100809615235 -0.18702055879727442 0.9622598991903846 0.18702055879727442 0.9622598991903846 0.18702055879727442 0.037740100809615235 -0.18702055879727442
1883.6490894898002 0.03537349572220102 -0.1811399153583746 0.9646265042777988 0.1811399153583746 0.9646265042777988 0.1811399153583746 0.03537349572220102 -0.1811399153583746
1949.8445997580454 0.03315314002371312 -0.17541658514298156 0.9668468599762868 0.17541658514298156 0.9668468599762868 0.17541658514298156 0.03315314002371312 -0.17541658514298156
2018.3663636815609 0.031070595615605066 -0.16984908208609864 0.9689294043843949 0.16984908208609864 0.9689294043843949 0.16984908208609864 0.031070595615605066 -0.16984908208609864
2089.29613085404 0.029117826885843197 -0.1644356367859926 0.9708821731141569 0.1644356367859926 0.9708821731141569 0.1644356367859926 0.029117826885843197 -0.1644356367859926
2162.7185237270205 0.02728719236480774 -0.15917423175877948 0.9727128076351922 0.15917423175877948 0.9727128076351922 0.15917423175877948 0.02728719236480774 -0.15917423175877948
2238.7211385683395 0.025571434991162656 -0.1540626339723632 0.9744285650088376 0.1540626339723632 0.9744285650088376 0.1540626339723632 0.025571434991162656 -0.1540626339723632
2317.394649968479 0.0239636712645574 -0.14909842477283755 0.9760363287354425 0.14909842477283755 0.9760363287354425 0.14909842477283755 0.0239636712645574 -0.14909842477283755
2398.832919019491 0.022457379530225013 -0.14427902732705172 0.977542620469775 0.14427902732705172 0.977542620469775 0.14427902732705172 0.022457379530225013 -0.14427902732705172
2483.1331052955707 0.02104638761084936 -0.13960173171205983 0.9789536123891506 0.13960173171205983 0.9789536123891506 0.13960173171205983 0.02104638761084936 -0.13960173171205983
2570.3957827688632 0.01972485997359061 -0.13506371778619639 0.9802751400264095 0.13506371778619639 0.9802751400264095 0.13506371778619639 0.01972485997359061 -0.13506371778619639
2660.725059798809 0.01848728459490961 -0.13066207597800006 0.9815127154050906 0.13066207597800006 0.9815127154050906 0.13066207597800006 0.01848728459490961 -0.13066207597800006
2754.2287033381663 0.01732845966281311 -0.12639382612860678 0.9826715403371868 0.12639382612860678 0.9826715403371868 0.12639382612860678 0.01732845966281311 -0.12639382612860678
2851.018267503909 0.016243480235302293 -0.12225593452091876 0.9837565197646979 0.12225593452091876 0.9837565197646979 0.12225593452091876 0.016243480235302293 -0.12225593452091876
2951.209226666386 0.015227724955078376 -0.11824532922518677 0.9847722750449217 0.11824532922518677 0.9847722750449217 0.11824532922518677 0.015227724955078376 -0.11824532922518677
3054.9211132155133 0.014276842903846487 -0.1143589138859042 0.9857231570961534 0.1143589138859042 0.9857231570961534 0.1143589138859042 0.014276842903846487 -0.1143589138859042
3162.277660168379 0.013386740664759996 -0.11059358006937724 0.9866132593352399 0.11059358006937724 0.9866132593352399 0.11059358006937724 0.013386740664759996 -0.11059358006937724
3273.406948788382 0.012553569648547425 -0.10694621828523186 0.9874464303514526 0.10694621828523186 0.9874464303514526 0.10694621828523186 0.012553569648547425 -0.10694621828523186
3388.4415613920255 0.011773713727541341 -0.10341372778863894 0.9882262862724588 0.10341372778863894 0.9882262862724588 0.10341372778863894 0.011773713727541341 -0.10341372778863894
3507.5187395256803 0.01104377721206183 -0.09999302526337032 0.9889562227879383 0.09999302526337032 0.9889562227879383 0.09999302526337032 0.01104377721206183 -0.09999302526337032
3630.7805477010143 0.010360573195266077 -0.09668105247907384 0.9896394268047339 0.09668105247907384 0.9896394268047339 0.09668105247907384 0.010360573195266077 -0.09668105247907384
3758.374042884442 0.009721112285534579 -0.09347478300951612 0.9902788877144654 0.09347478300951612 0.9902788877144654 0.09347478300951612 0.009721112285534579 -0.09347478300951612
3890.451449942807 0.00912259173959197 -0.0903712280920828 0.9908774082604079 0.0903712280920828 0.9908774082604079 0.0903712280920828 0.00912259173959197 -0.0903712280920828
4027.170343254592 0.008562385004729412 -0.08736744170264785 0.9914376149952707 0.08736744170264785 0.9914376149952707 0.08736744170264785 0.008562385004729412 -0.08736744170264785
4168.693834703356 0.008038031674574762 -0.08446052491408261 0.9919619683254254 0.08446052491408261 0.9919619683254254 0.08446052491408261 0.008038031674574762 -0.08446052491408261
4315.190768277653 0.00754722785972163 -0.08164762960123381 0.9924527721402784 0.08164762960123381 0.9924527721402784 0.08164762960123381 0.00754722785972163 -0.08164762960123381
