!Murata Part Number: RDER71H335K3P1H03B
!These Parameters are Measured in Series Mode Connection
!       o--ll--o
!Port1            Port2
!       o------o
!Operation Temp=25[degC], DC Bias Voltage=0[V]
!Freq. Start=100[Hz] Stop=100[MHz], 401[Steps]
!Data Generated on Jun 23, 2023
# Hz S RI R 50
!Freq.(Hz) S11(Real) S11(Imag) S21(Real) S21(Imag) S12(Real) S12(Imag) S22(Real) S22(Imag)
100.0 0.9602825013667144 -0.19337513378519294 0.039717498633285615 0.19337513378519294 0.039717498633285615 0.19337513378519294 0.9602825013667144 -0.19337513378519294
103.51421666793439 0.9575895992819258 -0.1995838721137006 0.04241040071807415 0.1995838721137006 0.04241040071807415 0.1995838721137006 0.9575895992819258 -0.1995838721137006
107.15193052376064 0.9547225851440423 -0.20595224438870016 0.045277414855957744 0.20595224438870016 0.045277414855957744 0.20595224438870016 0.9547225851440423 -0.20595224438870016
110.9174815262401 0.9516713950447739 -0.21248022851362394 0.04832860495522609 0.21248022851362394 0.04832860495522609 0.21248022851362394 0.9516713950447739 -0.21248022851362394
114.81536214968828 0.9484255505874798 -0.21916730644926258 0.051574449412520235 0.21916730644926258 0.051574449412520235 0.21916730644926258 0.9484255505874798 -0.21916730644926258
118.85022274370185 0.9449741654710768 -0.22601241167308916 0.055025834528923206 0.22601241167308916 0.055025834528923206 0.22601241167308916 0.9449741654710768 -0.22601241167308916
123.02687708123815 0.9413059562480088 -0.2330138737098193 0.05869404375199125 0.2330138737098193 0.05869404375199125 0.2330138737098193 0.9413059562480088 -0.2330138737098193
127.35030810166617 0.9374092578263824 -0.24016935986804677 0.06259074217361751 0.24016935986804677 0.06259074217361751 0.24016935986804677 0.9374092578263824 -0.24016935986804677
131.8256738556407 0.933272044323817 -0.24747581438702226 0.066727955676183 0.24747581438702226 0.066727955676183 0.24747581438702226 0.933272044323817 -0.24747581438702226
136.45831365889245 0.9288819559137051 -0.25492939527826736 0.07111804408629482 0.25492939527826736 0.07111804408629482 0.25492939527826736 0.9288819559137051 -0.25492939527826736
141.25375446227542 0.9242263323314195 -0.26252540923945616 0.07577366766858058 0.26252540923945616 0.07577366766858058 0.26252540923945616 0.9242263323314195 -0.26252540923945616
146.21771744567184 0.9192922537261164 -0.27025824512332547 0.08070774627388343 0.27025824512332547 0.08070774627388343 0.27025824512332547 0.9192922537261164 -0.27025824512332547
151.35612484362082 0.9140665895504513 -0.27812130656245165 0.08593341044954862 0.27812130656245165 0.08593341044954862 0.27812130656245165 0.9140665895504513 -0.27812130656245165
156.6751070108149 0.9085360561725768 -0.2861069444812812 0.09146394382742318 0.2861069444812812 0.09146394382742318 0.2861069444812812 0.9085360561725768 -0.2861069444812812
162.181009735893 0.9026872838688544 -0.2942063903689973 0.09731271613114553 0.2942063903689973 0.09731271613114553 0.2942063903689973 0.9026872838688544 -0.2942063903689973
167.88040181225603 0.896506893808026 -0.30240969133913587 0.10349310619197392 0.30240969133913587 0.10349310619197392 0.30240969133913587 0.896506893808026 -0.30240969133913587
173.78008287493756 0.8899815855643476 -0.310705648162014 0.11001841443565255 0.310705648162014 0.11001841443565255 0.310705648162014 0.8899815855643476 -0.310705648162014
179.88709151287878 0.8830982355944937 -0.3190817576207355 0.11690176440550619 0.3190817576207355 0.11690176440550619 0.3190817576207355 0.8830982355944937 -0.3190817576207355
186.20871366628674 0.8758440069771916 -0.3275241607064807 0.12415599302280841 0.3275241607064807 0.12415599302280841 0.3275241607064807 0.8758440069771916 -0.3275241607064807
192.7524913190936 0.868206470542213 -0.3360175983285143 0.13179352945778694 0.3360175983285143 0.13179352945778694 0.3360175983285143 0.868206470542213 -0.3360175983285143
199.526231496888 0.8601737373039309 -0.3445453763622134 0.13982626269606907 0.3445453763622134 0.13982626269606907 0.3445453763622134 0.8601737373039309 -0.3445453763622134
206.53801558105292 0.8517346018624181 -0.35308934198662584 0.14826539813758177 0.35308934198662584 0.14826539813758177 0.35308934198662584 0.8517346018624181 -0.35308934198662584
213.79620895022322 0.8428786961417847 -0.36162987336267655 0.15712130385821535 0.36162987336267655 0.15712130385821535 0.36162987336267655 0.8428786961417847 -0.36162987336267655
221.30947096056377 0.8335966525024268 -0.37014588476435983 0.1664033474975733 0.37014588476435983 0.1664033474975733 0.37014588476435983 0.8335966525024268 -0.37014588476435983
229.08676527677733 0.8238802748946275 -0.37861484928757033 0.17611972510537255 0.37861484928757033 0.17611972510537255 0.37861484928757033 0.8238802748946275 -0.37861484928757033
237.13737056616552 0.8137227163213374 -0.38701284121392726 0.18627728367866273 0.38701284121392726 0.18627728367866273 0.38701284121392726 0.8137227163213374 -0.38701284121392726
245.47089156850305 0.8031186604565961 -0.3953145999895444 0.19688133954340384 0.3953145999895444 0.19688133954340384 0.3953145999895444 0.8031186604565961 -0.3953145999895444
254.09727055493053 0.7920645048344013 -0.40349361758159846 0.2079354951655987 0.40349361758159846 0.2079354951655987 0.40349361758159846 0.7920645048344013 -0.40349361758159846
263.0267991895382 0.7805585425953202 -0.4115222506907775 0.21944145740467974 0.4115222506907775 0.21944145740467974 0.4115222506907775 0.7805585425953202 -0.4115222506907775
272.27013080779125 0.7686011393720605 -0.4193718589197081 0.23139886062793957 0.4193718589197081 0.23139886062793957 0.4193718589197081 0.7686011393720605 -0.4193718589197081
281.83829312644536 0.7561949015302701 -0.42701296952402734 0.24380509846972995 0.42701296952402734 0.24380509846972995 0.42701296952402734 0.7561949015302701 -0.42701296952402734
291.7427014001167 0.7433448316787443 -0.4344154688057804 0.25665516832125573 0.4344154688057804 0.25665516832125573 0.4344154688057804 0.7433448316787443 -0.4344154688057804
301.9951720402016 0.7300584671466078 -0.44154881955508946 0.26994153285339234 0.44154881955508946 0.26994153285339234 0.44154881955508946 0.7300584671466078 -0.44154881955508946
312.6079367123955 0.7163459970166165 -0.4483823032178597 0.2836540029833836 0.4483823032178597 0.2836540029833836 0.4483823032178597 0.7163459970166165 -0.4483823032178597
323.59365692962825 0.7022203533246749 -0.45488528468279354 0.297779646675325 0.45488528468279354 0.297779646675325 0.45488528468279354 0.7022203533246749 -0.45488528468279354
334.96543915782763 0.6876972722042629 -0.46102749676418237 0.3123027277957371 0.46102749676418237 0.3123027277957371 0.46102749676418237 0.6876972722042629 -0.46102749676418237
346.7368504525316 0.6727953210844327 -0.466779340637242 0.32720467891556726 0.466779340637242 0.32720467891556726 0.466779340637242 0.6727953210844327 -0.466779340637242
358.9219346450052 0.657535888548853 -0.4721121976941546 0.34246411145114686 0.4721121976941546 0.34246411145114686 0.4721121976941546 0.657535888548853 -0.4721121976941546
371.53522909717253 0.6419431341309225 -0.4769987475686432 0.3580568658690774 0.4769987475686432 0.3580568658690774 0.4769987475686432 0.6419431341309225 -0.4769987475686432
384.59178204535357 0.6260438961473658 -0.4814132864633809 0.3739561038526342 0.4814132864633809 0.3739561038526342 0.4814132864633809 0.6260438961473658 -0.4814132864633809
398.10717055349727 0.6098675566416103 -0.48533203944551817 0.3901324433583896 0.48533203944551817 0.3901324433583896 0.48533203944551817 0.6098675566416103 -0.48533203944551817
412.0975190973302 0.5934458635908147 -0.4887334600854454 0.40655413640918525 0.4887334600854454 0.40655413640918525 0.4887334600854454 0.5934458635908147 -0.4887334600854454
426.5795188015926 0.5768127116899501 -0.49159851073106614 0.42318728831005 0.49159851073106614 0.42318728831005 0.49159851073106614 0.5768127116899501 -0.49159851073106614
441.57044735331243 0.5600038842186812 -0.4939109168544549 0.43999611578131875 0.4939109168544549 0.43999611578131875 0.4939109168544549 0.5600038842186812 -0.4939109168544549
457.0881896148751 0.5430567596723443 -0.4956573892895182 0.45694324032765576 0.4956573892895182 0.45694324032765576 0.4956573892895182 0.5430567596723443 -0.4956573892895182
473.15125896148055 0.5260099879447987 -0.49682780879595967 0.4739900120552013 0.49682780879595967 0.4739900120552013 0.49682780879595967 0.5260099879447987 -0.49682780879595967
489.77881936844625 0.5089031418365442 -0.49741536822158666 0.4910968581634559 0.49741536822158666 0.4910968581634559 0.49741536822158666 0.5089031418365442 -0.49741536822158666
506.9907082747043 0.49177635047817836 -0.4974166685644209 0.5082236495218218 0.4974166685644209 0.5082236495218218 0.4974166685644209 0.49177635047817836 -0.4974166685644209
524.8074602497726 0.47466992186604484 -0.4968317664194604 0.5253300781339549 0.4968317664194604 0.5253300781339549 0.4968317664194604 0.47466992186604484 -0.4968317664194604
543.2503314924331 0.45762396207275363 -0.4956641715841877 0.5423760379272465 0.4956641715841877 0.5423760379272465 0.4956641715841877 0.45762396207275363 -0.4956641715841877
562.3413251903492 0.44067799880121217 -0.49392079493740115 0.5593220011987879 0.49392079493740115 0.5593220011987879 0.49392079493740115 0.44067799880121217 -0.49392079493740115
582.1032177708714 0.42387061679167054 -0.4916118480398877 0.5761293832083293 0.4916118480398877 0.5761293832083293 0.4916118480398877 0.42387061679167054 -0.4916118480398877
602.5595860743578 0.40723911217559045 -0.4887506971754401 0.5927608878244095 0.4887506971754401 0.5927608878244095 0.4887506971754401 0.40723911217559045 -0.4887506971754401
623.7348354824193 0.3908191722199563 -0.48535367570351623 0.6091808277800437 0.48535367570351623 0.6091808277800437 0.48535367570351623 0.3908191722199563 -0.48535367570351623
645.6542290346556 0.37464458605454953 -0.48143985958438157 0.6253554139454505 0.48143985958438157 0.6253554139454505 0.48143985958438157 0.37464458605454953 -0.48143985958438157
668.3439175686148 0.35874699096565593 -0.47703081172781775 0.6412530090343439 0.47703081172781775 0.6412530090343439 0.47703081172781775 0.35874699096565593 -0.47703081172781775
691.8309709189366 0.3431556577218514 -0.4721503013830961 0.6568443422781486 0.4721503013830961 0.6568443422781486 0.4721503013830961 0.3431556577218514 -0.4721503013830961
716.1434102129019 0.3278973172230117 -0.4668240051192077 0.6721026827769884 0.4668240051192077 0.6721026827769884 0.4668240051192077 0.3278973172230117 -0.4668240051192077
741.3102413009174 0.3129960295842782 -0.4610791960411672 0.6870039704157219 0.4610791960411672 0.6870039704157219 0.4610791960411672 0.3129960295842782 -0.4610791960411672
767.3614893618189 0.29847309563063956 -0.4549444277630504 0.7015269043693605 0.4549444277630504 0.7015269043693605 0.4549444277630504 0.29847309563063956 -0.4549444277630504
794.3282347242814 0.2843470097273226 -0.4484492193336613 0.7156529902726774 0.4484492193336613 0.7156529902726774 0.4484492193336613 0.2843470097273226 -0.4484492193336613
822.2426499470711 0.27063345194066557 -0.4416237468164617 0.7293665480593343 0.4416237468164617 0.7293665480593343 0.4416237468164617 0.27063345194066557 -0.4416237468164617
851.1380382023765 0.25734531673873595 -0.434498546596924 0.7426546832612642 0.434498546596924 0.7426546832612642 0.434498546596924 0.25734531673873595 -0.434498546596924
881.0488730080142 0.24449277481631948 -0.42710423476568454 0.7555072251836806 0.42710423476568454 0.7555072251836806 0.42710423476568454 0.24449277481631948 -0.42710423476568454
912.0108393559099 0.23208336417138625 -0.4194712461428831 0.7679166358286137 0.4194712461428831 0.7679166358286137 0.4194712461428831 0.23208336417138625 -0.4194712461428831
944.0608762859234 0.22012210626756995 -0.4116295957039523 0.7798778937324301 0.4116295957039523 0.7798778937324301 0.4116295957039523 0.22012210626756995 -0.4116295957039523
977.2372209558108 0.20861164298027474 -0.4036086643723721 0.7913883570197253 0.4036086643723721 0.7913883570197253 0.4036086643723721 0.20861164298027474 -0.4036086643723721
1011.5794542598987 0.19755239002768366 -0.39543701038804246 0.8024476099723165 0.39543701038804246 0.8024476099723165 0.39543701038804246 0.19755239002768366 -0.39543701038804246
1047.1285480508998 0.18694270271315352 -0.3871422067629281 0.8130572972868465 0.3871422067629281 0.8130572972868465 0.3871422067629281 0.18694270271315352 -0.3871422067629281
1083.9269140212034 0.17677905003078556 -0.3787507047145509 0.8232209499692144 0.3787507047145509 0.8232209499692144 0.3787507047145509 0.17677905003078556 -0.3787507047145509
1122.0184543019632 0.16705619348899894 -0.37028772243309643 0.832943806511001 0.37028772243309643 0.832943806511001 0.37028772243309643 0.16705619348899894 -0.37028772243309643
1161.4486138403427 0.15776736736572736 -0.3617771580944251 0.8422326326342727 0.3617771580944251 0.8422326326342727 0.3617771580944251 0.15776736736572736 -0.3617771580944251
1202.2644346174127 0.14890445750282724 -0.3532415256796258 0.8510955424971728 0.3532415256796258 0.8510955424971728 0.3532415256796258 0.14890445750282724 -0.3532415256796258
1244.514611771385 0.14045817615798575 -0.34470191189862837 0.8595418238420143 0.34470191189862837 0.8595418238420143 0.34470191189862837 0.14045817615798575 -0.34470191189862837
1288.249551693134 0.13241823084403834 -0.33617795233463094 0.8675817691559616 0.33617795233463094 0.8675817691559616 0.33617795233463094 0.13241823084403834 -0.33617795233463094
1333.5214321633239 0.1247734854851472 -0.3276878248194486 0.8752265145148529 0.3276878248194486 0.8752265145148529 0.3276878248194486 0.1247734854851472 -0.3276878248194486
1380.384264602885 0.11751211259669364 -0.31924825800788736 0.8824878874033062 0.31924825800788736 0.8824878874033062 0.31924825800788736 0.11751211259669364 -0.31924825800788736
1428.893958511103 0.11062173554359428 -0.3108745531318065 0.8893782644564057 0.3108745531318065 0.8893782644564057 0.3108745531318065 0.11062173554359428 -0.3108745531318065
1479.1083881682075 0.10408956024523207 -0.30258061697158023 0.8959104397547679 0.30258061697158023 0.8959104397547679 0.30258061697158023 0.10408956024523207 -0.30258061697158023
1531.0874616820304 0.0979024959715737 -0.29437900417454965 0.9020975040284263 0.29437900417454965 0.9020975040284263 0.29437900417454965 0.0979024959715737 -0.29437900417454965
1584.8931924611136 0.09204726511345974 -0.28628096716784435 0.9079527348865402 0.28628096716784435 0.9079527348865402 0.28628096716784435 0.09204726511345974 -0.28628096716784435
1640.5897731995396 0.08651050201105795 -0.278296512048658 0.9134894979889422 0.278296512048658 0.9134894979889422 0.278296512048658 0.08651050201105795 -0.278296512048658
1698.2436524617442 0.08127884108974844 -0.27043445898176693 0.9187211589102513 0.27043445898176693 0.9187211589102513 0.27043445898176693 0.08127884108974844 -0.27043445898176693
1757.9236139586924 0.07633899468471689 -0.2627025057859058 0.923661005315283 0.2627025057859058 0.923661005315283 0.2627025057859058 0.07633899468471689 -0.2627025057859058
1819.7008586099835 0.07167782103726927 -0.25510729354280237 0.9283221789627306 0.25510729354280237 0.9283221789627306 0.25510729354280237 0.07167782103726927 -0.25510729354280237
1883.6490894898002 0.06728238302060463 -0.24765447321137912 0.9327176169793953 0.24765447321137912 0.9327176169793953 0.24765447321137912 0.06728238302060463 -0.24765447321137912
1949.8445997580454 0.06313999820389353 -0.24034877237199861 0.9368600017961067 0.24034877237199861 0.9368600017961067 0.24034877237199861 0.06313999820389353 -0.24034877237199861
2018.3663636815609 0.05923828089433639 -0.23319406135950857 0.9407617191056635 0.23319406135950857 0.9407617191056635 0.23319406135950857 0.05923828089433639 -0.23319406135950857
2089.29613085404 0.05556517681063852 -0.2261934181678434 0.9444348231893613 0.2261934181678434 0.9444348231893613 0.2261934181678434 0.05556517681063852 -0.2261934181678434
2162.7185237270205 0.052108991041021804 -0.21934919162217667 0.9478910089589782 0.21934919162217667 0.9478910089589782 0.21934919162217667 0.052108991041021804 -0.21934919162217667
2238.7211385683395 0.0488584099272367 -0.21266306241671437 0.9511415900727632 0.21266306241671437 0.9511415900727632 0.21266306241671437 0.0488584099272367 -0.21266306241671437
2317.394649968479 0.045802517495495854 -0.20613610170715316 0.954197482504504 0.20613610170715316 0.954197482504504 0.20613610170715316 0.045802517495495854 -0.20613610170715316
2398.832919019491 0.042930807027982534 -0.1997688270268576 0.9570691929720176 0.1997688270268576 0.9570691929720176 0.1997688270268576 0.042930807027982534 -0.1997688270268576
2483.1331052955707 0.040233188336468995 -0.19356125536542193 0.9597668116635308 0.19356125536542193 0.9597668116635308 0.19356125536542193 0.040233188336468995 -0.19356125536542193
2570.3957827688632 0.03769999126421746 -0.18751295330811882 0.9623000087357826 0.18751295330811882 0.9623000087357826 0.18751295330811882 0.03769999126421746 -0.18751295330811882
2660.725059798809 0.03532196590506018 -0.18162308418550516 0.9646780340949398 0.18162308418550516 0.9646780340949398 0.18162308418550516 0.03532196590506018 -0.18162308418550516
2754.2287033381663 0.03309027999048581 -0.17589045222499014 0.966909720009514 0.17589045222499014 0.966909720009514 0.17589045222499014 0.03309027999048581 -0.17589045222499014
2851.018267503909 0.030996513857577266 -0.17031354373125485 0.9690034861424226 0.17031354373125485 0.9690034861424226 0.17031354373125485 0.030996513857577266 -0.17031354373125485
2951.209226666386 0.029032653373459106 -0.16489056535089489 0.9709673466265408 0.16489056535089489 0.9709673466265408 0.16489056535089489 0.029032653373459106 -0.16489056535089489
3054.9211132155133 0.027191081156051043 -0.15961947949932398 0.972808918843949 0.15961947949932398 0.972808918843949 0.15961947949932398 0.027191081156051043 -0.15961947949932398
3162.277660168379 0.025464566396776914 -0.15449803704559445 0.9745354336032231 0.15449803704559445 0.9745354336032231 0.15449803704559445 0.025464566396776914 -0.15449803704559445
3273.406948788382 0.023846253558705687 -0.14952380736407092 0.9761537464412942 0.14952380736407092 0.9761537464412942 0.14952380736407092 0.023846253558705687 -0.14952380736407092
3388.4415613920255 0.02232965019356248 -0.14469420587149687 0.9776703498064375 0.14469420587149687 0.9776703498064375 0.14469420587149687 0.02232965019356248 -0.14469420587149687
3507.5187395256803 0.020908614093212503 -0.140006519174512 0.9790913859067875 0.140006519174512 0.9790913859067875 0.140006519174512 0.020908614093212503 -0.140006519174512
3630.7805477010143 0.019577339965590572 -0.1354579279566402 0.9804226600344094 0.1354579279566402 0.9804226600344094 0.1354579279566402 0.019577339965590572 -0.1354579279566402
3758.374042884442 0.01833034580157179 -0.1310455277356356 0.9816696541984282 0.1310455277356356 0.9816696541984282 0.1310455277356356 0.01833034580157179 -0.1310455277356356
3890.451449942807 0.017162459077863207 -0.12676634762224795 0.9828375409221368 0.12676634762224795 0.9828375409221368 0.12676634762224795 0.017162459077863207 -0.12676634762224795
4027.170343254592 0.016068802921525606 -0.12261736721028357 0.9839311970784743 0.12261736721028357 0.9839311970784743 0.12261736721028357 0.016068802921525606 -0.12261736721028357
4168.693834703356 0.015044782344074118 -0.11859553172557499 0.984955217655926 0.11859553172557499 0.984955217655926 0.11859553172557499 0.015044782344074118 -0.11859553172557499
4315.190768277653 0.014086070637120132 -0.1146977655583587 0.9859139293628798 0.1146977655583587 0.9859139293628798 0.1146977655583587 0.014086070637120132 -0.1146977655583587
