!Murata Part Number: RHEL81E226MWM1H03A
!These Parameters are Measured in Series Mode Connection
!       o--ll--o
!Port1            Port2
!       o------o
!Operation Temp=25[degC], DC Bias Voltage=0[V]
!Freq. Start=100[Hz] Stop=100[MHz], 401[Steps]
!Data Generated on Mar 27, 2023
# Hz S RI R 50
!Freq.(Hz) S11(Real) S11(Imag) S21(Real) S21(Imag) S12(Real) S12(Imag) S22(Real) S22(Imag)
100.0 0.41355939749854537 -0.49012560048497505 0.5864406025014547 0.49012560048497505 0.5864406025014547 0.49012560048497505 0.41355939749854537 -0.49012560048497505
103.51421666793439 0.39703206258911394 -0.4869453696574234 0.602967937410886 0.4869453696574234 0.602967937410886 0.4869453696574234 0.39703206258911394 -0.4869453696574234
107.15193052376064 0.38073590892110193 -0.483237860335253 0.6192640910788981 0.483237860335253 0.6192640910788981 0.483237860335253 0.38073590892110193 -0.483237860335253
110.9174815262401 0.36470384445135395 -0.479023576837627 0.635296155548646 0.479023576837627 0.635296155548646 0.479023576837627 0.36470384445135395 -0.479023576837627
114.81536214968828 0.3489664971885269 -0.4743254053923415 0.651033502811473 0.4743254053923415 0.651033502811473 0.4743254053923415 0.3489664971885269 -0.4743254053923415
118.85022274370185 0.33355201498139525 -0.46916832086525173 0.6664479850186048 0.46916832086525173 0.6664479850186048 0.46916832086525173 0.33355201498139525 -0.46916832086525173
123.02687708123815 0.3184859079116343 -0.46357907731381226 0.6815140920883658 0.46357907731381226 0.6815140920883658 0.46357907731381226 0.3184859079116343 -0.46357907731381226
127.35030810166617 0.30379093402561985 -0.45758588911570025 0.6962090659743803 0.45758588911570025 0.6962090659743803 0.45758588911570025 0.30379093402561985 -0.45758588911570025
131.8256738556407 0.2894870280060025 -0.4512181092311808 0.7105129719939975 0.4512181092311808 0.7105129719939975 0.4512181092311808 0.2894870280060025 -0.4512181092311808
136.45831365889245 0.2755912713476643 -0.4445059107710233 0.7244087286523356 0.4445059107710233 0.7244087286523356 0.4445059107710233 0.2755912713476643 -0.4445059107710233
141.25375446227542 0.26211790169637167 -0.4374799774924478 0.7378820983036283 0.4374799774924478 0.7378820983036283 0.4374799774924478 0.26211790169637167 -0.4374799774924478
146.21771744567184 0.2490783582549109 -0.4301712081703728 0.7509216417450891 0.4301712081703728 0.7509216417450891 0.4301712081703728 0.2490783582549109 -0.4301712081703728
151.35612484362082 0.23648135957404734 -0.42261043902871526 0.7635186404259529 0.42261043902871526 0.7635186404259529 0.42261043902871526 0.23648135957404734 -0.42261043902871526
156.6751070108149 0.22433300962840202 -0.41482818760479245 0.7756669903715978 0.41482818760479245 0.7756669903715978 0.41482818760479245 0.22433300962840202 -0.41482818760479245
162.181009735893 0.2126369278262548 -0.406854420594755 0.787363072173745 0.406854420594755 0.787363072173745 0.406854420594755 0.2126369278262548 -0.406854420594755
167.88040181225603 0.20139439850634375 -0.3987183474211153 0.7986056014936563 0.3987183474211153 0.7986056014936563 0.3987183474211153 0.20139439850634375 -0.3987183474211153
173.78008287493756 0.1906045355177146 -0.39044824050147425 0.8093954644822855 0.39044824050147425 0.8093954644822855 0.39044824050147425 0.1906045355177146 -0.39044824050147425
179.88709151287878 0.18026445764058363 -0.3820712825013517 0.8197355423594164 0.3820712825013517 0.8197355423594164 0.3820712825013517 0.18026445764058363 -0.3820712825013517
186.20871366628674 0.17036947086500176 -0.373613440238621 0.8296305291349984 0.373613440238621 0.8296305291349984 0.373613440238621 0.17036947086500176 -0.373613440238621
192.7524913190936 0.16091325387717176 -0.365099364381773 0.8390867461228282 0.365099364381773 0.8390867461228282 0.365099364381773 0.16091325387717176 -0.365099364381773
199.526231496888 0.15188804348848345 -0.3565523136532649 0.8481119565115165 0.3565523136532649 0.8481119565115165 0.3565523136532649 0.15188804348848345 -0.3565523136532649
206.53801558105292 0.14328481715914554 -0.3479941019122524 0.8567151828408545 0.3479941019122524 0.8567151828408545 0.3479941019122524 0.14328481715914554 -0.3479941019122524
213.79620895022322 0.1350934701984134 -0.3394450662441517 0.8649065298015867 0.3394450662441517 0.8649065298015867 0.3394450662441517 0.1350934701984134 -0.3394450662441517
221.30947096056377 0.12730298565119044 -0.3309240540210065 0.8726970143488098 0.3309240540210065 0.8726970143488098 0.3309240540210065 0.12730298565119044 -0.3309240540210065
229.08676527677733 0.11990159529344915 -0.32244842680789804 0.880098404706551 0.32244842680789804 0.880098404706551 0.32244842680789804 0.11990159529344915 -0.32244842680789804
237.13737056616552 0.11287693054659456 -0.3140340789668123 0.8871230694534055 0.3140340789668123 0.8871230694534055 0.3140340789668123 0.11287693054659456 -0.3140340789668123
245.47089156850305 0.10621616247640635 -0.3056954688400925 0.8937838375235936 0.3056954688400925 0.8937838375235936 0.3056954688400925 0.10621616247640635 -0.3056954688400925
254.09727055493053 0.09990613036088399 -0.29744566047056825 0.9000938696391158 0.29744566047056825 0.9000938696391158 0.29744566047056825 0.09990613036088399 -0.29744566047056825
263.0267991895382 0.0939334585906529 -0.289296373924767 0.9060665414093472 0.289296373924767 0.9060665414093472 0.289296373924767 0.0939334585906529 -0.289296373924767
272.27013080779125 0.0882846619048819 -0.2812580424202015 0.911715338095118 0.2812580424202015 0.911715338095118 0.2812580424202015 0.0882846619048819 -0.2812580424202015
281.83829312644536 0.08294623916564176 -0.27333987460941467 0.9170537608343582 0.27333987460941467 0.9170537608343582 0.27333987460941467 0.08294623916564176 -0.27333987460941467
291.7427014001167 0.0779047560361644 -0.2655499205351822 0.9220952439638357 0.2655499205351822 0.9220952439638357 0.2655499205351822 0.0779047560361644 -0.2655499205351822
301.9951720402016 0.07314691705619503 -0.25789513993705065 0.9268530829438049 0.25789513993705065 0.9268530829438049 0.25789513993705065 0.07314691705619503 -0.25789513993705065
312.6079367123955 0.06865962770372333 -0.25038147175429226 0.9313403722962768 0.25038147175429226 0.9313403722962768 0.25038147175429226 0.06865962770372333 -0.25038147175429226
323.59365692962825 0.06443004710032006 -0.243013903830534 0.93556995289968 0.243013903830534 0.93556995289968 0.243013903830534 0.06443004710032006 -0.243013903830534
334.96543915782763 0.060445632060653794 -0.23579654197776645 0.9395543679393461 0.23579654197776645 0.9395543679393461 0.23579654197776645 0.060445632060653794 -0.23579654197776645
346.7368504525316 0.056694173209065765 -0.22873267770001657 0.943305826790934 0.22873267770001657 0.943305826790934 0.22873267770001657 0.056694173209065765 -0.22873267770001657
358.9219346450052 0.053163823890743596 -0.22182485400822666 0.9468361761092564 0.22182485400822666 0.9468361761092564 0.22182485400822666 0.053163823890743596 -0.22182485400822666
371.53522909717253 0.0498431225952358 -0.21507492887695656 0.9501568774047643 0.21507492887695656 0.9501568774047643 0.21507492887695656 0.0498431225952358 -0.21507492887695656
384.59178204535357 0.04672100958871407 -0.20848413600004223 0.9532789904112862 0.20848413600004223 0.9532789904112862 0.20848413600004223 0.04672100958871407 -0.20848413600004223
398.10717055349727 0.0437868384211519 -0.20205314259633306 0.9562131615788481 0.20205314259633306 0.9562131615788481 0.20205314259633306 0.0437868384211519 -0.20205314259633306
412.0975190973302 0.04103038293777008 -0.19578210409840632 0.9589696170622299 0.19578210409840632 0.9589696170622299 0.19578210409840632 0.04103038293777008 -0.19578210409840632
426.5795188015926 0.038441840382737874 -0.18967071562730112 0.9615581596172621 0.18967071562730112 0.9615581596172621 0.18967071562730112 0.038441840382737874 -0.18967071562730112
441.57044735331243 0.036011831138940714 -0.18371826021553467 0.9639881688610593 0.18371826021553467 0.9639881688610593 0.18371826021553467 0.036011831138940714 -0.18371826021553467
457.0881896148751 0.033731395602098535 -0.17792365378982866 0.9662686043979015 0.17792365378982866 0.9662686043979015 0.17792365378982866 0.033731395602098535 -0.17792365378982866
473.15125896148055 0.03159198864184291 -0.17228548696498985 0.9684080113581572 0.17228548696498985 0.9684080113581572 0.17228548696498985 0.03159198864184291 -0.17228548696498985
489.77881936844625 0.029585472057502123 -0.1668020637322082 0.9704145279424977 0.1668020637322082 0.9704145279424977 0.1668020637322082 0.029585472057502123 -0.1668020637322082
506.9907082747043 0.027704105393059942 -0.1614714371496197 0.97229589460694 0.1614714371496197 0.97229589460694 0.1614714371496197 0.027704105393059942 -0.1614714371496197
524.8074602497726 0.02594053543460621 -0.15629144216124652 0.9740594645653936 0.15629144216124652 0.9740594645653936 0.15629144216124652 0.02594053543460621 -0.15629144216124652
543.2503314924331 0.02428778467499303 -0.15125972568328772 0.9757122153250071 0.15125972568328772 0.9757122153250071 0.15125972568328772 0.02428778467499303 -0.15125972568328772
562.3413251903492 0.022739238994599283 -0.14637377410499433 0.9772607610054009 0.14637377410499433 0.9772607610054009 0.14637377410499433 0.022739238994599283 -0.14637377410499433
582.1032177708714 0.021288634774236294 -0.1416309383558289 0.9787113652257639 0.1416309383558289 0.9787113652257639 0.1416309383558289 0.021288634774236294 -0.1416309383558289
602.5595860743578 0.019930045626328375 -0.13702845669193872 0.9800699543736716 0.13702845669193872 0.9800699543736716 0.13702845669193872 0.019930045626328375 -0.13702845669193872
623.7348354824193 0.018657868903545198 -0.1325634753538252 0.9813421310964546 0.1325634753538252 0.9813421310964546 0.1325634753538252 0.018657868903545198 -0.1325634753538252
645.6542290346556 0.017466812119939095 -0.12823306724397937 0.9825331878800606 0.12823306724397937 0.9825331878800606 0.12823306724397937 0.017466812119939095 -0.12823306724397937
668.3439175686148 0.016351879398211002 -0.12403424876867207 0.9836481206017891 0.12403424876867207 0.9836481206017891 0.12403424876867207 0.016351879398211002 -0.12403424876867207
691.8309709189366 0.015308358037814345 -0.11996399498242089 0.9846916419621856 0.11996399498242089 0.9846916419621856 0.11996399498242089 0.015308358037814345 -0.11996399498242089
716.1434102129019 0.014331805282012638 -0.1160192531672466 0.9856681947179874 0.1160192531672466 0.9856681947179874 0.1160192531672466 0.014331805282012638 -0.1160192531672466
741.3102413009174 0.013418035347530466 -0.1121969549719535 0.9865819646524695 0.1121969549719535 0.9865819646524695 0.1121969549719535 0.013418035347530466 -0.1121969549719535
767.3614893618189 0.012563106767870497 -0.10849402722953651 0.9874368932321294 0.10849402722953651 0.9874368932321294 0.10849402722953651 0.012563106767870497 -0.10849402722953651
794.3282347242814 0.011763310090513828 -0.10490740156361501 0.9882366899094862 0.10490740156361501 0.9882366899094862 0.10490740156361501 0.011763310090513828 -0.10490740156361501
822.2426499470711 0.011015155958882068 -0.10143402288764736 0.9889848440411179 0.10143402288764736 0.9889848440411179 0.10143402288764736 0.011015155958882068 -0.10143402288764736
851.1380382023765 0.010315363601940304 -0.09807085689369524 0.9896846363980597 0.09807085689369524 0.9896846363980597 0.09807085689369524 0.010315363601940304 -0.09807085689369524
881.0488730080142 0.009660849747492766 -0.09481489662074953 0.9903391502525072 0.09481489662074953 0.9903391502525072 0.09481489662074953 0.009660849747492766 -0.09481489662074953
912.0108393559099 0.009048717969419603 -0.09166316818615576 0.9909512820305806 0.09166316818615576 0.9909512820305806 0.09166316818615576 0.009048717969419603 -0.09166316818615576
944.0608762859234 0.008476248474187193 -0.08861273575751068 0.9915237515258127 0.08861273575751068 0.9915237515258127 0.08861273575751068 0.008476248474187193 -0.08861273575751068
977.2372209558108 0.007940888327817473 -0.08566070583656317 0.9920591116721824 0.08566070583656317 0.9920591116721824 0.08566070583656317 0.007940888327817473 -0.08566070583656317
1011.5794542598987 0.007440242121017394 -0.08280423092114114 0.9925597578789828 0.08280423092114114 0.9925597578789828 0.08280423092114114 0.007440242121017394 -0.08280423092114114
1047.1285480508998 0.006972063067257734 -0.08004051260594541 0.9930279369327425 0.08004051260594541 0.9930279369327425 0.08004051260594541 0.006972063067257734 -0.08004051260594541
1083.9269140212034 0.006534244526170755 -0.07736680417818526 0.9934657554738294 0.07736680417818526 0.9934657554738294 0.07736680417818526 0.006534244526170755 -0.07736680417818526
1122.0184543019632 0.00612481194264142 -0.07478041275946708 0.9938751880573587 0.07478041275946708 0.9938751880573587 0.07478041275946708 0.00612481194264142 -0.07478041275946708
1161.4486138403427 0.005741915190339915 -0.07227870104107319 0.9942580848096602 0.07227870104107319 0.9942580848096602 0.07227870104107319 0.005741915190339915 -0.07227870104107319
1202.2644346174127 0.005383821307135386 -0.06985908865576006 0.9946161786928646 0.06985908865576006 0.9946161786928646 0.06985908865576006 0.005383821307135386 -0.06985908865576006
1244.514611771385 0.0050489076088024425 -0.06751905322545175 0.9949510923911977 0.06751905322545175 0.9949510923911977 0.06751905322545175 0.0050489076088024425 -0.06751905322545175
1288.249551693134 0.0047356551666500315 -0.0652561311206842 0.9952643448333498 0.0652561311206842 0.9952643448333498 0.0652561311206842 0.0047356551666500315 -0.0652561311206842
1333.5214321633239 0.004442642634139484 -0.06306791796435575 0.9955573573658606 0.06306791796435575 0.9955573573658606 0.06306791796435575 0.004442642634139484 -0.06306791796435575
1380.384264602885 0.004168540407193436 -0.06095206890924498 0.9958314595928067 0.06095206890924498 0.9958314595928067 0.06095206890924498 0.004168540407193436 -0.06095206890924498
1428.893958511103 0.003912105102711528 -0.05890629871585677 0.9960878948972884 0.05890629871585677 0.9960878948972884 0.05890629871585677 0.003912105102711528 -0.05890629871585677
1479.1083881682075 0.00367217433978773 -0.05692838165444453 0.9963278256602123 0.05692838165444453 0.9963278256602123 0.05692838165444453 0.00367217433978773 -0.05692838165444453
1531.0874616820304 0.003447661808254724 -0.055016151252522925 0.9965523381917455 0.055016151252522925 0.9965523381917455 0.055016151252522925 0.003447661808254724 -0.055016151252522925
1584.8931924611136 0.0032375526094511717 -0.0531674999068297 0.9967624473905486 0.0531674999068297 0.9967624473905486 0.0531674999068297 0.0032375526094511717 -0.0531674999068297
1640.5897731995396 0.003040898854506233 -0.0513803783765151 0.9969591011454937 0.0513803783765151 0.9969591011454937 0.0513803783765151 0.003040898854506233 -0.0513803783765151
1698.2436524617442 0.00285681550595013 -0.049652795172335555 0.9971431844940499 0.049652795172335555 0.9971431844940499 0.049652795172335555 0.00285681550595013 -0.049652795172335555
1757.9236139586924 0.0026844764490758437 -0.04798281585480498 0.9973155235509241 0.04798281585480498 0.9973155235509241 0.04798281585480498 0.0026844764490758437 -0.04798281585480498
1819.7008586099835 0.0025231107801802675 -0.046368562252617526 0.9974768892198197 0.046368562252617526 0.9974768892198197 0.046368562252617526 0.0025231107801802675 -0.046368562252617526
1883.6490894898002 0.0023719992995851727 -0.044808211611199175 0.9976280007004149 0.044808211611199175 0.9976280007004149 0.044808211611199175 0.0023719992995851727 -0.044808211611199175
1949.8445997580454 0.002230471198160249 -0.04329999567997696 0.9977695288018399 0.04329999567997696 0.9977695288018399 0.04329999567997696 0.002230471198160249 -0.04329999567997696
2018.3663636815609 0.0020979009269207335 -0.04184219974587011 0.9979020990730793 0.04184219974587011 0.9979020990730793 0.04184219974587011 0.0020979009269207335 -0.04184219974587011
2089.29613085404 0.001973705240128222 -0.04043316161960214 0.9980262947598718 0.04043316161960214 0.9980262947598718 0.04043316161960214 0.001973705240128222 -0.04043316161960214
2162.7185237270205 0.0018573404031630636 -0.039071270580704316 0.9981426595968371 0.039071270580704316 0.9981426595968371 0.039071270580704316 0.0018573404031630636 -0.039071270580704316
2238.7211385683395 0.0017482995572374363 -0.03775496628651001 0.9982517004427626 0.03775496628651001 0.9982517004427626 0.03775496628651001 0.0017482995572374363 -0.03775496628651001
2317.394649968479 0.0016461102337601912 -0.036482737650017784 0.9983538897662398 0.036482737650017784 0.9983538897662398 0.036482737650017784 0.0016461102337601912 -0.036482737650017784
2398.832919019491 0.0015503320118298296 -0.035253121691204925 0.9984496679881703 0.035253121691204925 0.9984496679881703 0.035253121691204925 0.0015503320118298296 -0.035253121691204925
2483.1331052955707 0.0014605543129069514 -0.034064702366181816 0.998539445687093 0.034064702366181816 0.998539445687093 0.034064702366181816 0.0014605543129069514 -0.034064702366181816
2570.3957827688632 0.0013763943271931243 -0.03291610937846939 0.9986236056728071 0.03291610937846939 0.9986236056728071 0.03291610937846939 0.0013763943271931243 -0.03291610937846939
2660.725059798809 0.0012974950666147945 -0.03180601697662663 0.9987025049333852 0.03180601697662663 0.9987025049333852 0.03180601697662663 0.0012974950666147945 -0.03180601697662663
2754.2287033381663 0.0012235235395800224 -0.030733142742433862 0.9987764764604199 0.030733142742433862 0.9987764764604199 0.030733142742433862 0.0012235235395800224 -0.030733142742433862
2851.018267503909 0.0011541690428480745 -0.02969624637382235 0.9988458309571518 0.02969624637382235 0.9988458309571518 0.02969624637382235 0.0011541690428480745 -0.02969624637382235
2951.209226666386 0.0010891415659378494 -0.02869412846671435 0.998910858434062 0.02869412846671435 0.998910858434062 0.02869412846671435 0.0010891415659378494 -0.02869412846671435
3054.9211132155133 0.0010281703035146916 -0.02772562929988088 0.9989718296964853 0.02772562929988088 0.9989718296964853 0.02772562929988088 0.0010281703035146916 -0.02772562929988088
3162.277660168379 9.710022711528783E-4 -0.026789627626826053 0.999028997728847 0.026789627626826053 0.999028997728847 0.026789627626826053 9.710022711528783E-4 -0.026789627626826053
3273.406948788382 9.174010197909925E-4 -0.025885039478558143 0.9990825989802089 0.025885039478558143 0.9990825989802089 0.025885039478558143 9.174010197909925E-4 -0.025885039478558143
3388.4415613920255 8.671454440976188E-4 -0.025010816980904866 0.9991328545559024 0.025010816980904866 0.9991328545559024 0.025010816980904866 8.671454440976188E-4 -0.025010816980904866
3507.5187395256803 8.20028679862634E-4 -0.024165947189775522 0.9991799713201376 0.024165947189775522 0.9991799713201376 0.024165947189775522 8.20028679862634E-4 -0.024165947189775522
3630.7805477010143 7.758570854402517E-4 -0.023349450947469583 0.9992241429145596 0.023349450947469583 0.9992241429145596 0.023349450947469583 7.758570854402517E-4 -0.023349450947469583
3758.374042884442 7.344493022068018E-4 -0.022560381762788486 0.9992655506977934 0.022560381762788486 0.9992655506977934 0.022560381762788486 7.344493022068018E-4 -0.022560381762788486
3890.451449942807 6.95635388968765E-4 -0.021797824717333766 0.9993043646110311 0.021797824717333766 0.9993043646110311 0.021797824717333766 6.95635388968765E-4 -0.021797824717333766
4027.170343254592 6.59256025271527E-4 -0.021060895399983435 0.9993407439747286 0.021060895399983435 0.9993407439747286 0.021060895399983435 6.59256025271527E-4 -0.021060895399983435
4168.693834703356 6.251617786198534E-4 -0.02034873887113838 0.9993748382213802 0.02034873887113838 0.9993748382213802 0.02034873887113838 6.251617786198534E-4 -0.02034873887113838
