!Murata Part Number: RHEL81H106MWK1H03B
!These Parameters are Measured in Series Mode Connection
!       o--ll--o
!Port1            Port2
!       o------o
!Operation Temp=25[degC], DC Bias Voltage=0[V]
!Freq. Start=100[Hz] Stop=100[MHz], 401[Steps]
!Data Generated on May 18, 2023
# Hz S RI R 50
!Freq.(Hz) S11(Real) S11(Imag) S21(Real) S21(Imag) S12(Real) S12(Imag) S22(Real) S22(Imag)
100.0 0.7518163806584175 -0.4293889322979523 0.2481836193415826 0.4293889322979523 0.2481836193415826 0.4293889322979523 0.7518163806584175 -0.4293889322979523
103.51421666793439 0.7388279501294205 -0.4367205713568158 0.2611720498705796 0.4367205713568158 0.2611720498705796 0.4367205713568158 0.7388279501294205 -0.4367205713568158
107.15193052376064 0.7254043628981824 -0.44377338617847817 0.27459563710181756 0.44377338617847817 0.27459563710181756 0.44377338617847817 0.7254043628981824 -0.44377338617847817
110.9174815262401 0.7115566748055872 -0.4505164192269708 0.2884433251944128 0.4505164192269708 0.2884433251944128 0.4505164192269708 0.7115566748055872 -0.4505164192269708
114.81536214968828 0.6972987376408563 -0.4569188869053847 0.3027012623591438 0.4569188869053847 0.3027012623591438 0.4569188869053847 0.6972987376408563 -0.4569188869053847
118.85022274370185 0.6826472494486899 -0.4629504735354274 0.31735275055131007 0.4629504735354274 0.31735275055131007 0.4629504735354274 0.6826472494486899 -0.4629504735354274
123.02687708123815 0.6676217692056754 -0.46858163985496604 0.3323782307943246 0.46858163985496604 0.3323782307943246 0.46858163985496604 0.6676217692056754 -0.46858163985496604
127.35030810166617 0.652244692678353 -0.47378394118777817 0.3477553073216469 0.47378394118777817 0.3477553073216469 0.47378394118777817 0.652244692678353 -0.47378394118777817
131.8256738556407 0.6365411870056474 -0.47853034975005865 0.3634588129943525 0.47853034975005865 0.3634588129943525 0.47853034975005865 0.6365411870056474 -0.47853034975005865
136.45831365889245 0.6205390824338607 -0.48279557498898323 0.3794609175661393 0.48279557498898323 0.3794609175661393 0.48279557498898323 0.6205390824338607 -0.48279557498898323
141.25375446227542 0.6042687206515944 -0.48655637543681585 0.3957312793484057 0.48655637543681585 0.3957312793484057 0.48655637543681585 0.6042687206515944 -0.48655637543681585
146.21771744567184 0.5877627602937971 -0.4897918553425503 0.41223723970620274 0.4897918553425503 0.41223723970620274 0.4897918553425503 0.5877627602937971 -0.4897918553425503
151.35612484362082 0.5710559413691295 -0.4924837393380255 0.42894405863087043 0.4924837393380255 0.42894405863087043 0.4924837393380255 0.5710559413691295 -0.4924837393380255
156.6751070108149 0.5541848115664895 -0.4946166186238848 0.4458151884335106 0.4946166186238848 0.4458151884335106 0.4946166186238848 0.5541848115664895 -0.4946166186238848
162.181009735893 0.5371874185637633 -0.49617816262867687 0.46281258143623677 0.49617816262867687 0.46281258143623677 0.49617816262867687 0.5371874185637633 -0.49617816262867687
167.88040181225603 0.5201029735417915 -0.49715929079546356 0.4798970264582085 0.49715929079546356 0.4798970264582085 0.49715929079546356 0.5201029735417915 -0.49715929079546356
173.78008287493756 0.5029714920478314 -0.49755430006540324 0.49702850795216874 0.49755430006540324 0.49702850795216874 0.49755430006540324 0.5029714920478314 -0.49755430006540324
179.88709151287878 0.48583341910898825 -0.4973609447254402 0.5141665808910116 0.4973609447254402 0.5141665808910116 0.4973609447254402 0.48583341910898825 -0.4973609447254402
186.20871366628674 0.46872924602877886 -0.49658046652509186 0.5312707539712213 0.49658046652509186 0.5312707539712213 0.49658046652509186 0.46872924602877886 -0.49658046652509186
192.7524913190936 0.45169912658161937 -0.4952175742943972 0.5483008734183806 0.4952175742943972 0.5483008734183806 0.4952175742943972 0.45169912658161937 -0.4952175742943972
199.526231496888 0.43478250033581 -0.49328037365483884 0.5652174996641901 0.49328037365483884 0.5652174996641901 0.49328037365483884 0.43478250033581 -0.49328037365483884
206.53801558105292 0.41801773058470115 -0.49078024874882903 0.5819822694152988 0.49078024874882903 0.5819822694152988 0.49078024874882903 0.41801773058470115 -0.49078024874882903
213.79620895022322 0.4014417638613038 -0.4877316991641695 0.5985582361386963 0.4877316991641695 0.5985582361386963 0.4877316991641695 0.4014417638613038 -0.4877316991641695
221.30947096056377 0.38508981727982367 -0.4841521363458641 0.6149101827201764 0.4841521363458641 0.6149101827201764 0.4841521363458641 0.38508981727982367 -0.4841521363458641
229.08676527677733 0.3689950990257557 -0.4800616447252339 0.6310049009742443 0.4800616447252339 0.6310049009742443 0.4800616447252339 0.3689950990257557 -0.4800616447252339
237.13737056616552 0.3531885662500405 -0.47548271352252514 0.6468114337499596 0.47548271352252514 0.6468114337499596 0.47548271352252514 0.3531885662500405 -0.47548271352252514
245.47089156850305 0.3376987234634283 -0.47043994567348224 0.6623012765365718 0.47043994567348224 0.6623012765365718 0.47043994567348224 0.3376987234634283 -0.47043994567348224
254.09727055493053 0.3225514633276498 -0.46495975058484845 0.6774485366723503 0.46495975058484845 0.6774485366723503 0.46495975058484845 0.3225514633276498 -0.46495975058484845
263.0267991895382 0.3077699505518791 -0.4590700274431415 0.6922300494481208 0.4590700274431415 0.6922300494481208 0.4590700274431415 0.3077699505518791 -0.4590700274431415
272.27013080779125 0.293374548473635 -0.45279984560130354 0.706625451526365 0.45279984560130354 0.706625451526365 0.45279984560130354 0.293374548473635 -0.45279984560130354
281.83829312644536 0.27938278687327117 -0.4461791281743266 0.7206172131267289 0.4461791281743266 0.7206172131267289 0.4461791281743266 0.27938278687327117 -0.4461791281743266
291.7427014001167 0.2658093686726492 -0.4392383444201835 0.7341906313273507 0.4392383444201835 0.7341906313273507 0.4392383444201835 0.2658093686726492 -0.4392383444201835
301.9951720402016 0.2526662124241705 -0.4320082158033195 0.7473337875758297 0.4320082158033195 0.7473337875758297 0.4320082158033195 0.2526662124241705 -0.4320082158033195
312.6079367123955 0.23996252691899225 -0.42451943987344704 0.7600374730810078 0.42451943987344704 0.7600374730810078 0.42451943987344704 0.23996252691899225 -0.42451943987344704
323.59365692962825 0.22770491383675995 -0.41680243528088046 0.77229508616324 0.41680243528088046 0.77229508616324 0.41680243528088046 0.22770491383675995 -0.41680243528088046
334.96543915782763 0.21589749411894218 -0.4088871104269924 0.7841025058810579 0.4088871104269924 0.7841025058810579 0.4088871104269924 0.21589749411894218 -0.4088871104269924
346.7368504525316 0.2045420536623926 -0.4008026574463593 0.7954579463376075 0.4008026574463593 0.7954579463376075 0.4008026574463593 0.2045420536623926 -0.4008026574463593
358.9219346450052 0.1936382039822873 -0.3925773724623005 0.8063617960177127 0.3925773724623005 0.8063617960177127 0.3925773724623005 0.1936382039822873 -0.3925773724623005
371.53522909717253 0.1831835536636049 -0.38423850237048884 0.8168164463363949 0.38423850237048884 0.8168164463363949 0.38423850237048884 0.1831835536636049 -0.38423850237048884
384.59178204535357 0.173173886685358 -0.3758121178007921 0.826826113314642 0.3758121178007921 0.826826113314642 0.3758121178007921 0.173173886685358 -0.3758121178007921
398.10717055349727 0.16360334403880075 -0.3673230113944043 0.8363966559611994 0.3673230113944043 0.8363966559611994 0.3673230113944043 0.16360334403880075 -0.3673230113944043
412.0975190973302 0.15446460544749321 -0.3587946201152957 0.8455353945525069 0.3587946201152957 0.8455353945525069 0.3587946201152957 0.15446460544749321 -0.3587946201152957
426.5795188015926 0.1457490684127031 -0.3502489699911899 0.8542509315872968 0.3502489699911899 0.8542509315872968 0.3502489699911899 0.1457490684127031 -0.3502489699911899
441.57044735331243 0.1374470222339032 -0.34170664144516705 0.8625529777660966 0.34170664144516705 0.8625529777660966 0.34170664144516705 0.1374470222339032 -0.34170664144516705
457.0881896148751 0.12954781507556054 -0.3331867532273131 0.8704521849244393 0.3331867532273131 0.8704521849244393 0.3331867532273131 0.12954781507556054 -0.3331867532273131
473.15125896148055 0.12204001255553508 -0.32470696287742634 0.877959987444465 0.32470696287742634 0.877959987444465 0.32470696287742634 0.12204001255553508 -0.32470696287742634
489.77881936844625 0.1149115467076834 -0.3162834816343919 0.8850884532923164 0.3162834816343919 0.8850884532923164 0.3162834816343919 0.1149115467076834 -0.3162834816343919
506.9907082747043 0.1081498545150169 -0.3079311017447731 0.8918501454849831 0.3079311017447731 0.8918501454849831 0.3079311017447731 0.1081498545150169 -0.3079311017447731
524.8074602497726 0.10174200551581287 -0.2996632342019002 0.8982579944841873 0.2996632342019002 0.8982579944841873 0.2996632342019002 0.10174200551581287 -0.2996632342019002
543.2503314924331 0.09567481825146337 -0.2914919550573458 0.9043251817485366 0.2914919550573458 0.9043251817485366 0.2914919550573458 0.09567481825146337 -0.2914919550573458
562.3413251903492 0.08993496555136617 -0.2834280585800477 0.9100650344486341 0.2834280585800477 0.9100650344486341 0.2834280585800477 0.08993496555136617 -0.2834280585800477
582.1032177708714 0.08450906883808315 -0.2754811156865236 0.9154909311619166 0.2754811156865236 0.9154909311619166 0.2754811156865236 0.08450906883808315 -0.2754811156865236
602.5595860743578 0.07938378178756254 -0.26765953622174016 0.9206162182124373 0.26765953622174016 0.9206162182124373 0.26765953622174016 0.07938378178756254 -0.26765953622174016
623.7348354824193 0.07454586379748164 -0.25997063382862207 0.9254541362025185 0.25997063382862207 0.9254541362025185 0.25997063382862207 0.07454586379748164 -0.25997063382862207
645.6542290346556 0.06998224380512776 -0.252420692300374 0.9300177561948724 0.252420692300374 0.9300177561948724 0.252420692300374 0.06998224380512776 -0.252420692300374
668.3439175686148 0.06568007505836171 -0.2450150324602675 0.9343199249416382 0.2450150324602675 0.9343199249416382 0.2450150324602675 0.06568007505836171 -0.2450150324602675
691.8309709189366 0.06162678148273061 -0.23775807875575256 0.9383732185172695 0.23775807875575256 0.9383732185172695 0.23775807875575256 0.06162678148273061 -0.23775807875575256
716.1434102129019 0.057810096308274925 -0.2306534248859658 0.9421899036917251 0.2306534248859658 0.9421899036917251 0.2306534248859658 0.057810096308274925 -0.2306534248859658
741.3102413009174 0.05421809362429327 -0.2237038979028333 0.9457819063757067 0.2237038979028333 0.9457819063757067 0.2237038979028333 0.05421809362429327 -0.2237038979028333
767.3614893618189 0.05083921352232831 -0.21691162033549483 0.9491607864776718 0.21691162033549483 0.9491607864776718 0.21691162033549483 0.05083921352232831 -0.21691162033549483
794.3282347242814 0.047662281469616784 -0.21027806998562318 0.9523377185303832 0.21027806998562318 0.9523377185303832 0.21027806998562318 0.047662281469616784 -0.21027806998562318
822.2426499470711 0.04467652252958238 -0.20380413712761486 0.9553234774704177 0.20380413712761486 0.9553234774704177 0.20380413712761486 0.04467652252958238 -0.20380413712761486
851.1380382023765 0.04187157101468448 -0.19749017892307957 0.9581284289853155 0.19749017892307957 0.9581284289853155 0.19749017892307957 0.04187157101468448 -0.19749017892307957
881.0488730080142 0.039237476121806836 -0.19133607092420424 0.9607625238781932 0.19133607092420424 0.9607625238781932 0.19133607092420424 0.039237476121806836 -0.19133607092420424
912.0108393559099 0.03676470406282042 -0.18534125559617595 0.9632352959371795 0.18534125559617595 0.9632352959371795 0.18534125559617595 0.03676470406282042 -0.18534125559617595
944.0608762859234 0.03444413716417112 -0.17950478783573737 0.9655558628358287 0.17950478783573737 0.9655558628358287 0.17950478783573737 0.03444413716417112 -0.17950478783573737
977.2372209558108 0.03226707037027906 -0.17382537750194918 0.9677329296297208 0.17382537750194918 0.9677329296297208 0.17382537750194918 0.03226707037027906 -0.17382537750194918
1011.5794542598987 0.030225205546947083 -0.16830142900719008 0.9697747944530529 0.16830142900719008 0.9697747944530529 0.16830142900719008 0.030225205546947083 -0.16830142900719008
1047.1285480508998 0.02831064394343649 -0.16293107804212129 0.9716893560565635 0.16293107804212129 0.9716893560565635 0.16293107804212129 0.02831064394343649 -0.16293107804212129
1083.9269140212034 0.026515877135819682 -0.1577122255285586 0.9734841228641804 0.1577122255285586 0.9734841228641804 0.1577122255285586 0.026515877135819682 -0.1577122255285586
1122.0184543019632 0.024833776739966517 -0.1526425689096231 0.9751662232600333 0.1526425689096231 0.9751662232600333 0.1526425689096231 0.024833776739966517 -0.1526425689096231
1161.4486138403427 0.02325758315027802 -0.14771963089783918 0.9767424168497219 0.14771963089783918 0.9767424168497219 0.14771963089783918 0.02325758315027802 -0.14771963089783918
1202.2644346174127 0.021780893530177575 -0.1429407858096126 0.9782191064698226 0.1429407858096126 0.9782191064698226 0.1429407858096126 0.021780893530177575 -0.1429407858096126
1244.514611771385 0.02039764925246628 -0.13830328361927596 0.9796023507475338 0.13830328361927596 0.9796023507475338 0.13830328361927596 0.02039764925246628 -0.13830328361927596
1288.249551693134 0.01910212296196258 -0.1338042718681227 0.9808978770380374 0.1338042718681227 0.9808978770380374 0.1338042718681227 0.01910212296196258 -0.1338042718681227
1333.5214321633239 0.017888905409344746 -0.1294408155639705 0.982111094590655 0.1294408155639705 0.982111094590655 0.1294408155639705 0.017888905409344746 -0.1294408155639705
1380.384264602885 0.016752892183748744 -0.12520991520519587 0.9832471078162514 0.12520991520519587 0.9832471078162514 0.12520991520519587 0.016752892183748744 -0.12520991520519587
1428.893958511103 0.015689270452359037 -0.12110852306016487 0.9843107295476409 0.12110852306016487 0.9843107295476409 0.12110852306016487 0.015689270452359037 -0.12110852306016487
1479.1083881682075 0.014693505797880544 -0.11713355782885775 0.9853064942021195 0.11713355782885775 0.9853064942021195 0.11713355782885775 0.014693505797880544 -0.11713355782885775
1531.0874616820304 0.013761329229290862 -0.11328191780848255 0.986238670770709 0.11328191780848255 0.986238670770709 0.11328191780848255 0.013761329229290862 -0.11328191780848255
1584.8931924611136 0.012888724427538455 -0.10955049267921635 0.9871112755724615 0.10955049267921635 0.9871112755724615 0.10955049267921635 0.012888724427538455 -0.10955049267921635
1640.5897731995396 0.01207191527576385 -0.10593617402008816 0.987928084724236 0.10593617402008816 0.987928084724236 0.10593617402008816 0.01207191527576385 -0.10593617402008816
1698.2436524617442 0.01130735371306795 -0.10243586465859361 0.988692646286932 0.10243586465859361 0.988692646286932 0.10243586465859361 0.01130735371306795 -0.10243586465859361
1757.9236139586924 0.010591707941722438 -0.09904648695103968 0.9894082920582776 0.09904648695103968 0.9894082920582776 0.09904648695103968 0.010591707941722438 -0.09904648695103968
1819.7008586099835 0.009921851009903606 -0.09576499008399911 0.9900781489900963 0.09576499008399911 0.9900781489900963 0.09576499008399911 0.009921851009903606 -0.09576499008399911
1883.6490894898002 0.009294849785422044 -0.09258835648069766 0.990705150214578 0.09258835648069766 0.990705150214578 0.09258835648069766 0.009294849785422044 -0.09258835648069766
1949.8445997580454 0.008707954330408996 -0.08951360738977188 0.9912920456695913 0.08951360738977188 0.9912920456695913 0.08951360738977188 0.008707954330408996 -0.08951360738977188
2018.3663636815609 0.008158587682397054 -0.08653780772769723 0.9918414123176029 0.08653780772769723 0.9918414123176029 0.08653780772769723 0.008158587682397054 -0.08653780772769723
2089.29613085404 0.007644336043587821 -0.08365807024035259 0.9923556639564118 0.08365807024035259 0.9923556639564118 0.08365807024035259 0.007644336043587821 -0.08365807024035259
2162.7185237270205 0.007162939377226642 -0.08087155904372924 0.9928370606227734 0.08087155904372924 0.9928370606227734 0.08087155904372924 0.007162939377226642 -0.08087155904372924
2238.7211385683395 0.006712282407793426 -0.07817549259873297 0.9932877175922066 0.07817549259873297 0.9932877175922066 0.07817549259873297 0.006712282407793426 -0.07817549259873297
2317.394649968479 0.0062903860200656005 -0.07556714617040818 0.9937096139799345 0.07556714617040818 0.9937096139799345 0.07556714617040818 0.0062903860200656005 -0.07556714617040818
2398.832919019491 0.0058953990509079636 -0.07304385381773335 0.994104600949092 0.07304385381773335 0.994104600949092 0.07304385381773335 0.0058953990509079636 -0.07304385381773335
2483.1331052955707 0.005525590466798305 -0.07060300995640605 0.9944744095332017 0.07060300995640605 0.9944744095332017 0.07060300995640605 0.005525590466798305 -0.07060300995640605
2570.3957827688632 0.005179341919513669 -0.06824207053373353 0.9948206580804863 0.06824207053373353 0.9948206580804863 0.06824207053373353 0.005179341919513669 -0.06824207053373353
2660.725059798809 0.004855140671996894 -0.06595855385184701 0.995144859328003 0.06595855385184701 0.995144859328003 0.06595855385184701 0.004855140671996894 -0.06595855385184701
2754.2287033381663 0.004551572886124369 -0.06375004107292562 0.9954484271138757 0.06375004107292562 0.9954484271138757 0.06375004107292562 0.004551572886124369 -0.06375004107292562
2851.018267503909 0.004267317263842717 -0.061614176437903755 0.9957326827361572 0.061614176437903755 0.9957326827361572 0.061614176437903755 0.004267317263842717 -0.061614176437903755
2951.209226666386 0.004001139032888966 -0.05954866722819499 0.9959988609671111 0.05954866722819499 0.9959988609671111 0.05954866722819499 0.004001139032888966 -0.05954866722819499
3054.9211132155133 0.00375188426802161 -0.05755128349823527 0.9962481157319782 0.05755128349823527 0.9962481157319782 0.05755128349823527 0.00375188426802161 -0.05755128349823527
3162.277660168379 0.0035184745383518025 -0.05561985760508252 0.996481525461648 0.05561985760508252 0.996481525461648 0.05561985760508252 0.0035184745383518025 -0.05561985760508252
3273.406948788382 0.003299901870967766 -0.05375228355984875 0.9967000981290324 0.05375228355984875 0.9967000981290324 0.05375228355984875 0.003299901870967766 -0.05375228355984875
3388.4415613920255 0.003095224020598297 -0.051946516224346345 0.9969047759794017 0.051946516224346345 0.9969047759794017 0.051946516224346345 0.003095224020598297 -0.051946516224346345
3507.5187395256803 0.002903560034577128 -0.0502005703749593 0.997096439965423 0.0502005703749593 0.997096439965423 0.0502005703749593 0.002903560034577128 -0.0502005703749593
3630.7805477010143 0.0027240861018712017 -0.04851251965437634 0.9972759138981289 0.04851251965437634 0.9972759138981289 0.04851251965437634 0.0027240861018712017 -0.04851251965437634
3758.374042884442 0.0025560316744477605 -0.04688049543042707 0.9974439683255524 0.04688049543042707 0.9974439683255524 0.04688049543042707 0.0025560316744477605 -0.04688049543042707
3890.451449942807 0.002398675848804813 -0.04530268557983366 0.9976013241511953 0.04530268557983366 0.9976013241511953 0.04530268557983366 0.002398675848804813 -0.04530268557983366
4027.170343254592 0.0022513439951024786 -0.04377733321323103 0.9977486560048976 0.04377733321323103 0.9977486560048976 0.04377733321323103 0.0022513439951024786 -0.04377733321323103
4168.693834703356 0.0021134046210315553 -0.042302735356321855 0.9978865953789684 0.042302735356321855 0.9978865953789684 0.042302735356321855 0.0021134046210315553 -0.042302735356321855
4315.190768277653 0.0019842664573583276 -0.0408772416005374 0.9980157335426416 0.0408772416005374 0.9980157335426416 0.0408772416005374 0.0019842664573583276 -0.0408772416005374
