!Murata Part Number: RHEL81E106K3DBH03A
!These Parameters are Measured in Series Mode Connection
!       o--ll--o
!Port1            Port2
!       o------o
!Operation Temp=25[degC], DC Bias Voltage=0[V]
!Freq. Start=100[Hz] Stop=100[MHz], 401[Steps]
!Data Generated on May 31, 2023
# Hz S RI R 50
!Freq.(Hz) S11(Real) S11(Imag) S21(Real) S21(Imag) S12(Real) S12(Imag) S22(Real) S22(Imag)
100.0 0.7225764937525514 -0.4451068049721261 0.2774235062474486 0.4451068049721261 0.2774235062474486 0.4451068049721261 0.7225764937525514 -0.4451068049721261
103.51421666793439 0.7086398466803265 -0.45176773991101243 0.2913601533196733 0.45176773991101243 0.2913601533196733 0.45176773991101243 0.7086398466803265 -0.45176773991101243
107.15193052376064 0.6942974750091736 -0.4580808851776172 0.30570252499082645 0.4580808851776172 0.30570252499082645 0.4580808851776172 0.6942974750091736 -0.4580808851776172
110.9174815262401 0.6795668056785881 -0.4640161829881779 0.3204331943214119 0.4640161829881779 0.3204331943214119 0.4640161829881779 0.6795668056785881 -0.4640161829881779
114.81536214968828 0.6644681131948041 -0.4695444375408937 0.3355318868051959 0.4695444375408937 0.3355318868051959 0.4695444375408937 0.6644681131948041 -0.4695444375408937
118.85022274370185 0.6490244839707375 -0.4746376334956507 0.3509755160292625 0.4746376334956507 0.3509755160292625 0.4746376334956507 0.6490244839707375 -0.4746376334956507
123.02687708123815 0.6332617390439068 -0.479269256846978 0.36673826095609324 0.479269256846978 0.36673826095609324 0.479269256846978 0.6332617390439068 -0.479269256846978
127.35030810166617 0.6172083138948404 -0.48341461197774965 0.3827916861051596 0.48341461197774965 0.3827916861051596 0.48341461197774965 0.6172083138948404 -0.48341461197774965
131.8256738556407 0.6008950951366919 -0.48705112832437303 0.399104904863308 0.48705112832437303 0.399104904863308 0.48705112832437303 0.6008950951366919 -0.48705112832437303
136.45831365889245 0.5843552149863321 -0.4901586499254568 0.41564478501366775 0.4901586499254568 0.41564478501366775 0.4901586499254568 0.5843552149863321 -0.4901586499254568
141.25375446227542 0.5676238056164077 -0.4927197011888008 0.4323761943835922 0.4927197011888008 0.4323761943835922 0.4927197011888008 0.5676238056164077 -0.4927197011888008
146.21771744567184 0.5507377166788331 -0.4947197225098438 0.449262283321167 0.4947197225098438 0.449262283321167 0.4947197225098438 0.5507377166788331 -0.4947197225098438
151.35612484362082 0.5337352004311546 -0.49614726991085073 0.4662647995688455 0.49614726991085073 0.4662647995688455 0.49614726991085073 0.5337352004311546 -0.49614726991085073
156.6751070108149 0.5166555699356682 -0.4969941736339959 0.48334443006433186 0.4969941736339959 0.48334443006433186 0.4969941736339959 0.5166555699356682 -0.4969941736339959
162.181009735893 0.49953883668703924 -0.49725565159027646 0.5004611633129606 0.49725565159027646 0.5004611633129606 0.49725565159027646 0.49953883668703924 -0.49725565159027646
167.88040181225603 0.48242533471329535 -0.4969303747050775 0.5175746652867046 0.4969303747050775 0.5175746652867046 0.4969303747050775 0.48242533471329535 -0.4969303747050775
173.78008287493756 0.4653553386521588 -0.4960204824651479 0.5346446613478413 0.4960204824651479 0.5346446613478413 0.4960204824651479 0.4653553386521588 -0.4960204824651479
179.88709151287878 0.4483686835059703 -0.4945315483079308 0.5516313164940296 0.4945315483079308 0.5516313164940296 0.4945315483079308 0.4483686835059703 -0.4945315483079308
186.20871366628674 0.4315043937133262 -0.49247249584527897 0.5684956062866741 0.49247249584527897 0.5684956062866741 0.49247249584527897 0.4315043937133262 -0.49247249584527897
192.7524913190936 0.4148003288474389 -0.48985546822126175 0.585199671152561 0.48985546822126175 0.585199671152561 0.48985546822126175 0.4148003288474389 -0.48985546822126175
199.526231496888 0.3982928526772767 -0.48669565411241505 0.6017071473227235 0.48669565411241505 0.6017071473227235 0.48669565411241505 0.3982928526772767 -0.48669565411241505
206.53801558105292 0.3820165315374875 -0.48301107493891643 0.6179834684625126 0.48301107493891643 0.6179834684625126 0.48301107493891643 0.3820165315374875 -0.48301107493891643
213.79620895022322 0.3660038669869652 -0.478822338726377 0.6339961330130349 0.478822338726377 0.6339961330130349 0.478822338726377 0.3660038669869652 -0.478822338726377
221.30947096056377 0.3502850666413018 -0.4741523667110106 0.6497149333586982 0.4741523667110106 0.6497149333586982 0.4741523667110106 0.3502850666413018 -0.4741523667110106
229.08676527677733 0.3348878558931653 -0.46902609919921284 0.6651121441068347 0.46902609919921284 0.6651121441068347 0.46902609919921284 0.3348878558931653 -0.46902609919921284
237.13737056616552 0.31983733203961767 -0.463470187372133 0.6801626679603824 0.463470187372133 0.6801626679603824 0.463470187372133 0.31983733203961767 -0.463470187372133
245.47089156850305 0.3051558611670708 -0.457512677674988 0.6948441388329293 0.457512677674988 0.6948441388329293 0.457512677674988 0.3051558611670708 -0.457512677674988
254.09727055493053 0.2908630170482769 -0.4511826951687077 0.7091369829517232 0.4511826951687077 0.7091369829517232 0.4511826951687077 0.2908630170482769 -0.4511826951687077
263.0267991895382 0.27697556031951653 -0.44451013177583765 0.7230244396804835 0.44451013177583765 0.7230244396804835 0.44451013177583765 0.27697556031951653 -0.44451013177583765
272.27013080779125 0.2635074553591464 -0.4375253447575645 0.7364925446408538 0.4375253447575645 0.7364925446408538 0.4375253447575645 0.2635074553591464 -0.4375253447575645
281.83829312644536 0.2504699216004571 -0.43025887005207347 0.749530078399543 0.43025887005207347 0.749530078399543 0.43025887005207347 0.2504699216004571 -0.43025887005207347
291.7427014001167 0.23787151549234162 -0.4227411543251349 0.7621284845076585 0.4227411543251349 0.7621284845076585 0.4227411543251349 0.23787151549234162 -0.4227411543251349
301.9951720402016 0.22571823897152868 -0.4150023087696552 0.7742817610284712 0.4150023087696552 0.7742817610284712 0.4150023087696552 0.22571823897152868 -0.4150023087696552
312.6079367123955 0.21401367012309458 -0.4070718868765866 0.7859863298769054 0.4070718868765866 0.7859863298769054 0.4070718868765866 0.21401367012309458 -0.4070718868765866
323.59365692962825 0.20275911166826238 -0.39897868761525296 0.7972408883317377 0.39897868761525296 0.7972408883317377 0.39897868761525296 0.20275911166826238 -0.39897868761525296
334.96543915782763 0.19195375301183926 -0.3907505847314474 0.808046246988161 0.3907505847314474 0.808046246988161 0.3907505847314474 0.19195375301183926 -0.3907505847314474
346.7368504525316 0.18159484178474428 -0.382414382215291 0.8184051582152557 0.382414382215291 0.8184051582152557 0.382414382215291 0.18159484178474428 -0.382414382215291
358.9219346450052 0.171677861106995 -0.37399569542048355 0.828322138893005 0.37399569542048355 0.828322138893005 0.37399569542048355 0.171677861106995 -0.37399569542048355
371.53522909717253 0.16219670915032294 -0.36551885683926455 0.837803290849677 0.36551885683926455 0.837803290849677 0.36551885683926455 0.16219670915032294 -0.36551885683926455
384.59178204535357 0.15314387797531775 -0.35700684515510217 0.8468561220246824 0.35700684515510217 0.8468561220246824 0.35700684515510217 0.15314387797531775 -0.35700684515510217
398.10717055349727 0.14451062903572368 -0.34848123590554786 0.8554893709642761 0.34848123590554786 0.8554893709642761 0.34848123590554786 0.14451062903572368 -0.34848123590554786
412.0975190973302 0.1362871631648577 -0.3399621718852038 0.8637128368351423 0.3399621718852038 0.8637128368351423 0.3399621718852038 0.1362871631648577 -0.3399621718852038
426.5795188015926 0.12846278327165098 -0.33146835129520424 0.8715372167283488 0.33146835129520424 0.8715372167283488 0.33146835129520424 0.12846278327165098 -0.33146835129520424
441.57044735331243 0.12102604836513252 -0.3230170315913053 0.8789739516348674 0.3230170315913053 0.8789739516348674 0.3230170315913053 0.12102604836513252 -0.3230170315913053
457.0881896148751 0.11396491788787998 -0.31462404698704705 0.8860350821121201 0.31462404698704705 0.8860350821121201 0.31462404698704705 0.11396491788787998 -0.31462404698704705
473.15125896148055 0.1072668856653842 -0.306303837620777 0.8927331143346161 0.306303837620777 0.8927331143346161 0.306303837620777 0.1072668856653842 -0.306303837620777
489.77881936844625 0.10091910306618067 -0.29806948848520043 0.8990808969338194 0.29806948848520043 0.8990808969338194 0.29806948848520043 0.10091910306618067 -0.29806948848520043
506.9907082747043 0.09490849121583984 -0.28993277633592035 0.9050915087841602 0.28993277633592035 0.9050915087841602 0.28993277633592035 0.09490849121583984 -0.28993277633592035
524.8074602497726 0.08922184231694218 -0.28190422293246087 0.9107781576830578 0.28190422293246087 0.9107781576830578 0.28190422293246087 0.08922184231694218 -0.28190422293246087
543.2503314924331 0.08384591029877728 -0.27399315311404476 0.9161540897012227 0.27399315311404476 0.9161540897012227 0.27399315311404476 0.08384591029877728 -0.27399315311404476
562.3413251903492 0.07876749115733438 -0.2662077563665756 0.9212325088426655 0.2662077563665756 0.9212325088426655 0.2662077563665756 0.07876749115733438 -0.2662077563665756
582.1032177708714 0.07397349345146438 -0.25855515069175355 0.9260265065485358 0.25855515069175355 0.9260265065485358 0.25855515069175355 0.07397349345146438 -0.25855515069175355
602.5595860743578 0.0694509994984409 -0.2510414477399917 0.930549000501559 0.2510414477399917 0.930549000501559 0.2510414477399917 0.0694509994984409 -0.2510414477399917
623.7348354824193 0.06518731786519806 -0.24367181831280044 0.9348126821348022 0.24367181831280044 0.9348126821348022 0.24367181831280044 0.06518731786519806 -0.24367181831280044
645.6542290346556 0.061170027783877354 -0.236450557475434 0.9388299722161226 0.236450557475434 0.9388299722161226 0.236450557475434 0.061170027783877354 -0.236450557475434
668.3439175686148 0.057387016135376716 -0.22938114864546252 0.9426129838646233 0.22938114864546252 0.9426129838646233 0.22938114864546252 0.057387016135376716 -0.22938114864546252
691.8309709189366 0.053826507645513624 -0.222466326136763 0.9461734923544863 0.222466326136763 0.9461734923544863 0.222466326136763 0.053826507645513624 -0.222466326136763
716.1434102129019 0.05047708892802339 -0.2157081357409454 0.9495229110719766 0.2157081357409454 0.9495229110719766 0.2157081357409454 0.05047708892802339 -0.2157081357409454
741.3102413009174 0.04732772698940375 -0.20910799301949784 0.9526722730105963 0.20910799301949784 0.9526722730105963 0.20910799301949784 0.04732772698940375 -0.20910799301949784
767.3614893618189 0.04436778278476961 -0.20266673906035543 0.9556322172152305 0.20266673906035543 0.9556322172152305 0.20266673906035543 0.04436778278476961 -0.20266673906035543
794.3282347242814 0.04158702038322816 -0.19638469352268506 0.9584129796167719 0.19638469352268506 0.9584129796167719 0.19638469352268506 0.04158702038322816 -0.19638469352268506
822.2426499470711 0.03897561226738821 -0.19026170485415778 0.9610243877326117 0.19026170485415778 0.9610243877326117 0.19026170485415778 0.03897561226738821 -0.19026170485415778
851.1380382023765 0.036524141255750264 -0.1842971976165875 0.9634758587442496 0.1842971976165875 0.9634758587442496 0.1842971976165875 0.036524141255750264 -0.1842971976165875
881.0488730080142 0.034223599499932526 -0.17849021689936193 0.9657764005000674 0.17849021689936193 0.9657764005000674 0.17849021689936193 0.034223599499932526 -0.17849021689936193
912.0108393559099 0.03206538497180357 -0.17283946983636733 0.9679346150281967 0.17283946983636733 0.9679346150281967 0.17283946983636733 0.03206538497180357 -0.17283946983636733
944.0608762859234 0.03004129581927055 -0.16734336427190494 0.9699587041807296 0.16734336427190494 0.9699587041807296 0.16734336427190494 0.03004129581927055 -0.16734336427190494
977.2372209558108 0.02814352293421139 -0.16200004464514678 0.9718564770657886 0.16200004464514678 0.9718564770657886 0.16200004464514678 0.02814352293421139 -0.16200004464514678
1011.5794542598987 0.026364641042213918 -0.15680742518169397 0.9736353589577861 0.15680742518169397 0.9736353589577861 0.15680742518169397 0.026364641042213918 -0.15680742518169397
1047.1285480508998 0.024697598591661808 -0.1517632204954269 0.9753024014083381 0.1517632204954269 0.9753024014083381 0.1517632204954269 0.024697598591661808 -0.1517632204954269
1083.9269140212034 0.023135706689462132 -0.14686497371467253 0.9768642933105379 0.14686497371467253 0.9768642933105379 0.14686497371467253 0.023135706689462132 -0.14686497371467253
1122.0184543019632 0.02167262730245071 -0.1421100822542978 0.9783273726975493 0.1421100822542978 0.9783273726975493 0.1421100822542978 0.02167262730245071 -0.1421100822542978
1161.4486138403427 0.020302360917288962 -0.1374958213601681 0.979697639082711 0.1374958213601681 0.979697639082711 0.1374958213601681 0.020302360917288962 -0.1374958213601681
1202.2644346174127 0.01901923382748041 -0.13301936555490643 0.9809807661725195 0.13301936555490643 0.9809807661725195 0.13301936555490643 0.01901923382748041 -0.13301936555490643
1244.514611771385 0.0178178851939588 -0.12867780811445725 0.9821821148060411 0.12867780811445725 0.9821821148060411 0.12867780811445725 0.0178178851939588 -0.12867780811445725
1288.249551693134 0.016693254005471288 -0.12446817870393104 0.9833067459945286 0.12446817870393104 0.9833067459945286 0.12446817870393104 0.016693254005471288 -0.12446817870393104
1333.5214321633239 0.01564056604661951 -0.12038745929887179 0.9843594339533804 0.12038745929887179 0.9843594339533804 0.12038745929887179 0.01564056604661951 -0.12038745929887179
1380.384264602885 0.014655320964841007 -0.11643259851473166 0.985344679035159 0.11643259851473166 0.985344679035159 0.11643259851473166 0.014655320964841007 -0.11643259851473166
1428.893958511103 0.013733279512706307 -0.11260052446315272 0.9862667204872938 0.11260052446315272 0.9862667204872938 0.11260052446315272 0.013733279512706307 -0.11260052446315272
1479.1083881682075 0.012870451028569832 -0.10888815624885166 0.9871295489714303 0.10888815624885166 0.9871295489714303 0.10888815624885166 0.012870451028569832 -0.10888815624885166
1531.0874616820304 0.012063081206738385 -0.10529241421564127 0.9879369187932615 0.10529241421564127 0.9879369187932615 0.10529241421564127 0.012063081206738385 -0.10529241421564127
1584.8931924611136 0.011307640197799456 -0.10181022904452824 0.9886923598022004 0.10181022904452824 0.9886923598022004 0.10181022904452824 0.011307640197799456 -0.10181022904452824
1640.5897731995396 0.010600811070482951 -0.09843854980103067 0.9893991889295172 0.09843854980103067 0.9893991889295172 0.09843854980103067 0.010600811070482951 -0.09843854980103067
1698.2436524617442 0.00993947865831251 -0.09517435102294346 0.9900605213416874 0.09517435102294346 0.9900605213416874 0.09517435102294346 0.00993947865831251 -0.09517435102294346
1757.9236139586924 0.009320718807244006 -0.09201463893383381 0.990679281192756 0.09201463893383381 0.990679281192756 0.09201463893383381 0.009320718807244006 -0.09201463893383381
1819.7008586099835 0.008741788034401813 -0.08895645686163589 0.9912582119655984 0.08895645686163589 0.9912582119655984 0.08895645686163589 0.008741788034401813 -0.08895645686163589
1883.6490894898002 0.008200113602825465 -0.0859968899358881 0.9917998863971749 0.0859968899358881 0.9917998863971749 0.0859968899358881 0.008200113602825465 -0.0859968899358881
1949.8445997580454 0.007693284012756481 -0.08313306913146937 0.9923067159872436 0.08313306913146937 0.9923067159872436 0.08313306913146937 0.007693284012756481 -0.08313306913146937
2018.3663636815609 0.0072190399063564465 -0.08036217472118241 0.9927809600936432 0.08036217472118241 0.9927809600936432 0.08036217472118241 0.0072190399063564465 -0.08036217472118241
2089.29613085404 0.006775265379786224 -0.07768143919422915 0.9932247346202137 0.07768143919422915 0.9932247346202137 0.07768143919422915 0.006775265379786224 -0.07768143919422915
2162.7185237270205 0.006359979694232973 -0.07508814969257717 0.9936400203057669 0.07508814969257717 0.9936400203057669 0.07508814969257717 0.006359979694232973 -0.07508814969257717
2238.7211385683395 0.005971329375682816 -0.07257965001242829 0.9940286706243172 0.07257965001242829 0.9940286706243172 0.07257965001242829 0.005971329375682816 -0.07257965001242829
2317.394649968479 0.005607580691947781 -0.07015334221351864 0.994392419308052 0.07015334221351864 0.994392419308052 0.07015334221351864 0.005607580691947781 -0.07015334221351864
2398.832919019491 0.005267112494605708 -0.06780668787481162 0.9947328875053943 0.06780668787481162 0.9947328875053943 0.06780668787481162 0.005267112494605708 -0.06780668787481162
2483.1331052955707 0.004948409413044097 -0.06553720903131002 0.995051590586956 0.06553720903131002 0.995051590586956 0.06553720903131002 0.004948409413044097 -0.06553720903131002
2570.3957827688632 0.004650055387655641 -0.0633424888232314 0.9953499446123445 0.0633424888232314 0.9953499446123445 0.0633424888232314 0.004650055387655641 -0.0633424888232314
2660.725059798809 0.004370727529354344 -0.06122017188565563 0.9956292724706456 0.06122017188565563 0.9956292724706456 0.06122017188565563 0.004370727529354344 -0.06122017188565563
2754.2287033381663 0.0041091902929099216 -0.05916796450398029 0.99589080970709 0.05916796450398029 0.99589080970709 0.05916796450398029 0.0041091902929099216 -0.05916796450398029
2851.018267503909 0.003864289952075881 -0.05718363455809132 0.9961357100479242 0.05718363455809132 0.9961357100479242 0.05718363455809132 0.003864289952075881 -0.05718363455809132
2951.209226666386 0.003634949365058931 -0.05526501127606494 0.9963650506349411 0.05526501127606494 0.9963650506349411 0.05526501127606494 0.003634949365058931 -0.05526501127606494
3054.9211132155133 0.0034201630194927164 -0.053409984816441484 0.9965798369805073 0.053409984816441484 0.9965798369805073 0.053409984816441484 0.0034201630194927164 -0.053409984816441484
3162.277660168379 0.0032189923466908418 -0.05161650569662083 0.9967810076533091 0.05161650569662083 0.9967810076533091 0.05161650569662083 0.0032189923466908418 -0.05161650569662083
3273.406948788382 0.0030305612955240165 -0.04988258408369339 0.9969694387044761 0.04988258408369339 0.9969694387044761 0.04988258408369339 0.0030305612955240165 -0.04988258408369339
3388.4415613920255 0.0028540521567621264 -0.048206288962998174 0.997145947843238 0.048206288962998174 0.997145947843238 0.048206288962998174 0.0028540521567621264 -0.048206288962998174
3507.5187395256803 0.0026887016291220218 -0.046585747198848046 0.9973112983708781 0.046585747198848046 0.9973112983708781 0.046585747198848046 0.0026887016291220218 -0.046585747198848046
3630.7805477010143 0.0025337971185530454 -0.04501914250114314 0.9974662028814469 0.04501914250114314 0.9974662028814469 0.04501914250114314 0.0025337971185530454 -0.04501914250114314
3758.374042884442 0.0023886732624709317 -0.043504714310960334 0.997611326737529 0.043504714310960334 0.997611326737529 0.043504714310960334 0.0023886732624709317 -0.043504714310960334
3890.451449942807 0.002252708670721878 -0.04204075661762193 0.9977472913292781 0.04204075661762193 0.9977472913292781 0.04204075661762193 0.002252708670721878 -0.04204075661762193
4027.170343254592 0.002125322875035132 -0.04062561671917999 0.9978746771249649 0.04062561671917999 0.9978746771249649 0.04062561671917999 0.002125322875035132 -0.04062561671917999
4168.693834703356 0.0020059734786225425 -0.039257693937670535 0.9979940265213774 0.039257693937670535 0.9979940265213774 0.039257693937670535 0.0020059734786225425 -0.039257693937670535
4315.190768277653 0.0018941534974302647 -0.0379354382998788 0.9981058465025696 0.0379354382998788 0.9981058465025696 0.0379354382998788 0.0018941534974302647 -0.0379354382998788
