!Murata Part Number: RHEL81H475K3M1H03A
!These Parameters are Measured in Series Mode Connection
!       o--ll--o
!Port1            Port2
!       o------o
!Operation Temp=25[degC], DC Bias Voltage=0[V]
!Freq. Start=100[Hz] Stop=100[MHz], 401[Steps]
!Data Generated on Jun 29, 2020
# Hz S RI R 50
!Freq.(Hz) S11(Real) S11(Imag) S21(Real) S21(Imag) S12(Real) S12(Imag) S22(Real) S22(Imag)
100.0 0.9213598322279863 -0.26633817825299066 0.0786401677720137 0.26633817825299066 0.0786401677720137 0.26633817825299066 0.9213598322279863 -0.26633817825299066
103.51421666793439 0.9162758616485344 -0.2741308289239322 0.08372413835146568 0.2741308289239322 0.08372413835146568 0.2741308289239322 0.9162758616485344 -0.2741308289239322
107.15193052376064 0.91089287138638 -0.28204954176286323 0.08910712861362013 0.28204954176286323 0.08910712861362013 0.28204954176286323 0.91089287138638 -0.28204954176286323
110.9174815262401 0.9051974984781478 -0.29008594662567855 0.09480250152185231 0.29008594662567855 0.09480250152185231 0.29008594662567855 0.9051974984781478 -0.29008594662567855
114.81536214968828 0.8991763531607996 -0.2982305059981738 0.10082364683920048 0.2982305059981738 0.10082364683920048 0.2982305059981738 0.8991763531607996 -0.2982305059981738
118.85022274370185 0.8928161046770375 -0.30647245362457876 0.1071838953229623 0.30647245362457876 0.1071838953229623 0.30647245362457876 0.8928161046770375 -0.30647245362457876
123.02687708123815 0.8861035777430272 -0.3147997374781812 0.11389642225697288 0.3147997374781812 0.11389642225697288 0.3147997374781812 0.8861035777430272 -0.3147997374781812
127.35030810166617 0.879025859921626 -0.32319896854392144 0.12097414007837415 0.32319896854392144 0.12097414007837415 0.32319896854392144 0.879025859921626 -0.32319896854392144
131.8256738556407 0.8715704199738753 -0.33165537702516557 0.12842958002612473 0.33165537702516557 0.12842958002612473 0.33165537702516557 0.8715704199738753 -0.33165537702516557
136.45831365889245 0.8637252370559443 -0.34015277771581004 0.13627476294405566 0.34015277771581004 0.13627476294405566 0.34015277771581004 0.8637252370559443 -0.34015277771581004
141.25375446227542 0.8554789403871279 -0.34867354638736486 0.1445210596128722 0.34867354638736486 0.1445210596128722 0.34867354638736486 0.8554789403871279 -0.34867354638736486
146.21771744567184 0.8468209587371971 -0.3571986091207959 0.15317904126280288 0.3571986091207959 0.15317904126280288 0.3571986091207959 0.8468209587371971 -0.3571986091207959
151.35612484362082 0.837741678770262 -0.3657074465560738 0.162258321229738 0.3657074465560738 0.162258321229738 0.3657074465560738 0.837741678770262 -0.3657074465560738
156.6751070108149 0.8282326109409894 -0.3741781150296011 0.17176738905901057 0.3741781150296011 0.17176738905901057 0.3741781150296011 0.8282326109409894 -0.3741781150296011
162.181009735893 0.8182865612733682 -0.3825872865118469 0.18171343872663182 0.3825872865118469 0.18171343872663182 0.3825872865118469 0.8182865612733682 -0.3825872865118469
167.88040181225603 0.8078978069702559 -0.3909103091359726 0.1921021930297442 0.3909103091359726 0.1921021930297442 0.3909103091359726 0.8078978069702559 -0.3909103091359726
173.78008287493756 0.7970622734142485 -0.39912128991517576 0.20293772658575157 0.39912128991517576 0.20293772658575157 0.39912128991517576 0.7970622734142485 -0.39912128991517576
179.88709151287878 0.7857777097398865 -0.40719320097574363 0.21422229026011358 0.40719320097574363 0.21422229026011358 0.40719320097574363 0.7857777097398865 -0.40719320097574363
186.20871366628674 0.7740438597990461 -0.4150980102803946 0.225956140200954 0.4150980102803946 0.225956140200954 0.4150980102803946 0.7740438597990461 -0.4150980102803946
192.7524913190936 0.7618626250227215 -0.42280683738134406 0.2381373749772786 0.42280683738134406 0.2381373749772786 0.42280683738134406 0.7618626250227215 -0.42280683738134406
199.526231496888 0.7492382154217089 -0.4302901342272246 0.2507617845782912 0.4302901342272246 0.2507617845782912 0.4302901342272246 0.7492382154217089 -0.4302901342272246
206.53801558105292 0.7361772847851775 -0.4375178904591564 0.2638227152148225 0.4375178904591564 0.2638227152148225 0.4375178904591564 0.7361772847851775 -0.4375178904591564
213.79620895022322 0.7226890460484925 -0.44445986198022924 0.2773109539515075 0.44445986198022924 0.2773109539515075 0.44445986198022924 0.7226890460484925 -0.44445986198022924
221.30947096056377 0.7087853628273436 -0.4510858208854283 0.29121463717265655 0.4510858208854283 0.29121463717265655 0.4510858208854283 0.7087853628273436 -0.4510858208854283
229.08676527677733 0.6944808132689266 -0.4573658241163369 0.30551918673107326 0.4573658241163369 0.30551918673107326 0.4573658241163369 0.6944808132689266 -0.4573658241163369
237.13737056616552 0.6797927226633368 -0.4632704974817852 0.3202072773366633 0.4632704974817852 0.3202072773366633 0.4632704974817852 0.6797927226633368 -0.4632704974817852
245.47089156850305 0.664741161695005 -0.46877133099043666 0.33525883830499503 0.46877133099043666 0.33525883830499503 0.46877133099043666 0.664741161695005 -0.46877133099043666
254.09727055493053 0.6493489077942732 -0.4738409808049195 0.35065109220572677 0.4738409808049195 0.35065109220572677 0.4738409808049195 0.6493489077942732 -0.4738409808049195
263.0267991895382 0.6336413677651982 -0.4784535725811877 0.36635863223480186 0.4784535725811877 0.36635863223480186 0.4784535725811877 0.6336413677651982 -0.4784535725811877
272.27013080779125 0.6176464607022331 -0.48258500053210107 0.3823535392977671 0.48258500053210107 0.3823535392977671 0.48258500053210107 0.6176464607022331 -0.48258500053210107
281.83829312644536 0.6013944611427822 -0.4862132162787417 0.39860553885721794 0.4862132162787417 0.39860553885721794 0.4862132162787417 0.6013944611427822 -0.4862132162787417
291.7427014001167 0.5849178034051676 -0.4893185014500291 0.4150821965948325 0.4893185014500291 0.4150821965948325 0.4893185014500291 0.5849178034051676 -0.4893185014500291
301.9951720402016 0.5682508490968896 -0.4918837180774946 0.4317491509031104 0.4918837180774946 0.4317491509031104 0.4918837180774946 0.5682508490968896 -0.4918837180774946
312.6079367123955 0.5514296208065488 -0.4938945311163781 0.4485703791934513 0.4938945311163781 0.4485703791934513 0.4938945311163781 0.5514296208065488 -0.4938945311163781
323.59365692962825 0.5344915059725937 -0.495339597906072 0.46550849402740635 0.495339597906072 0.46550849402740635 0.495339597906072 0.5344915059725937 -0.495339597906072
334.96543915782763 0.5174749358114361 -0.49621072005228367 0.48252506418856395 0.49621072005228367 0.48252506418856395 0.49621072005228367 0.5174749358114361 -0.49621072005228367
346.7368504525316 0.5004190449471713 -0.49650295405039524 0.4995809550528286 0.49650295405039524 0.4995809550528286 0.49650295405039524 0.5004190449471713 -0.49650295405039524
358.9219346450052 0.4833633179809049 -0.4962146779458353 0.5166366820190952 0.4962146779458353 0.5166366820190952 0.4962146779458353 0.4833633179809049 -0.4962146779458353
371.53522909717253 0.4663472296421545 -0.49534761240676095 0.5336527703578456 0.49534761240676095 0.5336527703578456 0.49534761240676095 0.4663472296421545 -0.49534761240676095
384.59178204535357 0.4494098853595243 -0.49390679572536783 0.5505901146404757 0.49390679572536783 0.5505901146404757 0.49390679572536783 0.4494098853595243 -0.49390679572536783
398.10717055349727 0.4325896690641531 -0.49190051342174806 0.5674103309358469 0.49190051342174806 0.5674103309358469 0.49190051342174806 0.4325896690641531 -0.49190051342174806
412.0975190973302 0.41592390479914987 -0.4893401842527675 0.5840760952008502 0.4893401842527675 0.5840760952008502 0.4893401842527675 0.41592390479914987 -0.4893401842527675
426.5795188015926 0.3994485382633933 -0.4862402054840677 0.6005514617366065 0.4862402054840677 0.6005514617366065 0.4862402054840677 0.3994485382633933 -0.4862402054840677
441.57044735331243 0.38319784379010186 -0.4826177612264425 0.6168021562098983 0.4826177612264425 0.6168021562098983 0.4826177612264425 0.38319784379010186 -0.4826177612264425
457.0881896148751 0.36720416147890594 -0.47849259843521125 0.6327958385210942 0.47849259843521125 0.6327958385210942 0.47849259843521125 0.36720416147890594 -0.47849259843521125
473.15125896148055 0.351497668300228 -0.4738867757974906 0.6485023316997719 0.4738867757974906 0.6485023316997719 0.4738867757974906 0.351497668300228 -0.4738867757974906
489.77881936844625 0.3361061860119758 -0.46882439117106117 0.6638938139880242 0.46882439117106117 0.6638938139880242 0.46882439117106117 0.3361061860119758 -0.46882439117106117
506.9907082747043 0.321055027711793 -0.46333129348287316 0.6789449722882069 0.46333129348287316 0.6789449722882069 0.46333129348287316 0.321055027711793 -0.46333129348287316
524.8074602497726 0.3063668838335592 -0.45743478504731055 0.693633116166441 0.45743478504731055 0.693633116166441 0.45743478504731055 0.3063668838335592 -0.45743478504731055
543.2503314924331 0.29206174742191376 -0.4511633201348021 0.7079382525780862 0.4511633201348021 0.7079382525780862 0.4511633201348021 0.29206174742191376 -0.4511633201348021
562.3413251903492 0.2781568776160854 -0.4445462053280915 0.7218431223839146 0.4445462053280915 0.7218431223839146 0.4445462053280915 0.2781568776160854 -0.4445462053280915
582.1032177708714 0.26466679947128724 -0.4376133067700714 0.7353332005287129 0.4376133067700714 0.7353332005287129 0.4376133067700714 0.26466679947128724 -0.4376133067700714
602.5595860743578 0.2516033375625625 -0.4303947688610707 0.7483966624374376 0.4303947688610707 0.7483966624374376 0.4303947688610707 0.2516033375625625 -0.4303947688610707
623.7348354824193 0.23897568026550142 -0.42292074833462506 0.7610243197344985 0.42292074833462506 0.7610243197344985 0.42292074833462506 0.23897568026550142 -0.42292074833462506
645.6542290346556 0.2267904711968452 -0.4152211669591966 0.773209528803155 0.4152211669591966 0.773209528803155 0.4152211669591966 0.2267904711968452 -0.4152211669591966
668.3439175686148 0.2150519240253729 -0.4073254854081692 0.7849480759746271 0.4073254854081692 0.7849480759746271 0.4073254854081692 0.2150519240253729 -0.4073254854081692
691.8309709189366 0.20376195672362185 -0.3992625001383731 0.7962380432763779 0.3992625001383731 0.7962380432763779 0.3992625001383731 0.20376195672362185 -0.3992625001383731
716.1434102129019 0.19292034131324118 -0.3910601644417164 0.8070796586867589 0.3910601644417164 0.8070796586867589 0.3910601644417164 0.19292034131324118 -0.3910601644417164
741.3102413009174 0.18252486524687558 -0.38274543420447144 0.8174751347531244 0.38274543420447144 0.8174751347531244 0.38274543420447144 0.18252486524687558 -0.38274543420447144
767.3614893618189 0.1725715007508258 -0.37434413833925867 0.8274284992491744 0.37434413833925867 0.8274284992491744 0.37434413833925867 0.1725715007508258 -0.37434413833925867
794.3282347242814 0.16305457870742696 -0.3658808733561829 0.8369454212925731 0.3658808733561829 0.8369454212925731 0.3658808733561829 0.16305457870742696 -0.3658808733561829
822.2426499470711 0.1539669639660515 -0.357378921118142 0.8460330360339483 0.357378921118142 0.8460330360339483 0.357378921118142 0.1539669639660515 -0.357378921118142
851.1380382023765 0.14530022931933004 -0.34886018848330647 0.8546997706806698 0.34886018848330647 0.8546997706806698 0.34886018848330647 0.14530022931933004 -0.34886018848330647
881.0488730080142 0.137044825750411 -0.3403451672741958 0.862955174249589 0.3403451672741958 0.862955174249589 0.3403451672741958 0.137044825750411 -0.3403451672741958
912.0108393559099 0.1291902469334169 -0.3318529128238929 0.870809753066583 0.3318529128238929 0.870809753066583 0.3318529128238929 0.1291902469334169 -0.3318529128238929
944.0608762859234 0.12172518634037377 -0.3234010392299023 0.8782748136596262 0.3234010392299023 0.8782748136596262 0.3234010392299023 0.12172518634037377 -0.3234010392299023
977.2372209558108 0.11463768566375185 -0.3150057293876826 0.8853623143362483 0.3150057293876826 0.8853623143362483 0.3150057293876826 0.11463768566375185 -0.3150057293876826
1011.5794542598987 0.10791527359653295 -0.3066817578707408 0.8920847264034671 0.3066817578707408 0.8920847264034671 0.3066817578707408 0.10791527359653295 -0.3066817578707408
1047.1285480508998 0.10154509431580219 -0.29844252476377103 0.8984549056841977 0.29844252476377103 0.8984549056841977 0.29844252476377103 0.10154509431580219 -0.29844252476377103
1083.9269140212034 0.09551402528757191 -0.2903000986310763 0.9044859747124282 0.2903000986310763 0.9044859747124282 0.2903000986310763 0.09551402528757191 -0.2903000986310763
1122.0184543019632 0.08980878424799259 -0.2822652669062184 0.9101912157520072 0.2822652669062184 0.9101912157520072 0.2822652669062184 0.08980878424799259 -0.2822652669062184
1161.4486138403427 0.08441602541882111 -0.27434759211289667 0.9155839745811789 0.27434759211289667 0.9155839745811789 0.27434759211289667 0.08441602541882111 -0.27434759211289667
1202.2644346174127 0.07932242518377015 -0.2665554724646339 0.9206775748162297 0.2665554724646339 0.9206775748162297 0.2665554724646339 0.07932242518377015 -0.2665554724646339
1244.514611771385 0.07451475758881604 -0.2588962055360168 0.925485242411184 0.2588962055360168 0.925485242411184 0.2588962055360168 0.07451475758881604 -0.2588962055360168
1288.249551693134 0.06997996013604392 -0.2513760538459579 0.9300200398639562 0.2513760538459579 0.9300200398639562 0.2513760538459579 0.06997996013604392 -0.2513760538459579
1333.5214321633239 0.06570519041993624 -0.24400031133959174 0.9342948095800638 0.24400031133959174 0.9342948095800638 0.24400031133959174 0.06570519041993624 -0.24400031133959174
1380.384264602885 0.06167787421021671 -0.23677336989673048 0.9383221257897832 0.23677336989673048 0.9383221257897832 0.23677336989673048 0.06167787421021671 -0.23677336989673048
1428.893958511103 0.05788574561956962 -0.22969878512880376 0.9421142543804305 0.22969878512880376 0.9421142543804305 0.22969878512880376 0.05788574561956962 -0.22969878512880376
1479.1083881682075 0.054316880010866174 -0.2227793408511144 0.9456831199891338 0.2227793408511144 0.9456831199891338 0.2227793408511144 0.054316880010866174 -0.2227793408511144
1531.0874616820304 0.05095972029992554 -0.21601711173190397 0.9490402797000745 0.21601711173190397 0.9490402797000745 0.21601711173190397 0.05095972029992554 -0.21601711173190397
1584.8931924611136 0.0478030972990769 -0.2094135237234703 0.9521969027009232 0.2094135237234703 0.9521969027009232 0.2094135237234703 0.0478030972990769 -0.2094135237234703
1640.5897731995396 0.044836244726423655 -0.20296941197320528 0.9551637552735762 0.20296941197320528 0.9551637552735762 0.20296941197320528 0.044836244726423655 -0.20296941197320528
1698.2436524617442 0.042048809477991625 -0.19668507599400845 0.9579511905220083 0.19668507599400845 0.9579511905220083 0.19668507599400845 0.042048809477991625 -0.19668507599400845
1757.9236139586924 0.03943085772687205 -0.19056033194446187 0.9605691422731278 0.19056033194446187 0.9605691422731278 0.19056033194446187 0.03943085772687205 -0.19056033194446187
1819.7008586099835 0.03697287737676306 -0.1845945619299708 0.9630271226232369 0.1845945619299708 0.9630271226232369 0.1845945619299708 0.03697287737676306 -0.1845945619299708
1883.6490894898002 0.034665777358424354 -0.17878676028746698 0.9653342226415756 0.17878676028746698 0.9653342226415756 0.17878676028746698 0.034665777358424354 -0.17878676028746698
1949.8445997580454 0.03250088421770851 -0.17313557685901917 0.9674991157822916 0.17313557685901917 0.9674991157822916 0.17313557685901917 0.03250088421770851 -0.17313557685901917
2018.3663636815609 0.03046993640400056 -0.1676393572946025 0.9695300635959995 0.1676393572946025 0.9695300635959995 0.1676393572946025 0.03046993640400056 -0.1676393572946025
2089.29613085404 0.028565076628884845 -0.1622961804521895 0.9714349233711155 0.1622961804521895 0.9714349233711155 0.1622961804521895 0.028565076628884845 -0.1622961804521895
2162.7185237270205 0.026778842627268064 -0.1571038929850543 0.973221157372732 0.1571038929850543 0.973221157372732 0.1571038929850543 0.026778842627268064 -0.1571038929850543
2238.7211385683395 0.0251041566174857 -0.15206014122253067 0.9748958433825142 0.15206014122253067 0.9748958433825142 0.15206014122253067 0.0251041566174857 -0.15206014122253067
2317.394649968479 0.023534313723426174 -0.147162400462188 0.976465686276574 0.147162400462188 0.976465686276574 0.147162400462188 0.023534313723426174 -0.147162400462188
2398.832919019491 0.02206296959063587 -0.14240800179920132 0.9779370304093641 0.14240800179920132 0.9779370304093641 0.14240800179920132 0.02206296959063587 -0.14240800179920132
2483.1331052955707 0.020684127399831043 -0.1377941566232375 0.979315872600169 0.1377941566232375 0.979315872600169 0.1377941566232375 0.020684127399831043 -0.1377941566232375
2570.3957827688632 0.019392124455275238 -0.13331797891507044 0.9806078755447248 0.13331797891507044 0.9806078755447248 0.13331797891507044 0.019392124455275238 -0.13331797891507044
2660.725059798809 0.01818161850204592 -0.12897650547489814 0.981818381497954 0.12897650547489814 0.981818381497954 0.12897650547489814 0.01818161850204592 -0.12897650547489814
2754.2287033381663 0.017047573905226758 -0.12476671421244852 0.9829524260947734 0.12476671421244852 0.9829524260947734 0.12476671421244852 0.017047573905226758 -0.12476671421244852
2851.018267503909 0.01598524780538876 -0.12068554062584158 0.9840147521946112 0.12068554062584158 0.9840147521946112 0.12068554062584158 0.01598524780538876 -0.12068554062584158
2951.209226666386 0.014990176348201394 -0.11672989259217618 0.9850098236517986 0.11672989259217618 0.9850098236517986 0.11672989259217618 0.014990176348201394 -0.11672989259217618
3054.9211132155133 0.014058161071459135 -0.11289666358823311 0.9859418389285407 0.11289666358823311 0.9859418389285407 0.11289666358823311 0.014058161071459135 -0.11289666358823311
3162.277660168379 0.013185255520017359 -0.10918274445476521 0.9868147444799827 0.10918274445476521 0.9868147444799827 0.10918274445476521 0.013185255520017359 -0.10918274445476521
3273.406948788382 0.012367752147902051 -0.10558503381277441 0.9876322478520979 0.10558503381277441 0.9876322478520979 0.10558503381277441 0.012367752147902051 -0.10558503381277441
3388.4415613920255 0.01160216955698722 -0.1021004472350865 0.9883978304430127 0.1021004472350865 0.9883978304430127 0.1021004472350865 0.01160216955698722 -0.1021004472350865
3507.5187395256803 0.010885240112931242 -0.09872592527152736 0.9891147598870688 0.09872592527152736 0.9891147598870688 0.09872592527152736 0.010885240112931242 -0.09872592527152736
3630.7805477010143 0.010213897971352748 -0.09545844042113222 0.9897861020286474 0.09545844042113222 0.9897861020286474 0.09545844042113222 0.010213897971352748 -0.09545844042113222
3758.374042884442 0.00958526754035088 -0.09229500314010457 0.9904147324596492 0.09229500314010457 0.9904147324596492 0.09229500314010457 0.00958526754035088 -0.09229500314010457
3890.451449942807 0.008996652399304078 -0.08923266696969168 0.9910033476006961 0.08923266696969168 0.9910033476006961 0.08923266696969168 0.008996652399304078 -0.08923266696969168
4027.170343254592 0.008445524688305518 -0.08626853286372939 0.9915544753116945 0.08626853286372939 0.9915544753116945 0.08626853286372939 0.008445524688305518 -0.08626853286372939
4168.693834703356 0.007929514977532486 -0.08339975279131652 0.9920704850224673 0.08339975279131652 0.9920704850224673 0.08339975279131652 0.007929514977532486 -0.08339975279131652
4315.190768277653 0.007446402621240174 -0.08062353268586504 0.9925535973787598 0.08062353268586504 0.9925535973787598 0.08062353268586504 0.007446402621240174 -0.08062353268586504
