!Murata Part Number: RHEL81H335K3M1H03A
!These Parameters are Measured in Series Mode Connection
!       o--ll--o
!Port1            Port2
!       o------o
!Operation Temp=25[degC], DC Bias Voltage=0[V]
!Freq. Start=100[Hz] Stop=100[MHz], 401[Steps]
!Data Generated on Jun 1, 2023
# Hz S RI R 50
!Freq.(Hz) S11(Real) S11(Imag) S21(Real) S21(Imag) S12(Real) S12(Imag) S22(Real) S22(Imag)
100.0 0.9610791298214181 -0.19082932961775298 0.03892087017858208 0.19082932961775298 0.03892087017858208 0.19082932961775298 0.9610791298214181 -0.19082932961775298
103.51421666793439 0.9584562013727367 -0.19696438603618366 0.041543798627263435 0.19696438603618366 0.041543798627263435 0.19696438603618366 0.9584562013727367 -0.19696438603618366
107.15193052376064 0.9556635420575459 -0.20325908644094767 0.04433645794245416 0.20325908644094767 0.04433645794245416 0.20325908644094767 0.9556635420575459 -0.20325908644094767
110.9174815262401 0.9526912297370472 -0.20971361850518147 0.047308770262952694 0.20971361850518147 0.047308770262952694 0.20971361850518147 0.9526912297370472 -0.20971361850518147
114.81536214968828 0.9495289234182958 -0.21632768959618232 0.05047107658170416 0.21632768959618232 0.05047107658170416 0.21632768959618232 0.9495289234182958 -0.21632768959618232
118.85022274370185 0.9461658690191208 -0.22310047487415774 0.053834130980879163 0.22310047487415774 0.053834130980879163 0.22310047487415774 0.9461658690191208 -0.22310047487415774
123.02687708123815 0.9425909092164495 -0.23003056250984197 0.05740909078355057 0.23003056250984197 0.05740909078355057 0.23003056250984197 0.9425909092164495 -0.23003056250984197
127.35030810166617 0.9387924979278355 -0.23711589615806958 0.06120750207216459 0.23711589615806958 0.06120750207216459 0.23711589615806958 0.9387924979278355 -0.23711589615806958
131.8256738556407 0.9347587200094474 -0.24435371489105798 0.06524127999055246 0.24435371489105798 0.06524127999055246 0.24435371489105798 0.9347587200094474 -0.24435371489105798
136.45831365889245 0.9304773167827205 -0.25174049087202116 0.06952268321727942 0.25174049087202116 0.06952268321727942 0.25174049087202116 0.9304773167827205 -0.25174049087202116
141.25375446227542 0.9259357180245378 -0.2592718651372694 0.07406428197546211 0.2592718651372694 0.07406428197546211 0.2592718651372694 0.9259357180245378 -0.2592718651372694
146.21771744567184 0.9211210810701285 -0.26694258195344417 0.07887891892987167 0.26694258195344417 0.07887891892987167 0.26694258195344417 0.9211210810701285 -0.26694258195344417
151.35612484362082 0.9160203376815091 -0.27474642232594965 0.08397966231849076 0.27474642232594965 0.08397966231849076 0.27474642232594965 0.9160203376815091 -0.27474642232594965
156.6751070108149 0.9106202493246822 -0.2826761373546852 0.08937975067531775 0.2826761373546852 0.08937975067531775 0.2826761373546852 0.9106202493246822 -0.2826761373546852
162.181009735893 0.9049074714730744 -0.29072338226303907 0.09509252852692554 0.29072338226303907 0.09509252852692554 0.29072338226303907 0.9049074714730744 -0.29072338226303907
167.88040181225603 0.8988686275098692 -0.2988786520645115 0.1011313724901308 0.2988786520645115 0.1011313724901308 0.2988786520645115 0.8988686275098692 -0.2988786520645115
173.78008287493756 0.8924903927347319 -0.3071312199763635 0.10750960726526809 0.3071312199763635 0.10750960726526809 0.3071312199763635 0.8924903927347319 -0.3071312199763635
179.88709151287878 0.8857595888877836 -0.3154690798387112 0.11424041111221625 0.3154690798387112 0.11424041111221625 0.3154690798387112 0.8857595888877836 -0.3154690798387112
186.20871366628674 0.878663289482384 -0.32387889394702946 0.12133671051761596 0.32387889394702946 0.12133671051761596 0.32387889394702946 0.878663289482384 -0.32387889394702946
192.7524913190936 0.8711889360854533 -0.33234594785174926 0.12881106391454666 0.33234594785174926 0.12881106391454666 0.33234594785174926 0.8711889360854533 -0.33234594785174926
199.526231496888 0.8633244654972408 -0.34085411381517405 0.13667553450275913 0.34085411381517405 0.13667553450275913 0.34085411381517405 0.8633244654972408 -0.34085411381517405
206.53801558105292 0.8550584475598371 -0.3493858247369746 0.14494155244016305 0.3493858247369746 0.14494155244016305 0.3493858247369746 0.8550584475598371 -0.3493858247369746
213.79620895022322 0.8463802330645159 -0.35792206045771535 0.15361976693548418 0.35792206045771535 0.15361976693548418 0.35792206045771535 0.8463802330645159 -0.35792206045771535
221.30947096056377 0.8372801109326046 -0.3664423484169733 0.16271988906739546 0.3664423484169733 0.16271988906739546 0.3664423484169733 0.8372801109326046 -0.3664423484169733
229.08676527677733 0.827749473515027 -0.3749247806696395 0.1722505264849729 0.3749247806696395 0.1722505264849729 0.3749247806696395 0.827749473515027 -0.3749247806696395
237.13737056616552 0.8177809884959156 -0.3833460492414413 0.18221901150408448 0.3833460492414413 0.18221901150408448 0.3833460492414413 0.8177809884959156 -0.3833460492414413
245.47089156850305 0.8073687755019058 -0.39168150172293487 0.19263122449809422 0.39168150172293487 0.19263122449809422 0.39168150172293487 0.8073687755019058 -0.39168150172293487
254.09727055493053 0.7965085851196333 -0.39990521885087565 0.2034914148803667 0.39990521885087565 0.2034914148803667 0.39990521885087565 0.7965085851196333 -0.39990521885087565
263.0267991895382 0.7851979776208842 -0.4079901155985766 0.21480202237911586 0.4079901155985766 0.21480202237911586 0.4079901155985766 0.7851979776208842 -0.4079901155985766
272.27013080779125 0.7734364983019664 -0.4159080669858289 0.22656350169803355 0.4159080669858289 0.22656350169803355 0.4159080669858289 0.7734364983019664 -0.4159080669858289
281.83829312644536 0.7612258459778525 -0.42363005941979376 0.23877415402214747 0.42363005941979376 0.23877415402214747 0.42363005941979376 0.7612258459778525 -0.42363005941979376
291.7427014001167 0.7485700308515324 -0.4311263678898331 0.2514299691484676 0.4311263678898331 0.2514299691484676 0.4311263678898331 0.7485700308515324 -0.4311263678898331
301.9951720402016 0.7354755177254982 -0.4383667587644047 0.2645244822745018 0.4383667587644047 0.2645244822745018 0.4383667587644047 0.7354755177254982 -0.4383667587644047
312.6079367123955 0.7219513503569566 -0.44532071728455974 0.2780486496430434 0.44532071728455974 0.2780486496430434 0.44532071728455974 0.7219513503569566 -0.44532071728455974
323.59365692962825 0.7080092527025402 -0.45195769812925307 0.2919907472974598 0.45195769812925307 0.2919907472974598 0.45195769812925307 0.7080092527025402 -0.45195769812925307
334.96543915782763 0.6936637028717363 -0.4582473966612382 0.3063362971282636 0.4582473966612382 0.3063362971282636 0.4582473966612382 0.6936637028717363 -0.4582473966612382
346.7368504525316 0.6789319758275929 -0.46416003767306097 0.32106802417240704 0.46416003767306097 0.32106802417240704 0.46416003767306097 0.6789319758275929 -0.46416003767306097
358.9219346450052 0.6638341512504652 -0.46966667766998066 0.33616584874953476 0.46966667766998066 0.33616584874953476 0.46966667766998066 0.6638341512504652 -0.46966667766998066
371.53522909717253 0.6483930835212587 -0.47473951598422753 0.3516069164787413 0.47473951598422753 0.3516069164787413 0.47473951598422753 0.6483930835212587 -0.47473951598422753
384.59178204535357 0.6326343314828273 -0.4793522093493105 0.36736566851717256 0.4793522093493105 0.36736566851717256 0.4793522093493105 0.6326343314828273 -0.4793522093493105
398.10717055349727 0.6165860464911241 -0.48348018401156734 0.3834139535088758 0.48348018401156734 0.3834139535088758 0.48348018401156734 0.6165860464911241 -0.48348018401156734
412.0975190973302 0.600278818251379 -0.4871009390549216 0.399721181748621 0.4871009390549216 0.399721181748621 0.4871009390549216 0.600278818251379 -0.4871009390549216
426.5795188015926 0.5837454790196743 -0.49019433439626303 0.4162545209803257 0.49019433439626303 0.4162545209803257 0.49019433439626303 0.5837454790196743 -0.49019433439626303
441.57044735331243 0.5670208678990868 -0.49274285689904535 0.43297913210091316 0.49274285689904535 0.43297913210091316 0.49274285689904535 0.5670208678990868 -0.49274285689904535
457.0881896148751 0.5501415581272828 -0.4947318582690089 0.4498584418727173 0.4947318582690089 0.4498584418727173 0.4947318582690089 0.5501415581272828 -0.4947318582690089
473.15125896148055 0.5331455513896347 -0.49614975884516044 0.46685444861036524 0.49614975884516044 0.46685444861036524 0.49614975884516044 0.5331455513896347 -0.49614975884516044
489.77881936844625 0.5160719442470143 -0.49698821207608385 0.48392805575298564 0.49698821207608385 0.48392805575298564 0.49698821207608385 0.5160719442470143 -0.49698821207608385
506.9907082747043 0.4989605726901349 -0.49724222535860435 0.5010394273098653 0.49724222535860435 0.5010394273098653 0.49724222535860435 0.4989605726901349 -0.49724222535860435
524.8074602497726 0.48185164157678556 -0.496910233982953 0.5181483584232144 0.496910233982953 0.5181483584232144 0.496910233982953 0.48185164157678556 -0.496910233982953
543.2503314924331 0.4647853462363884 -0.4959941261351785 0.5352146537636117 0.4959941261351785 0.5352146537636117 0.4959941261351785 0.4647853462363884 -0.4959941261351785
562.3413251903492 0.44780149381016016 -0.4944992182043369 0.5521985061898398 0.4944992182043369 0.5521985061898398 0.4944992182043369 0.44780149381016016 -0.4944992182043369
582.1032177708714 0.4309391319194895 -0.4924341809739217 0.5690608680805105 0.4924341809739217 0.5690608680805105 0.4924341809739217 0.4309391319194895 -0.4924341809739217
602.5595860743578 0.41423619201807027 -0.4898109185867653 0.5857638079819297 0.4898109185867653 0.5857638079819297 0.4898109185867653 0.41423619201807027 -0.4898109185867653
623.7348354824193 0.3977291542968822 -0.4866444034042043 0.602270845703118 0.4866444034042043 0.602270845703118 0.4866444034042043 0.3977291542968822 -0.4866444034042043
645.6542290346556 0.3814527403000073 -0.48295247098248517 0.6185472596999926 0.48295247098248517 0.6185472596999926 0.48295247098248517 0.3814527403000073 -0.48295247098248517
668.3439175686148 0.3654396385094097 -0.4787555803188439 0.6345603614905903 0.4787555803188439 0.6345603614905903 0.4787555803188439 0.3654396385094097 -0.4787555803188439
691.8309709189366 0.34972026711247445 -0.4740765452434517 0.6502797328875254 0.4740765452434517 0.6502797328875254 0.4740765452434517 0.34972026711247445 -0.4740765452434517
716.1434102129019 0.33432257702709994 -0.468940243330383 0.6656774229729 0.468940243330383 0.6656774229729 0.468940243330383 0.33432257702709994 -0.468940243330383
741.3102413009174 0.31927189707731846 -0.4633733089623769 0.6807281029226814 0.4633733089623769 0.6807281029226814 0.4633733089623769 0.31927189707731846 -0.4633733089623769
767.3614893618189 0.30459082203857274 -0.45740381721415574 0.6954091779614273 0.45740381721415574 0.6954091779614273 0.45740381721415574 0.30459082203857274 -0.45740381721415574
794.3282347242814 0.29029914315261174 -0.45106096503228504 0.7097008568473884 0.45106096503228504 0.7097008568473884 0.45106096503228504 0.29029914315261174 -0.45106096503228504
822.2426499470711 0.27641381968782114 -0.4443747558102334 0.7235861803121789 0.4443747558102334 0.7235861803121789 0.4443747558102334 0.27641381968782114 -0.4443747558102334
851.1380382023765 0.2629489892237775 -0.43737569291668765 0.7370510107762225 0.43737569291668765 0.7370510107762225 0.43737569291668765 0.2629489892237775 -0.43737569291668765
881.0488730080142 0.2499160135919058 -0.4300944870692018 0.7500839864080943 0.4300944870692018 0.7500839864080943 0.4300944870692018 0.2499160135919058 -0.4300944870692018
912.0108393559099 0.23732355682090103 -0.4225617816918333 0.7626764431790991 0.4225617816918333 0.7626764431790991 0.4225617816918333 0.23732355682090103 -0.4225617816918333
944.0608762859234 0.2251776910204958 -0.41480789959222425 0.7748223089795042 0.41480789959222425 0.7748223089795042 0.41480789959222425 0.2251776910204958 -0.41480789959222425
977.2372209558108 0.21348202588660192 -0.40686261347599445 0.7865179741133981 0.40686261347599445 0.7865179741133981 0.40686261347599445 0.21348202588660192 -0.40686261347599445
1011.5794542598987 0.2022378574142962 -0.3987549420158483 0.7977621425857038 0.3987549420158483 0.7977621425857038 0.3987549420158483 0.2022378574142962 -0.3987549420158483
1047.1285480508998 0.19144433144672415 -0.3905129724359884 0.808555668553276 0.3905129724359884 0.808555668553276 0.3905129724359884 0.19144433144672415 -0.3905129724359884
1083.9269140212034 0.18109861784822223 -0.3821637098802273 0.8189013821517775 0.3821637098802273 0.8189013821517775 0.3821637098802273 0.18109861784822223 -0.3821637098802273
1122.0184543019632 0.17119609134710767 -0.37373295321975 0.8288039086528922 0.37373295321975 0.8288039086528922 0.37373295321975 0.17119609134710767 -0.37373295321975
1161.4486138403427 0.16173051542523673 -0.36524519643334025 0.8382694845747635 0.36524519643334025 0.8382694845747635 0.36524519643334025 0.16173051542523673 -0.36524519643334025
1202.2644346174127 0.15269422601568536 -0.35672355426351615 0.8473057739843147 0.35672355426351615 0.8473057739843147 0.35672355426351615 0.15269422601568536 -0.35672355426351615
1244.514611771385 0.1440783121862673 -0.34818971051636477 0.8559216878137327 0.34818971051636477 0.8559216878137327 0.34818971051636477 0.1440783121862673 -0.34818971051636477
1288.249551693134 0.13587279141677983 -0.339663887127298 0.8641272085832201 0.339663887127298 0.8641272085832201 0.339663887127298 0.13587279141677983 -0.339663887127298
1333.5214321633239 0.12806677750609788 -0.33116483195296176 0.8719332224939023 0.33116483195296176 0.8719332224939023 0.33116483195296176 0.12806677750609788 -0.33116483195296176
1380.384264602885 0.12064863955863554 -0.32270982316267427 0.8793513604413646 0.32270982316267427 0.8793513604413646 0.32270982316267427 0.12064863955863554 -0.32270982316267427
1428.893958511103 0.11360615088813973 -0.31431468808128976 0.8863938491118605 0.31431468808128976 0.8863938491118605 0.31431468808128976 0.11360615088813973 -0.31431468808128976
1479.1083881682075 0.10692662703292051 -0.3059938343690022 0.8930733729670796 0.3059938343690022 0.8930733729670796 0.3059938343690022 0.10692662703292051 -0.3059938343690022
1531.0874616820304 0.10059705239555822 -0.2977602915019463 0.8994029476044418 0.2977602915019463 0.8994029476044418 0.2977602915019463 0.10059705239555822 -0.2977602915019463
1584.8931924611136 0.09460419529913948 -0.2896257606305526 0.9053958047008605 0.2896257606305526 0.9053958047008605 0.2896257606305526 0.09460419529913948 -0.2896257606305526
1640.5897731995396 0.08893471149032627 -0.28160067103121034 0.9110652885096738 0.28160067103121034 0.9110652885096738 0.28160067103121034 0.08893471149032627 -0.28160067103121034
1698.2436524617442 0.08357523631767923 -0.27369424152252 0.9164247636823208 0.27369424152252 0.9164247636823208 0.27369424152252 0.08357523631767923 -0.27369424152252
1757.9236139586924 0.07851246597347614 -0.26591454538298115 0.921487534026524 0.26591454538298115 0.921487534026524 0.26591454538298115 0.07851246597347614 -0.26591454538298115
1819.7008586099835 0.07373322831146989 -0.2582685774761378 0.9262667716885302 0.2582685774761378 0.9262667716885302 0.2582685774761378 0.07373322831146989 -0.2582685774761378
1883.6490894898002 0.06922454384489092 -0.2507623224568892 0.9307754561551089 0.2507623224568892 0.9307754561551089 0.2507623224568892 0.06922454384489092 -0.2507623224568892
1949.8445997580454 0.06497367759214345 -0.24340082309477865 0.9350263224078564 0.24340082309477865 0.9350263224078564 0.24340082309477865 0.06497367759214345 -0.24340082309477865
2018.3663636815609 0.060968182475862644 -0.2361882479035314 0.9390318175241372 0.2361882479035314 0.9390318175241372 0.2361882479035314 0.060968182475862644 -0.2361882479035314
2089.29613085404 0.057195934998049154 -0.2291279574086667 0.9428040650019508 0.2291279574086667 0.9428040650019508 0.2291279574086667 0.057195934998049154 -0.2291279574086667
2162.7185237270205 0.05364516391353423 -0.22222256851523636 0.946354836086466 0.22222256851523636 0.946354836086466 0.22222256851523636 0.05364516391353423 -0.22222256851523636
2238.7211385683395 0.050304472609455336 -0.215474016554819 0.9496955273905446 0.215474016554819 0.9496955273905446 0.215474016554819 0.050304472609455336 -0.215474016554819
2317.394649968479 0.047162855872877 -0.2088836146945941 0.9528371441271231 0.2088836146945941 0.9528371441271231 0.2088836146945941 0.047162855872877 -0.2088836146945941
2398.832919019491 0.04420971169495192 -0.2024521104817866 0.9557902883050481 0.2024521104817866 0.9557902883050481 0.2024521104817866 0.04420971169495192 -0.2024521104817866
2483.1331052955707 0.0414348487205412 -0.196179739374563 0.9585651512794588 0.196179739374563 0.9585651512794588 0.196179739374563 0.0414348487205412 -0.196179739374563
2570.3957827688632 0.03882848990907475 -0.19006627517632127 0.9611715100909253 0.19006627517632127 0.9611715100909253 0.19006627517632127 0.03882848990907475 -0.19006627517632127
2660.725059798809 0.03638127292738059 -0.184111077345196 0.9636187270726195 0.184111077345196 0.9636187270726195 0.184111077345196 0.03638127292738059 -0.184111077345196
2754.2287033381663 0.03408424774965545 -0.17831313519553754 0.9659157522503444 0.17831313519553754 0.9659157522503444 0.17831313519553754 0.03408424774965545 -0.17831313519553754
2851.018267503909 0.031928871894811695 -0.17267110904420893 0.9680711281051885 0.17267110904420893 0.9680711281051885 0.17267110904420893 0.031928871894811695 -0.17267110904420893
2951.209226666386 0.029907003687956776 -0.16718336838284856 0.9700929963120434 0.16718336838284856 0.9700929963120434 0.16718336838284856 0.029907003687956776 -0.16718336838284856
3054.9211132155133 0.028010893891369827 -0.16184802717884858 0.97198910610863 0.16184802717884858 0.97198910610863 0.16184802717884858 0.028010893891369827 -0.16184802717884858
3162.277660168379 0.026233176011439527 -0.15666297642364502 0.9737668239885606 0.15666297642364502 0.9737668239885606 0.15666297642364502 0.026233176011439527 -0.15666297642364502
3273.406948788382 0.024566855551887232 -0.151625914057962 0.9754331444481129 0.151625914057962 0.9754331444481129 0.151625914057962 0.024566855551887232 -0.151625914057962
3388.4415613920255 0.023005298450329507 -0.14673437241068377 0.9769947015496706 0.14673437241068377 0.9769947015496706 0.14673437241068377 0.023005298450329507 -0.14673437241068377
3507.5187395256803 0.02154221890486058 -0.1419857432917886 0.9784577810951394 0.1419857432917886 0.9784577810951394 0.1419857432917886 0.02154221890486058 -0.1419857432917886
3630.7805477010143 0.02017166676979785 -0.1373773008809056 0.9798283332302021 0.1373773008809056 0.9798283332302021 0.1373773008809056 0.02017166676979785 -0.1373773008809056
3758.374042884442 0.018888014674914733 -0.13290622255207543 0.981111985325085 0.13290622255207543 0.981111985325085 0.13290622255207543 0.018888014674914733 -0.13290622255207543
3890.451449942807 0.017685945000239803 -0.12856960777269372 0.9823140549997603 0.12856960777269372 0.9823140549997603 0.12856960777269372 0.017685945000239803 -0.12856960777269372
4027.170343254592 0.01656043681864877 -0.12436449521075639 0.9834395631813512 0.12436449521075639 0.9834395631813512 0.12436449521075639 0.01656043681864877 -0.12436449521075639
4168.693834703356 0.015506752900837528 -0.12028787817973899 0.9844932470991626 0.12028787817973899 0.9844932470991626 0.12028787817973899 0.015506752900837528 -0.12028787817973899
4315.190768277653 0.014520426861651179 -0.11633671854498343 0.9854795731383487 0.11633671854498343 0.9854795731383487 0.11633671854498343 0.014520426861651179 -0.11633671854498343
