!Murata Part Number: RHEL81H335K3A2H03B
!These Parameters are Measured in Series Mode Connection
!       o--ll--o
!Port1            Port2
!       o------o
!Operation Temp=25[degC], DC Bias Voltage=0[V]
!Freq. Start=100[Hz] Stop=100[MHz], 401[Steps]
!Data Generated on Jun 1, 2023
# Hz S RI R 50
!Freq.(Hz) S11(Real) S11(Imag) S21(Real) S21(Imag) S12(Real) S12(Imag) S22(Real) S22(Imag)
100.0 0.9588017128216563 -0.19621790727921748 0.041198287178343715 0.19621790727921748 0.041198287178343715 0.19621790727921748 0.9588017128216563 -0.19621790727921748
103.51421666793439 0.9560234007225038 -0.20248409872908818 0.0439765992774962 0.20248409872908818 0.0439765992774962 0.20248409872908818 0.9560234007225038 -0.20248409872908818
107.15193052376064 0.9530675236312679 -0.20890898613816627 0.04693247636873211 0.20890898613816627 0.04693247636873211 0.20890898613816627 0.9530675236312679 -0.20890898613816627
110.9174815262401 0.9499239530891955 -0.2154924095414908 0.05007604691080437 0.2154924095414908 0.05007604691080437 0.2154924095414908 0.9499239530891955 -0.2154924095414908
114.81536214968828 0.9465821424042206 -0.2222337060436906 0.05341785759577945 0.2222337060436906 0.05341785759577945 0.2222337060436906 0.9465821424042206 -0.2222337060436906
118.85022274370185 0.9430311327481453 -0.2291316555458267 0.056968867251854655 0.2291316555458267 0.056968867251854655 0.2291316555458267 0.9430311327481453 -0.2291316555458267
123.02687708123815 0.9392595636814052 -0.2361844232528686 0.06074043631859488 0.2361844232528686 0.06074043631859488 0.2361844232528686 0.9392595636814052 -0.2361844232528686
127.35030810166617 0.9352556887476201 -0.24338949911903007 0.06474431125237987 0.24338949911903007 0.06474431125237987 0.24338949911903007 0.9352556887476201 -0.24338949911903007
131.8256738556407 0.9310073968181998 -0.250743634471946 0.06899260318180021 0.250743634471946 0.06899260318180021 0.250743634471946 0.9310073968181998 -0.250743634471946
136.45831365889245 0.9265022398983377 -0.2582427761527469 0.07349776010166244 0.2582427761527469 0.07349776010166244 0.2582427761527469 0.9265022398983377 -0.2582427761527469
141.25375446227542 0.9217274681275127 -0.26588199861770967 0.07827253187248732 0.26588199861770967 0.07827253187248732 0.26588199861770967 0.9217274681275127 -0.26588199861770967
146.21771744567184 0.9166700727174817 -0.2736554345682592 0.08332992728251831 0.2736554345682592 0.08332992728251831 0.2736554345682592 0.9166700727174817 -0.2736554345682592
151.35612484362082 0.9113168375658423 -0.2815562048092061 0.08868316243415784 0.2815562048092061 0.08868316243415784 0.2815562048092061 0.9113168375658423 -0.2815562048092061
156.6751070108149 0.9056544002604635 -0.2895763481793188 0.09434559973953638 0.2895763481793188 0.09434559973953638 0.2895763481793188 0.9056544002604635 -0.2895763481793188
162.181009735893 0.8996693231461128 -0.29770675255213697 0.10033067685388715 0.29770675255213697 0.10033067685388715 0.29770675255213697 0.8996693231461128 -0.29770675255213697
167.88040181225603 0.8933481750559935 -0.30593708806620334 0.10665182494400646 0.30593708806620334 0.10665182494400646 0.30593708806620334 0.8933481750559935 -0.30593708806620334
173.78008287493756 0.8866776242142133 -0.31425574390965194 0.11332237578578672 0.31425574390965194 0.11332237578578672 0.31425574390965194 0.8866776242142133 -0.31425574390965194
179.88709151287878 0.8796445426869918 -0.32264977015052726 0.12035545731300812 0.32264977015052726 0.12035545731300812 0.32264977015052726 0.8796445426869918 -0.32264977015052726
186.20871366628674 0.872236122597631 -0.33110482626650245 0.12776387740236914 0.33110482626650245 0.12776387740236914 0.33110482626650245 0.872236122597631 -0.33110482626650245
192.7524913190936 0.8644400041202697 -0.33960513817992954 0.1355599958797304 0.33960513817992954 0.1355599958797304 0.33960513817992954 0.8644400041202697 -0.33960513817992954
199.526231496888 0.8562444150283967 -0.34813346573944776 0.14375558497160315 0.34813346573944776 0.14375558497160315 0.34813346573944776 0.8562444150283967 -0.34813346573944776
206.53801558105292 0.8476383212951891 -0.3566710826996681 0.15236167870481093 0.3566710826996681 0.15236167870481093 0.3566710826996681 0.8476383212951891 -0.3566710826996681
213.79620895022322 0.8386115879246423 -0.36519777132674475 0.16138841207535765 0.36519777132674475 0.16138841207535765 0.36519777132674475 0.8386115879246423 -0.36519777132674475
221.30947096056377 0.8291551488375298 -0.37369183379019405 0.17084485116247022 0.37369183379019405 0.17084485116247022 0.37369183379019405 0.8291551488375298 -0.37369183379019405
229.08676527677733 0.8192611842489844 -0.38213012247985173 0.18073881575101552 0.38213012247985173 0.18073881575101552 0.38213012247985173 0.8192611842489844 -0.38213012247985173
237.13737056616552 0.8089233035619483 -0.39048809130106493 0.1910766964380518 0.39048809130106493 0.1910766964380518 0.39048809130106493 0.8089233035619483 -0.39048809130106493
245.47089156850305 0.7981367313725123 -0.3987398698412311 0.2018632686274879 0.3987398698412311 0.2018632686274879 0.3987398698412311 0.7981367313725123 -0.3987398698412311
254.09727055493053 0.7868984937518784 -0.4068583620578858 0.21310150624812174 0.4068583620578858 0.21310150624812174 0.4068583620578858 0.7868984937518784 -0.4068583620578858
263.0267991895382 0.7752076015507053 -0.41481537080584646 0.22479239844929472 0.41481537080584646 0.22479239844929472 0.41481537080584646 0.7752076015507053 -0.41481537080584646
272.27013080779125 0.7630652270831105 -0.42258174909430263 0.2369347729168895 0.42258174909430263 0.2369347729168895 0.42258174909430263 0.7630652270831105 -0.42258174909430263
281.83829312644536 0.7504748702099839 -0.4301275784436298 0.249525129790016 0.4301275784436298 0.249525129790016 0.4301275784436298 0.7504748702099839 -0.4301275784436298
291.7427014001167 0.7374425095765553 -0.437422374099945 0.2625574904234446 0.437422374099945 0.2625574904234446 0.437422374099945 0.7374425095765553 -0.437422374099945
301.9951720402016 0.7239767345900292 -0.44443531617197346 0.27602326540997074 0.44443531617197346 0.27602326540997074 0.44443531617197346 0.7239767345900292 -0.44443531617197346
312.6079367123955 0.7100888536717151 -0.4511355049942831 0.2899111463282849 0.4511355049942831 0.2899111463282849 0.4511355049942831 0.7100888536717151 -0.4511355049942831
323.59365692962825 0.6957929744046203 -0.457492238213855 0.30420702559537965 0.457492238213855 0.30420702559537965 0.457492238213855 0.6957929744046203 -0.457492238213855
334.96543915782763 0.6811060514385568 -0.46347530626956956 0.3188939485614432 0.46347530626956956 0.3188939485614432 0.46347530626956956 0.6811060514385568 -0.46347530626956956
346.7368504525316 0.6660478984218607 -0.46905530211792285 0.3339521015781392 0.46905530211792285 0.3339521015781392 0.46905530211792285 0.6660478984218607 -0.46905530211792285
358.9219346450052 0.6506411608064807 -0.47420394028869767 0.34935883919351923 0.47420394028869767 0.34935883919351923 0.47420394028869767 0.6506411608064807 -0.47420394028869767
371.53522909717253 0.6349112471179158 -0.47889437966953163 0.3650887528820842 0.47889437966953163 0.3650887528820842 0.47889437966953163 0.6349112471179158 -0.47889437966953163
384.59178204535357 0.6188862171806601 -0.48310154385702087 0.3811137828193399 0.48310154385702087 0.3811137828193399 0.48310154385702087 0.6188862171806601 -0.48310154385702087
398.10717055349727 0.6025966268211644 -0.48680243251108707 0.3974033731788357 0.48680243251108707 0.3974033731788357 0.48680243251108707 0.6025966268211644 -0.48680243251108707
412.0975190973302 0.5860753297022115 -0.48997641694137906 0.4139246702977884 0.48997641694137906 0.4139246702977884 0.48997641694137906 0.5860753297022115 -0.48997641694137906
426.5795188015926 0.5693572381348885 -0.4926055131651384 0.4306427618651117 0.4926055131651384 0.4306427618651117 0.4926055131651384 0.5693572381348885 -0.4926055131651384
441.57044735331243 0.5524790459200216 -0.49467462592164446 0.44752095407997833 0.49467462592164446 0.44752095407997833 0.49467462592164446 0.5524790459200216 -0.49467462592164446
457.0881896148751 0.5354789174386196 -0.4961717576143163 0.46452108256138025 0.4961717576143163 0.46452108256138025 0.4961717576143163 0.5354789174386196 -0.4961717576143163
473.15125896148055 0.518396148287507 -0.49708817687061535 0.48160385171249304 0.49708817687061535 0.48160385171249304 0.49708817687061535 0.518396148287507 -0.49708817687061535
489.77881936844625 0.5012708036907045 -0.49741854234210403 0.4987291963092953 0.49741854234210403 0.4987291963092953 0.49741854234210403 0.5012708036907045 -0.49741854234210403
506.9907082747043 0.4841433416630053 -0.49716097848008894 0.5158566583369947 0.49716097848008894 0.5158566583369947 0.49716097848008894 0.4841433416630053 -0.49716097848008894
524.8074602497726 0.4670542284217153 -0.496317101273129 0.5329457715782846 0.496317101273129 0.5329457715782846 0.496317101273129 0.4670542284217153 -0.496317101273129
543.2503314924331 0.4500435538087522 -0.49489199326981254 0.5499564461912478 0.49489199326981254 0.5499564461912478 0.49489199326981254 0.4500435538087522 -0.49489199326981254
562.3413251903492 0.43315065448417467 -0.492894128576642 0.5668493455158253 0.492894128576642 0.5668493455158253 0.492894128576642 0.43315065448417467 -0.492894128576642
582.1032177708714 0.41641375238377787 -0.49033524985786914 0.5835862476162219 0.49033524985786914 0.5835862476162219 0.49033524985786914 0.41641375238377787 -0.49033524985786914
602.5595860743578 0.3998696154114895 -0.48723020061470024 0.6001303845885104 0.48723020061470024 0.6001303845885104 0.48723020061470024 0.3998696154114895 -0.48723020061470024
623.7348354824193 0.38355324658889883 -0.4835967171338558 0.6164467534111012 0.4835967171338558 0.6164467534111012 0.4835967171338558 0.38355324658889883 -0.4835967171338558
645.6542290346556 0.36749760694720307 -0.479455185426814 0.6325023930527969 0.479455185426814 0.6325023930527969 0.479455185426814 0.36749760694720307 -0.479455185426814
668.3439175686148 0.35173337636736446 -0.4748283691988037 0.6482666236326357 0.4748283691988037 0.6482666236326357 0.4748283691988037 0.35173337636736446 -0.4748283691988037
691.8309709189366 0.3362887554037327 -0.46974111537065794 0.6637112445962673 0.46974111537065794 0.6637112445962673 0.46974111537065794 0.3362887554037327 -0.46974111537065794
716.1434102129019 0.32118930991787736 -0.4642200439197004 0.6788106900821225 0.4642200439197004 0.6788106900821225 0.4642200439197004 0.32118930991787736 -0.4642200439197004
741.3102413009174 0.3064578591545418 -0.45829322881312096 0.6935421408454581 0.45829322881312096 0.6935421408454581 0.45829322881312096 0.3064578591545418 -0.45829322881312096
767.3614893618189 0.29211440675764677 -0.4519898765951717 0.7078855932423532 0.4519898765951717 0.7078855932423532 0.4519898765951717 0.29211440675764677 -0.4519898765951717
794.3282347242814 0.27817611319151775 -0.4453400087836959 0.7218238868084823 0.4453400087836959 0.7218238868084823 0.4453400087836959 0.27817611319151775 -0.4453400087836959
822.2426499470711 0.2646573071328686 -0.4383741536646531 0.7353426928671314 0.4383741536646531 0.7353426928671314 0.4383741536646531 0.2646573071328686 -0.4383741536646531
851.1380382023765 0.2515695326550234 -0.4311230523825275 0.7484304673449768 0.4311230523825275 0.7484304673449768 0.4311230523825275 0.2515695326550234 -0.4311230523825275
881.0488730080142 0.23892162845019807 -0.4236173834486981 0.7610783715498021 0.4236173834486981 0.7610783715498021 0.4236173834486981 0.23892162845019807 -0.4236173834486981
912.0108393559099 0.22671983493206715 -0.4158875089674841 0.7732801650679328 0.4158875089674841 0.7732801650679328 0.4158875089674841 0.22671983493206715 -0.4158875089674841
944.0608762859234 0.21496792482468796 -0.40796324504650744 0.7850320751753119 0.40796324504650744 0.7850320751753119 0.40796324504650744 0.21496792482468796 -0.40796324504650744
977.2372209558108 0.20366735276370226 -0.3998736580460769 0.7963326472362975 0.3998736580460769 0.7963326472362975 0.3998736580460769 0.20366735276370226 -0.3998736580460769
1011.5794542598987 0.1928174194948246 -0.39164688755811866 0.8071825805051757 0.39164688755811866 0.8071825805051757 0.39164688755811866 0.1928174194948246 -0.39164688755811866
1047.1285480508998 0.18241544643251625 -0.38330999630959367 0.8175845535674836 0.38330999630959367 0.8175845535674836 0.38330999630959367 0.18241544643251625 -0.38330999630959367
1083.9269140212034 0.17245695661598032 -0.37488884657328897 0.8275430433840196 0.37488884657328897 0.8275430433840196 0.37488884657328897 0.17245695661598032 -0.37488884657328897
1122.0184543019632 0.16293585844706834 -0.3664080021495 0.8370641415529315 0.3664080021495 0.8370641415529315 0.3664080021495 0.16293585844706834 -0.3664080021495
1161.4486138403427 0.15384462899288842 -0.3578906545594307 0.8461553710071115 0.3578906545594307 0.8461553710071115 0.3578906545594307 0.15384462899288842 -0.3578906545594307
1202.2644346174127 0.14517449406391494 -0.3493585717645244 0.8548255059360852 0.3493585717645244 0.8548255059360852 0.3493585717645244 0.14517449406391494 -0.3493585717645244
1244.514611771385 0.13691560271758513 -0.340832067491157 0.8630843972824149 0.340832067491157 0.8630843972824149 0.340832067491157 0.13691560271758513 -0.340832067491157
1288.249551693134 0.12905719427181933 -0.33232998909006456 0.8709428057281805 0.33232998909006456 0.8709428057281805 0.33232998909006456 0.12905719427181933 -0.33232998909006456
1333.5214321633239 0.12158775632962099 -0.3238697217853986 0.8784122436703791 0.3238697217853986 0.8784122436703791 0.3238697217853986 0.12158775632962099 -0.3238697217853986
1380.384264602885 0.1144951727049192 -0.3154672071591037 0.8855048272950808 0.3154672071591037 0.8855048272950808 0.3154672071591037 0.1144951727049192 -0.3154672071591037
1428.893958511103 0.10776686049390968 -0.3071369737614874 0.8922331395060906 0.3071369737614874 0.8922331395060906 0.3071369737614874 0.10776686049390968 -0.3071369737614874
1479.1083881682075 0.10138989585075868 -0.29889217782755545 0.8986101041492415 0.29889217782755545 0.8986101041492415 0.29889217782755545 0.10138989585075868 -0.29889217782755545
1531.0874616820304 0.0953511282993443 -0.2907446522005532 0.9046488717006558 0.2907446522005532 0.9046488717006558 0.2907446522005532 0.0953511282993443 -0.2907446522005532
1584.8931924611136 0.08963728364332582 -0.2827049617095973 0.9103627163566744 0.2827049617095973 0.9103627163566744 0.2827049617095973 0.08963728364332582 -0.2827049617095973
1640.5897731995396 0.08423505572640715 -0.27478246340880325 0.9157649442735928 0.27478246340880325 0.9157649442735928 0.27478246340880325 0.08423505572640715 -0.27478246340880325
1698.2436524617442 0.0791311874455266 -0.26698537025352 0.9208688125544733 0.26698537025352 0.9208688125544733 0.26698537025352 0.0791311874455266 -0.26698537025352
1757.9236139586924 0.07431254153502817 -0.2593208169590443 0.9256874584649719 0.2593208169590443 0.9256874584649719 0.2593208169590443 0.07431254153502817 -0.2593208169590443
1819.7008586099835 0.06976616172338627 -0.2517949269535618 0.9302338382766138 0.2517949269535618 0.9302338382766138 0.2517949269535618 0.06976616172338627 -0.2517949269535618
1883.6490894898002 0.06547932491973299 -0.2444128794962102 0.9345206750802673 0.2444128794962102 0.9345206750802673 0.2444128794962102 0.06547932491973299 -0.2444128794962102
1949.8445997580454 0.061439585119369595 -0.23717897618034678 0.9385604148806304 0.23717897618034678 0.9385604148806304 0.23717897618034678 0.061439585119369595 -0.23717897618034678
2018.3663636815609 0.05763480972956685 -0.23009670617942743 0.9423651902704332 0.23009670617942743 0.9423651902704332 0.23009670617942743 0.05763480972956685 -0.23009670617942743
2089.29613085404 0.05405320901301892 -0.22316880971731112 0.945946790986981 0.22316880971731112 0.945946790986981 0.22316880971731112 0.05405320901301892 -0.22316880971731112
2162.7185237270205 0.050683359329720366 -0.21639733935583882 0.9493166406702797 0.21639733935583882 0.9493166406702797 0.21639733935583882 0.050683359329720366 -0.21639733935583882
2238.7211385683395 0.047514220831828005 -0.20978371879027202 0.9524857791681722 0.20978371879027202 0.9524857791681722 0.20978371879027202 0.047514220831828005 -0.20978371879027202
2317.394649968479 0.04453515023289996 -0.20332879892807684 0.9554648497671 0.20332879892807684 0.9554648497671 0.20332879892807684 0.04453515023289996 -0.20332879892807684
2398.832919019491 0.04173590923502083 -0.19703291109933846 0.9582640907649793 0.19703291109933846 0.9582640907649793 0.19703291109933846 0.04173590923502083 -0.19703291109933846
2483.1331052955707 0.0391066691565863 -0.1908959173087021 0.9608933308434137 0.1908959173087021 0.9608933308434137 0.1908959173087021 0.0391066691565863 -0.1908959173087021
2570.3957827688632 0.03663801226145765 -0.18491725749021679 0.9633619877385422 0.18491725749021679 0.9633619877385422 0.18491725749021679 0.03663801226145765 -0.18491725749021679
2660.725059798809 0.03432093024797755 -0.17909599376883362 0.9656790697520226 0.17909599376883362 0.9656790697520226 0.17909599376883362 0.03432093024797755 -0.17909599376883362
2754.2287033381663 0.032146820314894894 -0.17343085176669373 0.967853179685105 0.17343085176669373 0.967853179685105 0.17343085176669373 0.032146820314894894 -0.17343085176669373
2851.018267503909 0.030107479181234284 -0.16792025901972468 0.9698925208187659 0.16792025901972468 0.9698925208187659 0.16792025901972468 0.030107479181234284 -0.16792025901972468
2951.209226666386 0.028195095399044835 -0.1625623805914238 0.9718049046009551 0.1625623805914238 0.9718049046009551 0.1625623805914238 0.028195095399044835 -0.1625623805914238
3054.9211132155133 0.026402240262079785 -0.1573551519869231 0.9735977597379202 0.1573551519869231 0.9735977597379202 0.1573551519869231 0.026402240262079785 -0.1573551519869231
3162.277660168379 0.02472185757997084 -0.15229630948228845 0.9752781424200293 0.15229630948228845 0.9752781424200293 0.15229630948228845 0.02472185757997084 -0.15229630948228845
3273.406948788382 0.02314725255645088 -0.14738341799222457 0.9768527474435494 0.14738341799222457 0.9768527474435494 0.14738341799222457 0.02314725255645088 -0.14738341799222457
3388.4415613920255 0.02167207998164542 -0.14261389660453638 0.9783279200183546 0.14261389660453638 0.9783279200183546 0.14261389660453638 0.02167207998164542 -0.14261389660453638
3507.5187395256803 0.020290331922347672 -0.1379850419123907 0.9797096680776524 0.1379850419123907 0.9797096680776524 0.1379850419123907 0.020290331922347672 -0.1379850419123907
3630.7805477010143 0.018996325070421982 -0.13349404927607458 0.9810036749295781 0.13349404927607458 0.9810036749295781 0.13349404927607458 0.018996325070421982 -0.13349404927607458
3758.374042884442 0.01778468788793025 -0.12913803214496183 0.9822153121120697 0.12913803214496183 0.9822153121120697 0.12913803214496183 0.01778468788793025 -0.12913803214496183
3890.451449942807 0.01665034766811402 -0.12491403956809796 0.983349652331886 0.12491403956809796 0.983349652331886 0.12491403956809796 0.01665034766811402 -0.12491403956809796
4027.170343254592 0.015588517613853626 -0.12081907201848652 0.9844114823861461 0.12081907201848652 0.9844114823861461 0.12081907201848652 0.015588517613853626 -0.12081907201848652
4168.693834703356 0.014594684019522963 -0.11685009565202964 0.985405315980477 0.11685009565202964 0.985405315980477 0.11685009565202964 0.014594684019522963 -0.11685009565202964
4315.190768277653 0.013664593628127435 -0.11300405511734339 0.9863354063718726 0.11300405511734339 0.9863354063718726 0.11300405511734339 0.013664593628127435 -0.11300405511734339
