!Murata Part Number: RHEL81E106K3M1H03A
!These Parameters are Measured in Series Mode Connection
!       o--ll--o
!Port1            Port2
!       o------o
!Operation Temp=25[degC], DC Bias Voltage=0[V]
!Freq. Start=100[Hz] Stop=100[MHz], 401[Steps]
!Data Generated on May 31, 2023
# Hz S RI R 50
!Freq.(Hz) S11(Real) S11(Imag) S21(Real) S21(Imag) S12(Real) S12(Imag) S22(Real) S22(Imag)
100.0 0.7225668248448356 -0.4450870979249066 0.27743317515516447 0.4450870979249066 0.27743317515516447 0.4450870979249066 0.7225668248448356 -0.4450870979249066
103.51421666793439 0.7086303335191578 -0.4517467331436619 0.2913696664808421 0.4517467331436619 0.2913696664808421 0.4517467331436619 0.7086303335191578 -0.4517467331436619
107.15193052376064 0.6942881867188575 -0.45805853634403376 0.3057118132811424 0.45805853634403376 0.3057118132811424 0.45805853634403376 0.6942881867188575 -0.45805853634403376
110.9174815262401 0.6795578165545277 -0.4639924537313965 0.32044218344547226 0.4639924537313965 0.32044218344547226 0.4639924537313965 0.6795578165545277 -0.4639924537313965
114.81536214968828 0.6644595024459223 -0.4695192941475807 0.3355404975540777 0.4695192941475807 0.3355404975540777 0.4695192941475807 0.6644595024459223 -0.4695192941475807
118.85022274370185 0.6490163353717755 -0.474611047538272 0.35098366462822456 0.474611047538272 0.35098366462822456 0.474611047538272 0.6490163353717755 -0.474611047538272
123.02687708123815 0.633254140496749 -0.4792412057998311 0.3667458595032509 0.4792412057998311 0.3667458595032509 0.4792412057998311 0.633254140496749 -0.4792412057998311
127.35030810166617 0.6172013569003719 -0.48338507979250944 0.38279864309962813 0.48338507979250944 0.38279864309962813 0.48338507979250944 0.6172013569003719 -0.48338507979250944
131.8256738556407 0.6008888741812128 -0.48702010595069445 0.3991111258187871 0.48702010595069445 0.3991111258187871 0.48702010595069445 0.6008888741812128 -0.48702010595069445
136.45831365889245 0.5843498268491567 -0.49012613576257424 0.4156501731508433 0.49012613576257424 0.4156501731508433 0.49012613576257424 0.5843498268491567 -0.49012613576257424
141.25375446227542 0.5676193486078418 -0.4926857014549708 0.4323806513921582 0.4926857014549708 0.4323806513921582 0.4926857014549708 0.5676193486078418 -0.4926857014549708
146.21771744567184 0.5507342898201547 -0.4946842515179075 0.44926571017984523 0.4946842515179075 0.44926571017984523 0.4946842515179075 0.5507342898201547 -0.4946842515179075
151.35612484362082 0.5337329025903853 -0.4961103502401187 0.46626709740961486 0.4961103502401187 0.46626709740961486 0.4961103502401187 0.5337329025903853 -0.4961103502401187
156.6751070108149 0.5166544989347239 -0.49695583619101513 0.483345501065276 0.49695583619101513 0.483345501065276 0.49695583619101513 0.5166544989347239 -0.49695583619101513
162.181009735893 0.49953908839718475 -0.49721593555376525 0.500460911602815 0.49721593555376525 0.500460911602815 0.49721593555376525 0.49953908839718475 -0.49721593555376525
167.88040181225603 0.4824270021566104 -0.4968893273532825 0.5175729978433896 0.4968893273532825 0.5175729978433896 0.4968893273532825 0.4824270021566104 -0.4968893273532825
173.78008287493756 0.4653585111269305 -0.4959781588869868 0.5346414888730695 0.4959781588869868 0.5346414888730695 0.4959781588869868 0.4653585111269305 -0.4959781588869868
179.88709151287878 0.44837344575350735 -0.49448801100239104 0.5516265542464927 0.49448801100239104 0.5516265542464927 0.49448801100239104 0.44837344575350735 -0.49448801100239104
186.20871366628674 0.4315108251426753 -0.4924278142165159 0.5684891748573246 0.4924278142165159 0.5684891748573246 0.4924278142165159 0.4315108251426753 -0.4924278142165159
192.7524913190936 0.41480850283291293 -0.4898097179795574 0.5851914971670872 0.4898097179795574 0.5851914971670872 0.4898097179795574 0.41480850283291293 -0.4898097179795574
199.526231496888 0.3983028359416396 -0.48664891659349785 0.6016971640583605 0.48664891659349785 0.6016971640583605 0.48664891659349785 0.3983028359416396 -0.48664891659349785
206.53801558105292 0.3820283836311976 -0.4829634363560271 0.6179716163688024 0.4829634363560271 0.6179716163688024 0.4829634363560271 0.3820283836311976 -0.4829634363560271
213.79620895022322 0.36601763987114244 -0.4787738893708072 0.6339823601288576 0.4787738893708072 0.6339823601288576 0.4787738893708072 0.36601763987114244 -0.4787738893708072
221.30947096056377 0.3503008043792102 -0.47410320011763274 0.6496991956207898 0.47410320011763274 0.6496991956207898 0.47410320011763274 0.3503008043792102 -0.47410320011763274
229.08676527677733 0.3349055944520854 -0.4689763112937249 0.6650944055479147 0.4689763112937249 0.6650944055479147 0.4689763112937249 0.3349055944520854 -0.4689763112937249
237.13737056616552 0.31985709920216654 -0.463419875616411 0.6801429007978333 0.463419875616411 0.6801429007978333 0.463419875616411 0.31985709920216654 -0.463419875616411
245.47089156850305 0.3051776765484019 -0.45746194022609704 0.6948223234515981 0.45746194022609704 0.6948223234515981 0.45746194022609704 0.3051776765484019 -0.45746194022609704
254.09727055493053 0.2908868922132542 -0.4511316300658551 0.7091131077867459 0.4511316300658551 0.7091131077867459 0.4511316300658551 0.2908868922132542 -0.4511316300658551
263.0267991895382 0.2770014989919792 -0.4444588361679342 0.7229985010080208 0.4444588361679342 0.7229985010080208 0.4444588361679342 0.2770014989919792 -0.4444588361679342
272.27013080779125 0.263535453713796 -0.43747391418218795 0.7364645462862041 0.43747391418218795 0.7364645462862041 0.43747391418218795 0.263535453713796 -0.43747391418218795
281.83829312644536 0.2504999686267414 -0.4302073977745913 0.7495000313732584 0.4302073977745913 0.7495000313732584 0.4302073977745913 0.2504999686267414 -0.4302073977745913
291.7427014001167 0.2379035934189728 -0.42268973074464794 0.7620964065810272 0.42268973074464794 0.7620964065810272 0.42268973074464794 0.2379035934189728 -0.42268973074464794
301.9951720402016 0.22575232373993892 -0.4149510208963323 0.7742476762600612 0.4149510208963323 0.7742476762600612 0.4149510208963323 0.22575232373993892 -0.4149510208963323
312.6079367123955 0.2140497318981708 -0.40702081788296934 0.7859502681018291 0.40702081788296934 0.7859502681018291 0.40702081788296934 0.2140497318981708 -0.40702081788296934
323.59365692962825 0.2027971153750577 -0.3989279164622614 0.7972028846249423 0.3989279164622614 0.7972028846249423 0.3989279164622614 0.2027971153750577 -0.3989279164622614
334.96543915782763 0.19199365888758851 -0.39070018586816535 0.8080063411124115 0.39070018586816535 0.8080063411124115 0.39070018586816535 0.19199365888758851 -0.39070018586816535
346.7368504525316 0.18163660593635012 -0.38236442535018544 0.81836339406365 0.38236442535018544 0.81836339406365 0.38236442535018544 0.18163660593635012 -0.38236442535018544
358.9219346450052 0.17172143606514456 -0.37394624536052484 0.8282785639348553 0.37394624536052484 0.8282785639348553 0.37394624536052484 0.17172143606514456 -0.37394624536052484
371.53522909717253 0.1622420444124913 -0.36546997339248105 0.8377579555875088 0.36546997339248105 0.8377579555875088 0.36546997339248105 0.1622420444124913 -0.36546997339248105
384.59178204535357 0.1531909205310532 -0.3569585830913949 0.8468090794689468 0.3569585830913949 0.8468090794689468 0.3569585830913949 0.1531909205310532 -0.3569585830913949
398.10717055349727 0.14455932386876358 -0.3484336449701273 0.8554406761312368 0.3484336449701273 0.8554406761312368 0.3484336449701273 0.14455932386876358 -0.3484336449701273
412.0975190973302 0.13633745372773862 -0.3399152968587331 0.8636625462722614 0.3399152968587331 0.8636625462722614 0.3399152968587331 0.13633745372773862 -0.3399152968587331
426.5795188015926 0.12851461192953917 -0.3314222320946494 0.8714853880704609 0.3314222320946494 0.8714853880704609 0.3314222320946494 0.12851461192953917 -0.3314222320946494
441.57044735331243 0.12107935680657576 -0.32297170340555004 0.8789206431934243 0.32297170340555004 0.8789206431934243 0.32297170340555004 0.12107935680657576 -0.32297170340555004
457.0881896148751 0.11401964750106855 -0.3145795404415245 0.8859803524989315 0.3145795404415245 0.8859803524989315 0.3145795404415245 0.11401964750106855 -0.3145795404415245
473.15125896148055 0.10732297787928373 -0.306260178965652 0.8926770221207163 0.306260178965652 0.8926770221207163 0.306260178965652 0.10732297787928373 -0.306260178965652
489.77881936844625 0.10097649965657396 -0.29802669980200036 0.8990235003434259 0.29802669980200036 0.8990235003434259 0.29802669980200036 0.10097649965657396 -0.29802669980200036
506.9907082747043 0.09496713457687744 -0.28989087575792283 0.9050328654231226 0.28989087575792283 0.9050328654231226 0.28989087575792283 0.09496713457687744 -0.28989087575792283
524.8074602497726 0.08928167569926453 -0.2818632248745892 0.9107183243007353 0.2818632248745892 0.9107183243007353 0.2818632248745892 0.08928167569926453 -0.2818632248745892
543.2503314924331 0.08390687801563738 -0.2739530685084802 0.9160931219843625 0.2739530685084802 0.9160931219843625 0.2739530685084802 0.08390687801563738 -0.2739530685084802
562.3413251903492 0.07882953876042804 -0.2661685929007526 0.9211704612395719 0.2661685929007526 0.9211704612395719 0.2661685929007526 0.07882953876042804 -0.2661685929007526
582.1032177708714 0.07403656787837619 -0.25851691304584995 0.9259634321216238 0.25851691304584995 0.9259634321216238 0.25851691304584995 0.07403656787837619 -0.25851691304584995
602.5595860743578 0.06951504919374489 -0.25100413782145536 0.9304849508062553 0.25100413782145536 0.9304849508062553 0.25100413782145536 0.06951504919374489 -0.25100413782145536
623.7348354824193 0.06525229287732463 -0.24363543548585137 0.9347477071226755 0.24363543548585137 0.9347477071226755 0.24363543548585137 0.06525229287732463 -0.24363543548585137
645.6542290346556 0.06123587983988083 -0.23641509878385777 0.9387641201601192 0.23641509878385777 0.9387641201601192 0.23641509878385777 0.06123587983988083 -0.23641509878385777
668.3439175686148 0.05745369869571905 -0.22934660902734416 0.9425463013042809 0.22934660902734416 0.9425463013042809 0.22934660902734416 0.05745369869571905 -0.22934660902734416
691.8309709189366 0.053893975940929394 -0.22243269863012066 0.9461060240590705 0.22243269863012066 0.9461060240590705 0.22243269863012066 0.053893975940929394 -0.22243269863012066
716.1434102129019 0.05054529998045292 -0.21567541167949034 0.949454700019547 0.21567541167949034 0.949454700019547 0.21567541167949034 0.05054529998045292 -0.21567541167949034
741.3102413009174 0.04739663961888577 -0.20907616221798903 0.9526033603811143 0.20907616221798903 0.9526033603811143 0.20907616221798903 0.04739663961888577 -0.20907616221798903
767.3614893618189 0.04443735760407419 -0.20263578998922196 0.9555626423959259 0.20263578998922196 0.9555626423959259 0.20263578998922196 0.04443735760407419 -0.20263578998922196
794.3282347242814 0.04165721978189126 -0.19635461347176672 0.9583427802181089 0.19635461347176672 0.9583427802181089 0.19635461347176672 0.04165721978189126 -0.19635461347176672
822.2426499470711 0.039046400386684686 -0.19023248008556423 0.9609535996133152 0.19023248008556423 0.9609535996133152 0.19023248008556423 0.039046400386684686 -0.19023248008556423
851.1380382023765 0.036595483956015994 -0.18426881350680158 0.9634045160439841 0.18426881350680158 0.9634045160439841 0.18426881350680158 0.036595483956015994 -0.18426881350680158
881.0488730080142 0.03429546432152037 -0.17846265807081216 0.9657045356784797 0.17846265807081216 0.9657045356784797 0.17846265807081216 0.03429546432152037 -0.17846265807081216
912.0108393559099 0.03213774109083518 -0.1728127202787791 0.9678622589091649 0.1728127202787791 0.9678622589091649 0.1728127202787791 0.03213774109083518 -0.1728127202787791
944.0608762859234 0.030114113999227764 -0.16731740745380005 0.9698858860007721 0.16731740745380005 0.9698858860007721 0.16731740745380005 0.030114113999227764 -0.16731740745380005
977.2372209558108 0.028216775474298083 -0.16197486361591207 0.9717832245257019 0.16197486361591207 0.9717832245257019 0.16197486361591207 0.028216775474298083 -0.16197486361591207
1011.5794542598987 0.026438301723312865 -0.15678300266467107 0.9735616982766873 0.15678300266467107 0.9735616982766873 0.15678300266467107 0.026438301723312865 -0.15678300266467107
1047.1285480508998 0.024771642620611992 -0.15173953897250023 0.975228357379388 0.15173953897250023 0.975228357379388 0.15173953897250023 0.024771642620611992 -0.15173953897250023
1083.9269140212034 0.02321011064228962 -0.1468420155028432 0.9767898893577105 0.1468420155028432 0.9767898893577105 0.1468420155028432 0.02321011064228962 -0.1468420155028432
1122.0184543019632 0.02174736906710182 -0.14208782957473698 0.9782526309328982 0.14208782957473698 0.9782526309328982 0.14208782957473698 0.02174736906710182 -0.14208782957473698
1161.4486138403427 0.02037741963633702 -0.13747425640024064 0.9796225803636629 0.13747425640024064 0.9796225803636629 0.13747425640024064 0.02037741963633702 -0.13747425640024064
1202.2644346174127 0.019094589841207252 -0.13299847052364697 0.9809054101587927 0.13299847052364697 0.9809054101587927 0.13299847052364697 0.019094589841207252 -0.13299847052364697
1244.514611771385 0.017893519984149002 -0.1286575652919705 0.9821064800158509 0.1286575652919705 0.9821064800158509 0.1286575652919705 0.017893519984149002 -0.1286575652919705
1288.249551693134 0.01676915014020024 -0.12444857048516966 0.9832308498597999 0.12444857048516966 0.9832308498597999 0.12444857048516966 0.01676915014020024 -0.12444857048516966
1333.5214321633239 0.015716707126265994 -0.12036846823222944 0.984283292873734 0.12036846823222944 0.984283292873734 0.12036846823222944 0.015716707126265994 -0.12036846823222944
1380.384264602885 0.014731691569510269 -0.11641420733586685 0.9852683084304897 0.11641420733586685 0.9852683084304897 0.11641420733586685 0.014731691569510269 -0.11641420733586685
1428.893958511103 0.01380986515120998 -0.11258271612443858 0.9861901348487901 0.11258271612443858 0.9861901348487901 0.11258271612443858 0.01380986515120998 -0.11258271612443858
1479.1083881682075 0.012947238089074754 -0.10887091394482414 0.9870527619109251 0.10887091394482414 0.9870527619109251 0.10887091394482414 0.012947238089074754 -0.10887091394482414
1531.0874616820304 0.01214005690916631 -0.10527572140479595 0.9878599430908336 0.10527572140479595 0.9878599430908336 0.10527572140479595 0.01214005690916631 -0.10527572140479595
1584.8931924611136 0.011384792548033673 -0.10179406946779336 0.9886152074519664 0.10179406946779336 0.9886152074519664 0.10179406946779336 0.011384792548033673 -0.10179406946779336
1640.5897731995396 0.010678128816415788 -0.09842290749722175 0.9893218711835841 0.09842290749722175 0.9893218711835841 0.09842290749722175 0.010678128816415788 -0.09842290749722175
1698.2436524617442 0.010016951247748694 -0.09515921034148399 0.9899830487522515 0.09515921034148399 0.9899830487522515 0.09515921034148399 0.010016951247748694 -0.09515921034148399
1757.9236139586924 0.009398336347659002 -0.09199998454500401 0.9906016636523407 0.09199998454500401 0.9906016636523407 0.09199998454500401 0.009398336347659002 -0.09199998454500401
1819.7008586099835 0.008819541254541083 -0.088942273764594 0.9911804587454589 0.088942273764594 0.9911804587454589 0.088942273764594 0.008819541254541083 -0.088942273764594
1883.6490894898002 0.00827799381611951 -0.08598316346468694 0.9917220061838804 0.08598316346468694 0.9917220061838804 0.08598316346468694 0.00827799381611951 -0.08598316346468694
1949.8445997580454 0.007771283082517879 -0.08311978495927522 0.992228716917482 0.08311978495927522 0.992228716917482 0.08311978495927522 0.007771283082517879 -0.08311978495927522
2018.3663636815609 0.007297150212717818 -0.08034931886288466 0.9927028497872824 0.08034931886288466 0.9927028497872824 0.08034931886288466 0.007297150212717818 -0.08034931886288466
2089.29613085404 0.006853479788332632 -0.07766899800761427 0.9931465202116673 0.07766899800761427 0.9931465202116673 0.07766899800761427 0.006853479788332632 -0.07766899800761427
2162.7185237270205 0.006438291526278119 -0.07507610987822616 0.9935617084737217 0.07507610987822616 0.9935617084737217 0.07507610987822616 0.006438291526278119 -0.07507610987822616
2238.7211385683395 0.006049732380135099 -0.07256799861248137 0.9939502676198648 0.07256799861248137 0.9939502676198648 0.07256799861248137 0.006049732380135099 -0.07256799861248137
2317.394649968479 0.005686069018710362 -0.07014206660944038 0.9943139309812895 0.07014206660944038 0.9943139309812895 0.07014206660944038 0.005686069018710362 -0.07014206660944038
2398.832919019491 0.005345680669453239 -0.0677957757842769 0.9946543193305467 0.0677957757842769 0.9946543193305467 0.0677957757842769 0.005345680669453239 -0.0677957757842769
2483.1331052955707 0.005027052313918087 -0.06552664850432079 0.9949729476860819 0.06552664850432079 0.9949729476860819 0.06552664850432079 0.005027052313918087 -0.06552664850432079
2570.3957827688632 0.0047287682223201895 -0.06333226823756444 0.9952712317776797 0.06333226823756444 0.9952712317776797 0.06333226823756444 0.0047287682223201895 -0.06333226823756444
2660.725059798809 0.004449505814354215 -0.061210279941732615 0.9955504941856457 0.061210279941732615 0.9955504941856457 0.061210279941732615 0.004449505814354215 -0.061210279941732615
2754.2287033381663 0.004188029833773374 -0.05915839021924315 0.9958119701662265 0.05915839021924315 0.9958119701662265 0.05915839021924315 0.004188029833773374 -0.05915839021924315
2851.018267503909 0.003943186824705451 -0.05717436726095835 0.9960568131752946 0.05717436726095835 0.9960568131752946 0.05717436726095835 0.003943186824705451 -0.05717436726095835
2951.209226666386 0.00371389989825428 -0.055256040599536406 0.9962861001017457 0.055256040599536406 0.9962861001017457 0.055256040599536406 0.00371389989825428 -0.055256040599536406
3054.9211132155133 0.0034991637785506736 -0.0534013006914168 0.996500836221449 0.0534013006914168 0.996500836221449 0.0534013006914168 0.0034991637785506736 -0.0534013006914168
3162.277660168379 0.0032980401180289567 -0.051608098344983845 0.996701959881971 0.051608098344983845 0.996701959881971 0.051608098344983845 0.0032980401180289567 -0.051608098344983845
3273.406948788382 0.0031096530722751225 -0.04987444401121668 0.9968903469277247 0.04987444401121668 0.9968903469277247 0.04987444401121668 0.0031096530722751225 -0.04987444401121668
3388.4415613920255 0.0029331851252887248 -0.04819840695211227 0.9970668148747113 0.04819840695211227 0.9970668148747113 0.04819840695211227 0.0029331851252887248 -0.04819840695211227
3507.5187395256803 0.002767873156400598 -0.04657811430131684 0.9972321268435995 0.04657811430131684 0.9972321268435995 0.04657811430131684 0.002767873156400598 -0.04657811430131684
3630.7805477010143 0.0026130047403798446 -0.04501175003068246 0.9973869952596204 0.04501175003068246 0.9973869952596204 0.04501175003068246 0.0026130047403798446 -0.04501175003068246
3758.374042884442 0.0024679146724421192 -0.04349755383583207 0.9975320853275581 0.04349755383583207 0.9975320853275581 0.04349755383583207 0.0024679146724421192 -0.04349755383583207
3890.451449942807 0.0023319817099425382 -0.042033819953233 0.9976680182900572 0.042033819953233 0.9976680182900572 0.042033819953233 0.0023319817099425382 -0.042033819953233
4027.170343254592 0.002204625522513087 -0.04061889592071126 0.997795374477487 0.04061889592071126 0.997795374477487 0.04061889592071126 0.002204625522513087 -0.04061889592071126
4168.693834703356 0.0020853038423045847 -0.039251181292757446 0.9979146961576951 0.039251181292757446 0.9979146961576951 0.039251181292757446 0.0020853038423045847 -0.039251181292757446
4315.190768277653 0.001973509805840078 -0.03792912632136272 0.9980264901941599 0.03792912632136272 0.9980264901941599 0.03792912632136272 0.001973509805840078 -0.03792912632136272
