# MHz S MA R 50

1 1.542e-3 62.313 0.999 -0.078 0.999 -0.078 1.542e-3 62.313 
1.047 1.601e-3 63.165 0.999 -0.082 0.999 -0.082 1.601e-3 63.165 
1.097 1.662e-3 63.995 0.999 -0.086 0.999 -0.086 1.662e-3 63.995 
1.149 1.726e-3 64.802 0.999 -0.09 0.999 -0.09 1.726e-3 64.802 
1.203 1.794e-3 65.585 0.999 -0.094 0.999 -0.094 1.794e-3 65.585 
1.26 1.865e-3 66.346 0.999 -0.098 0.999 -0.098 1.865e-3 66.346 
1.32 1.94e-3 67.083 0.999 -0.102 0.999 -0.102 1.94e-3 67.083 
1.383 2.018e-3 67.797 0.999 -0.107 0.999 -0.107 2.018e-3 67.797 
1.448 2.1e-3 68.489 0.999 -0.112 0.999 -0.112 2.1e-3 68.489 
1.517 2.186e-3 69.158 0.999 -0.117 0.999 -0.117 2.186e-3 69.158 
1.588 2.277e-3 69.805 0.999 -0.123 0.999 -0.123 2.277e-3 69.805 
1.664 2.372e-3 70.431 0.999 -0.128 0.999 -0.128 2.372e-3 70.431 
1.742 2.471e-3 71.034 0.999 -0.134 0.999 -0.134 2.471e-3 71.034 
1.825 2.575e-3 71.617 0.999 -0.14 0.999 -0.14 2.575e-3 71.617 
1.911 2.684e-3 72.179 0.999 -0.147 0.999 -0.147 2.684e-3 72.179 
2.002 2.799e-3 72.721 0.999 -0.153 0.999 -0.153 2.799e-3 72.721 
2.097 2.919e-3 73.243 0.999 -0.16 0.999 -0.16 2.919e-3 73.243 
2.196 3.044e-3 73.746 0.999 -0.168 0.999 -0.168 3.044e-3 73.746 
2.3 3.176e-3 74.23 0.999 -0.175 0.999 -0.175 3.176e-3 74.23 
2.409 3.313e-3 74.696 0.999 -0.183 0.999 -0.183 3.313e-3 74.696 
2.523 3.458e-3 75.144 0.999 -0.192 0.999 -0.192 3.458e-3 75.144 
2.643 3.609e-3 75.574 0.999 -0.2 0.999 -0.2 3.609e-3 75.574 
2.768 3.767e-3 75.988 0.999 -0.21 0.999 -0.21 3.767e-3 75.988 
2.899 3.932e-3 76.384 0.999 -0.219 0.999 -0.219 3.932e-3 76.384 
3.036 4.105e-3 76.765 0.999 -0.229 0.999 -0.229 4.105e-3 76.765 
3.18 4.287e-3 77.131 0.999 -0.24 0.999 -0.24 4.287e-3 77.131 
3.331 4.476e-3 77.481 0.999 -0.251 0.999 -0.251 4.476e-3 77.481 
3.488 4.675e-3 77.816 0.999 -0.262 0.999 -0.262 4.675e-3 77.816 
3.653 4.883e-3 78.137 0.999 -0.274 0.999 -0.274 4.883e-3 78.137 
3.826 5.1e-3 78.445 0.999 -0.287 0.999 -0.287 5.1e-3 78.445 
4.008 5.328e-3 78.739 0.999 -0.3 0.999 -0.3 5.328e-3 78.739 
4.198 5.566e-3 79.019 0.999 -0.313 0.999 -0.313 5.566e-3 79.019 
4.396 5.815e-3 79.287 0.999 -0.328 0.999 -0.328 5.815e-3 79.287 
4.605 6.075e-3 79.543 0.999 -0.343 0.999 -0.343 6.075e-3 79.543 
4.823 6.348e-3 79.787 0.999 -0.358 0.999 -0.358 6.348e-3 79.787 
5.051 6.633e-3 80.019 0.999 -0.375 0.999 -0.375 6.633e-3 80.019 
5.29 6.931e-3 80.24 0.999 -0.392 0.999 -0.392 6.931e-3 80.24 
5.541 7.243e-3 80.449 0.999 -0.41 0.999 -0.41 7.243e-3 80.449 
5.803 7.569e-3 80.648 0.999 -0.428 0.999 -0.428 7.569e-3 80.648 
6.078 7.91e-3 80.837 0.999 -0.448 0.999 -0.448 7.91e-3 80.837 
6.366 8.267e-3 81.016 0.999 -0.468 0.999 -0.468 8.267e-3 81.016 
6.667 8.64e-3 81.184 0.999 -0.49 0.999 -0.49 8.64e-3 81.184 
6.983 9.03e-3 81.343 0.999 -0.512 0.999 -0.512 9.03e-3 81.343 
7.314 9.438e-3 81.493 0.999 -0.536 0.999 -0.536 9.438e-3 81.493 
7.66 9.865e-3 81.633 0.999 -0.56 0.999 -0.56 9.865e-3 81.633 
8.023 0.01 81.764 0.999 -0.586 0.999 -0.586 0.01 81.764 
8.403 0.011 81.887 0.999 -0.612 0.999 -0.612 0.011 81.887 
8.801 0.011 82.001 0.998 -0.64 0.998 -0.64 0.011 82.001 
9.218 0.012 82.106 0.998 -0.669 0.998 -0.669 0.012 82.106 
9.655 0.012 82.203 0.998 -0.7 0.998 -0.7 0.012 82.203 
10.112 0.013 82.292 0.998 -0.732 0.998 -0.732 0.013 82.292 
10.591 0.013 82.373 0.998 -0.765 0.998 -0.765 0.013 82.373 
11.092 0.014 82.447 0.998 -0.8 0.998 -0.8 0.014 82.447 
11.618 0.015 82.512 0.998 -0.837 0.998 -0.837 0.015 82.512 
12.168 0.015 82.57 0.998 -0.875 0.998 -0.875 0.015 82.57 
12.744 0.016 82.62 0.998 -0.915 0.998 -0.915 0.016 82.62 
13.348 0.017 82.663 0.998 -0.956 0.998 -0.956 0.017 82.663 
13.98 0.018 82.698 0.998 -1 0.998 -1 0.018 82.698 
14.642 0.018 82.726 0.998 -1.045 0.998 -1.045 0.018 82.726 
15.335 0.019 82.747 0.998 -1.093 0.998 -1.093 0.019 82.747 
16.062 0.02 82.76 0.998 -1.143 0.998 -1.143 0.02 82.76 
16.822 0.021 82.766 0.998 -1.195 0.998 -1.195 0.021 82.766 
17.619 0.022 82.765 0.997 -1.249 0.997 -1.249 0.022 82.765 
18.454 0.023 82.757 0.997 -1.306 0.997 -1.306 0.023 82.757 
19.328 0.024 82.741 0.997 -1.365 0.997 -1.365 0.024 82.741 
20.243 0.025 82.718 0.997 -1.428 0.997 -1.428 0.025 82.718 
21.202 0.026 82.688 0.997 -1.492 0.997 -1.492 0.026 82.688 
22.206 0.027 82.651 0.997 -1.56 0.997 -1.56 0.027 82.651 
23.258 0.029 82.606 0.997 -1.631 0.997 -1.631 0.029 82.606 
24.359 0.03 82.553 0.997 -1.705 0.997 -1.705 0.03 82.553 
25.513 0.031 82.493 0.996 -1.783 0.996 -1.783 0.031 82.493 
26.721 0.033 82.425 0.996 -1.864 0.996 -1.864 0.033 82.425 
27.987 0.034 82.35 0.996 -1.949 0.996 -1.949 0.034 82.35 
29.312 0.036 82.266 0.996 -2.037 0.996 -2.037 0.036 82.266 
30.7 0.037 82.175 0.996 -2.13 0.996 -2.13 0.037 82.175 
32.154 0.039 82.075 0.995 -2.226 0.995 -2.226 0.039 82.075 
33.677 0.041 81.967 0.995 -2.327 0.995 -2.327 0.041 81.967 
35.272 0.043 81.85 0.995 -2.433 0.995 -2.433 0.043 81.85 
36.943 0.045 81.725 0.995 -2.543 0.995 -2.543 0.045 81.725 
38.693 0.047 81.59 0.994 -2.659 0.994 -2.659 0.047 81.59 
40.525 0.049 81.447 0.994 -2.779 0.994 -2.779 0.049 81.447 
42.444 0.051 81.293 0.994 -2.905 0.994 -2.905 0.051 81.293 
44.455 0.053 81.13 0.993 -3.037 0.993 -3.037 0.053 81.13 
46.56 0.056 80.957 0.993 -3.175 0.993 -3.175 0.056 80.957 
48.765 0.058 80.774 0.992 -3.318 0.992 -3.318 0.058 80.774 
51.075 0.061 80.579 0.992 -3.469 0.992 -3.469 0.061 80.579 
53.494 0.064 80.374 0.991 -3.626 0.991 -3.626 0.064 80.374 
56.027 0.066 80.157 0.991 -3.79 0.991 -3.79 0.066 80.157 
58.681 0.069 79.927 0.99 -3.961 0.99 -3.961 0.069 79.927 
61.46 0.073 79.685 0.99 -4.14 0.99 -4.14 0.073 79.685 
64.371 0.076 79.431 0.989 -4.327 0.989 -4.327 0.076 79.431 
67.42 0.079 79.162 0.988 -4.523 0.988 -4.523 0.079 79.162 
70.613 0.083 78.879 0.987 -4.727 0.987 -4.727 0.083 78.879 
73.957 0.087 78.582 0.987 -4.94 0.987 -4.94 0.087 78.582 
77.46 0.091 78.268 0.986 -5.162 0.986 -5.162 0.091 78.268 
81.128 0.095 77.939 0.985 -5.395 0.985 -5.395 0.095 77.939 
84.971 0.099 77.592 0.984 -5.638 0.984 -5.638 0.099 77.592 
88.995 0.103 77.228 0.982 -5.891 0.982 -5.891 0.103 77.228 
93.21 0.108 76.845 0.981 -6.155 0.981 -6.155 0.108 76.845 
97.624 0.113 76.442 0.98 -6.431 0.98 -6.431 0.113 76.442 
102.248 0.118 76.019 0.978 -6.719 0.978 -6.719 0.118 76.019 
107.091 0.123 75.574 0.977 -7.019 0.977 -7.019 0.123 75.574 
112.163 0.129 75.106 0.975 -7.332 0.975 -7.332 0.129 75.106 
117.475 0.134 74.614 0.973 -7.658 0.973 -7.658 0.134 74.614 
123.039 0.14 74.098 0.971 -7.997 0.971 -7.997 0.14 74.098 
128.866 0.147 73.556 0.969 -8.35 0.969 -8.35 0.147 73.556 
134.969 0.153 72.986 0.966 -8.717 0.966 -8.717 0.153 72.986 
141.361 0.16 72.389 0.964 -9.099 0.964 -9.099 0.16 72.389 
148.056 0.167 71.761 0.961 -9.495 0.961 -9.495 0.167 71.761 
155.069 0.174 71.104 0.958 -9.907 0.958 -9.907 0.174 71.104 
162.413 0.182 70.415 0.955 -10.333 0.955 -10.333 0.182 70.415 
170.105 0.19 69.693 0.951 -10.773 0.951 -10.773 0.19 69.693 
178.161 0.198 68.938 0.947 -11.229 0.947 -11.229 0.198 68.938 
186.599 0.206 68.15 0.943 -11.699 0.943 -11.699 0.206 68.15 
195.437 0.215 67.326 0.938 -12.183 0.938 -12.183 0.215 67.326 
204.693 0.224 66.468 0.934 -12.681 0.934 -12.681 0.224 66.468 
214.388 0.233 65.575 0.928 -13.192 0.928 -13.192 0.233 65.575 
224.541 0.242 64.647 0.923 -13.715 0.923 -13.715 0.242 64.647 
235.176 0.252 63.684 0.917 -14.249 0.917 -14.249 0.252 63.684 
246.314 0.262 62.688 0.91 -14.792 0.91 -14.792 0.262 62.688 
257.98 0.272 61.658 0.903 -15.345 0.903 -15.345 0.272 61.658 
270.198 0.282 60.596 0.896 -15.904 0.896 -15.904 0.282 60.596 
282.995 0.292 59.504 0.888 -16.468 0.888 -16.468 0.292 59.504 
296.398 0.303 58.384 0.88 -17.035 0.88 -17.035 0.303 58.384 
310.436 0.313 57.236 0.871 -17.604 0.871 -17.604 0.313 57.236 
325.139 0.324 56.065 0.862 -18.171 0.862 -18.171 0.324 56.065 
340.538 0.335 54.871 0.853 -18.736 0.853 -18.736 0.335 54.871 
356.666 0.346 53.658 0.843 -19.294 0.843 -19.294 0.346 53.658 
373.558 0.356 52.429 0.832 -19.844 0.832 -19.844 0.356 52.429 
391.25 0.367 51.186 0.821 -20.384 0.821 -20.384 0.367 51.186 
409.781 0.378 49.933 0.81 -20.911 0.81 -20.911 0.378 49.933 
429.188 0.388 48.672 0.799 -21.422 0.799 -21.422 0.388 48.672 
449.515 0.399 47.407 0.787 -21.915 0.787 -21.915 0.399 47.407 
470.805 0.409 46.141 0.775 -22.388 0.775 -22.388 0.409 46.141 
493.103 0.419 44.875 0.763 -22.838 0.763 -22.838 0.419 44.875 
516.457 0.429 43.614 0.75 -23.264 0.75 -23.264 0.429 43.614 
540.917 0.439 42.36 0.737 -23.664 0.737 -23.664 0.439 42.36 
566.536 0.449 41.115 0.725 -24.036 0.725 -24.036 0.449 41.115 
593.368 0.458 39.881 0.712 -24.378 0.712 -24.378 0.458 39.881 
621.47 0.467 38.661 0.699 -24.689 0.699 -24.689 0.467 38.661 
650.904 0.476 37.456 0.686 -24.968 0.686 -24.968 0.476 37.456 
681.732 0.485 36.269 0.673 -25.214 0.673 -25.214 0.485 36.269 
714.019 0.493 35.101 0.66 -25.426 0.66 -25.426 0.493 35.101 
747.836 0.501 33.954 0.648 -25.603 0.648 -25.603 0.501 33.954 
783.255 0.509 32.827 0.635 -25.745 0.635 -25.745 0.509 32.827 
820.351 0.517 31.724 0.623 -25.852 0.623 -25.852 0.517 31.724 
859.204 0.524 30.644 0.611 -25.923 0.611 -25.923 0.524 30.644 
899.897 0.531 29.589 0.599 -25.959 0.599 -25.959 0.531 29.589 
942.517 0.538 28.558 0.587 -25.961 0.587 -25.961 0.538 28.558 
987.156 0.544 27.553 0.576 -25.927 0.576 -25.927 0.544 27.553 
1033.909 0.55 26.574 0.564 -25.86 0.564 -25.86 0.55 26.574 
1082.877 0.556 25.62 0.553 -25.76 0.553 -25.76 0.556 25.62 
1134.163 0.562 24.693 0.543 -25.627 0.543 -25.627 0.562 24.693 
1187.879 0.567 23.792 0.532 -25.464 0.532 -25.464 0.567 23.792 
1244.138 0.573 22.917 0.522 -25.27 0.522 -25.27 0.573 22.917 
1303.062 0.578 22.068 0.513 -25.048 0.513 -25.048 0.578 22.068 
1364.777 0.583 21.245 0.503 -24.798 0.503 -24.798 0.583 21.245 
1429.415 0.587 20.448 0.494 -24.523 0.494 -24.523 0.587 20.448 
1497.114 0.592 19.675 0.486 -24.223 0.486 -24.223 0.592 19.675 
1568.019 0.596 18.928 0.477 -23.9 0.477 -23.9 0.596 18.928 
1642.283 0.6 18.205 0.469 -23.556 0.469 -23.556 0.6 18.205 
1720.063 0.604 17.506 0.461 -23.192 0.461 -23.192 0.604 17.506 
1801.528 0.608 16.83 0.454 -22.811 0.454 -22.811 0.608 16.83 
1886.851 0.611 16.178 0.447 -22.414 0.447 -22.414 0.611 16.178 
1976.214 0.615 15.548 0.44 -22.002 0.44 -22.002 0.615 15.548 
2069.811 0.618 14.94 0.433 -21.577 0.433 -21.577 0.618 14.94 
2167.84 0.621 14.354 0.427 -21.141 0.427 -21.141 0.621 14.354 
2270.512 0.624 13.789 0.421 -20.695 0.421 -20.695 0.624 13.789 
2378.046 0.627 13.244 0.415 -20.241 0.415 -20.241 0.627 13.244 
2490.674 0.63 12.719 0.41 -19.781 0.41 -19.781 0.63 12.719 
2608.635 0.633 12.213 0.405 -19.316 0.405 -19.316 0.633 12.213 
2732.184 0.635 11.726 0.4 -18.847 0.4 -18.847 0.635 11.726 
2861.584 0.638 11.257 0.395 -18.376 0.395 -18.376 0.638 11.257 
2997.112 0.64 10.806 0.39 -17.903 0.39 -17.903 0.64 10.806 
3139.06 0.642 10.372 0.386 -17.431 0.386 -17.431 0.642 10.372 
3287.73 0.644 9.954 0.382 -16.96 0.382 -16.96 0.644 9.954 
3443.441 0.647 9.552 0.378 -16.491 0.378 -16.491 0.647 9.552 
3606.527 0.649 9.165 0.374 -16.026 0.374 -16.026 0.649 9.165 
3777.337 0.651 8.794 0.371 -15.564 0.371 -15.564 0.651 8.794 
3956.237 0.652 8.436 0.367 -15.107 0.367 -15.107 0.652 8.436 
4143.61 0.654 8.093 0.364 -14.656 0.364 -14.656 0.654 8.093 
4339.857 0.656 7.763 0.361 -14.211 0.361 -14.211 0.656 7.763 
4545.398 0.658 7.446 0.358 -13.773 0.358 -13.773 0.658 7.446 
4760.675 0.659 7.142 0.355 -13.342 0.355 -13.342 0.659 7.142 
4986.147 0.661 6.849 0.353 -12.918 0.353 -12.918 0.661 6.849 
5222.297 0.663 6.568 0.35 -12.503 0.35 -12.503 0.663 6.568 
5469.633 0.664 6.298 0.348 -12.096 0.348 -12.096 0.664 6.298 
5728.682 0.666 6.039 0.345 -11.698 0.345 -11.698 0.666 6.039 
6000 0.667 5.791 0.343 -11.309 0.343 -11.309 0.667 5.791 
