# MHz S MA R 50

1 2.751e-3 62.286 0.999 -0.14 0.999 -0.14 2.751e-3 62.286 
1.047 2.856e-3 63.071 0.999 -0.146 0.999 -0.146 2.856e-3 63.071 
1.097 2.966e-3 63.835 0.999 -0.153 0.999 -0.153 2.966e-3 63.835 
1.149 3.082e-3 64.579 0.999 -0.16 0.999 -0.16 3.082e-3 64.579 
1.203 3.203e-3 65.302 0.999 -0.167 0.999 -0.167 3.203e-3 65.302 
1.26 3.33e-3 66.004 0.999 -0.175 0.999 -0.175 3.33e-3 66.004 
1.32 3.463e-3 66.686 0.999 -0.182 0.999 -0.182 3.463e-3 66.686 
1.383 3.603e-3 67.348 0.999 -0.191 0.999 -0.191 3.603e-3 67.348 
1.448 3.749e-3 67.989 0.999 -0.199 0.999 -0.199 3.749e-3 67.989 
1.517 3.902e-3 68.611 0.999 -0.208 0.999 -0.208 3.902e-3 68.611 
1.588 4.063e-3 69.213 0.999 -0.218 0.999 -0.218 4.063e-3 69.213 
1.664 4.232e-3 69.796 0.999 -0.228 0.999 -0.228 4.232e-3 69.796 
1.742 4.408e-3 70.359 0.999 -0.238 0.999 -0.238 4.408e-3 70.359 
1.825 4.593e-3 70.904 0.999 -0.249 0.999 -0.249 4.593e-3 70.904 
1.911 4.786e-3 71.431 0.998 -0.26 0.998 -0.26 4.786e-3 71.431 
2.002 4.989e-3 71.939 0.998 -0.272 0.998 -0.272 4.989e-3 71.939 
2.097 5.201e-3 72.43 0.998 -0.285 0.998 -0.285 5.201e-3 72.43 
2.196 5.423e-3 72.904 0.998 -0.297 0.998 -0.297 5.423e-3 72.904 
2.3 5.655e-3 73.36 0.998 -0.311 0.998 -0.311 5.655e-3 73.36 
2.409 5.899e-3 73.8 0.998 -0.325 0.998 -0.325 5.899e-3 73.8 
2.523 6.153e-3 74.224 0.998 -0.34 0.998 -0.34 6.153e-3 74.224 
2.643 6.42e-3 74.632 0.998 -0.355 0.998 -0.355 6.42e-3 74.632 
2.768 6.698e-3 75.025 0.998 -0.371 0.998 -0.371 6.698e-3 75.025 
2.899 6.99e-3 75.402 0.998 -0.388 0.998 -0.388 6.99e-3 75.402 
3.036 7.295e-3 75.765 0.998 -0.406 0.998 -0.406 7.295e-3 75.765 
3.18 7.614e-3 76.113 0.998 -0.424 0.998 -0.424 7.614e-3 76.113 
3.331 7.948e-3 76.448 0.998 -0.444 0.998 -0.444 7.948e-3 76.448 
3.488 8.297e-3 76.769 0.998 -0.464 0.998 -0.464 8.297e-3 76.769 
3.653 8.662e-3 77.076 0.998 -0.485 0.998 -0.485 8.662e-3 77.076 
3.826 9.044e-3 77.371 0.998 -0.507 0.998 -0.507 9.044e-3 77.371 
4.008 9.444e-3 77.653 0.998 -0.53 0.998 -0.53 9.444e-3 77.653 
4.198 9.862e-3 77.922 0.998 -0.554 0.998 -0.554 9.862e-3 77.922 
4.396 0.01 78.18 0.998 -0.579 0.998 -0.579 0.01 78.18 
4.605 0.011 78.426 0.998 -0.605 0.998 -0.605 0.011 78.426 
4.823 0.011 78.66 0.998 -0.632 0.998 -0.632 0.011 78.66 
5.051 0.012 78.883 0.998 -0.661 0.998 -0.661 0.012 78.883 
5.29 0.012 79.095 0.998 -0.691 0.998 -0.691 0.012 79.095 
5.541 0.013 79.296 0.998 -0.722 0.998 -0.722 0.013 79.296 
5.803 0.013 79.487 0.998 -0.755 0.998 -0.755 0.013 79.487 
6.078 0.014 79.667 0.998 -0.789 0.998 -0.789 0.014 79.667 
6.366 0.015 79.837 0.998 -0.825 0.998 -0.825 0.015 79.837 
6.667 0.015 79.997 0.997 -0.862 0.997 -0.862 0.015 79.997 
6.983 0.016 80.148 0.997 -0.901 0.997 -0.901 0.016 80.148 
7.314 0.017 80.289 0.997 -0.942 0.997 -0.942 0.017 80.289 
7.66 0.017 80.42 0.997 -0.985 0.997 -0.985 0.017 80.42 
8.023 0.018 80.542 0.997 -1.029 0.997 -1.029 0.018 80.542 
8.403 0.019 80.655 0.997 -1.076 0.997 -1.076 0.019 80.655 
8.801 0.02 80.759 0.997 -1.125 0.997 -1.125 0.02 80.759 
9.218 0.021 80.854 0.997 -1.175 0.997 -1.175 0.021 80.854 
9.655 0.022 80.94 0.997 -1.228 0.997 -1.228 0.022 80.94 
10.112 0.023 81.018 0.997 -1.284 0.997 -1.284 0.023 81.018 
10.591 0.024 81.087 0.997 -1.342 0.997 -1.342 0.024 81.087 
11.092 0.025 81.147 0.996 -1.403 0.996 -1.403 0.025 81.147 
11.618 0.026 81.198 0.996 -1.466 0.996 -1.466 0.026 81.198 
12.168 0.027 81.241 0.996 -1.532 0.996 -1.532 0.027 81.241 
12.744 0.028 81.275 0.996 -1.601 0.996 -1.601 0.028 81.275 
13.348 0.029 81.301 0.996 -1.674 0.996 -1.674 0.029 81.301 
13.98 0.031 81.318 0.996 -1.749 0.996 -1.749 0.031 81.318 
14.642 0.032 81.326 0.996 -1.828 0.996 -1.828 0.032 81.326 
15.335 0.034 81.326 0.995 -1.911 0.995 -1.911 0.034 81.326 
16.062 0.035 81.318 0.995 -1.997 0.995 -1.997 0.035 81.318 
16.822 0.037 81.3 0.995 -2.087 0.995 -2.087 0.037 81.3 
17.619 0.038 81.274 0.995 -2.181 0.995 -2.181 0.038 81.274 
18.454 0.04 81.239 0.995 -2.279 0.995 -2.279 0.04 81.239 
19.328 0.042 81.196 0.994 -2.382 0.994 -2.382 0.042 81.196 
20.243 0.044 81.143 0.994 -2.489 0.994 -2.489 0.044 81.143 
21.202 0.046 81.08 0.994 -2.601 0.994 -2.601 0.046 81.08 
22.206 0.048 81.009 0.994 -2.718 0.994 -2.718 0.048 81.009 
23.258 0.05 80.928 0.993 -2.84 0.993 -2.84 0.05 80.928 
24.359 0.052 80.837 0.993 -2.968 0.993 -2.968 0.052 80.837 
25.513 0.054 80.737 0.993 -3.101 0.993 -3.101 0.054 80.737 
26.721 0.057 80.627 0.992 -3.24 0.992 -3.24 0.057 80.627 
27.987 0.059 80.506 0.992 -3.386 0.992 -3.386 0.059 80.506 
29.312 0.062 80.375 0.992 -3.538 0.992 -3.538 0.062 80.375 
30.7 0.065 80.233 0.991 -3.696 0.991 -3.696 0.065 80.233 
32.154 0.068 80.08 0.991 -3.862 0.991 -3.862 0.068 80.08 
33.677 0.071 79.915 0.99 -4.035 0.99 -4.035 0.071 79.915 
35.272 0.074 79.739 0.99 -4.216 0.99 -4.216 0.074 79.739 
36.943 0.077 79.551 0.989 -4.404 0.989 -4.404 0.077 79.551 
38.693 0.081 79.351 0.988 -4.601 0.988 -4.601 0.081 79.351 
40.525 0.084 79.138 0.988 -4.807 0.988 -4.807 0.084 79.138 
42.444 0.088 78.912 0.987 -5.021 0.987 -5.021 0.088 78.912 
44.455 0.092 78.672 0.986 -5.245 0.986 -5.245 0.092 78.672 
46.56 0.096 78.418 0.985 -5.479 0.985 -5.479 0.096 78.418 
48.765 0.1 78.149 0.984 -5.723 0.984 -5.723 0.1 78.149 
51.075 0.105 77.866 0.983 -5.978 0.983 -5.978 0.105 77.866 
53.494 0.109 77.567 0.982 -6.243 0.982 -6.243 0.109 77.567 
56.027 0.114 77.251 0.981 -6.52 0.981 -6.52 0.114 77.251 
58.681 0.119 76.919 0.98 -6.809 0.98 -6.809 0.119 76.919 
61.46 0.125 76.569 0.979 -7.111 0.979 -7.111 0.125 76.569 
64.371 0.13 76.201 0.977 -7.425 0.977 -7.425 0.13 76.201 
67.42 0.136 75.815 0.976 -7.753 0.976 -7.753 0.136 75.815 
70.613 0.142 75.408 0.974 -8.094 0.974 -8.094 0.142 75.408 
73.957 0.148 74.981 0.972 -8.449 0.972 -8.449 0.148 74.981 
77.46 0.154 74.533 0.97 -8.82 0.97 -8.82 0.154 74.533 
81.128 0.161 74.063 0.968 -9.205 0.968 -9.205 0.161 74.063 
84.971 0.168 73.57 0.966 -9.607 0.966 -9.607 0.168 73.57 
88.995 0.175 73.053 0.964 -10.024 0.964 -10.024 0.175 73.053 
93.21 0.183 72.512 0.961 -10.458 0.961 -10.458 0.183 72.512 
97.624 0.191 71.944 0.958 -10.909 0.958 -10.909 0.191 71.944 
102.248 0.199 71.351 0.955 -11.378 0.955 -11.378 0.199 71.351 
107.091 0.207 70.73 0.952 -11.864 0.952 -11.864 0.207 70.73 
112.163 0.216 70.08 0.948 -12.368 0.948 -12.368 0.216 70.08 
117.475 0.225 69.402 0.945 -12.89 0.945 -12.89 0.225 69.402 
123.039 0.234 68.694 0.941 -13.431 0.941 -13.431 0.234 68.694 
128.866 0.244 67.955 0.936 -13.989 0.936 -13.989 0.244 67.955 
134.969 0.254 67.185 0.931 -14.566 0.931 -14.566 0.254 67.185 
141.361 0.264 66.384 0.926 -15.162 0.926 -15.162 0.264 66.384 
148.056 0.275 65.551 0.921 -15.774 0.921 -15.774 0.275 65.551 
155.069 0.286 64.686 0.915 -16.404 0.915 -16.404 0.286 64.686 
162.413 0.297 63.789 0.909 -17.051 0.909 -17.051 0.297 63.789 
170.105 0.308 62.859 0.902 -17.714 0.902 -17.714 0.308 62.859 
178.161 0.32 61.899 0.895 -18.391 0.895 -18.391 0.32 61.899 
186.599 0.332 60.908 0.887 -19.082 0.887 -19.082 0.332 60.908 
195.437 0.344 59.886 0.879 -19.786 0.879 -19.786 0.344 59.886 
204.693 0.356 58.836 0.871 -20.5 0.871 -20.5 0.356 58.836 
214.388 0.369 57.759 0.862 -21.223 0.862 -21.223 0.369 57.759 
224.541 0.381 56.656 0.852 -21.954 0.852 -21.954 0.381 56.656 
235.176 0.394 55.528 0.842 -22.69 0.842 -22.69 0.394 55.528 
246.314 0.407 54.379 0.832 -23.428 0.832 -23.428 0.407 54.379 
257.98 0.42 53.21 0.821 -24.167 0.821 -24.167 0.42 53.21 
270.198 0.432 52.024 0.809 -24.905 0.809 -24.905 0.432 52.024 
282.995 0.445 50.823 0.797 -25.637 0.797 -25.637 0.445 50.823 
296.398 0.458 49.611 0.785 -26.363 0.785 -26.363 0.458 49.611 
310.436 0.47 48.388 0.772 -27.08 0.772 -27.08 0.47 48.388 
325.139 0.483 47.16 0.759 -27.784 0.759 -27.784 0.483 47.16 
340.538 0.495 45.927 0.746 -28.473 0.746 -28.473 0.495 45.927 
356.666 0.507 44.693 0.732 -29.145 0.732 -29.145 0.507 44.693 
373.558 0.519 43.461 0.718 -29.797 0.718 -29.797 0.519 43.461 
391.25 0.531 42.233 0.704 -30.426 0.704 -30.426 0.531 42.233 
409.781 0.542 41.012 0.69 -31.031 0.69 -31.031 0.542 41.012 
429.188 0.553 39.8 0.675 -31.609 0.675 -31.609 0.553 39.8 
449.515 0.564 38.599 0.661 -32.158 0.661 -32.158 0.564 38.599 
470.805 0.574 37.411 0.646 -32.677 0.646 -32.677 0.574 37.411 
493.103 0.584 36.238 0.632 -33.163 0.632 -33.163 0.584 36.238 
516.457 0.594 35.083 0.617 -33.614 0.617 -33.614 0.594 35.083 
540.917 0.604 33.946 0.602 -34.031 0.602 -34.031 0.604 33.946 
566.536 0.613 32.828 0.588 -34.41 0.588 -34.41 0.613 32.828 
593.368 0.622 31.732 0.574 -34.752 0.574 -34.752 0.622 31.732 
621.47 0.63 30.658 0.559 -35.054 0.559 -35.054 0.63 30.658 
650.904 0.638 29.607 0.545 -35.317 0.545 -35.317 0.638 29.607 
681.732 0.646 28.58 0.532 -35.54 0.532 -35.54 0.646 28.58 
714.019 0.654 27.577 0.518 -35.723 0.518 -35.723 0.654 27.577 
747.836 0.661 26.599 0.505 -35.864 0.505 -35.864 0.661 26.599 
783.255 0.668 25.647 0.492 -35.964 0.492 -35.964 0.668 25.647 
820.351 0.674 24.72 0.479 -36.023 0.479 -36.023 0.674 24.72 
859.204 0.68 23.819 0.467 -36.042 0.467 -36.042 0.68 23.819 
899.897 0.686 22.943 0.455 -36.02 0.455 -36.02 0.686 22.943 
942.517 0.692 22.093 0.443 -35.958 0.443 -35.958 0.692 22.093 
987.156 0.697 21.269 0.432 -35.856 0.432 -35.856 0.697 21.269 
1033.909 0.703 20.47 0.421 -35.716 0.421 -35.716 0.703 20.47 
1082.877 0.708 19.696 0.41 -35.538 0.41 -35.538 0.708 19.696 
1134.163 0.712 18.947 0.4 -35.323 0.4 -35.323 0.712 18.947 
1187.879 0.717 18.223 0.39 -35.072 0.39 -35.072 0.717 18.223 
1244.138 0.721 17.522 0.38 -34.787 0.38 -34.787 0.721 17.522 
1303.062 0.725 16.845 0.371 -34.469 0.371 -34.469 0.725 16.845 
1364.777 0.729 16.192 0.362 -34.118 0.362 -34.118 0.729 16.192 
1429.415 0.733 15.561 0.354 -33.737 0.354 -33.737 0.733 15.561 
1497.114 0.736 14.952 0.346 -33.328 0.346 -33.328 0.736 14.952 
1568.019 0.739 14.364 0.338 -32.891 0.338 -32.891 0.739 14.364 
1642.283 0.743 13.798 0.33 -32.429 0.33 -32.429 0.743 13.798 
1720.063 0.746 13.252 0.323 -31.943 0.323 -31.943 0.746 13.252 
1801.528 0.749 12.726 0.316 -31.435 0.316 -31.435 0.749 12.726 
1886.851 0.751 12.22 0.31 -30.906 0.31 -30.906 0.751 12.22 
1976.214 0.754 11.732 0.303 -30.36 0.303 -30.36 0.754 11.732 
2069.811 0.757 11.263 0.297 -29.797 0.297 -29.797 0.757 11.263 
2167.84 0.759 10.811 0.292 -29.219 0.292 -29.219 0.759 10.811 
2270.512 0.761 10.376 0.286 -28.629 0.286 -28.629 0.761 10.376 
2378.046 0.763 9.958 0.281 -28.027 0.281 -28.027 0.763 9.958 
2490.674 0.766 9.556 0.276 -27.416 0.276 -27.416 0.766 9.556 
2608.635 0.768 9.169 0.271 -26.798 0.271 -26.798 0.768 9.169 
2732.184 0.77 8.798 0.267 -26.174 0.267 -26.174 0.77 8.798 
2861.584 0.771 8.44 0.263 -25.546 0.263 -25.546 0.771 8.44 
2997.112 0.773 8.097 0.259 -24.915 0.259 -24.915 0.773 8.097 
3139.06 0.775 7.768 0.255 -24.282 0.255 -24.282 0.775 7.768 
3287.73 0.777 7.451 0.251 -23.65 0.251 -23.65 0.777 7.451 
3443.441 0.778 7.146 0.248 -23.02 0.248 -23.02 0.778 7.146 
3606.527 0.78 6.854 0.244 -22.392 0.244 -22.392 0.78 6.854 
3777.337 0.781 6.574 0.241 -21.769 0.241 -21.769 0.781 6.574 
3956.237 0.783 6.304 0.238 -21.151 0.238 -21.151 0.783 6.304 
4143.61 0.784 6.045 0.235 -20.538 0.235 -20.538 0.784 6.045 
4339.857 0.785 5.797 0.233 -19.933 0.233 -19.933 0.785 5.797 
4545.398 0.787 5.559 0.23 -19.336 0.23 -19.336 0.787 5.559 
4760.675 0.788 5.33 0.228 -18.748 0.228 -18.748 0.788 5.33 
4986.147 0.789 5.111 0.225 -18.168 0.225 -18.168 0.789 5.111 
5222.297 0.79 4.9 0.223 -17.599 0.223 -17.599 0.79 4.9 
5469.633 0.791 4.698 0.221 -17.04 0.221 -17.04 0.791 4.698 
5728.682 0.792 4.504 0.219 -16.493 0.219 -16.493 0.792 4.504 
6000 0.793 4.318 0.217 -15.956 0.217 -15.956 0.793 4.318 
