# MHz S MA R 50

1 0.039 69.478 0.987 -2.145 0.987 -2.145 0.039 69.478 
1.047 0.041 70.004 0.987 -2.242 0.987 -2.242 0.041 70.004 
1.097 0.043 70.504 0.987 -2.344 0.987 -2.344 0.043 70.504 
1.149 0.045 70.978 0.986 -2.451 0.986 -2.451 0.045 70.978 
1.203 0.047 71.426 0.986 -2.562 0.986 -2.562 0.047 71.426 
1.26 0.048 71.849 0.986 -2.679 0.986 -2.679 0.048 71.849 
1.32 0.051 72.246 0.986 -2.801 0.986 -2.801 0.051 72.246 
1.383 0.053 72.618 0.986 -2.928 0.986 -2.928 0.053 72.618 
1.448 0.055 72.966 0.985 -3.061 0.985 -3.061 0.055 72.966 
1.517 0.057 73.289 0.985 -3.2 0.985 -3.2 0.057 73.289 
1.588 0.06 73.589 0.985 -3.345 0.985 -3.345 0.06 73.589 
1.664 0.063 73.864 0.984 -3.497 0.984 -3.497 0.063 73.864 
1.742 0.065 74.116 0.984 -3.656 0.984 -3.656 0.065 74.116 
1.825 0.068 74.345 0.984 -3.822 0.984 -3.822 0.068 74.345 
1.911 0.071 74.551 0.983 -3.995 0.983 -3.995 0.071 74.551 
2.002 0.074 74.734 0.983 -4.176 0.983 -4.176 0.074 74.734 
2.097 0.077 74.894 0.983 -4.365 0.983 -4.365 0.077 74.894 
2.196 0.081 75.031 0.982 -4.562 0.982 -4.562 0.081 75.031 
2.3 0.084 75.146 0.982 -4.769 0.982 -4.769 0.084 75.146 
2.409 0.088 75.239 0.981 -4.984 0.981 -4.984 0.088 75.239 
2.523 0.092 75.309 0.981 -5.209 0.981 -5.209 0.092 75.309 
2.643 0.096 75.357 0.98 -5.444 0.98 -5.444 0.096 75.357 
2.768 0.1 75.383 0.979 -5.69 0.979 -5.69 0.1 75.383 
2.899 0.105 75.387 0.979 -5.946 0.979 -5.946 0.105 75.387 
3.036 0.109 75.368 0.978 -6.214 0.978 -6.214 0.109 75.368 
3.18 0.114 75.326 0.977 -6.493 0.977 -6.493 0.114 75.326 
3.331 0.119 75.263 0.976 -6.785 0.976 -6.785 0.119 75.263 
3.488 0.125 75.176 0.976 -7.089 0.976 -7.089 0.125 75.176 
3.653 0.13 75.067 0.975 -7.406 0.975 -7.406 0.13 75.067 
3.826 0.136 74.935 0.974 -7.738 0.974 -7.738 0.136 74.935 
4.008 0.142 74.779 0.972 -8.083 0.972 -8.083 0.142 74.779 
4.198 0.148 74.601 0.971 -8.444 0.971 -8.444 0.148 74.601 
4.396 0.154 74.398 0.97 -8.82 0.97 -8.82 0.154 74.398 
4.605 0.161 74.171 0.969 -9.212 0.969 -9.212 0.161 74.171 
4.823 0.168 73.921 0.967 -9.62 0.967 -9.62 0.168 73.921 
5.051 0.175 73.645 0.965 -10.045 0.965 -10.045 0.175 73.645 
5.29 0.183 73.345 0.964 -10.489 0.964 -10.489 0.183 73.345 
5.541 0.191 73.019 0.962 -10.951 0.962 -10.951 0.191 73.019 
5.803 0.199 72.667 0.96 -11.431 0.96 -11.431 0.199 72.667 
6.078 0.208 72.29 0.957 -11.932 0.957 -11.932 0.208 72.29 
6.366 0.217 71.886 0.955 -12.452 0.955 -12.452 0.217 71.886 
6.667 0.226 71.455 0.953 -12.993 0.953 -12.993 0.226 71.455 
6.983 0.235 70.997 0.95 -13.556 0.95 -13.556 0.235 70.997 
7.314 0.245 70.511 0.947 -14.141 0.947 -14.141 0.245 70.511 
7.66 0.256 69.997 0.944 -14.748 0.944 -14.748 0.256 69.997 
8.023 0.266 69.455 0.94 -15.378 0.94 -15.378 0.266 69.455 
8.403 0.277 68.884 0.937 -16.032 0.937 -16.032 0.277 68.884 
8.801 0.289 68.283 0.933 -16.71 0.933 -16.71 0.289 68.283 
9.218 0.3 67.654 0.928 -17.412 0.928 -17.412 0.3 67.654 
9.655 0.312 66.995 0.924 -18.14 0.924 -18.14 0.312 66.995 
10.112 0.325 66.306 0.919 -18.892 0.919 -18.892 0.325 66.306 
10.591 0.338 65.588 0.914 -19.67 0.914 -19.67 0.338 65.588 
11.092 0.351 64.839 0.908 -20.473 0.908 -20.473 0.351 64.839 
11.618 0.364 64.061 0.902 -21.302 0.902 -21.302 0.364 64.061 
12.168 0.378 63.253 0.896 -22.157 0.896 -22.157 0.378 63.253 
12.744 0.393 62.415 0.889 -23.037 0.889 -23.037 0.393 62.415 
13.348 0.407 61.548 0.882 -23.942 0.882 -23.942 0.407 61.548 
13.98 0.422 60.653 0.874 -24.873 0.874 -24.873 0.422 60.653 
14.642 0.437 59.729 0.866 -25.828 0.866 -25.828 0.437 59.729 
15.335 0.452 58.778 0.858 -26.807 0.858 -26.807 0.452 58.778 
16.062 0.468 57.8 0.849 -27.809 0.849 -27.809 0.468 57.8 
16.822 0.484 56.796 0.839 -28.833 0.839 -28.833 0.484 56.796 
17.619 0.5 55.767 0.829 -29.879 0.829 -29.879 0.5 55.767 
18.454 0.516 54.716 0.819 -30.945 0.819 -30.945 0.516 54.716 
19.328 0.532 53.642 0.808 -32.029 0.808 -32.029 0.532 53.642 
20.243 0.548 52.548 0.796 -33.131 0.796 -33.131 0.548 52.548 
21.202 0.564 51.435 0.784 -34.248 0.784 -34.248 0.564 51.435 
22.206 0.581 50.305 0.772 -35.379 0.772 -35.379 0.581 50.305 
23.258 0.597 49.16 0.759 -36.522 0.759 -36.522 0.597 49.16 
24.359 0.613 48.002 0.745 -37.675 0.745 -37.675 0.613 48.002 
25.513 0.629 46.833 0.731 -38.836 0.731 -38.836 0.629 46.833 
26.721 0.645 45.656 0.717 -40.003 0.717 -40.003 0.645 45.656 
27.987 0.66 44.473 0.703 -41.173 0.703 -41.173 0.66 44.473 
29.312 0.676 43.285 0.688 -42.344 0.688 -42.344 0.676 43.285 
30.7 0.691 42.096 0.672 -43.514 0.672 -43.514 0.691 42.096 
32.154 0.705 40.908 0.657 -44.68 0.657 -44.68 0.705 40.908 
33.677 0.72 39.722 0.641 -45.841 0.641 -45.841 0.72 39.722 
35.272 0.733 38.542 0.625 -46.993 0.625 -46.993 0.733 38.542 
36.943 0.747 37.369 0.609 -48.136 0.609 -48.136 0.747 37.369 
38.693 0.76 36.206 0.593 -49.266 0.593 -49.266 0.76 36.206 
40.525 0.773 35.054 0.576 -50.381 0.576 -50.381 0.773 35.054 
42.444 0.785 33.916 0.56 -51.481 0.56 -51.481 0.785 33.916 
44.455 0.797 32.793 0.543 -52.562 0.543 -52.562 0.797 32.793 
46.56 0.808 31.688 0.527 -53.623 0.527 -53.623 0.808 31.688 
48.765 0.819 30.6 0.511 -54.663 0.511 -54.663 0.819 30.6 
51.075 0.829 29.533 0.495 -55.681 0.495 -55.681 0.829 29.533 
53.494 0.839 28.486 0.479 -56.675 0.479 -56.675 0.839 28.486 
56.027 0.848 27.462 0.463 -57.643 0.463 -57.643 0.848 27.462 
58.681 0.857 26.461 0.447 -58.586 0.447 -58.586 0.857 26.461 
61.46 0.865 25.483 0.432 -59.502 0.432 -59.502 0.865 25.483 
64.371 0.873 24.53 0.417 -60.391 0.417 -60.391 0.873 24.53 
67.42 0.88 23.602 0.402 -61.252 0.402 -61.252 0.88 23.602 
70.613 0.887 22.698 0.387 -62.084 0.387 -62.084 0.887 22.698 
73.957 0.894 21.821 0.373 -62.888 0.373 -62.888 0.894 21.821 
77.46 0.9 20.969 0.359 -63.663 0.359 -63.663 0.9 20.969 
81.128 0.906 20.142 0.346 -64.409 0.346 -64.409 0.906 20.142 
84.971 0.911 19.341 0.333 -65.126 0.333 -65.126 0.911 19.341 
88.995 0.917 18.566 0.32 -65.814 0.32 -65.814 0.917 18.566 
93.21 0.921 17.815 0.307 -66.473 0.307 -66.473 0.921 17.815 
97.624 0.926 17.089 0.295 -67.104 0.295 -67.104 0.926 17.089 
102.248 0.93 16.387 0.284 -67.706 0.284 -67.706 0.93 16.387 
107.091 0.934 15.71 0.272 -68.28 0.272 -68.28 0.934 15.71 
112.163 0.938 15.056 0.261 -68.826 0.261 -68.826 0.938 15.056 
117.475 0.941 14.424 0.251 -69.344 0.251 -69.344 0.941 14.424 
123.039 0.944 13.815 0.24 -69.835 0.24 -69.835 0.944 13.815 
128.866 0.948 13.228 0.23 -70.299 0.23 -70.299 0.948 13.228 
134.969 0.95 12.662 0.221 -70.736 0.221 -70.736 0.95 12.662 
141.361 0.953 12.117 0.211 -71.146 0.211 -71.146 0.953 12.117 
148.056 0.955 11.592 0.202 -71.53 0.202 -71.53 0.955 11.592 
155.069 0.958 11.086 0.194 -71.887 0.194 -71.887 0.958 11.086 
162.413 0.96 10.599 0.185 -72.218 0.185 -72.218 0.96 10.599 
170.105 0.962 10.129 0.177 -72.523 0.177 -72.523 0.962 10.129 
178.161 0.964 9.678 0.17 -72.8 0.17 -72.8 0.964 9.678 
186.599 0.965 9.243 0.162 -73.051 0.162 -73.051 0.965 9.243 
195.437 0.967 8.824 0.155 -73.275 0.155 -73.275 0.967 8.824 
204.693 0.968 8.421 0.148 -73.471 0.148 -73.471 0.968 8.421 
214.388 0.97 8.033 0.141 -73.639 0.141 -73.639 0.97 8.033 
224.541 0.971 7.659 0.135 -73.778 0.135 -73.778 0.971 7.659 
235.176 0.972 7.299 0.129 -73.886 0.129 -73.886 0.972 7.299 
246.314 0.973 6.953 0.123 -73.963 0.123 -73.963 0.973 6.953 
257.98 0.974 6.619 0.117 -74.006 0.117 -74.006 0.974 6.619 
270.198 0.975 6.297 0.111 -74.014 0.111 -74.014 0.975 6.297 
282.995 0.976 5.987 0.106 -73.984 0.106 -73.984 0.976 5.987 
296.398 0.977 5.688 0.101 -73.914 0.101 -73.914 0.977 5.688 
310.436 0.978 5.4 0.096 -73.801 0.096 -73.801 0.978 5.4 
325.139 0.978 5.122 0.091 -73.64 0.091 -73.64 0.978 5.122 
340.538 0.979 4.854 0.086 -73.427 0.086 -73.427 0.979 4.854 
356.666 0.979 4.595 0.082 -73.156 0.082 -73.156 0.979 4.595 
373.558 0.98 4.346 0.078 -72.822 0.078 -72.822 0.98 4.346 
391.25 0.98 4.105 0.074 -72.416 0.074 -72.416 0.98 4.105 
409.781 0.981 3.872 0.07 -71.932 0.07 -71.932 0.981 3.872 
429.188 0.981 3.647 0.066 -71.358 0.066 -71.358 0.981 3.647 
449.515 0.981 3.429 0.062 -70.684 0.062 -70.684 0.981 3.429 
470.805 0.981 3.219 0.059 -69.897 0.059 -69.897 0.981 3.219 
493.103 0.982 3.016 0.055 -68.98 0.055 -68.98 0.982 3.016 
516.457 0.982 2.819 0.052 -67.918 0.052 -67.918 0.982 2.819 
540.917 0.982 2.63 0.049 -66.691 0.049 -66.691 0.982 2.63 
566.536 0.982 2.446 0.046 -65.277 0.046 -65.277 0.982 2.446 
593.368 0.982 2.269 0.043 -63.652 0.043 -63.652 0.982 2.269 
621.47 0.981 2.097 0.041 -61.79 0.041 -61.79 0.981 2.097 
650.904 0.981 1.932 0.038 -59.666 0.038 -59.666 0.981 1.932 
681.732 0.981 1.772 0.036 -57.254 0.036 -57.254 0.981 1.772 
714.019 0.981 1.618 0.034 -54.531 0.034 -54.531 0.981 1.618 
747.836 0.98 1.469 0.032 -51.48 0.032 -51.48 0.98 1.469 
783.255 0.98 1.326 0.03 -48.098 0.03 -48.098 0.98 1.326 
820.351 0.979 1.189 0.029 -44.394 0.029 -44.394 0.979 1.189 
859.204 0.979 1.057 0.028 -40.4 0.028 -40.4 0.979 1.057 
899.897 0.978 0.931 0.027 -36.169 0.027 -36.169 0.978 0.931 
942.517 0.978 0.81 0.026 -31.78 0.026 -31.78 0.978 0.81 
987.156 0.977 0.696 0.026 -27.329 0.026 -27.329 0.977 0.696 
1033.909 0.976 0.586 0.026 -22.92 0.026 -22.92 0.976 0.586 
1082.877 0.976 0.483 0.026 -18.656 0.026 -18.656 0.976 0.483 
1134.163 0.975 0.385 0.026 -14.623 0.026 -14.623 0.975 0.385 
1187.879 0.974 0.293 0.026 -10.89 0.026 -10.89 0.974 0.293 
1244.138 0.973 0.207 0.027 -7.498 0.027 -7.498 0.973 0.207 
1303.062 0.972 0.127 0.028 -4.469 0.028 -4.469 0.972 0.127 
1364.777 0.971 0.053 0.029 -1.802 0.029 -1.802 0.971 0.053 
1429.415 0.971 -0.016 0.029 0.514 0.029 0.514 0.971 -0.016 
1497.114 0.97 -0.078 0.03 2.503 0.03 2.503 0.97 -0.078 
1568.019 0.969 -0.136 0.031 4.191 0.031 4.191 0.969 -0.136 
1642.283 0.968 -0.187 0.032 5.607 0.032 5.607 0.968 -0.187 
1720.063 0.967 -0.234 0.033 6.781 0.033 6.781 0.967 -0.234 
1801.528 0.966 -0.275 0.034 7.74 0.034 7.74 0.966 -0.275 
1886.851 0.965 -0.311 0.035 8.511 0.035 8.511 0.965 -0.311 
1976.214 0.964 -0.342 0.036 9.117 0.036 9.117 0.964 -0.342 
2069.811 0.963 -0.369 0.037 9.581 0.037 9.581 0.963 -0.369 
2167.84 0.962 -0.392 0.038 9.921 0.038 9.921 0.962 -0.392 
2270.512 0.962 -0.41 0.039 10.154 0.039 10.154 0.962 -0.41 
2378.046 0.961 -0.425 0.04 10.296 0.04 10.296 0.961 -0.425 
2490.674 0.96 -0.436 0.041 10.36 0.041 10.36 0.96 -0.436 
2608.635 0.959 -0.444 0.041 10.358 0.041 10.358 0.959 -0.444 
2732.184 0.959 -0.45 0.042 10.3 0.042 10.3 0.959 -0.45 
2861.584 0.958 -0.452 0.043 10.195 0.043 10.195 0.958 -0.452 
2997.112 0.957 -0.453 0.043 10.051 0.043 10.051 0.957 -0.453 
3139.06 0.957 -0.451 0.044 9.875 0.044 9.875 0.957 -0.451 
3287.73 0.956 -0.447 0.044 9.672 0.044 9.672 0.956 -0.447 
3443.441 0.956 -0.442 0.045 9.449 0.045 9.449 0.956 -0.442 
3606.527 0.955 -0.435 0.045 9.208 0.045 9.208 0.955 -0.435 
3777.337 0.955 -0.428 0.046 8.956 0.046 8.956 0.955 -0.428 
3956.237 0.954 -0.419 0.046 8.694 0.046 8.694 0.954 -0.419 
4143.61 0.954 -0.409 0.046 8.426 0.046 8.426 0.954 -0.409 
4339.857 0.954 -0.399 0.047 8.154 0.047 8.154 0.954 -0.399 
4545.398 0.953 -0.388 0.047 7.88 0.047 7.88 0.953 -0.388 
4760.675 0.953 -0.377 0.047 7.606 0.047 7.606 0.953 -0.377 
4986.147 0.953 -0.365 0.048 7.334 0.048 7.334 0.953 -0.365 
5222.297 0.953 -0.354 0.048 7.064 0.048 7.064 0.953 -0.354 
5469.633 0.952 -0.342 0.048 6.799 0.048 6.799 0.952 -0.342 
5728.682 0.952 -0.33 0.048 6.538 0.048 6.538 0.952 -0.33 
6000 0.952 -0.318 0.048 6.282 0.048 6.282 0.952 -0.318 
