# MHz S MA R 50

1 0.016 66.284 0.994 -0.854 0.994 -0.854 0.016 66.284 
1.047 0.017 67.038 0.994 -0.893 0.994 -0.893 0.017 67.038 
1.097 0.017 67.765 0.994 -0.934 0.994 -0.934 0.017 67.765 
1.149 0.018 68.464 0.993 -0.976 0.993 -0.976 0.018 68.464 
1.203 0.019 69.135 0.993 -1.02 0.993 -1.02 0.019 69.135 
1.26 0.02 69.779 0.993 -1.067 0.993 -1.067 0.02 69.779 
1.32 0.021 70.397 0.993 -1.115 0.993 -1.115 0.021 70.397 
1.383 0.021 70.988 0.993 -1.166 0.993 -1.166 0.021 70.988 
1.448 0.022 71.553 0.993 -1.219 0.993 -1.219 0.022 71.553 
1.517 0.023 72.092 0.993 -1.275 0.993 -1.275 0.023 72.092 
1.588 0.024 72.606 0.993 -1.333 0.993 -1.333 0.024 72.606 
1.664 0.025 73.096 0.993 -1.393 0.993 -1.393 0.025 73.096 
1.742 0.026 73.561 0.993 -1.457 0.993 -1.457 0.026 73.561 
1.825 0.027 74.002 0.993 -1.523 0.993 -1.523 0.027 74.002 
1.911 0.029 74.42 0.993 -1.592 0.993 -1.592 0.029 74.42 
2.002 0.03 74.815 0.993 -1.665 0.993 -1.665 0.03 74.815 
2.097 0.031 75.187 0.992 -1.74 0.992 -1.74 0.031 75.187 
2.196 0.033 75.538 0.992 -1.819 0.992 -1.819 0.033 75.538 
2.3 0.034 75.866 0.992 -1.902 0.992 -1.902 0.034 75.866 
2.409 0.035 76.174 0.992 -1.988 0.992 -1.988 0.035 76.174 
2.523 0.037 76.461 0.992 -2.078 0.992 -2.078 0.037 76.461 
2.643 0.039 76.727 0.992 -2.173 0.992 -2.173 0.039 76.727 
2.768 0.04 76.974 0.992 -2.271 0.992 -2.271 0.04 76.974 
2.899 0.042 77.2 0.992 -2.374 0.992 -2.374 0.042 77.2 
3.036 0.044 77.408 0.991 -2.482 0.991 -2.482 0.044 77.408 
3.18 0.046 77.596 0.991 -2.595 0.991 -2.595 0.046 77.596 
3.331 0.048 77.765 0.991 -2.712 0.991 -2.712 0.048 77.765 
3.488 0.05 77.916 0.991 -2.835 0.991 -2.835 0.05 77.916 
3.653 0.052 78.049 0.99 -2.963 0.99 -2.963 0.052 78.049 
3.826 0.055 78.163 0.99 -3.097 0.99 -3.097 0.055 78.163 
4.008 0.057 78.26 0.99 -3.237 0.99 -3.237 0.057 78.26 
4.198 0.06 78.339 0.99 -3.384 0.99 -3.384 0.06 78.339 
4.396 0.062 78.4 0.989 -3.537 0.989 -3.537 0.062 78.4 
4.605 0.065 78.444 0.989 -3.697 0.989 -3.697 0.065 78.444 
4.823 0.068 78.47 0.989 -3.863 0.989 -3.863 0.068 78.47 
5.051 0.071 78.479 0.988 -4.038 0.988 -4.038 0.071 78.479 
5.29 0.074 78.47 0.988 -4.22 0.988 -4.22 0.074 78.47 
5.541 0.077 78.444 0.987 -4.41 0.987 -4.41 0.077 78.444 
5.803 0.081 78.401 0.987 -4.608 0.987 -4.608 0.081 78.401 
6.078 0.085 78.34 0.986 -4.816 0.986 -4.816 0.085 78.34 
6.366 0.088 78.262 0.986 -5.032 0.986 -5.032 0.088 78.262 
6.667 0.092 78.167 0.985 -5.258 0.985 -5.258 0.092 78.167 
6.983 0.096 78.053 0.985 -5.494 0.985 -5.494 0.096 78.053 
7.314 0.101 77.922 0.984 -5.74 0.984 -5.74 0.101 77.922 
7.66 0.105 77.772 0.983 -5.997 0.983 -5.997 0.105 77.772 
8.023 0.11 77.605 0.982 -6.265 0.982 -6.265 0.11 77.605 
8.403 0.115 77.419 0.981 -6.545 0.981 -6.545 0.115 77.419 
8.801 0.12 77.214 0.98 -6.836 0.98 -6.836 0.12 77.214 
9.218 0.125 76.99 0.979 -7.141 0.979 -7.141 0.125 76.99 
9.655 0.13 76.747 0.978 -7.458 0.978 -7.458 0.13 76.747 
10.112 0.136 76.485 0.977 -7.789 0.977 -7.789 0.136 76.485 
10.591 0.142 76.202 0.976 -8.134 0.976 -8.134 0.142 76.202 
11.092 0.148 75.9 0.975 -8.493 0.975 -8.493 0.148 75.9 
11.618 0.155 75.576 0.973 -8.868 0.973 -8.868 0.155 75.576 
12.168 0.162 75.232 0.971 -9.258 0.971 -9.258 0.162 75.232 
12.744 0.169 74.866 0.97 -9.664 0.97 -9.664 0.169 74.866 
13.348 0.176 74.479 0.968 -10.087 0.968 -10.087 0.176 74.479 
13.98 0.184 74.069 0.966 -10.527 0.966 -10.527 0.184 74.069 
14.642 0.191 73.637 0.964 -10.985 0.964 -10.985 0.191 73.637 
15.335 0.2 73.182 0.961 -11.462 0.961 -11.462 0.2 73.182 
16.062 0.208 72.703 0.959 -11.957 0.959 -11.957 0.208 72.703 
16.822 0.217 72.2 0.956 -12.471 0.956 -12.471 0.217 72.2 
17.619 0.226 71.673 0.953 -13.006 0.953 -13.006 0.226 71.673 
18.454 0.235 71.121 0.95 -13.561 0.95 -13.561 0.235 71.121 
19.328 0.245 70.544 0.947 -14.136 0.947 -14.136 0.245 70.544 
20.243 0.255 69.942 0.943 -14.734 0.943 -14.734 0.255 69.942 
21.202 0.266 69.314 0.94 -15.352 0.94 -15.352 0.266 69.314 
22.206 0.277 68.66 0.936 -15.993 0.936 -15.993 0.277 68.66 
23.258 0.288 67.979 0.931 -16.657 0.931 -16.657 0.288 67.979 
24.359 0.299 67.271 0.926 -17.343 0.926 -17.343 0.299 67.271 
25.513 0.311 66.537 0.921 -18.052 0.921 -18.052 0.311 66.537 
26.721 0.323 65.776 0.916 -18.784 0.916 -18.784 0.323 65.776 
27.987 0.336 64.988 0.91 -19.54 0.91 -19.54 0.336 64.988 
29.312 0.349 64.173 0.904 -20.318 0.904 -20.318 0.349 64.173 
30.7 0.362 63.331 0.898 -21.12 0.898 -21.12 0.362 63.331 
32.154 0.376 62.462 0.891 -21.945 0.891 -21.945 0.376 62.462 
33.677 0.389 61.568 0.884 -22.793 0.884 -22.793 0.389 61.568 
35.272 0.403 60.647 0.876 -23.662 0.876 -23.662 0.403 60.647 
36.943 0.418 59.701 0.868 -24.554 0.868 -24.554 0.418 59.701 
38.693 0.432 58.73 0.859 -25.466 0.859 -25.466 0.432 58.73 
40.525 0.447 57.735 0.85 -26.399 0.85 -26.399 0.447 57.735 
42.444 0.462 56.718 0.84 -27.352 0.84 -27.352 0.462 56.718 
44.455 0.477 55.678 0.83 -28.323 0.83 -28.323 0.477 55.678 
46.56 0.492 54.618 0.82 -29.311 0.82 -29.311 0.492 54.618 
48.765 0.508 53.538 0.809 -30.315 0.809 -30.315 0.508 53.538 
51.075 0.523 52.44 0.797 -31.333 0.797 -31.333 0.523 52.44 
53.494 0.539 51.326 0.785 -32.365 0.785 -32.365 0.539 51.326 
56.027 0.554 50.196 0.773 -33.407 0.773 -33.407 0.554 50.196 
58.681 0.569 49.054 0.76 -34.459 0.76 -34.459 0.569 49.054 
61.46 0.585 47.9 0.747 -35.519 0.747 -35.519 0.585 47.9 
64.371 0.6 46.737 0.733 -36.584 0.733 -36.584 0.6 46.737 
67.42 0.615 45.567 0.719 -37.652 0.719 -37.652 0.615 45.567 
70.613 0.63 44.392 0.705 -38.722 0.705 -38.722 0.63 44.392 
73.957 0.645 43.213 0.69 -39.791 0.69 -39.791 0.645 43.213 
77.46 0.659 42.034 0.675 -40.857 0.675 -40.857 0.659 42.034 
81.128 0.673 40.856 0.659 -41.917 0.659 -41.917 0.673 40.856 
84.971 0.687 39.681 0.644 -42.971 0.644 -42.971 0.687 39.681 
88.995 0.701 38.511 0.628 -44.014 0.628 -44.014 0.701 38.511 
93.21 0.714 37.348 0.612 -45.046 0.612 -45.046 0.714 37.348 
97.624 0.727 36.195 0.596 -46.064 0.596 -46.064 0.727 36.195 
102.248 0.739 35.052 0.58 -47.067 0.58 -47.067 0.739 35.052 
107.091 0.751 33.923 0.564 -48.051 0.564 -48.051 0.751 33.923 
112.163 0.763 32.808 0.547 -49.016 0.547 -49.016 0.763 32.808 
117.475 0.774 31.709 0.531 -49.96 0.531 -49.96 0.774 31.709 
123.039 0.784 30.627 0.515 -50.881 0.515 -50.881 0.784 30.627 
128.866 0.795 29.563 0.499 -51.777 0.499 -51.777 0.795 29.563 
134.969 0.804 28.52 0.483 -52.648 0.483 -52.648 0.804 28.52 
141.361 0.814 27.497 0.467 -53.491 0.467 -53.491 0.814 27.497 
148.056 0.823 26.495 0.452 -54.306 0.452 -54.306 0.823 26.495 
155.069 0.831 25.516 0.437 -55.092 0.437 -55.092 0.831 25.516 
162.413 0.839 24.56 0.422 -55.847 0.422 -55.847 0.839 24.56 
170.105 0.847 23.627 0.407 -56.57 0.407 -56.57 0.847 23.627 
178.161 0.854 22.717 0.392 -57.26 0.392 -57.26 0.854 22.717 
186.599 0.861 21.832 0.378 -57.918 0.378 -57.918 0.861 21.832 
195.437 0.868 20.971 0.364 -58.54 0.364 -58.54 0.868 20.971 
204.693 0.874 20.133 0.35 -59.128 0.35 -59.128 0.874 20.133 
214.388 0.879 19.32 0.337 -59.68 0.337 -59.68 0.879 19.32 
224.541 0.885 18.531 0.324 -60.195 0.324 -60.195 0.885 18.531 
235.176 0.89 17.766 0.311 -60.671 0.311 -60.671 0.89 17.766 
246.314 0.895 17.025 0.299 -61.11 0.299 -61.11 0.895 17.025 
257.98 0.899 16.306 0.287 -61.508 0.287 -61.508 0.899 16.306 
270.198 0.903 15.611 0.276 -61.866 0.276 -61.866 0.903 15.611 
282.995 0.907 14.939 0.264 -62.181 0.264 -62.181 0.907 14.939 
296.398 0.911 14.289 0.254 -62.453 0.254 -62.453 0.911 14.289 
310.436 0.914 13.66 0.243 -62.68 0.243 -62.68 0.914 13.66 
325.139 0.917 13.054 0.233 -62.861 0.233 -62.861 0.917 13.054 
340.538 0.92 12.468 0.223 -62.994 0.223 -62.994 0.92 12.468 
356.666 0.923 11.903 0.214 -63.077 0.214 -63.077 0.923 11.903 
373.558 0.926 11.358 0.204 -63.108 0.204 -63.108 0.926 11.358 
391.25 0.928 10.832 0.196 -63.085 0.196 -63.085 0.928 10.832 
409.781 0.93 10.327 0.187 -63.005 0.187 -63.005 0.93 10.327 
429.188 0.932 9.84 0.179 -62.868 0.179 -62.868 0.932 9.84 
449.515 0.934 9.371 0.171 -62.67 0.171 -62.67 0.934 9.371 
470.805 0.936 8.921 0.164 -62.408 0.164 -62.408 0.936 8.921 
493.103 0.937 8.488 0.157 -62.081 0.157 -62.081 0.937 8.488 
516.457 0.938 8.072 0.15 -61.687 0.15 -61.687 0.938 8.072 
540.917 0.94 7.674 0.143 -61.223 0.143 -61.223 0.94 7.674 
566.536 0.941 7.292 0.137 -60.688 0.137 -60.688 0.941 7.292 
593.368 0.942 6.926 0.131 -60.08 0.131 -60.08 0.942 6.926 
621.47 0.942 6.577 0.125 -59.399 0.125 -59.399 0.942 6.577 
650.904 0.943 6.242 0.12 -58.644 0.12 -58.644 0.943 6.242 
681.732 0.944 5.923 0.115 -57.816 0.115 -57.816 0.944 5.923 
714.019 0.944 5.619 0.11 -56.915 0.11 -56.915 0.944 5.619 
747.836 0.945 5.329 0.106 -55.944 0.106 -55.944 0.945 5.329 
783.255 0.945 5.053 0.102 -54.906 0.102 -54.906 0.945 5.053 
820.351 0.946 4.79 0.098 -53.804 0.098 -53.804 0.946 4.79 
859.204 0.946 4.541 0.094 -52.643 0.094 -52.643 0.946 4.541 
899.897 0.946 4.304 0.091 -51.429 0.091 -51.429 0.946 4.304 
942.517 0.946 4.08 0.088 -50.167 0.088 -50.167 0.946 4.08 
987.156 0.946 3.868 0.085 -48.865 0.085 -48.865 0.946 3.868 
1033.909 0.947 3.667 0.082 -47.53 0.082 -47.53 0.947 3.667 
1082.877 0.947 3.477 0.08 -46.17 0.08 -46.17 0.947 3.477 
1134.163 0.947 3.298 0.077 -44.793 0.077 -44.793 0.947 3.298 
1187.879 0.947 3.128 0.075 -43.407 0.075 -43.407 0.947 3.128 
1244.138 0.947 2.968 0.073 -42.018 0.073 -42.018 0.947 2.968 
1303.062 0.947 2.817 0.071 -40.634 0.071 -40.634 0.947 2.817 
1364.777 0.947 2.675 0.07 -39.263 0.07 -39.263 0.947 2.675 
1429.415 0.947 2.54 0.068 -37.909 0.068 -37.909 0.947 2.54 
1497.114 0.947 2.414 0.067 -36.577 0.067 -36.577 0.947 2.414 
1568.019 0.947 2.294 0.066 -35.273 0.066 -35.273 0.947 2.294 
1642.283 0.947 2.181 0.064 -34 0.064 -34 0.947 2.181 
1720.063 0.947 2.075 0.063 -32.76 0.063 -32.76 0.947 2.075 
1801.528 0.947 1.975 0.062 -31.556 0.062 -31.556 0.947 1.975 
1886.851 0.948 1.88 0.061 -30.389 0.061 -30.389 0.948 1.88 
1976.214 0.948 1.79 0.061 -29.261 0.061 -29.261 0.948 1.79 
2069.811 0.948 1.706 0.06 -28.171 0.06 -28.171 0.948 1.706 
2167.84 0.948 1.626 0.059 -27.12 0.059 -27.12 0.948 1.626 
2270.512 0.948 1.55 0.058 -26.108 0.058 -26.108 0.948 1.55 
2378.046 0.948 1.479 0.058 -25.133 0.058 -25.133 0.948 1.479 
2490.674 0.948 1.411 0.057 -24.196 0.057 -24.196 0.948 1.411 
2608.635 0.948 1.347 0.056 -23.294 0.056 -23.294 0.948 1.347 
2732.184 0.949 1.286 0.056 -22.427 0.056 -22.427 0.949 1.286 
2861.584 0.949 1.228 0.055 -21.594 0.055 -21.594 0.949 1.228 
2997.112 0.949 1.173 0.055 -20.793 0.055 -20.793 0.949 1.173 
3139.06 0.949 1.121 0.054 -20.024 0.054 -20.024 0.949 1.121 
3287.73 0.949 1.071 0.054 -19.284 0.054 -19.284 0.949 1.071 
3443.441 0.95 1.024 0.053 -18.573 0.053 -18.573 0.95 1.024 
3606.527 0.95 0.979 0.053 -17.889 0.053 -17.889 0.95 0.979 
3777.337 0.95 0.937 0.052 -17.232 0.052 -17.232 0.95 0.937 
3956.237 0.95 0.896 0.052 -16.599 0.052 -16.599 0.95 0.896 
4143.61 0.95 0.857 0.052 -15.991 0.052 -15.991 0.95 0.857 
4339.857 0.951 0.82 0.051 -15.405 0.051 -15.405 0.951 0.82 
4545.398 0.951 0.785 0.051 -14.841 0.051 -14.841 0.951 0.785 
4760.675 0.951 0.751 0.05 -14.298 0.05 -14.298 0.951 0.751 
4986.147 0.951 0.719 0.05 -13.775 0.05 -13.775 0.951 0.719 
5222.297 0.952 0.688 0.05 -13.272 0.05 -13.272 0.952 0.688 
5469.633 0.952 0.659 0.049 -12.787 0.049 -12.787 0.952 0.659 
5728.682 0.952 0.631 0.049 -12.319 0.049 -12.319 0.952 0.631 
6000 0.952 0.604 0.049 -11.868 0.049 -11.868 0.952 0.604 
