# MHz S MA R 50

1 4.041e-3 68.514 0.999 -0.216 0.999 -0.216 4.041e-3 68.514 
1.047 4.208e-3 69.182 0.999 -0.226 0.999 -0.226 4.208e-3 69.182 
1.097 4.382e-3 69.828 0.998 -0.236 0.998 -0.236 4.382e-3 69.828 
1.149 4.565e-3 70.452 0.998 -0.247 0.998 -0.247 4.565e-3 70.452 
1.203 4.757e-3 71.055 0.998 -0.258 0.998 -0.258 4.757e-3 71.055 
1.26 4.958e-3 71.636 0.998 -0.27 0.998 -0.27 4.958e-3 71.636 
1.32 5.169e-3 72.196 0.998 -0.282 0.998 -0.282 5.169e-3 72.196 
1.383 5.39e-3 72.737 0.998 -0.295 0.998 -0.295 5.39e-3 72.737 
1.448 5.622e-3 73.257 0.998 -0.309 0.998 -0.309 5.622e-3 73.257 
1.517 5.864e-3 73.758 0.998 -0.323 0.998 -0.323 5.864e-3 73.758 
1.588 6.118e-3 74.24 0.998 -0.338 0.998 -0.338 6.118e-3 74.24 
1.664 6.385e-3 74.703 0.998 -0.353 0.998 -0.353 6.385e-3 74.703 
1.742 6.663e-3 75.148 0.998 -0.37 0.998 -0.37 6.663e-3 75.148 
1.825 6.955e-3 75.576 0.998 -0.387 0.998 -0.387 6.955e-3 75.576 
1.911 7.261e-3 75.986 0.998 -0.404 0.998 -0.404 7.261e-3 75.986 
2.002 7.581e-3 76.38 0.998 -0.423 0.998 -0.423 7.581e-3 76.38 
2.097 7.916e-3 76.757 0.998 -0.442 0.998 -0.442 7.916e-3 76.757 
2.196 8.266e-3 77.119 0.998 -0.463 0.998 -0.463 8.266e-3 77.119 
2.3 8.633e-3 77.465 0.998 -0.484 0.998 -0.484 8.633e-3 77.465 
2.409 9.017e-3 77.796 0.998 -0.506 0.998 -0.506 9.017e-3 77.796 
2.523 9.419e-3 78.112 0.998 -0.529 0.998 -0.529 9.419e-3 78.112 
2.643 9.84e-3 78.415 0.998 -0.553 0.998 -0.553 9.84e-3 78.415 
2.768 0.01 78.703 0.998 -0.579 0.998 -0.579 0.01 78.703 
2.899 0.011 78.978 0.998 -0.605 0.998 -0.605 0.011 78.978 
3.036 0.011 79.24 0.998 -0.633 0.998 -0.633 0.011 79.24 
3.18 0.012 79.488 0.998 -0.662 0.998 -0.662 0.012 79.488 
3.331 0.012 79.725 0.998 -0.692 0.998 -0.692 0.012 79.725 
3.488 0.013 79.949 0.998 -0.724 0.998 -0.724 0.013 79.949 
3.653 0.013 80.162 0.998 -0.757 0.998 -0.757 0.013 80.162 
3.826 0.014 80.363 0.998 -0.792 0.998 -0.792 0.014 80.363 
4.008 0.015 80.552 0.998 -0.828 0.998 -0.828 0.015 80.552 
4.198 0.015 80.731 0.998 -0.866 0.998 -0.866 0.015 80.731 
4.396 0.016 80.898 0.998 -0.906 0.998 -0.906 0.016 80.898 
4.605 0.017 81.055 0.998 -0.947 0.998 -0.947 0.017 81.055 
4.823 0.017 81.202 0.997 -0.99 0.997 -0.99 0.017 81.202 
5.051 0.018 81.338 0.997 -1.036 0.997 -1.036 0.018 81.338 
5.29 0.019 81.465 0.997 -1.083 0.997 -1.083 0.019 81.465 
5.541 0.02 81.582 0.997 -1.133 0.997 -1.133 0.02 81.582 
5.803 0.021 81.688 0.997 -1.185 0.997 -1.185 0.021 81.688 
6.078 0.022 81.786 0.997 -1.239 0.997 -1.239 0.022 81.786 
6.366 0.023 81.874 0.997 -1.295 0.997 -1.295 0.023 81.874 
6.667 0.024 81.952 0.997 -1.355 0.997 -1.355 0.024 81.952 
6.983 0.025 82.022 0.997 -1.417 0.997 -1.417 0.025 82.022 
7.314 0.026 82.082 0.997 -1.481 0.997 -1.481 0.026 82.082 
7.66 0.027 82.133 0.997 -1.549 0.997 -1.549 0.027 82.133 
8.023 0.028 82.175 0.997 -1.62 0.997 -1.62 0.028 82.175 
8.403 0.03 82.208 0.996 -1.694 0.996 -1.694 0.03 82.208 
8.801 0.031 82.232 0.996 -1.771 0.996 -1.771 0.031 82.232 
9.218 0.032 82.247 0.996 -1.852 0.996 -1.852 0.032 82.247 
9.655 0.034 82.254 0.996 -1.937 0.996 -1.937 0.034 82.254 
10.112 0.036 82.251 0.996 -2.025 0.996 -2.025 0.036 82.251 
10.591 0.037 82.239 0.996 -2.117 0.996 -2.117 0.037 82.239 
11.092 0.039 82.218 0.995 -2.214 0.995 -2.214 0.039 82.218 
11.618 0.041 82.188 0.995 -2.315 0.995 -2.315 0.041 82.188 
12.168 0.042 82.149 0.995 -2.421 0.995 -2.421 0.042 82.149 
12.744 0.044 82.101 0.995 -2.531 0.995 -2.531 0.044 82.101 
13.348 0.046 82.043 0.995 -2.646 0.995 -2.646 0.046 82.043 
13.98 0.048 81.976 0.994 -2.767 0.994 -2.767 0.048 81.976 
14.642 0.051 81.899 0.994 -2.893 0.994 -2.893 0.051 81.899 
15.335 0.053 81.812 0.994 -3.025 0.994 -3.025 0.053 81.812 
16.062 0.055 81.715 0.994 -3.162 0.994 -3.162 0.055 81.715 
16.822 0.058 81.609 0.993 -3.306 0.993 -3.306 0.058 81.609 
17.619 0.061 81.492 0.993 -3.456 0.993 -3.456 0.061 81.492 
18.454 0.063 81.364 0.992 -3.613 0.992 -3.613 0.063 81.364 
19.328 0.066 81.226 0.992 -3.777 0.992 -3.777 0.066 81.226 
20.243 0.069 81.076 0.992 -3.949 0.992 -3.949 0.069 81.076 
21.202 0.072 80.916 0.991 -4.128 0.991 -4.128 0.072 80.916 
22.206 0.076 80.743 0.991 -4.315 0.991 -4.315 0.076 80.743 
23.258 0.079 80.559 0.99 -4.511 0.99 -4.511 0.079 80.559 
24.359 0.082 80.363 0.99 -4.715 0.99 -4.715 0.082 80.363 
25.513 0.086 80.154 0.989 -4.928 0.989 -4.928 0.086 80.154 
26.721 0.09 79.933 0.988 -5.151 0.988 -5.151 0.09 79.933 
27.987 0.094 79.698 0.988 -5.383 0.988 -5.383 0.094 79.698 
29.312 0.098 79.449 0.987 -5.626 0.987 -5.626 0.098 79.449 
30.7 0.103 79.186 0.986 -5.88 0.986 -5.88 0.103 79.186 
32.154 0.107 78.909 0.985 -6.145 0.985 -6.145 0.107 78.909 
33.677 0.112 78.617 0.984 -6.421 0.984 -6.421 0.112 78.617 
35.272 0.117 78.309 0.983 -6.71 0.983 -6.71 0.117 78.309 
36.943 0.123 77.986 0.982 -7.011 0.982 -7.011 0.123 77.986 
38.693 0.128 77.645 0.981 -7.325 0.981 -7.325 0.128 77.645 
40.525 0.134 77.288 0.979 -7.653 0.979 -7.653 0.134 77.288 
42.444 0.14 76.913 0.978 -7.995 0.978 -7.995 0.14 76.913 
44.455 0.146 76.52 0.976 -8.351 0.976 -8.351 0.146 76.52 
46.56 0.152 76.107 0.975 -8.723 0.975 -8.723 0.152 76.107 
48.765 0.159 75.676 0.973 -9.11 0.973 -9.11 0.159 75.676 
51.075 0.166 75.223 0.971 -9.514 0.971 -9.514 0.166 75.223 
53.494 0.173 74.75 0.969 -9.935 0.969 -9.935 0.173 74.75 
56.027 0.181 74.255 0.967 -10.374 0.967 -10.374 0.181 74.255 
58.681 0.189 73.738 0.964 -10.83 0.964 -10.83 0.189 73.738 
61.46 0.197 73.197 0.962 -11.305 0.962 -11.305 0.197 73.197 
64.371 0.205 72.633 0.959 -11.8 0.959 -11.8 0.205 72.633 
67.42 0.214 72.043 0.956 -12.314 0.956 -12.314 0.214 72.043 
70.613 0.223 71.428 0.953 -12.848 0.953 -12.848 0.223 71.428 
73.957 0.233 70.786 0.949 -13.404 0.949 -13.404 0.233 70.786 
77.46 0.243 70.117 0.945 -13.981 0.945 -13.981 0.243 70.117 
81.128 0.253 69.419 0.941 -14.579 0.941 -14.579 0.253 69.419 
84.971 0.264 68.692 0.937 -15.2 0.937 -15.2 0.264 68.692 
88.995 0.275 67.936 0.932 -15.844 0.932 -15.844 0.275 67.936 
93.21 0.286 67.148 0.927 -16.51 0.927 -16.51 0.286 67.148 
97.624 0.298 66.329 0.922 -17.2 0.922 -17.2 0.298 66.329 
102.248 0.31 65.477 0.916 -17.912 0.916 -17.912 0.31 65.477 
107.091 0.322 64.592 0.91 -18.647 0.91 -18.647 0.322 64.592 
112.163 0.335 63.673 0.903 -19.406 0.903 -19.406 0.335 63.673 
117.475 0.348 62.721 0.896 -20.186 0.896 -20.186 0.348 62.721 
123.039 0.361 61.733 0.888 -20.988 0.888 -20.988 0.361 61.733 
128.866 0.375 60.711 0.88 -21.811 0.88 -21.811 0.375 60.711 
134.969 0.389 59.654 0.871 -22.654 0.871 -22.654 0.389 59.654 
141.361 0.403 58.562 0.861 -23.515 0.861 -23.515 0.403 58.562 
148.056 0.417 57.436 0.851 -24.393 0.851 -24.393 0.417 57.436 
155.069 0.432 56.276 0.841 -25.285 0.841 -25.285 0.432 56.276 
162.413 0.447 55.083 0.83 -26.19 0.83 -26.19 0.447 55.083 
170.105 0.461 53.858 0.818 -27.103 0.818 -27.103 0.461 53.858 
178.161 0.476 52.604 0.805 -28.023 0.805 -28.023 0.476 52.604 
186.599 0.491 51.321 0.792 -28.945 0.792 -28.945 0.491 51.321 
195.437 0.506 50.013 0.778 -29.865 0.778 -29.865 0.506 50.013 
204.693 0.521 48.681 0.764 -30.779 0.764 -30.779 0.521 48.681 
214.388 0.535 47.33 0.749 -31.682 0.749 -31.682 0.535 47.33 
224.541 0.549 45.962 0.734 -32.569 0.734 -32.569 0.549 45.962 
235.176 0.563 44.582 0.718 -33.434 0.718 -33.434 0.563 44.582 
246.314 0.577 43.193 0.701 -34.272 0.701 -34.272 0.577 43.193 
257.98 0.59 41.799 0.684 -35.078 0.684 -35.078 0.59 41.799 
270.198 0.603 40.406 0.667 -35.845 0.667 -35.845 0.603 40.406 
282.995 0.615 39.016 0.65 -36.569 0.65 -36.569 0.615 39.016 
296.398 0.627 37.636 0.633 -37.244 0.633 -37.244 0.627 37.636 
310.436 0.638 36.268 0.615 -37.865 0.615 -37.865 0.638 36.268 
325.139 0.649 34.917 0.597 -38.429 0.597 -38.429 0.649 34.917 
340.538 0.659 33.588 0.58 -38.93 0.58 -38.93 0.659 33.588 
356.666 0.668 32.283 0.563 -39.366 0.563 -39.366 0.668 32.283 
373.558 0.677 31.006 0.546 -39.735 0.546 -39.735 0.677 31.006 
391.25 0.685 29.76 0.529 -40.034 0.529 -40.034 0.685 29.76 
409.781 0.693 28.547 0.513 -40.262 0.513 -40.262 0.693 28.547 
429.188 0.7 27.369 0.497 -40.419 0.497 -40.419 0.7 27.369 
449.515 0.707 26.227 0.481 -40.506 0.481 -40.506 0.707 26.227 
470.805 0.713 25.123 0.466 -40.523 0.466 -40.523 0.713 25.123 
493.103 0.719 24.058 0.452 -40.471 0.452 -40.471 0.719 24.058 
516.457 0.724 23.032 0.438 -40.354 0.438 -40.354 0.724 23.032 
540.917 0.729 22.044 0.424 -40.172 0.424 -40.172 0.729 22.044 
566.536 0.734 21.095 0.411 -39.93 0.411 -39.93 0.734 21.095 
593.368 0.738 20.184 0.399 -39.63 0.399 -39.63 0.738 20.184 
621.47 0.742 19.311 0.387 -39.276 0.387 -39.276 0.742 19.311 
650.904 0.745 18.474 0.376 -38.872 0.376 -38.872 0.745 18.474 
681.732 0.749 17.673 0.366 -38.42 0.366 -38.42 0.749 17.673 
714.019 0.752 16.906 0.356 -37.925 0.356 -37.925 0.752 16.906 
747.836 0.755 16.173 0.346 -37.391 0.346 -37.391 0.755 16.173 
783.255 0.758 15.472 0.337 -36.82 0.337 -36.82 0.758 15.472 
820.351 0.76 14.802 0.329 -36.218 0.329 -36.218 0.76 14.802 
859.204 0.762 14.161 0.321 -35.587 0.321 -35.587 0.762 14.161 
899.897 0.765 13.549 0.313 -34.93 0.313 -34.93 0.765 13.549 
942.517 0.767 12.964 0.306 -34.252 0.306 -34.252 0.767 12.964 
987.156 0.769 12.405 0.299 -33.554 0.299 -33.554 0.769 12.405 
1033.909 0.771 11.87 0.292 -32.841 0.292 -32.841 0.771 11.87 
1082.877 0.773 11.36 0.286 -32.114 0.286 -32.114 0.773 11.36 
1134.163 0.774 10.872 0.281 -31.377 0.281 -31.377 0.774 10.872 
1187.879 0.776 10.406 0.275 -30.632 0.275 -30.632 0.776 10.406 
1244.138 0.778 9.96 0.27 -29.881 0.27 -29.881 0.778 9.96 
1303.062 0.779 9.533 0.265 -29.126 0.265 -29.126 0.779 9.533 
1364.777 0.781 9.126 0.261 -28.37 0.261 -28.37 0.781 9.126 
1429.415 0.782 8.736 0.256 -27.615 0.256 -27.615 0.782 8.736 
1497.114 0.783 8.363 0.252 -26.861 0.252 -26.861 0.783 8.363 
1568.019 0.785 8.007 0.248 -26.112 0.248 -26.112 0.785 8.007 
1642.283 0.786 7.666 0.245 -25.368 0.245 -25.368 0.786 7.666 
1720.063 0.787 7.339 0.241 -24.63 0.241 -24.63 0.787 7.339 
1801.528 0.788 7.027 0.238 -23.9 0.238 -23.9 0.788 7.027 
1886.851 0.789 6.728 0.235 -23.18 0.235 -23.18 0.789 6.728 
1976.214 0.791 6.443 0.232 -22.469 0.232 -22.469 0.791 6.443 
2069.811 0.792 6.169 0.229 -21.769 0.229 -21.769 0.792 6.169 
2167.84 0.793 5.907 0.227 -21.081 0.227 -21.081 0.793 5.907 
2270.512 0.794 5.656 0.224 -20.405 0.224 -20.405 0.794 5.656 
2378.046 0.795 5.416 0.222 -19.742 0.222 -19.742 0.795 5.416 
2490.674 0.796 5.186 0.22 -19.093 0.22 -19.093 0.796 5.186 
2608.635 0.796 4.966 0.218 -18.458 0.218 -18.458 0.796 4.966 
2732.184 0.797 4.756 0.216 -17.837 0.216 -17.837 0.797 4.756 
2861.584 0.798 4.554 0.214 -17.23 0.214 -17.23 0.798 4.554 
2997.112 0.799 4.361 0.212 -16.638 0.212 -16.638 0.799 4.361 
3139.06 0.8 4.176 0.211 -16.061 0.211 -16.061 0.8 4.176 
3287.73 0.801 3.999 0.209 -15.5 0.209 -15.5 0.801 3.999 
3443.441 0.801 3.829 0.207 -14.953 0.207 -14.953 0.801 3.829 
3606.527 0.802 3.667 0.206 -14.421 0.206 -14.421 0.802 3.667 
3777.337 0.803 3.511 0.205 -13.905 0.205 -13.905 0.803 3.511 
3956.237 0.804 3.362 0.203 -13.403 0.203 -13.403 0.804 3.362 
4143.61 0.804 3.22 0.202 -12.916 0.202 -12.916 0.804 3.22 
4339.857 0.805 3.083 0.201 -12.444 0.201 -12.444 0.805 3.083 
4545.398 0.806 2.952 0.2 -11.987 0.2 -11.987 0.806 2.952 
4760.675 0.806 2.827 0.199 -11.543 0.199 -11.543 0.806 2.827 
4986.147 0.807 2.707 0.198 -11.114 0.198 -11.114 0.807 2.707 
5222.297 0.808 2.592 0.197 -10.698 0.197 -10.698 0.808 2.592 
5469.633 0.808 2.482 0.196 -10.296 0.196 -10.296 0.808 2.482 
5728.682 0.809 2.377 0.195 -9.908 0.195 -9.908 0.809 2.377 
6000 0.809 2.276 0.194 -9.532 0.194 -9.532 0.809 2.276 
