# MHz S MA R 50

1 3.079e-3 58.87 0.998 -0.151 0.998 -0.151 3.079e-3 58.87 
1.047 3.189e-3 59.786 0.998 -0.158 0.998 -0.158 3.189e-3 59.786 
1.097 3.306e-3 60.681 0.998 -0.165 0.998 -0.165 3.306e-3 60.681 
1.149 3.428e-3 61.554 0.998 -0.173 0.998 -0.173 3.428e-3 61.554 
1.203 3.557e-3 62.405 0.998 -0.181 0.998 -0.181 3.557e-3 62.405 
1.26 3.692e-3 63.233 0.998 -0.189 0.998 -0.189 3.692e-3 63.233 
1.32 3.834e-3 64.039 0.998 -0.198 0.998 -0.198 3.834e-3 64.039 
1.383 3.983e-3 64.822 0.998 -0.207 0.998 -0.207 3.983e-3 64.822 
1.448 4.14e-3 65.582 0.998 -0.216 0.998 -0.216 4.14e-3 65.582 
1.517 4.305e-3 66.319 0.998 -0.226 0.998 -0.226 4.305e-3 66.319 
1.588 4.478e-3 67.033 0.998 -0.237 0.998 -0.237 4.478e-3 67.033 
1.664 4.659e-3 67.725 0.998 -0.247 0.998 -0.247 4.659e-3 67.725 
1.742 4.849e-3 68.395 0.998 -0.259 0.998 -0.259 4.849e-3 68.395 
1.825 5.049e-3 69.042 0.998 -0.271 0.998 -0.271 5.049e-3 69.042 
1.911 5.258e-3 69.668 0.998 -0.283 0.998 -0.283 5.258e-3 69.668 
2.002 5.477e-3 70.272 0.998 -0.296 0.998 -0.296 5.477e-3 70.272 
2.097 5.707e-3 70.856 0.998 -0.309 0.998 -0.309 5.707e-3 70.856 
2.196 5.948e-3 71.418 0.998 -0.324 0.998 -0.324 5.948e-3 71.418 
2.3 6.201e-3 71.96 0.998 -0.338 0.998 -0.338 6.201e-3 71.96 
2.409 6.465e-3 72.482 0.998 -0.354 0.998 -0.354 6.465e-3 72.482 
2.523 6.742e-3 72.984 0.998 -0.37 0.998 -0.37 6.742e-3 72.984 
2.643 7.032e-3 73.468 0.998 -0.387 0.998 -0.387 7.032e-3 73.468 
2.768 7.336e-3 73.932 0.998 -0.405 0.998 -0.405 7.336e-3 73.932 
2.899 7.655e-3 74.379 0.998 -0.423 0.998 -0.423 7.655e-3 74.379 
3.036 7.988e-3 74.807 0.998 -0.443 0.998 -0.443 7.988e-3 74.807 
3.18 8.337e-3 75.218 0.998 -0.463 0.998 -0.463 8.337e-3 75.218 
3.331 8.702e-3 75.613 0.998 -0.484 0.998 -0.484 8.702e-3 75.613 
3.488 9.084e-3 75.99 0.998 -0.506 0.998 -0.506 9.084e-3 75.99 
3.653 9.484e-3 76.352 0.998 -0.529 0.998 -0.529 9.484e-3 76.352 
3.826 9.903e-3 76.697 0.998 -0.553 0.998 -0.553 9.903e-3 76.697 
4.008 0.01 77.028 0.998 -0.579 0.998 -0.579 0.01 77.028 
4.198 0.011 77.343 0.998 -0.605 0.998 -0.605 0.011 77.343 
4.396 0.011 77.644 0.998 -0.633 0.998 -0.633 0.011 77.644 
4.605 0.012 77.931 0.998 -0.662 0.998 -0.662 0.012 77.931 
4.823 0.012 78.203 0.998 -0.692 0.998 -0.692 0.012 78.203 
5.051 0.013 78.463 0.998 -0.724 0.998 -0.724 0.013 78.463 
5.29 0.013 78.709 0.997 -0.757 0.997 -0.757 0.013 78.709 
5.541 0.014 78.942 0.997 -0.791 0.997 -0.791 0.014 78.942 
5.803 0.015 79.162 0.997 -0.827 0.997 -0.827 0.015 79.162 
6.078 0.015 79.371 0.997 -0.865 0.997 -0.865 0.015 79.371 
6.366 0.016 79.567 0.997 -0.904 0.997 -0.904 0.016 79.567 
6.667 0.017 79.751 0.997 -0.946 0.997 -0.946 0.017 79.751 
6.983 0.017 79.924 0.997 -0.989 0.997 -0.989 0.017 79.924 
7.314 0.018 80.086 0.997 -1.034 0.997 -1.034 0.018 80.086 
7.66 0.019 80.236 0.997 -1.081 0.997 -1.081 0.019 80.236 
8.023 0.02 80.376 0.997 -1.13 0.997 -1.13 0.02 80.376 
8.403 0.021 80.504 0.997 -1.182 0.997 -1.182 0.021 80.504 
8.801 0.022 80.622 0.997 -1.236 0.997 -1.236 0.022 80.622 
9.218 0.023 80.73 0.997 -1.292 0.997 -1.292 0.023 80.73 
9.655 0.024 80.828 0.996 -1.351 0.996 -1.351 0.024 80.828 
10.112 0.025 80.915 0.996 -1.413 0.996 -1.413 0.025 80.915 
10.591 0.026 80.992 0.996 -1.477 0.996 -1.477 0.026 80.992 
11.092 0.027 81.059 0.996 -1.544 0.996 -1.544 0.027 81.059 
11.618 0.028 81.117 0.996 -1.615 0.996 -1.615 0.028 81.117 
12.168 0.03 81.164 0.996 -1.688 0.996 -1.688 0.03 81.164 
12.744 0.031 81.202 0.996 -1.765 0.996 -1.765 0.031 81.202 
13.348 0.032 81.23 0.996 -1.845 0.996 -1.845 0.032 81.23 
13.98 0.034 81.248 0.995 -1.929 0.995 -1.929 0.034 81.248 
14.642 0.035 81.256 0.995 -2.017 0.995 -2.017 0.035 81.256 
15.335 0.037 81.255 0.995 -2.109 0.995 -2.109 0.037 81.255 
16.062 0.039 81.244 0.995 -2.205 0.995 -2.205 0.039 81.244 
16.822 0.04 81.223 0.995 -2.305 0.995 -2.305 0.04 81.223 
17.619 0.042 81.192 0.994 -2.41 0.994 -2.41 0.042 81.192 
18.454 0.044 81.151 0.994 -2.519 0.994 -2.519 0.044 81.151 
19.328 0.046 81.1 0.994 -2.633 0.994 -2.633 0.046 81.1 
20.243 0.048 81.039 0.994 -2.753 0.994 -2.753 0.048 81.039 
21.202 0.05 80.968 0.993 -2.878 0.993 -2.878 0.05 80.968 
22.206 0.053 80.886 0.993 -3.008 0.993 -3.008 0.053 80.886 
23.258 0.055 80.794 0.993 -3.145 0.993 -3.145 0.055 80.794 
24.359 0.058 80.69 0.992 -3.287 0.992 -3.287 0.058 80.69 
25.513 0.06 80.576 0.992 -3.436 0.992 -3.436 0.06 80.576 
26.721 0.063 80.451 0.991 -3.592 0.991 -3.592 0.063 80.451 
27.987 0.066 80.314 0.991 -3.754 0.991 -3.754 0.066 80.314 
29.312 0.069 80.166 0.991 -3.924 0.991 -3.924 0.069 80.166 
30.7 0.072 80.005 0.99 -4.102 0.99 -4.102 0.072 80.005 
32.154 0.075 79.833 0.99 -4.287 0.99 -4.287 0.075 79.833 
33.677 0.079 79.647 0.989 -4.481 0.989 -4.481 0.079 79.647 
35.272 0.082 79.449 0.988 -4.683 0.988 -4.683 0.082 79.449 
36.943 0.086 79.238 0.988 -4.894 0.988 -4.894 0.086 79.238 
38.693 0.09 79.012 0.987 -5.115 0.987 -5.115 0.09 79.012 
40.525 0.094 78.773 0.986 -5.345 0.986 -5.345 0.094 78.773 
42.444 0.098 78.519 0.985 -5.586 0.985 -5.586 0.098 78.519 
44.455 0.102 78.25 0.984 -5.837 0.984 -5.837 0.102 78.25 
46.56 0.107 77.966 0.983 -6.099 0.983 -6.099 0.107 77.966 
48.765 0.112 77.665 0.982 -6.373 0.982 -6.373 0.112 77.665 
51.075 0.117 77.348 0.981 -6.658 0.981 -6.658 0.117 77.348 
53.494 0.122 77.013 0.98 -6.956 0.98 -6.956 0.122 77.013 
56.027 0.127 76.661 0.979 -7.267 0.979 -7.267 0.127 76.661 
58.681 0.133 76.29 0.977 -7.592 0.977 -7.592 0.133 76.29 
61.46 0.139 75.899 0.976 -7.93 0.976 -7.93 0.139 75.899 
64.371 0.145 75.489 0.974 -8.283 0.974 -8.283 0.145 75.489 
67.42 0.151 75.057 0.972 -8.651 0.972 -8.651 0.151 75.057 
70.613 0.158 74.604 0.97 -9.035 0.97 -9.035 0.158 74.604 
73.957 0.165 74.129 0.968 -9.434 0.968 -9.434 0.165 74.129 
77.46 0.172 73.63 0.966 -9.851 0.966 -9.851 0.172 73.63 
81.128 0.18 73.106 0.963 -10.284 0.963 -10.284 0.18 73.106 
84.971 0.188 72.557 0.961 -10.736 0.961 -10.736 0.188 72.557 
88.995 0.196 71.982 0.958 -11.205 0.958 -11.205 0.196 71.982 
93.21 0.204 71.379 0.955 -11.693 0.955 -11.693 0.204 71.379 
97.624 0.213 70.748 0.951 -12.2 0.951 -12.2 0.213 70.748 
102.248 0.222 70.087 0.948 -12.727 0.948 -12.727 0.222 70.087 
107.091 0.231 69.395 0.944 -13.274 0.944 -13.274 0.231 69.395 
112.163 0.241 68.672 0.94 -13.84 0.94 -13.84 0.241 68.672 
117.475 0.251 67.916 0.935 -14.427 0.935 -14.427 0.251 67.916 
123.039 0.262 67.126 0.93 -15.034 0.93 -15.034 0.262 67.126 
128.866 0.273 66.302 0.925 -15.662 0.925 -15.662 0.273 66.302 
134.969 0.284 65.442 0.919 -16.309 0.919 -16.309 0.284 65.442 
141.361 0.295 64.547 0.913 -16.976 0.913 -16.976 0.295 64.547 
148.056 0.307 63.615 0.906 -17.661 0.906 -17.661 0.307 63.615 
155.069 0.319 62.646 0.899 -18.364 0.899 -18.364 0.319 62.646 
162.413 0.331 61.64 0.892 -19.085 0.892 -19.085 0.331 61.64 
170.105 0.344 60.597 0.884 -19.82 0.884 -19.82 0.344 60.597 
178.161 0.357 59.518 0.875 -20.57 0.875 -20.57 0.357 59.518 
186.599 0.37 58.404 0.866 -21.331 0.866 -21.331 0.37 58.404 
195.437 0.383 57.255 0.856 -22.102 0.856 -22.102 0.383 57.255 
204.693 0.396 56.073 0.845 -22.879 0.845 -22.879 0.396 56.073 
214.388 0.41 54.86 0.834 -23.66 0.834 -23.66 0.41 54.86 
224.541 0.423 53.619 0.823 -24.442 0.823 -24.442 0.423 53.619 
235.176 0.436 52.352 0.811 -25.221 0.811 -25.221 0.436 52.352 
246.314 0.45 51.062 0.798 -25.992 0.798 -25.992 0.45 51.062 
257.98 0.463 49.752 0.785 -26.753 0.785 -26.753 0.463 49.752 
270.198 0.476 48.426 0.771 -27.5 0.771 -27.5 0.476 48.426 
282.995 0.489 47.088 0.757 -28.227 0.757 -28.227 0.489 47.088 
296.398 0.502 45.741 0.743 -28.931 0.743 -28.931 0.502 45.741 
310.436 0.514 44.391 0.728 -29.608 0.728 -29.608 0.514 44.391 
325.139 0.526 43.04 0.713 -30.253 0.713 -30.253 0.526 43.04 
340.538 0.538 41.694 0.697 -30.865 0.697 -30.865 0.538 41.694 
356.666 0.549 40.355 0.682 -31.437 0.682 -31.437 0.549 40.355 
373.558 0.56 39.029 0.666 -31.969 0.666 -31.969 0.56 39.029 
391.25 0.57 37.717 0.65 -32.457 0.65 -32.457 0.57 37.717 
409.781 0.581 36.424 0.635 -32.899 0.635 -32.899 0.581 36.424 
429.188 0.59 35.152 0.619 -33.293 0.619 -33.293 0.59 35.152 
449.515 0.599 33.904 0.604 -33.637 0.604 -33.637 0.599 33.904 
470.805 0.608 32.682 0.588 -33.931 0.588 -33.931 0.608 32.682 
493.103 0.616 31.487 0.573 -34.174 0.573 -34.174 0.616 31.487 
516.457 0.624 30.323 0.558 -34.365 0.558 -34.365 0.624 30.323 
540.917 0.632 29.189 0.544 -34.505 0.544 -34.505 0.632 29.189 
566.536 0.639 28.086 0.53 -34.595 0.53 -34.595 0.639 28.086 
593.368 0.646 27.016 0.516 -34.634 0.516 -34.634 0.646 27.016 
621.47 0.652 25.978 0.503 -34.624 0.503 -34.624 0.652 25.978 
650.904 0.658 24.973 0.49 -34.566 0.49 -34.566 0.658 24.973 
681.732 0.664 24 0.477 -34.462 0.477 -34.462 0.664 24 
714.019 0.669 23.06 0.465 -34.312 0.465 -34.312 0.669 23.06 
747.836 0.674 22.152 0.453 -34.12 0.453 -34.12 0.674 22.152 
783.255 0.679 21.276 0.442 -33.885 0.442 -33.885 0.679 21.276 
820.351 0.684 20.431 0.431 -33.611 0.431 -33.611 0.684 20.431 
859.204 0.688 19.616 0.421 -33.3 0.421 -33.3 0.688 19.616 
899.897 0.692 18.831 0.411 -32.953 0.411 -32.953 0.692 18.831 
942.517 0.696 18.075 0.401 -32.572 0.401 -32.572 0.696 18.075 
987.156 0.7 17.348 0.392 -32.16 0.392 -32.16 0.7 17.348 
1033.909 0.703 16.648 0.383 -31.719 0.383 -31.719 0.703 16.648 
1082.877 0.707 15.974 0.375 -31.251 0.375 -31.251 0.707 15.974 
1134.163 0.71 15.326 0.367 -30.759 0.367 -30.759 0.71 15.326 
1187.879 0.713 14.703 0.359 -30.243 0.359 -30.243 0.713 14.703 
1244.138 0.716 14.105 0.352 -29.707 0.352 -29.707 0.716 14.105 
1303.062 0.719 13.529 0.345 -29.153 0.345 -29.153 0.719 13.529 
1364.777 0.721 12.977 0.338 -28.583 0.338 -28.583 0.721 12.977 
1429.415 0.724 12.445 0.332 -27.999 0.332 -27.999 0.724 12.445 
1497.114 0.726 11.935 0.326 -27.403 0.326 -27.403 0.726 11.935 
1568.019 0.728 11.445 0.321 -26.797 0.321 -26.797 0.728 11.445 
1642.283 0.731 10.975 0.315 -26.182 0.315 -26.182 0.731 10.975 
1720.063 0.733 10.523 0.31 -25.561 0.31 -25.561 0.733 10.523 
1801.528 0.735 10.089 0.305 -24.936 0.305 -24.936 0.735 10.089 
1886.851 0.736 9.673 0.301 -24.308 0.301 -24.308 0.736 9.673 
1976.214 0.738 9.273 0.296 -23.678 0.296 -23.678 0.738 9.273 
2069.811 0.74 8.89 0.292 -23.049 0.292 -23.049 0.74 8.89 
2167.84 0.742 8.522 0.288 -22.421 0.288 -22.421 0.742 8.522 
2270.512 0.743 8.169 0.284 -21.797 0.284 -21.797 0.743 8.169 
2378.046 0.745 7.83 0.281 -21.176 0.281 -21.176 0.745 7.83 
2490.674 0.746 7.505 0.278 -20.561 0.278 -20.561 0.746 7.505 
2608.635 0.748 7.193 0.274 -19.953 0.274 -19.953 0.748 7.193 
2732.184 0.749 6.894 0.271 -19.351 0.271 -19.351 0.749 6.894 
2861.584 0.751 6.607 0.269 -18.758 0.269 -18.758 0.751 6.607 
2997.112 0.752 6.332 0.266 -18.174 0.266 -18.174 0.752 6.332 
3139.06 0.753 6.068 0.263 -17.6 0.263 -17.6 0.753 6.068 
3287.73 0.754 5.814 0.261 -17.036 0.261 -17.036 0.754 5.814 
3443.441 0.756 5.572 0.259 -16.482 0.259 -16.482 0.756 5.572 
3606.527 0.757 5.339 0.256 -15.94 0.256 -15.94 0.757 5.339 
3777.337 0.758 5.116 0.254 -15.41 0.254 -15.41 0.758 5.116 
3956.237 0.759 4.902 0.252 -14.891 0.252 -14.891 0.759 4.902 
4143.61 0.76 4.696 0.25 -14.385 0.25 -14.385 0.76 4.696 
4339.857 0.761 4.5 0.249 -13.891 0.249 -13.891 0.761 4.5 
4545.398 0.762 4.311 0.247 -13.409 0.247 -13.409 0.762 4.311 
4760.675 0.763 4.13 0.245 -12.94 0.245 -12.94 0.763 4.13 
4986.147 0.764 3.957 0.244 -12.484 0.244 -12.484 0.764 3.957 
5222.297 0.765 3.791 0.242 -12.04 0.242 -12.04 0.765 3.791 
5469.633 0.766 3.632 0.241 -11.609 0.241 -11.609 0.766 3.632 
5728.682 0.766 3.479 0.24 -11.19 0.24 -11.19 0.766 3.479 
6000 0.767 3.333 0.238 -10.784 0.238 -10.784 0.767 3.333 
