# MHz S MA R 50

1 0.018 72.167 0.995 -0.968 0.995 -0.968 0.018 72.167 
1.047 0.018 72.678 0.995 -1.012 0.995 -1.012 0.018 72.678 
1.097 0.019 73.166 0.995 -1.058 0.995 -1.058 0.019 73.166 
1.149 0.02 73.632 0.995 -1.107 0.995 -1.107 0.02 73.632 
1.203 0.021 74.077 0.994 -1.157 0.994 -1.157 0.021 74.077 
1.26 0.022 74.5 0.994 -1.21 0.994 -1.21 0.022 74.5 
1.32 0.023 74.903 0.994 -1.265 0.994 -1.265 0.023 74.903 
1.383 0.024 75.286 0.994 -1.322 0.994 -1.322 0.024 75.286 
1.448 0.025 75.648 0.994 -1.382 0.994 -1.382 0.025 75.648 
1.517 0.026 75.991 0.994 -1.445 0.994 -1.445 0.026 75.991 
1.588 0.027 76.315 0.994 -1.511 0.994 -1.511 0.027 76.315 
1.664 0.028 76.621 0.994 -1.58 0.994 -1.58 0.028 76.621 
1.742 0.029 76.908 0.994 -1.651 0.994 -1.651 0.029 76.908 
1.825 0.031 77.177 0.994 -1.727 0.994 -1.727 0.031 77.177 
1.911 0.032 77.429 0.994 -1.805 0.994 -1.805 0.032 77.429 
2.002 0.033 77.663 0.993 -1.887 0.993 -1.887 0.033 77.663 
2.097 0.035 77.88 0.993 -1.973 0.993 -1.973 0.035 77.88 
2.196 0.037 78.081 0.993 -2.062 0.993 -2.062 0.037 78.081 
2.3 0.038 78.265 0.993 -2.156 0.993 -2.156 0.038 78.265 
2.409 0.04 78.433 0.993 -2.254 0.993 -2.254 0.04 78.433 
2.523 0.042 78.585 0.993 -2.356 0.993 -2.356 0.042 78.585 
2.643 0.043 78.721 0.992 -2.463 0.992 -2.463 0.043 78.721 
2.768 0.045 78.842 0.992 -2.574 0.992 -2.574 0.045 78.842 
2.899 0.047 78.947 0.992 -2.691 0.992 -2.691 0.047 78.947 
3.036 0.05 79.037 0.992 -2.813 0.992 -2.813 0.05 79.037 
3.18 0.052 79.112 0.992 -2.94 0.992 -2.94 0.052 79.112 
3.331 0.054 79.171 0.991 -3.074 0.991 -3.074 0.054 79.171 
3.488 0.057 79.216 0.991 -3.213 0.991 -3.213 0.057 79.216 
3.653 0.059 79.246 0.991 -3.358 0.991 -3.358 0.059 79.246 
3.826 0.062 79.26 0.99 -3.51 0.99 -3.51 0.062 79.26 
4.008 0.064 79.26 0.99 -3.668 0.99 -3.668 0.064 79.26 
4.198 0.067 79.245 0.99 -3.834 0.99 -3.834 0.067 79.245 
4.396 0.07 79.214 0.989 -4.007 0.989 -4.007 0.07 79.214 
4.605 0.074 79.169 0.989 -4.188 0.989 -4.188 0.074 79.169 
4.823 0.077 79.109 0.988 -4.377 0.988 -4.377 0.077 79.109 
5.051 0.08 79.033 0.988 -4.574 0.988 -4.574 0.08 79.033 
5.29 0.084 78.942 0.987 -4.779 0.987 -4.779 0.084 78.942 
5.541 0.088 78.835 0.987 -4.994 0.987 -4.994 0.088 78.835 
5.803 0.091 78.713 0.986 -5.219 0.986 -5.219 0.091 78.713 
6.078 0.096 78.574 0.986 -5.453 0.986 -5.453 0.096 78.574 
6.366 0.1 78.42 0.985 -5.697 0.985 -5.697 0.1 78.42 
6.667 0.104 78.249 0.984 -5.953 0.984 -5.953 0.104 78.249 
6.983 0.109 78.061 0.983 -6.219 0.983 -6.219 0.109 78.061 
7.314 0.114 77.856 0.982 -6.497 0.982 -6.497 0.114 77.856 
7.66 0.119 77.635 0.981 -6.787 0.981 -6.787 0.119 77.635 
8.023 0.124 77.395 0.98 -7.089 0.98 -7.089 0.124 77.395 
8.403 0.129 77.138 0.979 -7.404 0.979 -7.404 0.129 77.138 
8.801 0.135 76.862 0.978 -7.733 0.978 -7.733 0.135 76.862 
9.218 0.141 76.568 0.977 -8.076 0.977 -8.076 0.141 76.568 
9.655 0.147 76.255 0.976 -8.433 0.976 -8.433 0.147 76.255 
10.112 0.154 75.922 0.974 -8.805 0.974 -8.805 0.154 75.922 
10.591 0.16 75.569 0.973 -9.193 0.973 -9.193 0.16 75.569 
11.092 0.167 75.196 0.971 -9.597 0.971 -9.597 0.167 75.196 
11.618 0.175 74.802 0.969 -10.018 0.969 -10.018 0.175 74.802 
12.168 0.182 74.387 0.967 -10.456 0.967 -10.456 0.182 74.387 
12.744 0.19 73.95 0.965 -10.911 0.965 -10.911 0.19 73.95 
13.348 0.198 73.491 0.963 -11.385 0.963 -11.385 0.198 73.491 
13.98 0.207 73.009 0.96 -11.878 0.96 -11.878 0.207 73.009 
14.642 0.215 72.504 0.958 -12.39 0.958 -12.39 0.215 72.504 
15.335 0.225 71.975 0.955 -12.922 0.955 -12.922 0.225 71.975 
16.062 0.234 71.423 0.952 -13.474 0.952 -13.474 0.234 71.423 
16.822 0.244 70.846 0.948 -14.048 0.948 -14.048 0.244 70.846 
17.619 0.254 70.244 0.945 -14.642 0.945 -14.642 0.254 70.244 
18.454 0.264 69.616 0.941 -15.259 0.941 -15.259 0.264 69.616 
19.328 0.275 68.964 0.937 -15.897 0.937 -15.897 0.275 68.964 
20.243 0.286 68.285 0.933 -16.559 0.933 -16.559 0.286 68.285 
21.202 0.298 67.58 0.928 -17.243 0.928 -17.243 0.298 67.58 
22.206 0.309 66.848 0.923 -17.95 0.923 -17.95 0.309 66.848 
23.258 0.322 66.09 0.918 -18.681 0.918 -18.681 0.322 66.09 
24.359 0.334 65.306 0.912 -19.435 0.912 -19.435 0.334 65.306 
25.513 0.347 64.494 0.906 -20.212 0.906 -20.212 0.347 64.494 
26.721 0.36 63.656 0.9 -21.013 0.9 -21.013 0.36 63.656 
27.987 0.374 62.792 0.893 -21.837 0.893 -21.837 0.374 62.792 
29.312 0.387 61.901 0.886 -22.685 0.886 -22.685 0.387 61.901 
30.7 0.401 60.985 0.878 -23.554 0.878 -23.554 0.401 60.985 
32.154 0.416 60.043 0.87 -24.446 0.87 -24.446 0.416 60.043 
33.677 0.43 59.077 0.862 -25.36 0.862 -25.36 0.43 59.077 
35.272 0.445 58.087 0.853 -26.294 0.853 -26.294 0.445 58.087 
36.943 0.46 57.073 0.844 -27.249 0.844 -27.249 0.46 57.073 
38.693 0.475 56.038 0.834 -28.222 0.834 -28.222 0.475 56.038 
40.525 0.491 54.981 0.823 -29.213 0.823 -29.213 0.491 54.981 
42.444 0.506 53.905 0.812 -30.221 0.812 -30.221 0.506 53.905 
44.455 0.521 52.81 0.801 -31.244 0.801 -31.244 0.521 52.81 
46.56 0.537 51.699 0.789 -32.28 0.789 -32.28 0.537 51.699 
48.765 0.553 50.572 0.777 -33.329 0.777 -33.329 0.553 50.572 
51.075 0.568 49.432 0.764 -34.388 0.764 -34.388 0.568 49.432 
53.494 0.584 48.281 0.751 -35.455 0.751 -35.455 0.584 48.281 
56.027 0.599 47.12 0.737 -36.528 0.737 -36.528 0.599 47.12 
58.681 0.614 45.951 0.723 -37.606 0.723 -37.606 0.614 45.951 
61.46 0.629 44.777 0.709 -38.685 0.709 -38.685 0.629 44.777 
64.371 0.644 43.599 0.694 -39.765 0.694 -39.765 0.644 43.599 
67.42 0.659 42.42 0.679 -40.843 0.679 -40.843 0.659 42.42 
70.613 0.673 41.241 0.664 -41.917 0.664 -41.917 0.673 41.241 
73.957 0.687 40.066 0.648 -42.984 0.648 -42.984 0.687 40.066 
77.46 0.7 38.896 0.633 -44.042 0.633 -44.042 0.7 38.896 
81.128 0.714 37.732 0.617 -45.089 0.617 -45.089 0.714 37.732 
84.971 0.727 36.578 0.601 -46.124 0.601 -46.124 0.727 36.578 
88.995 0.739 35.435 0.585 -47.144 0.585 -47.144 0.739 35.435 
93.21 0.751 34.304 0.569 -48.148 0.569 -48.148 0.751 34.304 
97.624 0.763 33.188 0.552 -49.133 0.552 -49.133 0.763 33.188 
102.248 0.774 32.087 0.536 -50.098 0.536 -50.098 0.774 32.087 
107.091 0.785 31.004 0.52 -51.041 0.52 -51.041 0.785 31.004 
112.163 0.796 29.939 0.504 -51.962 0.504 -51.962 0.796 29.939 
117.475 0.805 28.895 0.488 -52.858 0.488 -52.858 0.805 28.895 
123.039 0.815 27.871 0.473 -53.728 0.473 -53.728 0.815 27.871 
128.866 0.824 26.868 0.457 -54.572 0.457 -54.572 0.824 26.868 
134.969 0.833 25.888 0.442 -55.388 0.442 -55.388 0.833 25.888 
141.361 0.841 24.932 0.427 -56.176 0.427 -56.176 0.841 24.932 
148.056 0.849 23.998 0.412 -56.934 0.412 -56.934 0.849 23.998 
155.069 0.856 23.089 0.397 -57.663 0.397 -57.663 0.856 23.089 
162.413 0.863 22.204 0.383 -58.361 0.383 -58.361 0.863 22.204 
170.105 0.87 21.343 0.369 -59.029 0.369 -59.029 0.87 21.343 
178.161 0.876 20.507 0.356 -59.664 0.356 -59.664 0.876 20.507 
186.599 0.882 19.695 0.342 -60.269 0.342 -60.269 0.882 19.695 
195.437 0.887 18.907 0.329 -60.841 0.329 -60.841 0.887 18.907 
204.693 0.893 18.143 0.317 -61.38 0.317 -61.38 0.893 18.143 
214.388 0.898 17.403 0.304 -61.887 0.304 -61.887 0.898 17.403 
224.541 0.902 16.686 0.292 -62.361 0.292 -62.361 0.902 16.686 
235.176 0.907 15.993 0.281 -62.801 0.281 -62.801 0.907 15.993 
246.314 0.911 15.322 0.27 -63.207 0.27 -63.207 0.911 15.322 
257.98 0.915 14.673 0.259 -63.578 0.259 -63.578 0.915 14.673 
270.198 0.918 14.046 0.248 -63.915 0.248 -63.915 0.918 14.046 
282.995 0.922 13.441 0.238 -64.216 0.238 -64.216 0.922 13.441 
296.398 0.925 12.855 0.228 -64.48 0.228 -64.48 0.925 12.855 
310.436 0.928 12.291 0.218 -64.708 0.218 -64.708 0.928 12.291 
325.139 0.931 11.745 0.209 -64.896 0.209 -64.896 0.931 11.745 
340.538 0.933 11.219 0.2 -65.045 0.2 -65.045 0.933 11.219 
356.666 0.936 10.711 0.192 -65.153 0.192 -65.153 0.936 10.711 
373.558 0.938 10.221 0.183 -65.219 0.183 -65.219 0.938 10.221 
391.25 0.94 9.748 0.175 -65.239 0.175 -65.239 0.94 9.748 
409.781 0.942 9.292 0.168 -65.213 0.168 -65.213 0.942 9.292 
429.188 0.944 8.853 0.16 -65.137 0.16 -65.137 0.944 8.853 
449.515 0.946 8.429 0.153 -65.009 0.153 -65.009 0.946 8.429 
470.805 0.947 8.021 0.146 -64.826 0.146 -64.826 0.947 8.021 
493.103 0.949 7.627 0.139 -64.584 0.139 -64.584 0.949 7.627 
516.457 0.95 7.248 0.133 -64.28 0.133 -64.28 0.95 7.248 
540.917 0.951 6.883 0.127 -63.91 0.127 -63.91 0.951 6.883 
566.536 0.952 6.531 0.121 -63.469 0.121 -63.469 0.952 6.531 
593.368 0.953 6.193 0.115 -62.952 0.115 -62.952 0.953 6.193 
621.47 0.954 5.867 0.11 -62.355 0.11 -62.355 0.954 5.867 
650.904 0.955 5.554 0.105 -61.673 0.105 -61.673 0.955 5.554 
681.732 0.955 5.253 0.1 -60.9 0.1 -60.9 0.955 5.253 
714.019 0.956 4.964 0.095 -60.033 0.095 -60.033 0.956 4.964 
747.836 0.956 4.687 0.091 -59.065 0.091 -59.065 0.956 4.687 
783.255 0.957 4.421 0.087 -57.995 0.087 -57.995 0.957 4.421 
820.351 0.957 4.166 0.083 -56.817 0.083 -56.817 0.957 4.166 
859.204 0.957 3.923 0.079 -55.532 0.079 -55.532 0.957 3.923 
899.897 0.957 3.69 0.076 -54.137 0.076 -54.137 0.957 3.69 
942.517 0.958 3.468 0.073 -52.635 0.073 -52.635 0.958 3.468 
987.156 0.958 3.256 0.07 -51.029 0.07 -51.029 0.958 3.256 
1033.909 0.958 3.054 0.067 -49.324 0.067 -49.324 0.958 3.054 
1082.877 0.957 2.863 0.065 -47.531 0.065 -47.531 0.957 2.863 
1134.163 0.957 2.681 0.063 -45.659 0.063 -45.659 0.957 2.681 
1187.879 0.957 2.509 0.061 -43.723 0.061 -43.723 0.957 2.509 
1244.138 0.957 2.347 0.059 -41.737 0.059 -41.737 0.957 2.347 
1303.062 0.957 2.193 0.057 -39.721 0.057 -39.721 0.957 2.193 
1364.777 0.956 2.049 0.056 -37.69 0.056 -37.69 0.956 2.049 
1429.415 0.956 1.913 0.055 -35.666 0.055 -35.666 0.956 1.913 
1497.114 0.956 1.786 0.054 -33.665 0.054 -33.665 0.956 1.786 
1568.019 0.955 1.667 0.053 -31.704 0.053 -31.704 0.955 1.667 
1642.283 0.955 1.555 0.052 -29.799 0.052 -29.799 0.955 1.555 
1720.063 0.955 1.451 0.052 -27.962 0.052 -27.962 0.955 1.451 
1801.528 0.954 1.355 0.051 -26.203 0.051 -26.203 0.954 1.355 
1886.851 0.954 1.265 0.051 -24.53 0.051 -24.53 0.954 1.265 
1976.214 0.954 1.181 0.05 -22.948 0.05 -22.948 0.954 1.181 
2069.811 0.953 1.103 0.05 -21.46 0.05 -21.46 0.953 1.103 
2167.84 0.953 1.031 0.05 -20.066 0.05 -20.066 0.953 1.031 
2270.512 0.953 0.965 0.05 -18.766 0.05 -18.766 0.953 0.965 
2378.046 0.953 0.903 0.05 -17.557 0.05 -17.557 0.953 0.903 
2490.674 0.952 0.846 0.05 -16.436 0.05 -16.436 0.952 0.846 
2608.635 0.952 0.793 0.05 -15.398 0.05 -15.398 0.952 0.793 
2732.184 0.952 0.745 0.05 -14.439 0.05 -14.439 0.952 0.745 
2861.584 0.952 0.7 0.05 -13.554 0.05 -13.554 0.952 0.7 
2997.112 0.952 0.658 0.05 -12.737 0.05 -12.737 0.952 0.658 
3139.06 0.952 0.62 0.05 -11.984 0.05 -11.984 0.952 0.62 
3287.73 0.951 0.584 0.05 -11.289 0.05 -11.289 0.951 0.584 
3443.441 0.951 0.551 0.05 -10.649 0.05 -10.649 0.951 0.551 
3606.527 0.951 0.521 0.049 -10.057 0.049 -10.057 0.951 0.521 
3777.337 0.951 0.492 0.049 -9.511 0.049 -9.511 0.951 0.492 
3956.237 0.951 0.466 0.049 -9.005 0.049 -9.005 0.951 0.466 
4143.61 0.951 0.442 0.049 -8.537 0.049 -8.537 0.951 0.442 
4339.857 0.951 0.419 0.049 -8.103 0.049 -8.103 0.951 0.419 
4545.398 0.951 0.398 0.049 -7.7 0.049 -7.7 0.951 0.398 
4760.675 0.951 0.378 0.049 -7.325 0.049 -7.325 0.951 0.378 
4986.147 0.951 0.359 0.049 -6.976 0.049 -6.976 0.951 0.359 
5222.297 0.951 0.342 0.049 -6.65 0.049 -6.65 0.951 0.342 
5469.633 0.951 0.326 0.049 -6.345 0.049 -6.345 0.951 0.326 
5728.682 0.951 0.31 0.049 -6.06 0.049 -6.06 0.951 0.31 
6000 0.952 0.296 0.049 -5.792 0.049 -5.792 0.952 0.296 
