# MHz S MA R 50

1 0.033 69.305 0.989 -1.794 0.989 -1.794 0.033 69.305 
1.047 0.034 69.841 0.989 -1.876 0.989 -1.876 0.034 69.841 
1.097 0.036 70.352 0.988 -1.962 0.988 -1.962 0.036 70.352 
1.149 0.037 70.839 0.988 -2.051 0.988 -2.051 0.037 70.839 
1.203 0.039 71.301 0.988 -2.145 0.988 -2.145 0.039 71.301 
1.26 0.041 71.739 0.988 -2.243 0.988 -2.243 0.041 71.739 
1.32 0.042 72.154 0.988 -2.345 0.988 -2.345 0.042 72.154 
1.383 0.044 72.544 0.988 -2.452 0.988 -2.452 0.044 72.544 
1.448 0.046 72.912 0.987 -2.564 0.987 -2.564 0.046 72.912 
1.517 0.048 73.257 0.987 -2.68 0.987 -2.68 0.048 73.257 
1.588 0.05 73.579 0.987 -2.802 0.987 -2.802 0.05 73.579 
1.664 0.052 73.88 0.987 -2.93 0.987 -2.93 0.052 73.88 
1.742 0.055 74.158 0.986 -3.063 0.986 -3.063 0.055 74.158 
1.825 0.057 74.414 0.986 -3.203 0.986 -3.203 0.057 74.414 
1.911 0.06 74.648 0.986 -3.348 0.986 -3.348 0.06 74.648 
2.002 0.062 74.862 0.986 -3.5 0.986 -3.5 0.062 74.862 
2.097 0.065 75.054 0.985 -3.659 0.985 -3.659 0.065 75.054 
2.196 0.068 75.225 0.985 -3.826 0.985 -3.826 0.068 75.225 
2.3 0.071 75.375 0.984 -3.999 0.984 -3.999 0.071 75.375 
2.409 0.074 75.505 0.984 -4.181 0.984 -4.181 0.074 75.505 
2.523 0.077 75.614 0.984 -4.37 0.984 -4.37 0.077 75.614 
2.643 0.081 75.702 0.983 -4.568 0.983 -4.568 0.081 75.702 
2.768 0.084 75.77 0.983 -4.775 0.983 -4.775 0.084 75.77 
2.899 0.088 75.818 0.982 -4.991 0.982 -4.991 0.088 75.818 
3.036 0.092 75.844 0.982 -5.217 0.982 -5.217 0.092 75.844 
3.18 0.096 75.851 0.981 -5.453 0.981 -5.453 0.096 75.851 
3.331 0.1 75.836 0.98 -5.699 0.98 -5.699 0.1 75.836 
3.488 0.105 75.801 0.98 -5.956 0.98 -5.956 0.105 75.801 
3.653 0.109 75.746 0.979 -6.224 0.979 -6.224 0.109 75.746 
3.826 0.114 75.669 0.978 -6.504 0.978 -6.504 0.114 75.669 
4.008 0.119 75.571 0.977 -6.797 0.977 -6.797 0.119 75.571 
4.198 0.125 75.452 0.976 -7.102 0.976 -7.102 0.125 75.452 
4.396 0.13 75.311 0.975 -7.42 0.975 -7.42 0.13 75.311 
4.605 0.136 75.149 0.974 -7.753 0.974 -7.753 0.136 75.149 
4.823 0.142 74.964 0.973 -8.099 0.973 -8.099 0.142 74.964 
5.051 0.148 74.757 0.972 -8.461 0.972 -8.461 0.148 74.757 
5.29 0.155 74.528 0.97 -8.838 0.97 -8.838 0.155 74.528 
5.541 0.161 74.275 0.969 -9.23 0.969 -9.23 0.161 74.275 
5.803 0.168 74 0.967 -9.64 0.967 -9.64 0.168 74 
6.078 0.176 73.7 0.966 -10.067 0.966 -10.067 0.176 73.7 
6.366 0.183 73.376 0.964 -10.511 0.964 -10.511 0.183 73.376 
6.667 0.191 73.028 0.962 -10.974 0.962 -10.974 0.191 73.028 
6.983 0.2 72.655 0.96 -11.456 0.96 -11.456 0.2 72.655 
7.314 0.208 72.257 0.957 -11.958 0.957 -11.958 0.208 72.257 
7.66 0.217 71.833 0.955 -12.479 0.955 -12.479 0.217 71.833 
8.023 0.226 71.382 0.952 -13.022 0.952 -13.022 0.226 71.382 
8.403 0.236 70.905 0.949 -13.586 0.949 -13.586 0.236 70.905 
8.801 0.246 70.401 0.946 -14.172 0.946 -14.172 0.246 70.401 
9.218 0.256 69.87 0.943 -14.78 0.943 -14.78 0.256 69.87 
9.655 0.267 69.311 0.939 -15.411 0.939 -15.411 0.267 69.311 
10.112 0.278 68.723 0.936 -16.066 0.936 -16.066 0.278 68.723 
10.591 0.289 68.107 0.932 -16.745 0.932 -16.745 0.289 68.107 
11.092 0.301 67.462 0.927 -17.448 0.927 -17.448 0.301 67.462 
11.618 0.313 66.789 0.923 -18.176 0.923 -18.176 0.313 66.789 
12.168 0.326 66.086 0.918 -18.929 0.918 -18.929 0.326 66.086 
12.744 0.338 65.354 0.912 -19.707 0.912 -19.707 0.338 65.354 
13.348 0.352 64.592 0.907 -20.511 0.907 -20.511 0.352 64.592 
13.98 0.365 63.801 0.901 -21.34 0.901 -21.34 0.365 63.801 
14.642 0.379 62.981 0.894 -22.194 0.894 -22.194 0.379 62.981 
15.335 0.393 62.132 0.887 -23.074 0.887 -23.074 0.393 62.132 
16.062 0.408 61.254 0.88 -23.979 0.88 -23.979 0.408 61.254 
16.822 0.423 60.348 0.872 -24.908 0.872 -24.908 0.423 60.348 
17.619 0.438 59.414 0.864 -25.861 0.864 -25.861 0.438 59.414 
18.454 0.453 58.454 0.855 -26.838 0.855 -26.838 0.453 58.454 
19.328 0.469 57.467 0.846 -27.838 0.846 -27.838 0.469 57.467 
20.243 0.484 56.455 0.836 -28.859 0.836 -28.859 0.484 56.455 
21.202 0.5 55.42 0.826 -29.902 0.826 -29.902 0.5 55.42 
22.206 0.516 54.361 0.815 -30.963 0.815 -30.963 0.516 54.361 
23.258 0.532 53.281 0.804 -32.043 0.804 -32.043 0.532 53.281 
24.359 0.549 52.182 0.793 -33.139 0.793 -33.139 0.549 52.182 
25.513 0.565 51.065 0.78 -34.251 0.78 -34.251 0.565 51.065 
26.721 0.581 49.931 0.768 -35.375 0.768 -35.375 0.581 49.931 
27.987 0.597 48.783 0.755 -36.511 0.755 -36.511 0.597 48.783 
29.312 0.613 47.623 0.741 -37.655 0.741 -37.655 0.613 47.623 
30.7 0.629 46.453 0.727 -38.807 0.727 -38.807 0.629 46.453 
32.154 0.645 45.275 0.713 -39.964 0.713 -39.964 0.645 45.275 
33.677 0.66 44.092 0.698 -41.124 0.698 -41.124 0.66 44.092 
35.272 0.675 42.905 0.683 -42.283 0.683 -42.283 0.675 42.905 
36.943 0.69 41.717 0.668 -43.441 0.668 -43.441 0.69 41.717 
38.693 0.705 40.531 0.652 -44.595 0.652 -44.595 0.705 40.531 
40.525 0.719 39.348 0.636 -45.742 0.636 -45.742 0.719 39.348 
42.444 0.733 38.171 0.62 -46.881 0.62 -46.881 0.733 38.171 
44.455 0.746 37.002 0.604 -48.008 0.604 -48.008 0.746 37.002 
46.56 0.759 35.844 0.588 -49.122 0.588 -49.122 0.759 35.844 
48.765 0.772 34.697 0.571 -50.222 0.571 -50.222 0.772 34.697 
51.075 0.784 33.565 0.555 -51.304 0.555 -51.304 0.784 33.565 
53.494 0.795 32.448 0.539 -52.368 0.539 -52.368 0.795 32.448 
56.027 0.806 31.348 0.522 -53.412 0.522 -53.412 0.806 31.348 
58.681 0.817 30.268 0.506 -54.433 0.506 -54.433 0.817 30.268 
61.46 0.827 29.207 0.49 -55.432 0.49 -55.432 0.827 29.207 
64.371 0.837 28.168 0.474 -56.406 0.474 -56.406 0.837 28.168 
67.42 0.846 27.151 0.458 -57.355 0.458 -57.355 0.846 27.151 
70.613 0.855 26.157 0.443 -58.278 0.443 -58.278 0.855 26.157 
73.957 0.863 25.187 0.428 -59.174 0.428 -59.174 0.863 25.187 
77.46 0.871 24.242 0.413 -60.041 0.413 -60.041 0.871 24.242 
81.128 0.878 23.321 0.398 -60.881 0.398 -60.881 0.878 23.321 
84.971 0.885 22.426 0.384 -61.692 0.384 -61.692 0.885 22.426 
88.995 0.892 21.556 0.369 -62.474 0.369 -62.474 0.892 21.556 
93.21 0.898 20.711 0.356 -63.227 0.356 -63.227 0.898 20.711 
97.624 0.904 19.892 0.342 -63.95 0.342 -63.95 0.904 19.892 
102.248 0.909 19.099 0.329 -64.645 0.329 -64.645 0.909 19.099 
107.091 0.914 18.33 0.316 -65.31 0.316 -65.31 0.914 18.33 
112.163 0.919 17.587 0.304 -65.946 0.304 -65.946 0.919 17.587 
117.475 0.924 16.868 0.292 -66.553 0.292 -66.553 0.924 16.868 
123.039 0.928 16.173 0.28 -67.132 0.28 -67.132 0.928 16.173 
128.866 0.932 15.502 0.269 -67.682 0.269 -67.682 0.932 15.502 
134.969 0.935 14.855 0.258 -68.203 0.258 -68.203 0.935 14.855 
141.361 0.939 14.23 0.248 -68.697 0.248 -68.697 0.939 14.23 
148.056 0.942 13.627 0.237 -69.163 0.237 -69.163 0.942 13.627 
155.069 0.945 13.046 0.228 -69.601 0.228 -69.601 0.945 13.046 
162.413 0.948 12.486 0.218 -70.012 0.218 -70.012 0.948 12.486 
170.105 0.951 11.946 0.209 -70.395 0.209 -70.395 0.951 11.946 
178.161 0.953 11.426 0.2 -70.751 0.2 -70.751 0.953 11.426 
186.599 0.955 10.926 0.191 -71.08 0.191 -71.08 0.955 10.926 
195.437 0.957 10.444 0.183 -71.382 0.183 -71.382 0.957 10.444 
204.693 0.959 9.979 0.175 -71.657 0.175 -71.657 0.959 9.979 
214.388 0.961 9.532 0.167 -71.904 0.167 -71.904 0.961 9.532 
224.541 0.963 9.102 0.16 -72.123 0.16 -72.123 0.963 9.102 
235.176 0.965 8.687 0.153 -72.314 0.153 -72.314 0.965 8.687 
246.314 0.966 8.288 0.146 -72.476 0.146 -72.476 0.966 8.288 
257.98 0.968 7.904 0.139 -72.608 0.139 -72.608 0.968 7.904 
270.198 0.969 7.534 0.133 -72.71 0.133 -72.71 0.969 7.534 
282.995 0.97 7.178 0.127 -72.779 0.127 -72.779 0.97 7.178 
296.398 0.971 6.835 0.121 -72.814 0.121 -72.814 0.971 6.835 
310.436 0.972 6.504 0.115 -72.814 0.115 -72.814 0.972 6.504 
325.139 0.973 6.186 0.11 -72.776 0.11 -72.776 0.973 6.186 
340.538 0.974 5.879 0.104 -72.698 0.104 -72.698 0.974 5.879 
356.666 0.975 5.583 0.099 -72.576 0.099 -72.576 0.975 5.583 
373.558 0.976 5.297 0.094 -72.407 0.094 -72.407 0.976 5.297 
391.25 0.976 5.022 0.09 -72.186 0.09 -72.186 0.976 5.022 
409.781 0.977 4.756 0.085 -71.909 0.085 -71.909 0.977 4.756 
429.188 0.977 4.5 0.081 -71.57 0.081 -71.57 0.977 4.5 
449.515 0.978 4.253 0.077 -71.161 0.077 -71.161 0.978 4.253 
470.805 0.978 4.014 0.073 -70.675 0.073 -70.675 0.978 4.014 
493.103 0.979 3.783 0.069 -70.103 0.069 -70.103 0.979 3.783 
516.457 0.979 3.56 0.065 -69.434 0.065 -69.434 0.979 3.56 
540.917 0.979 3.344 0.061 -68.656 0.061 -68.656 0.979 3.344 
566.536 0.98 3.136 0.058 -67.755 0.058 -67.755 0.98 3.136 
593.368 0.98 2.935 0.055 -66.716 0.055 -66.716 0.98 2.935 
621.47 0.98 2.74 0.051 -65.522 0.051 -65.522 0.98 2.74 
650.904 0.98 2.552 0.048 -64.151 0.048 -64.151 0.98 2.552 
681.732 0.98 2.371 0.046 -62.584 0.046 -62.584 0.98 2.371 
714.019 0.98 2.195 0.043 -60.797 0.043 -60.797 0.98 2.195 
747.836 0.98 2.025 0.04 -58.767 0.04 -58.767 0.98 2.025 
783.255 0.979 1.862 0.038 -56.471 0.038 -56.471 0.979 1.862 
820.351 0.979 1.704 0.036 -53.889 0.036 -53.889 0.979 1.704 
859.204 0.979 1.552 0.034 -51.007 0.034 -51.007 0.979 1.552 
899.897 0.979 1.405 0.032 -47.819 0.032 -47.819 0.979 1.405 
942.517 0.978 1.264 0.031 -44.333 0.031 -44.333 0.978 1.264 
987.156 0.978 1.129 0.03 -40.574 0.03 -40.574 0.978 1.129 
1033.909 0.977 1 0.029 -36.587 0.029 -36.587 0.977 1 
1082.877 0.977 0.876 0.028 -32.436 0.028 -32.436 0.977 0.876 
1134.163 0.976 0.758 0.027 -28.204 0.027 -28.204 0.976 0.758 
1187.879 0.975 0.646 0.027 -23.982 0.027 -23.982 0.975 0.646 
1244.138 0.975 0.539 0.027 -19.863 0.027 -19.863 0.975 0.539 
1303.062 0.974 0.438 0.027 -15.931 0.027 -15.931 0.974 0.438 
1364.777 0.973 0.344 0.027 -12.254 0.027 -12.254 0.973 0.344 
1429.415 0.972 0.255 0.028 -8.878 0.028 -8.878 0.972 0.255 
1497.114 0.972 0.172 0.029 -5.832 0.029 -5.832 0.972 0.172 
1568.019 0.971 0.095 0.029 -3.122 0.029 -3.122 0.971 0.095 
1642.283 0.97 0.023 0.03 -0.745 0.03 -0.745 0.97 0.023 
1720.063 0.969 -0.042 0.031 1.315 0.031 1.315 0.969 -0.042 
1801.528 0.968 -0.102 0.032 3.082 0.032 3.082 0.968 -0.102 
1886.851 0.967 -0.156 0.033 4.578 0.033 4.578 0.967 -0.156 
1976.214 0.966 -0.205 0.034 5.832 0.034 5.832 0.966 -0.205 
2069.811 0.965 -0.249 0.035 6.87 0.035 6.87 0.965 -0.249 
2167.84 0.964 -0.287 0.036 7.715 0.036 7.715 0.964 -0.287 
2270.512 0.963 -0.32 0.037 8.392 0.037 8.392 0.963 -0.32 
2378.046 0.963 -0.349 0.038 8.921 0.038 8.921 0.963 -0.349 
2490.674 0.962 -0.374 0.039 9.322 0.039 9.322 0.962 -0.374 
2608.635 0.961 -0.394 0.04 9.611 0.04 9.611 0.961 -0.394 
2732.184 0.96 -0.41 0.04 9.805 0.04 9.805 0.96 -0.41 
2861.584 0.959 -0.423 0.041 9.916 0.041 9.916 0.959 -0.423 
2997.112 0.959 -0.433 0.042 9.957 0.042 9.957 0.959 -0.433 
3139.06 0.958 -0.439 0.043 9.938 0.043 9.938 0.958 -0.439 
3287.73 0.957 -0.443 0.043 9.869 0.043 9.869 0.957 -0.443 
3443.441 0.957 -0.445 0.044 9.757 0.044 9.757 0.957 -0.445 
3606.527 0.956 -0.444 0.044 9.61 0.044 9.61 0.956 -0.444 
3777.337 0.956 -0.441 0.045 9.434 0.045 9.434 0.956 -0.441 
3956.237 0.955 -0.437 0.045 9.234 0.045 9.234 0.955 -0.437 
4143.61 0.955 -0.431 0.046 9.016 0.046 9.016 0.955 -0.431 
4339.857 0.954 -0.424 0.046 8.783 0.046 8.783 0.954 -0.424 
4545.398 0.954 -0.416 0.047 8.539 0.047 8.539 0.954 -0.416 
4760.675 0.954 -0.407 0.047 8.287 0.047 8.287 0.954 -0.407 
4986.147 0.953 -0.397 0.047 8.03 0.047 8.03 0.953 -0.397 
5222.297 0.953 -0.387 0.048 7.769 0.048 7.769 0.953 -0.387 
5469.633 0.953 -0.376 0.048 7.507 0.048 7.507 0.953 -0.376 
5728.682 0.952 -0.365 0.048 7.246 0.048 7.246 0.952 -0.365 
6000 0.952 -0.353 0.048 6.986 0.048 6.986 0.952 -0.353 
