# MHz S MA R 50

1 0.013 70.383 0.996 -0.69 0.996 -0.69 0.013 70.383 
1.047 0.013 70.969 0.996 -0.722 0.996 -0.722 0.013 70.969 
1.097 0.014 71.533 0.996 -0.755 0.996 -0.755 0.014 71.533 
1.149 0.014 72.073 0.996 -0.79 0.996 -0.79 0.014 72.073 
1.203 0.015 72.592 0.996 -0.826 0.996 -0.826 0.015 72.592 
1.26 0.016 73.089 0.996 -0.863 0.996 -0.863 0.016 73.089 
1.32 0.016 73.565 0.995 -0.903 0.995 -0.903 0.016 73.565 
1.383 0.017 74.02 0.995 -0.944 0.995 -0.944 0.017 74.02 
1.448 0.018 74.455 0.995 -0.988 0.995 -0.988 0.018 74.455 
1.517 0.019 74.87 0.995 -1.033 0.995 -1.033 0.019 74.87 
1.588 0.019 75.265 0.995 -1.08 0.995 -1.08 0.019 75.265 
1.664 0.02 75.641 0.995 -1.13 0.995 -1.13 0.02 75.641 
1.742 0.021 75.999 0.995 -1.181 0.995 -1.181 0.021 75.999 
1.825 0.022 76.338 0.995 -1.235 0.995 -1.235 0.022 76.338 
1.911 0.023 76.659 0.995 -1.292 0.995 -1.292 0.023 76.659 
2.002 0.024 76.963 0.995 -1.351 0.995 -1.351 0.024 76.963 
2.097 0.025 77.25 0.995 -1.413 0.995 -1.413 0.025 77.25 
2.196 0.026 77.52 0.995 -1.477 0.995 -1.477 0.026 77.52 
2.3 0.027 77.773 0.995 -1.545 0.995 -1.545 0.027 77.773 
2.409 0.029 78.011 0.994 -1.615 0.994 -1.615 0.029 78.011 
2.523 0.03 78.232 0.994 -1.689 0.994 -1.689 0.03 78.232 
2.643 0.031 78.438 0.994 -1.766 0.994 -1.766 0.031 78.438 
2.768 0.033 78.629 0.994 -1.847 0.994 -1.847 0.033 78.629 
2.899 0.034 78.805 0.994 -1.931 0.994 -1.931 0.034 78.805 
3.036 0.036 78.966 0.994 -2.02 0.994 -2.02 0.036 78.966 
3.18 0.037 79.112 0.994 -2.112 0.994 -2.112 0.037 79.112 
3.331 0.039 79.244 0.993 -2.208 0.993 -2.208 0.039 79.244 
3.488 0.041 79.361 0.993 -2.309 0.993 -2.309 0.041 79.361 
3.653 0.043 79.464 0.993 -2.414 0.993 -2.414 0.043 79.464 
3.826 0.044 79.554 0.993 -2.524 0.993 -2.524 0.044 79.554 
4.008 0.046 79.629 0.993 -2.64 0.993 -2.64 0.046 79.629 
4.198 0.049 79.69 0.992 -2.76 0.992 -2.76 0.049 79.69 
4.396 0.051 79.738 0.992 -2.886 0.992 -2.886 0.051 79.738 
4.605 0.053 79.772 0.992 -3.017 0.992 -3.017 0.053 79.772 
4.823 0.055 79.792 0.992 -3.154 0.992 -3.154 0.055 79.792 
5.051 0.058 79.799 0.991 -3.298 0.991 -3.298 0.058 79.799 
5.29 0.061 79.792 0.991 -3.448 0.991 -3.448 0.061 79.792 
5.541 0.063 79.77 0.991 -3.605 0.991 -3.605 0.063 79.77 
5.803 0.066 79.735 0.99 -3.768 0.99 -3.768 0.066 79.735 
6.078 0.069 79.686 0.99 -3.939 0.99 -3.939 0.069 79.686 
6.366 0.072 79.623 0.99 -4.118 0.99 -4.118 0.072 79.623 
6.667 0.075 79.546 0.989 -4.305 0.989 -4.305 0.075 79.546 
6.983 0.079 79.455 0.989 -4.5 0.989 -4.5 0.079 79.455 
7.314 0.082 79.349 0.988 -4.704 0.988 -4.704 0.082 79.349 
7.66 0.086 79.228 0.988 -4.917 0.988 -4.917 0.086 79.228 
8.023 0.09 79.092 0.987 -5.139 0.987 -5.139 0.09 79.092 
8.403 0.094 78.941 0.986 -5.371 0.986 -5.371 0.094 78.941 
8.801 0.098 78.775 0.986 -5.613 0.986 -5.613 0.098 78.775 
9.218 0.103 78.592 0.985 -5.866 0.985 -5.866 0.103 78.592 
9.655 0.107 78.394 0.984 -6.131 0.984 -6.131 0.107 78.394 
10.112 0.112 78.18 0.983 -6.406 0.983 -6.406 0.112 78.18 
10.591 0.117 77.949 0.982 -6.694 0.982 -6.694 0.117 77.949 
11.092 0.122 77.7 0.981 -6.994 0.981 -6.994 0.122 77.7 
11.618 0.128 77.435 0.98 -7.307 0.98 -7.307 0.128 77.435 
12.168 0.133 77.151 0.979 -7.634 0.979 -7.634 0.133 77.151 
12.744 0.139 76.85 0.978 -7.975 0.978 -7.975 0.139 76.85 
13.348 0.145 76.53 0.976 -8.33 0.976 -8.33 0.145 76.53 
13.98 0.152 76.19 0.975 -8.7 0.975 -8.7 0.152 76.19 
14.642 0.159 75.831 0.973 -9.086 0.973 -9.086 0.159 75.831 
15.335 0.165 75.452 0.972 -9.489 0.972 -9.489 0.165 75.452 
16.062 0.173 75.053 0.97 -9.907 0.97 -9.907 0.173 75.053 
16.822 0.18 74.632 0.968 -10.344 0.968 -10.344 0.18 74.632 
17.619 0.188 74.19 0.966 -10.798 0.966 -10.798 0.188 74.19 
18.454 0.196 73.726 0.964 -11.27 0.964 -11.27 0.196 73.726 
19.328 0.205 73.24 0.961 -11.761 0.961 -11.761 0.205 73.24 
20.243 0.213 72.73 0.959 -12.272 0.959 -12.272 0.213 72.73 
21.202 0.222 72.197 0.956 -12.803 0.956 -12.803 0.222 72.197 
22.206 0.232 71.64 0.953 -13.355 0.953 -13.355 0.232 71.64 
23.258 0.242 71.058 0.949 -13.928 0.949 -13.928 0.242 71.058 
24.359 0.252 70.452 0.946 -14.522 0.946 -14.522 0.252 70.452 
25.513 0.262 69.82 0.942 -15.139 0.942 -15.139 0.262 69.82 
26.721 0.273 69.162 0.938 -15.777 0.938 -15.777 0.273 69.162 
27.987 0.284 68.479 0.934 -16.439 0.934 -16.439 0.284 68.479 
29.312 0.296 67.769 0.929 -17.124 0.929 -17.124 0.296 67.769 
30.7 0.307 67.032 0.924 -17.833 0.924 -17.833 0.307 67.032 
32.154 0.32 66.269 0.919 -18.565 0.919 -18.565 0.32 66.269 
33.677 0.332 65.478 0.914 -19.321 0.914 -19.321 0.332 65.478 
35.272 0.345 64.661 0.908 -20.101 0.908 -20.101 0.345 64.661 
36.943 0.358 63.816 0.901 -20.905 0.901 -20.905 0.358 63.816 
38.693 0.372 62.945 0.894 -21.732 0.894 -21.732 0.372 62.945 
40.525 0.386 62.047 0.887 -22.583 0.887 -22.583 0.386 62.047 
42.444 0.4 61.122 0.88 -23.457 0.88 -23.457 0.4 61.122 
44.455 0.414 60.172 0.871 -24.354 0.871 -24.354 0.414 60.172 
46.56 0.429 59.197 0.863 -25.273 0.863 -25.273 0.429 59.197 
48.765 0.444 58.197 0.854 -26.214 0.854 -26.214 0.444 58.197 
51.075 0.459 57.173 0.844 -27.175 0.844 -27.175 0.459 57.173 
53.494 0.474 56.126 0.834 -28.155 0.834 -28.155 0.474 56.126 
56.027 0.49 55.058 0.824 -29.154 0.824 -29.154 0.49 55.058 
58.681 0.505 53.969 0.813 -30.17 0.813 -30.17 0.505 53.969 
61.46 0.521 52.861 0.801 -31.202 0.801 -31.202 0.521 52.861 
64.371 0.537 51.736 0.79 -32.248 0.79 -32.248 0.537 51.736 
67.42 0.552 50.594 0.777 -33.306 0.777 -33.306 0.552 50.594 
70.613 0.568 49.439 0.764 -34.375 0.764 -34.375 0.568 49.439 
73.957 0.584 48.271 0.751 -35.453 0.751 -35.453 0.584 48.271 
77.46 0.599 47.092 0.737 -36.537 0.737 -36.537 0.599 47.092 
81.128 0.614 45.906 0.723 -37.626 0.723 -37.626 0.614 45.906 
84.971 0.63 44.713 0.708 -38.717 0.708 -38.717 0.63 44.713 
88.995 0.645 43.516 0.693 -39.808 0.693 -39.808 0.645 43.516 
93.21 0.659 42.316 0.678 -40.897 0.678 -40.897 0.659 42.316 
97.624 0.674 41.117 0.662 -41.982 0.662 -41.982 0.674 41.117 
102.248 0.688 39.92 0.647 -43.06 0.647 -43.06 0.688 39.92 
107.091 0.702 38.728 0.631 -44.128 0.631 -44.128 0.702 38.728 
112.163 0.715 37.542 0.614 -45.185 0.614 -45.185 0.715 37.542 
117.475 0.728 36.364 0.598 -46.228 0.598 -46.228 0.728 36.364 
123.039 0.741 35.197 0.581 -47.256 0.581 -47.256 0.741 35.197 
128.866 0.753 34.042 0.565 -48.265 0.565 -48.265 0.753 34.042 
134.969 0.765 32.901 0.548 -49.254 0.548 -49.254 0.765 32.901 
141.361 0.776 31.775 0.532 -50.221 0.532 -50.221 0.776 31.775 
148.056 0.787 30.666 0.515 -51.164 0.515 -51.164 0.787 30.666 
155.069 0.797 29.576 0.499 -52.082 0.499 -52.082 0.797 29.576 
162.413 0.807 28.504 0.483 -52.971 0.483 -52.971 0.807 28.504 
170.105 0.817 27.454 0.466 -53.832 0.466 -53.832 0.817 27.454 
178.161 0.826 26.424 0.45 -54.661 0.45 -54.661 0.826 26.424 
186.599 0.834 25.417 0.435 -55.458 0.435 -55.458 0.834 25.417 
195.437 0.842 24.433 0.419 -56.221 0.419 -56.221 0.842 24.433 
204.693 0.85 23.472 0.404 -56.949 0.404 -56.949 0.85 23.472 
214.388 0.857 22.535 0.389 -57.64 0.389 -57.64 0.857 22.535 
224.541 0.864 21.622 0.374 -58.292 0.374 -58.292 0.864 21.622 
235.176 0.871 20.733 0.36 -58.904 0.36 -58.904 0.871 20.733 
246.314 0.877 19.868 0.346 -59.474 0.346 -59.474 0.877 19.868 
257.98 0.882 19.029 0.332 -60.001 0.332 -60.001 0.882 19.029 
270.198 0.887 18.213 0.319 -60.483 0.319 -60.483 0.887 18.213 
282.995 0.892 17.422 0.306 -60.919 0.306 -60.919 0.892 17.422 
296.398 0.897 16.655 0.293 -61.305 0.293 -61.305 0.897 16.655 
310.436 0.901 15.912 0.281 -61.64 0.281 -61.64 0.901 15.912 
325.139 0.905 15.193 0.269 -61.921 0.269 -61.921 0.905 15.193 
340.538 0.909 14.497 0.257 -62.147 0.257 -62.147 0.909 14.497 
356.666 0.912 13.824 0.246 -62.313 0.246 -62.313 0.912 13.824 
373.558 0.915 13.175 0.235 -62.419 0.235 -62.419 0.915 13.175 
391.25 0.918 12.548 0.225 -62.459 0.225 -62.459 0.918 12.548 
409.781 0.92 11.943 0.215 -62.432 0.215 -62.432 0.92 11.943 
429.188 0.923 11.36 0.205 -62.333 0.205 -62.333 0.923 11.36 
449.515 0.925 10.798 0.196 -62.159 0.196 -62.159 0.925 10.798 
470.805 0.927 10.258 0.187 -61.908 0.187 -61.908 0.927 10.258 
493.103 0.928 9.739 0.179 -61.574 0.179 -61.574 0.928 9.739 
516.457 0.93 9.24 0.17 -61.155 0.17 -61.155 0.93 9.24 
540.917 0.931 8.761 0.163 -60.649 0.163 -60.649 0.931 8.761 
566.536 0.932 8.303 0.155 -60.051 0.155 -60.051 0.932 8.303 
593.368 0.933 7.864 0.148 -59.361 0.148 -59.361 0.933 7.864 
621.47 0.934 7.444 0.142 -58.576 0.142 -58.576 0.934 7.444 
650.904 0.935 7.044 0.136 -57.696 0.136 -57.696 0.935 7.044 
681.732 0.935 6.661 0.13 -56.722 0.13 -56.722 0.935 6.661 
714.019 0.936 6.297 0.124 -55.655 0.124 -55.655 0.936 6.297 
747.836 0.936 5.951 0.119 -54.498 0.119 -54.498 0.936 5.951 
783.255 0.936 5.622 0.114 -53.256 0.114 -53.256 0.936 5.622 
820.351 0.936 5.31 0.11 -51.934 0.11 -51.934 0.936 5.31 
859.204 0.936 5.014 0.106 -50.541 0.106 -50.541 0.936 5.014 
899.897 0.936 4.734 0.102 -49.084 0.102 -49.084 0.936 4.734 
942.517 0.936 4.47 0.099 -47.574 0.099 -47.574 0.936 4.47 
987.156 0.936 4.22 0.096 -46.022 0.096 -46.022 0.936 4.22 
1033.909 0.936 3.985 0.093 -44.438 0.093 -44.438 0.936 3.985 
1082.877 0.936 3.763 0.09 -42.835 0.09 -42.835 0.936 3.763 
1134.163 0.936 3.555 0.088 -41.224 0.088 -41.224 0.936 3.555 
1187.879 0.935 3.358 0.086 -39.616 0.086 -39.616 0.935 3.358 
1244.138 0.935 3.174 0.084 -38.023 0.084 -38.023 0.935 3.174 
1303.062 0.935 3.001 0.082 -36.453 0.082 -36.453 0.935 3.001 
1364.777 0.935 2.838 0.081 -34.914 0.081 -34.914 0.935 2.838 
1429.415 0.935 2.685 0.08 -33.415 0.08 -33.415 0.935 2.685 
1497.114 0.934 2.542 0.078 -31.96 0.078 -31.96 0.934 2.542 
1568.019 0.934 2.408 0.077 -30.553 0.077 -30.553 0.934 2.408 
1642.283 0.934 2.282 0.076 -29.199 0.076 -29.199 0.934 2.282 
1720.063 0.934 2.163 0.075 -27.9 0.075 -27.9 0.934 2.163 
1801.528 0.934 2.052 0.075 -26.655 0.075 -26.655 0.934 2.052 
1886.851 0.934 1.948 0.074 -25.466 0.074 -25.466 0.934 1.948 
1976.214 0.934 1.85 0.073 -24.332 0.073 -24.332 0.934 1.85 
2069.811 0.934 1.757 0.073 -23.252 0.073 -23.252 0.934 1.757 
2167.84 0.934 1.671 0.072 -22.224 0.072 -22.224 0.934 1.671 
2270.512 0.934 1.589 0.071 -21.247 0.071 -21.247 0.934 1.589 
2378.046 0.934 1.512 0.071 -20.319 0.071 -20.319 0.934 1.512 
2490.674 0.934 1.439 0.07 -19.437 0.07 -19.437 0.934 1.439 
2608.635 0.934 1.371 0.07 -18.599 0.07 -18.599 0.934 1.371 
2732.184 0.934 1.306 0.07 -17.803 0.07 -17.803 0.934 1.306 
2861.584 0.934 1.245 0.069 -17.047 0.069 -17.047 0.934 1.245 
2997.112 0.934 1.187 0.069 -16.328 0.069 -16.328 0.934 1.187 
3139.06 0.934 1.133 0.068 -15.644 0.068 -15.644 0.934 1.133 
3287.73 0.934 1.081 0.068 -14.993 0.068 -14.993 0.934 1.081 
3443.441 0.934 1.032 0.068 -14.373 0.068 -14.373 0.934 1.032 
3606.527 0.935 0.985 0.067 -13.782 0.067 -13.782 0.935 0.985 
3777.337 0.935 0.941 0.067 -13.219 0.067 -13.219 0.935 0.941 
3956.237 0.935 0.899 0.067 -12.682 0.067 -12.682 0.935 0.899 
4143.61 0.935 0.859 0.067 -12.17 0.067 -12.17 0.935 0.859 
4339.857 0.935 0.821 0.066 -11.68 0.066 -11.68 0.935 0.821 
4545.398 0.935 0.785 0.066 -11.213 0.066 -11.213 0.935 0.785 
4760.675 0.936 0.751 0.066 -10.765 0.066 -10.765 0.936 0.751 
4986.147 0.936 0.718 0.065 -10.337 0.065 -10.337 0.936 0.718 
5222.297 0.936 0.687 0.065 -9.928 0.065 -9.928 0.936 0.687 
5469.633 0.936 0.657 0.065 -9.536 0.065 -9.536 0.936 0.657 
5728.682 0.936 0.629 0.065 -9.16 0.065 -9.16 0.936 0.629 
6000 0.937 0.602 0.064 -8.8 0.064 -8.8 0.937 0.602 
