# MHz S MA R 50

1 1.723e-3 59.803 0.999 -0.085 0.999 -0.085 1.723e-3 59.803 
1.047 1.785e-3 60.739 0.999 -0.089 0.999 -0.089 1.785e-3 60.739 
1.097 1.85e-3 61.651 0.999 -0.093 0.999 -0.093 1.85e-3 61.651 
1.149 1.919e-3 62.54 0.999 -0.098 0.999 -0.098 1.919e-3 62.54 
1.203 1.991e-3 63.406 0.999 -0.102 0.999 -0.102 1.991e-3 63.406 
1.26 2.067e-3 64.248 0.999 -0.107 0.999 -0.107 2.067e-3 64.248 
1.32 2.147e-3 65.066 0.999 -0.112 0.999 -0.112 2.147e-3 65.066 
1.383 2.231e-3 65.861 0.999 -0.117 0.999 -0.117 2.231e-3 65.861 
1.448 2.32e-3 66.631 0.999 -0.122 0.999 -0.122 2.32e-3 66.631 
1.517 2.412e-3 67.377 0.999 -0.128 0.999 -0.128 2.412e-3 67.377 
1.588 2.51e-3 68.1 0.999 -0.134 0.999 -0.134 2.51e-3 68.1 
1.664 2.612e-3 68.8 0.999 -0.14 0.999 -0.14 2.612e-3 68.8 
1.742 2.719e-3 69.476 0.999 -0.146 0.999 -0.146 2.719e-3 69.476 
1.825 2.831e-3 70.129 0.999 -0.153 0.999 -0.153 2.831e-3 70.129 
1.911 2.949e-3 70.76 0.999 -0.16 0.999 -0.16 2.949e-3 70.76 
2.002 3.072e-3 71.369 0.999 -0.167 0.999 -0.167 3.072e-3 71.369 
2.097 3.202e-3 71.956 0.999 -0.175 0.999 -0.175 3.202e-3 71.956 
2.196 3.337e-3 72.521 0.999 -0.183 0.999 -0.183 3.337e-3 72.521 
2.3 3.48e-3 73.066 0.999 -0.191 0.999 -0.191 3.48e-3 73.066 
2.409 3.629e-3 73.591 0.999 -0.2 0.999 -0.2 3.629e-3 73.591 
2.523 3.785e-3 74.095 0.999 -0.209 0.999 -0.209 3.785e-3 74.095 
2.643 3.948e-3 74.581 0.999 -0.218 0.999 -0.218 3.948e-3 74.581 
2.768 4.119e-3 75.047 0.999 -0.228 0.999 -0.228 4.119e-3 75.047 
2.899 4.299e-3 75.495 0.999 -0.239 0.999 -0.239 4.299e-3 75.495 
3.036 4.486e-3 75.925 0.999 -0.25 0.999 -0.25 4.486e-3 75.925 
3.18 4.683e-3 76.338 0.999 -0.261 0.999 -0.261 4.683e-3 76.338 
3.331 4.888e-3 76.734 0.999 -0.273 0.999 -0.273 4.888e-3 76.734 
3.488 5.104e-3 77.113 0.999 -0.285 0.999 -0.285 5.104e-3 77.113 
3.653 5.329e-3 77.476 0.999 -0.298 0.999 -0.298 5.329e-3 77.476 
3.826 5.565e-3 77.824 0.999 -0.312 0.999 -0.312 5.565e-3 77.824 
4.008 5.811e-3 78.156 0.999 -0.326 0.999 -0.326 5.811e-3 78.156 
4.198 6.069e-3 78.474 0.999 -0.341 0.999 -0.341 6.069e-3 78.474 
4.396 6.34e-3 78.778 0.999 -0.357 0.999 -0.357 6.34e-3 78.778 
4.605 6.622e-3 79.068 0.999 -0.373 0.999 -0.373 6.622e-3 79.068 
4.823 6.918e-3 79.345 0.999 -0.39 0.999 -0.39 6.918e-3 79.345 
5.051 7.227e-3 79.608 0.999 -0.408 0.999 -0.408 7.227e-3 79.608 
5.29 7.551e-3 79.859 0.999 -0.426 0.999 -0.426 7.551e-3 79.859 
5.541 7.889e-3 80.098 0.999 -0.446 0.999 -0.446 7.889e-3 80.098 
5.803 8.243e-3 80.324 0.999 -0.466 0.999 -0.466 8.243e-3 80.324 
6.078 8.613e-3 80.539 0.999 -0.487 0.999 -0.487 8.613e-3 80.539 
6.366 9e-3 80.743 0.999 -0.51 0.999 -0.51 9e-3 80.743 
6.667 9.405e-3 80.936 0.999 -0.533 0.999 -0.533 9.405e-3 80.936 
6.983 9.829e-3 81.118 0.999 -0.557 0.999 -0.557 9.829e-3 81.118 
7.314 0.01 81.29 0.998 -0.583 0.998 -0.583 0.01 81.29 
7.66 0.011 81.451 0.998 -0.609 0.998 -0.609 0.011 81.451 
8.023 0.011 81.602 0.998 -0.637 0.998 -0.637 0.011 81.602 
8.403 0.012 81.744 0.998 -0.666 0.998 -0.666 0.012 81.744 
8.801 0.012 81.877 0.998 -0.696 0.998 -0.696 0.012 81.877 
9.218 0.013 82 0.998 -0.728 0.998 -0.728 0.013 82 
9.655 0.013 82.114 0.998 -0.761 0.998 -0.761 0.013 82.114 
10.112 0.014 82.219 0.998 -0.796 0.998 -0.796 0.014 82.219 
10.591 0.015 82.315 0.998 -0.832 0.998 -0.832 0.015 82.315 
11.092 0.015 82.403 0.998 -0.87 0.998 -0.87 0.015 82.403 
11.618 0.016 82.482 0.998 -0.91 0.998 -0.91 0.016 82.482 
12.168 0.017 82.553 0.998 -0.951 0.998 -0.951 0.017 82.553 
12.744 0.017 82.616 0.998 -0.994 0.998 -0.994 0.017 82.616 
13.348 0.018 82.671 0.998 -1.04 0.998 -1.04 0.018 82.671 
13.98 0.019 82.718 0.998 -1.087 0.998 -1.087 0.019 82.718 
14.642 0.02 82.756 0.998 -1.136 0.998 -1.136 0.02 82.756 
15.335 0.021 82.787 0.998 -1.188 0.998 -1.188 0.021 82.787 
16.062 0.022 82.81 0.998 -1.242 0.998 -1.242 0.022 82.81 
16.822 0.023 82.826 0.997 -1.299 0.997 -1.299 0.023 82.826 
17.619 0.024 82.833 0.997 -1.358 0.997 -1.358 0.024 82.833 
18.454 0.025 82.833 0.997 -1.419 0.997 -1.419 0.025 82.833 
19.328 0.026 82.826 0.997 -1.484 0.997 -1.484 0.026 82.826 
20.243 0.027 82.81 0.997 -1.551 0.997 -1.551 0.027 82.81 
21.202 0.028 82.787 0.997 -1.622 0.997 -1.622 0.028 82.787 
22.206 0.03 82.756 0.997 -1.695 0.997 -1.695 0.03 82.756 
23.258 0.031 82.717 0.997 -1.772 0.997 -1.772 0.031 82.717 
24.359 0.032 82.67 0.996 -1.853 0.996 -1.853 0.032 82.67 
25.513 0.034 82.615 0.996 -1.937 0.996 -1.937 0.034 82.615 
26.721 0.035 82.552 0.996 -2.025 0.996 -2.025 0.035 82.552 
27.987 0.037 82.481 0.996 -2.117 0.996 -2.117 0.037 82.481 
29.312 0.039 82.402 0.996 -2.213 0.996 -2.213 0.039 82.402 
30.7 0.041 82.314 0.995 -2.313 0.995 -2.313 0.041 82.314 
32.154 0.042 82.218 0.995 -2.418 0.995 -2.418 0.042 82.218 
33.677 0.044 82.113 0.995 -2.528 0.995 -2.528 0.044 82.113 
35.272 0.046 81.999 0.995 -2.642 0.995 -2.642 0.046 81.999 
36.943 0.048 81.876 0.994 -2.762 0.994 -2.762 0.048 81.876 
38.693 0.051 81.744 0.994 -2.887 0.994 -2.887 0.051 81.744 
40.525 0.053 81.602 0.994 -3.018 0.994 -3.018 0.053 81.602 
42.444 0.055 81.451 0.993 -3.155 0.993 -3.155 0.055 81.451 
44.455 0.058 81.289 0.993 -3.297 0.993 -3.297 0.058 81.289 
46.56 0.06 81.117 0.992 -3.446 0.992 -3.446 0.06 81.117 
48.765 0.063 80.934 0.992 -3.602 0.992 -3.602 0.063 80.934 
51.075 0.066 80.741 0.992 -3.765 0.992 -3.765 0.066 80.741 
53.494 0.069 80.535 0.991 -3.936 0.991 -3.936 0.069 80.535 
56.027 0.072 80.318 0.99 -4.113 0.99 -4.113 0.072 80.318 
58.681 0.075 80.089 0.99 -4.299 0.99 -4.299 0.075 80.089 
61.46 0.079 79.847 0.989 -4.493 0.989 -4.493 0.079 79.847 
64.371 0.082 79.592 0.988 -4.696 0.988 -4.696 0.082 79.592 
67.42 0.086 79.323 0.988 -4.908 0.988 -4.908 0.086 79.323 
70.613 0.09 79.04 0.987 -5.13 0.987 -5.13 0.09 79.04 
73.957 0.094 78.742 0.986 -5.361 0.986 -5.361 0.094 78.742 
77.46 0.098 78.428 0.985 -5.602 0.985 -5.602 0.098 78.428 
81.128 0.103 78.098 0.984 -5.855 0.984 -5.855 0.103 78.098 
84.971 0.107 77.751 0.983 -6.118 0.983 -6.118 0.107 77.751 
88.995 0.112 77.386 0.982 -6.393 0.982 -6.393 0.112 77.386 
93.21 0.117 77.002 0.98 -6.68 0.98 -6.68 0.117 77.002 
97.624 0.122 76.598 0.979 -6.98 0.979 -6.98 0.122 76.598 
102.248 0.128 76.174 0.977 -7.293 0.977 -7.293 0.128 76.174 
107.091 0.133 75.729 0.976 -7.619 0.976 -7.619 0.133 75.729 
112.163 0.139 75.26 0.974 -7.96 0.974 -7.96 0.139 75.26 
117.475 0.146 74.768 0.972 -8.315 0.972 -8.315 0.146 74.768 
123.039 0.152 74.25 0.97 -8.685 0.97 -8.685 0.152 74.25 
128.866 0.159 73.706 0.968 -9.071 0.968 -9.071 0.159 73.706 
134.969 0.166 73.134 0.965 -9.473 0.965 -9.473 0.166 73.134 
141.361 0.173 72.533 0.962 -9.891 0.962 -9.891 0.173 72.533 
148.056 0.181 71.902 0.959 -10.326 0.959 -10.326 0.181 71.902 
155.069 0.189 71.238 0.956 -10.778 0.956 -10.778 0.189 71.238 
162.413 0.197 70.541 0.953 -11.247 0.953 -11.247 0.197 70.541 
170.105 0.206 69.809 0.949 -11.734 0.949 -11.734 0.206 69.809 
178.161 0.214 69.041 0.945 -12.238 0.945 -12.238 0.214 69.041 
186.599 0.224 68.236 0.94 -12.76 0.94 -12.76 0.224 68.236 
195.437 0.233 67.391 0.935 -13.299 0.935 -13.299 0.233 67.391 
204.693 0.243 66.507 0.93 -13.855 0.93 -13.855 0.243 66.507 
214.388 0.253 65.581 0.925 -14.426 0.925 -14.426 0.253 65.581 
224.541 0.263 64.615 0.918 -15.013 0.918 -15.013 0.263 64.615 
235.176 0.274 63.606 0.912 -15.613 0.912 -15.613 0.274 63.606 
246.314 0.285 62.556 0.905 -16.225 0.905 -16.225 0.285 62.556 
257.98 0.296 61.463 0.897 -16.848 0.897 -16.848 0.296 61.463 
270.198 0.307 60.33 0.889 -17.48 0.889 -17.48 0.307 60.33 
282.995 0.319 59.157 0.88 -18.117 0.88 -18.117 0.319 59.157 
296.398 0.33 57.945 0.871 -18.757 0.871 -18.757 0.33 57.945 
310.436 0.342 56.697 0.861 -19.396 0.861 -19.396 0.342 56.697 
325.139 0.354 55.415 0.851 -20.032 0.851 -20.032 0.354 55.415 
340.538 0.366 54.103 0.84 -20.661 0.84 -20.661 0.366 54.103 
356.666 0.377 52.764 0.828 -21.278 0.828 -21.278 0.377 52.764 
373.558 0.389 51.401 0.816 -21.879 0.816 -21.879 0.389 51.401 
391.25 0.401 50.02 0.804 -22.461 0.804 -22.461 0.401 50.02 
409.781 0.412 48.624 0.791 -23.018 0.791 -23.018 0.412 48.624 
429.188 0.423 47.218 0.777 -23.548 0.777 -23.548 0.423 47.218 
449.515 0.434 45.808 0.764 -24.046 0.764 -24.046 0.434 45.808 
470.805 0.445 44.397 0.75 -24.508 0.75 -24.508 0.445 44.397 
493.103 0.455 42.99 0.736 -24.932 0.736 -24.932 0.455 42.99 
516.457 0.465 41.593 0.722 -25.315 0.722 -25.315 0.465 41.593 
540.917 0.474 40.208 0.707 -25.654 0.707 -25.654 0.474 40.208 
566.536 0.484 38.841 0.693 -25.947 0.693 -25.947 0.484 38.841 
593.368 0.492 37.494 0.679 -26.193 0.679 -26.193 0.492 37.494 
621.47 0.501 36.171 0.665 -26.392 0.665 -26.392 0.501 36.171 
650.904 0.509 34.875 0.651 -26.542 0.651 -26.542 0.509 34.875 
681.732 0.517 33.607 0.638 -26.644 0.638 -26.644 0.517 33.607 
714.019 0.524 32.37 0.624 -26.699 0.624 -26.699 0.524 32.37 
747.836 0.531 31.165 0.611 -26.708 0.611 -26.708 0.531 31.165 
783.255 0.537 29.994 0.598 -26.671 0.598 -26.671 0.537 29.994 
820.351 0.543 28.856 0.586 -26.59 0.586 -26.59 0.543 28.856 
859.204 0.549 27.754 0.574 -26.468 0.574 -26.468 0.549 27.754 
899.897 0.555 26.686 0.562 -26.306 0.562 -26.306 0.555 26.686 
942.517 0.56 25.653 0.551 -26.106 0.551 -26.106 0.56 25.653 
987.156 0.565 24.655 0.54 -25.87 0.54 -25.87 0.565 24.655 
1033.909 0.57 23.691 0.53 -25.601 0.53 -25.601 0.57 23.691 
1082.877 0.575 22.761 0.52 -25.302 0.52 -25.302 0.575 22.761 
1134.163 0.579 21.864 0.511 -24.974 0.511 -24.974 0.579 21.864 
1187.879 0.583 20.999 0.501 -24.621 0.501 -24.621 0.583 20.999 
1244.138 0.587 20.167 0.493 -24.243 0.493 -24.243 0.587 20.167 
1303.062 0.59 19.365 0.484 -23.845 0.484 -23.845 0.59 19.365 
1364.777 0.594 18.593 0.476 -23.427 0.476 -23.427 0.594 18.593 
1429.415 0.597 17.85 0.469 -22.993 0.469 -22.993 0.597 17.85 
1497.114 0.6 17.135 0.461 -22.544 0.461 -22.544 0.6 17.135 
1568.019 0.603 16.448 0.455 -22.082 0.455 -22.082 0.603 16.448 
1642.283 0.606 15.787 0.448 -21.61 0.448 -21.61 0.606 15.787 
1720.063 0.609 15.152 0.442 -21.129 0.442 -21.129 0.609 15.152 
1801.528 0.612 14.541 0.436 -20.641 0.436 -20.641 0.612 14.541 
1886.851 0.614 13.954 0.43 -20.148 0.43 -20.148 0.614 13.954 
1976.214 0.617 13.39 0.425 -19.651 0.425 -19.651 0.617 13.39 
2069.811 0.619 12.848 0.42 -19.152 0.42 -19.152 0.619 12.848 
2167.84 0.621 12.327 0.415 -18.652 0.415 -18.652 0.621 12.327 
2270.512 0.623 11.827 0.41 -18.153 0.41 -18.153 0.623 11.827 
2378.046 0.626 11.346 0.406 -17.655 0.406 -17.655 0.626 11.346 
2490.674 0.628 10.884 0.402 -17.16 0.402 -17.16 0.628 10.884 
2608.635 0.629 10.441 0.398 -16.669 0.398 -16.669 0.629 10.441 
2732.184 0.631 10.015 0.394 -16.182 0.394 -16.182 0.631 10.015 
2861.584 0.633 9.607 0.39 -15.701 0.39 -15.701 0.633 9.607 
2997.112 0.635 9.214 0.387 -15.226 0.387 -15.226 0.635 9.214 
3139.06 0.636 8.837 0.384 -14.758 0.384 -14.758 0.636 8.837 
3287.73 0.638 8.475 0.381 -14.297 0.381 -14.297 0.638 8.475 
3443.441 0.64 8.128 0.378 -13.845 0.378 -13.845 0.64 8.128 
3606.527 0.641 7.795 0.375 -13.401 0.375 -13.401 0.641 7.795 
3777.337 0.642 7.475 0.373 -12.965 0.373 -12.965 0.642 7.475 
3956.237 0.644 7.168 0.37 -12.539 0.37 -12.539 0.644 7.168 
4143.61 0.645 6.873 0.368 -12.122 0.368 -12.122 0.645 6.873 
4339.857 0.646 6.59 0.365 -11.715 0.365 -11.715 0.646 6.59 
4545.398 0.648 6.318 0.363 -11.317 0.363 -11.317 0.648 6.318 
4760.675 0.649 6.058 0.361 -10.93 0.361 -10.93 0.649 6.058 
4986.147 0.65 5.808 0.359 -10.552 0.359 -10.552 0.65 5.808 
5222.297 0.651 5.568 0.357 -10.184 0.357 -10.184 0.651 5.568 
5469.633 0.652 5.338 0.356 -9.826 0.356 -9.826 0.652 5.338 
5728.682 0.653 5.117 0.354 -9.479 0.354 -9.479 0.653 5.117 
6000 0.655 4.906 0.352 -9.141 0.352 -9.141 0.655 4.906 
