# MHz S MA R 50

1 0.019 68.919 0.993 -1.039 0.993 -1.039 0.019 68.919 
1.047 0.02 69.578 0.993 -1.086 0.993 -1.086 0.02 69.578 
1.097 0.021 70.21 0.993 -1.136 0.993 -1.136 0.021 70.21 
1.149 0.022 70.815 0.993 -1.188 0.993 -1.188 0.022 70.815 
1.203 0.023 71.394 0.993 -1.242 0.993 -1.242 0.023 71.394 
1.26 0.024 71.947 0.993 -1.299 0.993 -1.299 0.024 71.947 
1.32 0.025 72.474 0.993 -1.358 0.993 -1.358 0.025 72.474 
1.383 0.026 72.976 0.993 -1.42 0.993 -1.42 0.026 72.976 
1.448 0.027 73.453 0.993 -1.485 0.993 -1.485 0.027 73.453 
1.517 0.028 73.906 0.993 -1.553 0.993 -1.553 0.028 73.906 
1.588 0.029 74.335 0.993 -1.623 0.993 -1.623 0.029 74.335 
1.664 0.03 74.74 0.992 -1.697 0.992 -1.697 0.03 74.74 
1.742 0.032 75.123 0.992 -1.775 0.992 -1.775 0.032 75.123 
1.825 0.033 75.484 0.992 -1.856 0.992 -1.856 0.033 75.484 
1.911 0.035 75.822 0.992 -1.94 0.992 -1.94 0.035 75.822 
2.002 0.036 76.139 0.992 -2.029 0.992 -2.029 0.036 76.139 
2.097 0.038 76.435 0.992 -2.121 0.992 -2.121 0.038 76.435 
2.196 0.039 76.71 0.992 -2.218 0.992 -2.218 0.039 76.71 
2.3 0.041 76.964 0.992 -2.319 0.992 -2.319 0.041 76.964 
2.409 0.043 77.199 0.991 -2.424 0.991 -2.424 0.043 77.199 
2.523 0.045 77.413 0.991 -2.535 0.991 -2.535 0.045 77.413 
2.643 0.047 77.609 0.991 -2.65 0.991 -2.65 0.047 77.609 
2.768 0.049 77.785 0.991 -2.77 0.991 -2.77 0.049 77.785 
2.899 0.051 77.942 0.991 -2.896 0.991 -2.896 0.051 77.942 
3.036 0.053 78.081 0.99 -3.028 0.99 -3.028 0.053 78.081 
3.18 0.056 78.201 0.99 -3.165 0.99 -3.165 0.056 78.201 
3.331 0.058 78.303 0.99 -3.309 0.99 -3.309 0.058 78.303 
3.488 0.061 78.387 0.99 -3.459 0.99 -3.459 0.061 78.387 
3.653 0.064 78.452 0.989 -3.616 0.989 -3.616 0.064 78.452 
3.826 0.067 78.5 0.989 -3.78 0.989 -3.78 0.067 78.5 
4.008 0.07 78.531 0.989 -3.951 0.989 -3.951 0.07 78.531 
4.198 0.073 78.543 0.988 -4.13 0.988 -4.13 0.073 78.543 
4.396 0.076 78.538 0.988 -4.317 0.988 -4.317 0.076 78.538 
4.605 0.079 78.515 0.987 -4.513 0.987 -4.513 0.079 78.515 
4.823 0.083 78.475 0.987 -4.716 0.987 -4.716 0.083 78.475 
5.051 0.087 78.416 0.986 -4.929 0.986 -4.929 0.087 78.416 
5.29 0.09 78.34 0.986 -5.152 0.986 -5.152 0.09 78.34 
5.541 0.094 78.246 0.985 -5.384 0.985 -5.384 0.094 78.246 
5.803 0.099 78.134 0.984 -5.627 0.984 -5.627 0.099 78.134 
6.078 0.103 78.003 0.984 -5.88 0.984 -5.88 0.103 78.003 
6.366 0.108 77.854 0.983 -6.144 0.983 -6.144 0.108 77.854 
6.667 0.112 77.687 0.982 -6.42 0.982 -6.42 0.112 77.687 
6.983 0.117 77.5 0.981 -6.708 0.981 -6.708 0.117 77.5 
7.314 0.123 77.295 0.98 -7.008 0.98 -7.008 0.123 77.295 
7.66 0.128 77.07 0.979 -7.321 0.979 -7.321 0.128 77.07 
8.023 0.134 76.825 0.978 -7.648 0.978 -7.648 0.134 76.825 
8.403 0.14 76.561 0.977 -7.989 0.977 -7.989 0.14 76.561 
8.801 0.146 76.276 0.976 -8.344 0.976 -8.344 0.146 76.276 
9.218 0.152 75.97 0.974 -8.714 0.974 -8.714 0.152 75.97 
9.655 0.159 75.644 0.973 -9.1 0.973 -9.1 0.159 75.644 
10.112 0.166 75.295 0.971 -9.502 0.971 -9.502 0.166 75.295 
10.591 0.173 74.925 0.97 -9.921 0.97 -9.921 0.173 74.925 
11.092 0.181 74.533 0.968 -10.357 0.968 -10.357 0.181 74.533 
11.618 0.188 74.117 0.966 -10.811 0.966 -10.811 0.188 74.117 
12.168 0.196 73.679 0.963 -11.284 0.963 -11.284 0.196 73.679 
12.744 0.205 73.217 0.961 -11.775 0.961 -11.775 0.205 73.217 
13.348 0.214 72.731 0.959 -12.286 0.959 -12.286 0.214 72.731 
13.98 0.223 72.22 0.956 -12.817 0.956 -12.817 0.223 72.22 
14.642 0.232 71.685 0.953 -13.368 0.953 -13.368 0.232 71.685 
15.335 0.242 71.124 0.95 -13.941 0.95 -13.941 0.242 71.124 
16.062 0.252 70.537 0.946 -14.536 0.946 -14.536 0.252 70.537 
16.822 0.262 69.924 0.943 -15.152 0.943 -15.152 0.262 69.924 
17.619 0.273 69.285 0.939 -15.791 0.939 -15.791 0.273 69.285 
18.454 0.284 68.619 0.935 -16.453 0.935 -16.453 0.284 68.619 
19.328 0.296 67.925 0.93 -17.138 0.93 -17.138 0.296 67.925 
20.243 0.308 67.205 0.925 -17.847 0.925 -17.847 0.308 67.205 
21.202 0.32 66.457 0.92 -18.579 0.92 -18.579 0.32 66.457 
22.206 0.332 65.681 0.915 -19.335 0.915 -19.335 0.332 65.681 
23.258 0.345 64.878 0.909 -20.116 0.909 -20.116 0.345 64.878 
24.359 0.358 64.048 0.903 -20.92 0.903 -20.92 0.358 64.048 
25.513 0.372 63.19 0.896 -21.748 0.896 -21.748 0.372 63.19 
26.721 0.386 62.305 0.889 -22.6 0.889 -22.6 0.386 62.305 
27.987 0.4 61.393 0.881 -23.475 0.881 -23.475 0.4 61.393 
29.312 0.414 60.455 0.874 -24.373 0.874 -24.373 0.414 60.455 
30.7 0.429 59.491 0.865 -25.293 0.865 -25.293 0.429 59.491 
32.154 0.444 58.502 0.856 -26.235 0.856 -26.235 0.444 58.502 
33.677 0.459 57.489 0.847 -27.197 0.847 -27.197 0.459 57.489 
35.272 0.474 56.453 0.837 -28.179 0.837 -28.179 0.474 56.453 
36.943 0.49 55.395 0.827 -29.18 0.827 -29.18 0.49 55.395 
38.693 0.505 54.316 0.816 -30.199 0.816 -30.199 0.505 54.316 
40.525 0.521 53.218 0.805 -31.233 0.805 -31.233 0.521 53.218 
42.444 0.537 52.102 0.793 -32.282 0.793 -32.282 0.537 52.102 
44.455 0.552 50.97 0.781 -33.343 0.781 -33.343 0.552 50.97 
46.56 0.568 49.824 0.768 -34.415 0.768 -34.415 0.568 49.824 
48.765 0.584 48.665 0.755 -35.497 0.755 -35.497 0.584 48.665 
51.075 0.599 47.496 0.741 -36.586 0.741 -36.586 0.599 47.496 
53.494 0.615 46.318 0.727 -37.679 0.727 -37.679 0.615 46.318 
56.027 0.63 45.134 0.713 -38.776 0.713 -38.776 0.63 45.134 
58.681 0.645 43.945 0.698 -39.873 0.698 -39.873 0.645 43.945 
61.46 0.66 42.755 0.683 -40.968 0.683 -40.968 0.66 42.755 
64.371 0.674 41.565 0.668 -42.06 0.668 -42.06 0.674 41.565 
67.42 0.688 40.377 0.652 -43.145 0.652 -43.145 0.688 40.377 
70.613 0.702 39.194 0.636 -44.222 0.636 -44.222 0.702 39.194 
73.957 0.716 38.017 0.62 -45.289 0.62 -45.289 0.716 38.017 
77.46 0.729 36.849 0.604 -46.342 0.604 -46.342 0.729 36.849 
81.128 0.741 35.692 0.588 -47.381 0.588 -47.381 0.741 35.692 
84.971 0.754 34.547 0.571 -48.404 0.571 -48.404 0.754 34.547 
88.995 0.765 33.416 0.555 -49.407 0.555 -49.407 0.765 33.416 
93.21 0.777 32.301 0.539 -50.391 0.539 -50.391 0.777 32.301 
97.624 0.788 31.203 0.522 -51.352 0.522 -51.352 0.788 31.203 
102.248 0.798 30.124 0.506 -52.289 0.506 -52.289 0.798 30.124 
107.091 0.808 29.065 0.49 -53.202 0.49 -53.202 0.808 29.065 
112.163 0.818 28.027 0.474 -54.088 0.474 -54.088 0.818 28.027 
117.475 0.827 27.011 0.459 -54.946 0.459 -54.946 0.827 27.011 
123.039 0.835 26.017 0.443 -55.776 0.443 -55.776 0.835 26.017 
128.866 0.844 25.047 0.428 -56.576 0.428 -56.576 0.844 25.047 
134.969 0.851 24.101 0.413 -57.345 0.413 -57.345 0.851 24.101 
141.361 0.859 23.179 0.398 -58.082 0.398 -58.082 0.859 23.179 
148.056 0.866 22.282 0.384 -58.788 0.384 -58.788 0.866 22.282 
155.069 0.872 21.41 0.37 -59.46 0.37 -59.46 0.872 21.41 
162.413 0.879 20.562 0.356 -60.099 0.356 -60.099 0.879 20.562 
170.105 0.884 19.74 0.342 -60.703 0.342 -60.703 0.884 19.74 
178.161 0.89 18.942 0.329 -61.273 0.329 -61.273 0.89 18.942 
186.599 0.895 18.169 0.317 -61.807 0.317 -61.807 0.895 18.169 
195.437 0.9 17.42 0.304 -62.305 0.304 -62.305 0.9 17.42 
204.693 0.904 16.696 0.292 -62.766 0.292 -62.766 0.904 16.696 
214.388 0.909 15.996 0.281 -63.19 0.281 -63.19 0.909 15.996 
224.541 0.913 15.319 0.269 -63.576 0.269 -63.576 0.913 15.319 
235.176 0.916 14.665 0.258 -63.923 0.258 -63.923 0.916 14.665 
246.314 0.92 14.033 0.248 -64.23 0.248 -64.23 0.92 14.033 
257.98 0.923 13.425 0.237 -64.496 0.237 -64.496 0.923 13.425 
270.198 0.926 12.837 0.228 -64.722 0.228 -64.722 0.926 12.837 
282.995 0.929 12.271 0.218 -64.904 0.218 -64.904 0.929 12.271 
296.398 0.931 11.726 0.209 -65.044 0.209 -65.044 0.931 11.726 
310.436 0.934 11.202 0.2 -65.138 0.2 -65.138 0.934 11.202 
325.139 0.936 10.697 0.191 -65.187 0.191 -65.187 0.936 10.697 
340.538 0.938 10.212 0.183 -65.188 0.183 -65.188 0.938 10.212 
356.666 0.94 9.745 0.175 -65.141 0.175 -65.141 0.94 9.745 
373.558 0.942 9.297 0.168 -65.045 0.168 -65.045 0.942 9.297 
391.25 0.943 8.867 0.161 -64.898 0.161 -64.898 0.943 8.867 
409.781 0.945 8.455 0.154 -64.699 0.154 -64.699 0.945 8.455 
429.188 0.946 8.059 0.147 -64.447 0.147 -64.447 0.946 8.059 
449.515 0.947 7.68 0.141 -64.142 0.141 -64.142 0.947 7.68 
470.805 0.948 7.318 0.135 -63.782 0.135 -63.782 0.948 7.318 
493.103 0.949 6.971 0.129 -63.368 0.129 -63.368 0.949 6.971 
516.457 0.95 6.639 0.123 -62.899 0.123 -62.899 0.95 6.639 
540.917 0.951 6.322 0.118 -62.375 0.118 -62.375 0.951 6.322 
566.536 0.952 6.02 0.113 -61.797 0.113 -61.797 0.952 6.02 
593.368 0.952 5.732 0.109 -61.166 0.109 -61.166 0.952 5.732 
621.47 0.953 5.457 0.104 -60.483 0.104 -60.483 0.953 5.457 
650.904 0.954 5.195 0.1 -59.749 0.1 -59.749 0.954 5.195 
681.732 0.954 4.945 0.096 -58.967 0.096 -58.967 0.954 4.945 
714.019 0.955 4.708 0.092 -58.14 0.092 -58.14 0.955 4.708 
747.836 0.955 4.482 0.089 -57.269 0.089 -57.269 0.955 4.482 
783.255 0.955 4.268 0.085 -56.358 0.085 -56.358 0.955 4.268 
820.351 0.956 4.064 0.082 -55.41 0.082 -55.41 0.956 4.064 
859.204 0.956 3.87 0.079 -54.429 0.079 -54.429 0.956 3.87 
899.897 0.956 3.687 0.077 -53.419 0.077 -53.419 0.956 3.687 
942.517 0.957 3.512 0.074 -52.383 0.074 -52.383 0.957 3.512 
987.156 0.957 3.346 0.072 -51.325 0.072 -51.325 0.957 3.346 
1033.909 0.957 3.189 0.069 -50.25 0.069 -50.25 0.957 3.189 
1082.877 0.957 3.04 0.067 -49.159 0.067 -49.159 0.957 3.04 
1134.163 0.958 2.898 0.065 -48.058 0.065 -48.058 0.958 2.898 
1187.879 0.958 2.764 0.063 -46.95 0.063 -46.95 0.958 2.764 
1244.138 0.958 2.636 0.061 -45.838 0.061 -45.838 0.958 2.636 
1303.062 0.958 2.515 0.06 -44.724 0.06 -44.724 0.958 2.515 
1364.777 0.959 2.4 0.058 -43.612 0.058 -43.612 0.959 2.4 
1429.415 0.959 2.291 0.057 -42.505 0.057 -42.505 0.959 2.291 
1497.114 0.959 2.187 0.055 -41.404 0.055 -41.404 0.959 2.187 
1568.019 0.959 2.088 0.054 -40.312 0.054 -40.312 0.959 2.088 
1642.283 0.96 1.994 0.053 -39.23 0.053 -39.23 0.96 1.994 
1720.063 0.96 1.905 0.052 -38.16 0.052 -38.16 0.96 1.905 
1801.528 0.96 1.82 0.051 -37.103 0.051 -37.103 0.96 1.82 
1886.851 0.96 1.739 0.05 -36.061 0.05 -36.061 0.96 1.739 
1976.214 0.961 1.662 0.049 -35.035 0.049 -35.035 0.961 1.662 
2069.811 0.961 1.588 0.048 -34.025 0.048 -34.025 0.961 1.588 
2167.84 0.961 1.518 0.047 -33.033 0.047 -33.033 0.961 1.518 
2270.512 0.961 1.452 0.046 -32.059 0.046 -32.059 0.961 1.452 
2378.046 0.962 1.388 0.045 -31.103 0.045 -31.103 0.962 1.388 
2490.674 0.962 1.327 0.044 -30.166 0.044 -30.166 0.962 1.327 
2608.635 0.962 1.269 0.044 -29.248 0.044 -29.248 0.962 1.269 
2732.184 0.962 1.214 0.043 -28.35 0.043 -28.35 0.962 1.214 
2861.584 0.963 1.162 0.042 -27.471 0.042 -27.471 0.963 1.162 
2997.112 0.963 1.111 0.042 -26.612 0.042 -26.612 0.963 1.111 
3139.06 0.963 1.063 0.041 -25.773 0.041 -25.773 0.963 1.063 
3287.73 0.963 1.017 0.041 -24.953 0.041 -24.953 0.963 1.017 
3443.441 0.964 0.973 0.04 -24.154 0.04 -24.154 0.964 0.973 
3606.527 0.964 0.932 0.039 -23.374 0.039 -23.374 0.964 0.932 
3777.337 0.964 0.892 0.039 -22.613 0.039 -22.613 0.964 0.892 
3956.237 0.964 0.853 0.039 -21.872 0.039 -21.872 0.964 0.853 
4143.61 0.965 0.817 0.038 -21.151 0.038 -21.151 0.965 0.817 
4339.857 0.965 0.782 0.038 -20.448 0.038 -20.448 0.965 0.782 
4545.398 0.965 0.748 0.037 -19.764 0.037 -19.764 0.965 0.748 
4760.675 0.965 0.716 0.037 -19.099 0.037 -19.099 0.965 0.716 
4986.147 0.965 0.686 0.036 -18.453 0.036 -18.453 0.965 0.686 
5222.297 0.966 0.656 0.036 -17.824 0.036 -17.824 0.966 0.656 
5469.633 0.966 0.628 0.036 -17.214 0.036 -17.214 0.966 0.628 
5728.682 0.966 0.601 0.035 -16.621 0.035 -16.621 0.966 0.601 
6000 0.966 0.576 0.035 -16.045 0.035 -16.045 0.966 0.576 
