# MHz S MA R 50

1 5.045e-3 76.445 0.999 -0.281 0.999 -0.281 5.045e-3 76.445 
1.047 5.265e-3 76.914 0.999 -0.294 0.999 -0.294 5.265e-3 76.914 
1.097 5.495e-3 77.362 0.999 -0.308 0.999 -0.308 5.495e-3 77.362 
1.149 5.735e-3 77.79 0.999 -0.322 0.999 -0.322 5.735e-3 77.79 
1.203 5.987e-3 78.199 0.999 -0.336 0.999 -0.336 5.987e-3 78.199 
1.26 6.251e-3 78.588 0.999 -0.352 0.999 -0.352 6.251e-3 78.588 
1.32 6.527e-3 78.96 0.999 -0.368 0.999 -0.368 6.527e-3 78.96 
1.383 6.816e-3 79.313 0.999 -0.384 0.999 -0.384 6.816e-3 79.313 
1.448 7.119e-3 79.65 0.999 -0.402 0.999 -0.402 7.119e-3 79.65 
1.517 7.435e-3 79.97 0.999 -0.42 0.999 -0.42 7.435e-3 79.97 
1.588 7.766e-3 80.273 0.999 -0.439 0.999 -0.439 7.766e-3 80.273 
1.664 8.113e-3 80.562 0.999 -0.459 0.999 -0.459 8.113e-3 80.562 
1.742 8.475e-3 80.835 0.999 -0.48 0.999 -0.48 8.475e-3 80.835 
1.825 8.854e-3 81.093 0.999 -0.502 0.999 -0.502 8.854e-3 81.093 
1.911 9.251e-3 81.337 0.999 -0.525 0.999 -0.525 9.251e-3 81.337 
2.002 9.666e-3 81.568 0.999 -0.549 0.999 -0.549 9.666e-3 81.568 
2.097 0.01 81.785 0.999 -0.574 0.999 -0.574 0.01 81.785 
2.196 0.011 81.989 0.999 -0.6 0.999 -0.6 0.011 81.989 
2.3 0.011 82.181 0.999 -0.627 0.999 -0.627 0.011 82.181 
2.409 0.012 82.361 0.999 -0.655 0.999 -0.655 0.012 82.361 
2.523 0.012 82.529 0.999 -0.685 0.999 -0.685 0.012 82.529 
2.643 0.013 82.685 0.998 -0.716 0.998 -0.716 0.013 82.685 
2.768 0.013 82.831 0.998 -0.749 0.998 -0.749 0.013 82.831 
2.899 0.014 82.965 0.998 -0.783 0.998 -0.783 0.014 82.965 
3.036 0.014 83.089 0.998 -0.818 0.998 -0.818 0.014 83.089 
3.18 0.015 83.202 0.998 -0.856 0.998 -0.856 0.015 83.202 
3.331 0.016 83.306 0.998 -0.894 0.998 -0.894 0.016 83.306 
3.488 0.016 83.4 0.998 -0.935 0.998 -0.935 0.016 83.4 
3.653 0.017 83.484 0.998 -0.978 0.998 -0.978 0.017 83.484 
3.826 0.018 83.558 0.998 -1.022 0.998 -1.022 0.018 83.558 
4.008 0.019 83.623 0.998 -1.068 0.998 -1.068 0.019 83.623 
4.198 0.02 83.68 0.998 -1.117 0.998 -1.117 0.02 83.68 
4.396 0.02 83.727 0.998 -1.167 0.998 -1.167 0.02 83.727 
4.605 0.021 83.765 0.998 -1.22 0.998 -1.22 0.021 83.765 
4.823 0.022 83.795 0.998 -1.276 0.998 -1.276 0.022 83.795 
5.051 0.023 83.816 0.998 -1.334 0.998 -1.334 0.023 83.816 
5.29 0.024 83.829 0.998 -1.394 0.998 -1.394 0.024 83.829 
5.541 0.026 83.833 0.998 -1.457 0.998 -1.457 0.026 83.833 
5.803 0.027 83.829 0.997 -1.523 0.997 -1.523 0.027 83.829 
6.078 0.028 83.817 0.997 -1.592 0.997 -1.592 0.028 83.817 
6.366 0.029 83.796 0.997 -1.664 0.997 -1.664 0.029 83.796 
6.667 0.03 83.767 0.997 -1.74 0.997 -1.74 0.03 83.767 
6.983 0.032 83.73 0.997 -1.818 0.997 -1.818 0.032 83.73 
7.314 0.033 83.684 0.997 -1.901 0.997 -1.901 0.033 83.684 
7.66 0.035 83.631 0.997 -1.987 0.997 -1.987 0.035 83.631 
8.023 0.036 83.569 0.997 -2.076 0.997 -2.076 0.036 83.569 
8.403 0.038 83.498 0.996 -2.17 0.996 -2.17 0.038 83.498 
8.801 0.04 83.419 0.996 -2.268 0.996 -2.268 0.04 83.419 
9.218 0.041 83.332 0.996 -2.371 0.996 -2.371 0.041 83.332 
9.655 0.043 83.236 0.996 -2.478 0.996 -2.478 0.043 83.236 
10.112 0.045 83.131 0.996 -2.59 0.996 -2.59 0.045 83.131 
10.591 0.047 83.018 0.995 -2.706 0.995 -2.706 0.047 83.018 
11.092 0.049 82.896 0.995 -2.828 0.995 -2.828 0.049 82.896 
11.618 0.052 82.764 0.995 -2.956 0.995 -2.956 0.052 82.764 
12.168 0.054 82.623 0.995 -3.089 0.995 -3.089 0.054 82.623 
12.744 0.056 82.473 0.994 -3.228 0.994 -3.228 0.056 82.473 
13.348 0.059 82.313 0.994 -3.373 0.994 -3.373 0.059 82.313 
13.98 0.062 82.144 0.993 -3.524 0.993 -3.524 0.062 82.144 
14.642 0.064 81.964 0.993 -3.682 0.993 -3.682 0.064 81.964 
15.335 0.067 81.774 0.993 -3.848 0.993 -3.848 0.067 81.774 
16.062 0.07 81.574 0.992 -4.02 0.992 -4.02 0.07 81.574 
16.822 0.073 81.363 0.992 -4.2 0.992 -4.2 0.073 81.363 
17.619 0.077 81.141 0.991 -4.388 0.991 -4.388 0.077 81.141 
18.454 0.08 80.907 0.99 -4.584 0.99 -4.584 0.08 80.907 
19.328 0.084 80.662 0.99 -4.789 0.99 -4.789 0.084 80.662 
20.243 0.087 80.405 0.989 -5.002 0.989 -5.002 0.087 80.405 
21.202 0.091 80.136 0.988 -5.225 0.988 -5.225 0.091 80.136 
22.206 0.095 79.854 0.988 -5.457 0.988 -5.457 0.095 79.854 
23.258 0.1 79.559 0.987 -5.7 0.987 -5.7 0.1 79.559 
24.359 0.104 79.251 0.986 -5.952 0.986 -5.952 0.104 79.251 
25.513 0.109 78.929 0.985 -6.216 0.985 -6.216 0.109 78.929 
26.721 0.113 78.592 0.984 -6.491 0.984 -6.491 0.113 78.592 
27.987 0.118 78.242 0.983 -6.777 0.983 -6.777 0.118 78.242 
29.312 0.124 77.876 0.982 -7.075 0.982 -7.075 0.124 77.876 
30.7 0.129 77.494 0.98 -7.386 0.98 -7.386 0.129 77.494 
32.154 0.135 77.097 0.979 -7.71 0.979 -7.71 0.135 77.097 
33.677 0.141 76.684 0.977 -8.047 0.977 -8.047 0.141 76.684 
35.272 0.147 76.254 0.976 -8.398 0.976 -8.398 0.147 76.254 
36.943 0.153 75.806 0.974 -8.764 0.974 -8.764 0.153 75.806 
38.693 0.16 75.341 0.972 -9.144 0.972 -9.144 0.16 75.341 
40.525 0.167 74.857 0.97 -9.539 0.97 -9.539 0.167 74.857 
42.444 0.174 74.355 0.968 -9.95 0.968 -9.95 0.174 74.355 
44.455 0.181 73.833 0.965 -10.378 0.965 -10.378 0.181 73.833 
46.56 0.189 73.292 0.963 -10.821 0.963 -10.821 0.189 73.292 
48.765 0.197 72.73 0.96 -11.282 0.96 -11.282 0.197 72.73 
51.075 0.205 72.147 0.957 -11.761 0.957 -11.761 0.205 72.147 
53.494 0.214 71.544 0.954 -12.258 0.954 -12.258 0.214 71.544 
56.027 0.222 70.919 0.951 -12.772 0.951 -12.772 0.222 70.919 
58.681 0.232 70.272 0.947 -13.306 0.947 -13.306 0.232 70.272 
61.46 0.241 69.602 0.943 -13.859 0.943 -13.859 0.241 69.602 
64.371 0.251 68.909 0.939 -14.431 0.939 -14.431 0.251 68.909 
67.42 0.261 68.194 0.935 -15.023 0.935 -15.023 0.261 68.194 
70.613 0.271 67.454 0.93 -15.634 0.93 -15.634 0.271 67.454 
73.957 0.282 66.691 0.925 -16.266 0.925 -16.266 0.282 66.691 
77.46 0.293 65.904 0.92 -16.918 0.92 -16.918 0.293 65.904 
81.128 0.305 65.093 0.914 -17.591 0.914 -17.591 0.305 65.093 
84.971 0.316 64.257 0.908 -18.284 0.908 -18.284 0.316 64.257 
88.995 0.328 63.397 0.902 -18.997 0.902 -18.997 0.328 63.397 
93.21 0.341 62.513 0.895 -19.73 0.895 -19.73 0.341 62.513 
97.624 0.353 61.605 0.888 -20.482 0.888 -20.482 0.353 61.605 
102.248 0.366 60.672 0.881 -21.255 0.881 -21.255 0.366 60.672 
107.091 0.379 59.716 0.873 -22.046 0.873 -22.046 0.379 59.716 
112.163 0.393 58.736 0.864 -22.856 0.864 -22.856 0.393 58.736 
117.475 0.406 57.734 0.855 -23.683 0.855 -23.683 0.406 57.734 
123.039 0.42 56.71 0.846 -24.527 0.846 -24.527 0.42 56.71 
128.866 0.434 55.663 0.836 -25.387 0.836 -25.387 0.434 55.663 
134.969 0.448 54.596 0.826 -26.262 0.826 -26.262 0.448 54.596 
141.361 0.462 53.51 0.815 -27.151 0.815 -27.151 0.462 53.51 
148.056 0.477 52.404 0.803 -28.051 0.803 -28.051 0.477 52.404 
155.069 0.491 51.28 0.792 -28.963 0.792 -28.963 0.491 51.28 
162.413 0.506 50.141 0.779 -29.883 0.779 -29.883 0.506 50.141 
170.105 0.52 48.985 0.767 -30.81 0.767 -30.81 0.52 48.985 
178.161 0.535 47.817 0.753 -31.743 0.753 -31.743 0.535 47.817 
186.599 0.549 46.636 0.74 -32.679 0.74 -32.679 0.549 46.636 
195.437 0.564 45.444 0.726 -33.615 0.726 -33.615 0.564 45.444 
204.693 0.578 44.243 0.711 -34.549 0.711 -34.549 0.578 44.243 
214.388 0.592 43.035 0.696 -35.48 0.696 -35.48 0.592 43.035 
224.541 0.606 41.821 0.681 -36.403 0.681 -36.403 0.606 41.821 
235.176 0.62 40.604 0.666 -37.317 0.666 -37.317 0.62 40.604 
246.314 0.633 39.384 0.65 -38.217 0.65 -38.217 0.633 39.384 
257.98 0.647 38.165 0.634 -39.102 0.634 -39.102 0.647 38.165 
270.198 0.659 36.947 0.617 -39.967 0.617 -39.967 0.659 36.947 
282.995 0.672 35.732 0.6 -40.809 0.6 -40.809 0.672 35.732 
296.398 0.684 34.523 0.584 -41.625 0.584 -41.625 0.684 34.523 
310.436 0.696 33.321 0.567 -42.411 0.567 -42.411 0.696 33.321 
325.139 0.707 32.128 0.55 -43.162 0.55 -43.162 0.707 32.128 
340.538 0.718 30.945 0.533 -43.875 0.533 -43.875 0.718 30.945 
356.666 0.729 29.774 0.516 -44.546 0.516 -44.546 0.729 29.774 
373.558 0.739 28.617 0.499 -45.17 0.499 -45.17 0.739 28.617 
391.25 0.748 27.476 0.482 -45.742 0.482 -45.742 0.748 27.476 
409.781 0.757 26.351 0.465 -46.257 0.465 -46.257 0.757 26.351 
429.188 0.766 25.244 0.449 -46.711 0.449 -46.711 0.766 25.244 
449.515 0.774 24.156 0.432 -47.097 0.432 -47.097 0.774 24.156 
470.805 0.781 23.09 0.416 -47.412 0.416 -47.412 0.781 23.09 
493.103 0.788 22.045 0.4 -47.648 0.4 -47.648 0.788 22.045 
516.457 0.794 21.024 0.385 -47.801 0.385 -47.801 0.794 21.024 
540.917 0.8 20.028 0.37 -47.866 0.37 -47.866 0.8 20.028 
566.536 0.806 19.056 0.355 -47.836 0.355 -47.836 0.806 19.056 
593.368 0.811 18.112 0.341 -47.706 0.341 -47.706 0.811 18.112 
621.47 0.815 17.194 0.327 -47.473 0.327 -47.473 0.815 17.194 
650.904 0.819 16.306 0.314 -47.131 0.314 -47.131 0.819 16.306 
681.732 0.823 15.446 0.301 -46.678 0.301 -46.678 0.823 15.446 
714.019 0.826 14.616 0.289 -46.111 0.289 -46.111 0.826 14.616 
747.836 0.829 13.817 0.278 -45.43 0.278 -45.43 0.829 13.817 
783.255 0.831 13.048 0.267 -44.634 0.267 -44.634 0.831 13.048 
820.351 0.833 12.311 0.257 -43.727 0.257 -43.727 0.833 12.311 
859.204 0.835 11.606 0.248 -42.712 0.248 -42.712 0.835 11.606 
899.897 0.836 10.932 0.239 -41.596 0.239 -41.596 0.836 10.932 
942.517 0.838 10.29 0.231 -40.388 0.231 -40.388 0.838 10.29 
987.156 0.838 9.679 0.224 -39.098 0.224 -39.098 0.838 9.679 
1033.909 0.839 9.1 0.217 -37.737 0.217 -37.737 0.839 9.1 
1082.877 0.84 8.551 0.211 -36.321 0.211 -36.321 0.84 8.551 
1134.163 0.84 8.033 0.205 -34.862 0.205 -34.862 0.84 8.033 
1187.879 0.84 7.544 0.2 -33.377 0.2 -33.377 0.84 7.544 
1244.138 0.84 7.084 0.196 -31.881 0.196 -31.881 0.84 7.084 
1303.062 0.84 6.652 0.192 -30.387 0.192 -30.387 0.84 6.652 
1364.777 0.84 6.247 0.189 -28.909 0.189 -28.909 0.84 6.247 
1429.415 0.839 5.867 0.186 -27.46 0.186 -27.46 0.839 5.867 
1497.114 0.839 5.512 0.184 -26.049 0.184 -26.049 0.839 5.512 
1568.019 0.839 5.18 0.181 -24.685 0.181 -24.685 0.839 5.18 
1642.283 0.838 4.871 0.179 -23.374 0.179 -23.374 0.838 4.871 
1720.063 0.838 4.582 0.178 -22.122 0.178 -22.122 0.838 4.582 
1801.528 0.838 4.313 0.176 -20.931 0.176 -20.931 0.838 4.313 
1886.851 0.837 4.063 0.175 -19.803 0.175 -19.803 0.837 4.063 
1976.214 0.837 3.83 0.174 -18.738 0.174 -18.738 0.837 3.83 
2069.811 0.837 3.613 0.173 -17.735 0.173 -17.735 0.837 3.613 
2167.84 0.837 3.411 0.172 -16.793 0.172 -16.793 0.837 3.411 
2270.512 0.836 3.222 0.172 -15.91 0.172 -15.91 0.836 3.222 
2378.046 0.836 3.047 0.171 -15.084 0.171 -15.084 0.836 3.047 
2490.674 0.836 2.884 0.17 -14.31 0.17 -14.31 0.836 2.884 
2608.635 0.836 2.732 0.17 -13.587 0.17 -13.587 0.836 2.732 
2732.184 0.836 2.59 0.169 -12.911 0.169 -12.911 0.836 2.59 
2861.584 0.836 2.457 0.169 -12.278 0.169 -12.278 0.836 2.457 
2997.112 0.836 2.333 0.168 -11.686 0.168 -11.686 0.836 2.333 
3139.06 0.836 2.217 0.168 -11.132 0.168 -11.132 0.836 2.217 
3287.73 0.836 2.108 0.167 -10.613 0.167 -10.613 0.836 2.108 
3443.441 0.837 2.006 0.167 -10.126 0.167 -10.126 0.837 2.006 
3606.527 0.837 1.91 0.166 -9.669 0.166 -9.669 0.837 1.91 
3777.337 0.837 1.82 0.166 -9.24 0.166 -9.24 0.837 1.82 
3956.237 0.837 1.735 0.165 -8.835 0.165 -8.835 0.837 1.735 
4143.61 0.838 1.656 0.165 -8.454 0.165 -8.454 0.838 1.656 
4339.857 0.838 1.58 0.164 -8.095 0.164 -8.095 0.838 1.58 
4545.398 0.838 1.509 0.164 -7.755 0.164 -7.755 0.838 1.509 
4760.675 0.839 1.442 0.163 -7.434 0.163 -7.434 0.839 1.442 
4986.147 0.839 1.378 0.163 -7.129 0.163 -7.129 0.839 1.378 
5222.297 0.839 1.318 0.162 -6.84 0.162 -6.84 0.839 1.318 
5469.633 0.84 1.261 0.162 -6.566 0.162 -6.566 0.84 1.261 
5728.682 0.84 1.206 0.161 -6.305 0.161 -6.305 0.84 1.206 
6000 0.841 1.155 0.161 -6.057 0.161 -6.057 0.841 1.155 
