# MHz S MA R 50

1 0.00704349 74.2044 0.998106 -0.389063 0.998106 -0.389063 0.00704349 74.2044 
1.04713 0.00734337 74.7452 0.998093 -0.406698 0.998093 -0.406698 0.00734337 74.7452 
1.09648 0.00765752 75.2632 0.99808 -0.425131 0.99808 -0.425131 0.00765752 75.2632 
1.14815 0.00798655 75.7591 0.998065 -0.444398 0.998065 -0.444398 0.00798655 75.7591 
1.20226 0.00833111 76.2334 0.99805 -0.464536 0.99805 -0.464536 0.00833111 76.2334 
1.25893 0.00869187 76.6867 0.998034 -0.485584 0.998034 -0.485584 0.00869187 76.6867 
1.31826 0.00906955 77.1196 0.998017 -0.507584 0.998017 -0.507584 0.00906955 77.1196 
1.38038 0.00946487 77.5327 0.997999 -0.530579 0.997999 -0.530579 0.00946487 77.5327 
1.44544 0.00987863 77.9265 0.99798 -0.554612 0.99798 -0.554612 0.00987863 77.9265 
1.51356 0.0103116 78.3016 0.99796 -0.579732 0.99796 -0.579732 0.0103116 78.3016 
1.58489 0.0107647 78.6585 0.997939 -0.605987 0.997939 -0.605987 0.0107647 78.6585 
1.65959 0.0112387 78.9977 0.997916 -0.633428 0.997916 -0.633428 0.0112387 78.9977 
1.7378 0.0117346 79.3199 0.997892 -0.662108 0.997892 -0.662108 0.0117346 79.3199 
1.8197 0.0122534 79.6253 0.997866 -0.692083 0.997866 -0.692083 0.0122534 79.6253 
1.90546 0.012796 79.9147 0.997839 -0.723412 0.997839 -0.723412 0.012796 79.9147 
1.99526 0.0133636 80.1883 0.99781 -0.756155 0.99781 -0.756155 0.0133636 80.1883 
2.0893 0.0139571 80.4467 0.997779 -0.790375 0.997779 -0.790375 0.0139571 80.4467 
2.18776 0.0145779 80.6903 0.997745 -0.82614 0.997745 -0.82614 0.0145779 80.6903 
2.29087 0.015227 80.9195 0.99771 -0.863518 0.99771 -0.863518 0.015227 80.9195 
2.39883 0.0159057 81.1347 0.997673 -0.902583 0.997673 -0.902583 0.0159057 81.1347 
2.51189 0.0166154 81.3362 0.997632 -0.943408 0.997632 -0.943408 0.0166154 81.3362 
2.63027 0.0173575 81.5245 0.997589 -0.986075 0.997589 -0.986075 0.0173575 81.5245 
2.75423 0.0181333 81.6999 0.997544 -1.03066 0.997544 -1.03066 0.0181333 81.6999 
2.88403 0.0189443 81.8626 0.997495 -1.07726 0.997495 -1.07726 0.0189443 81.8626 
3.01995 0.0197922 82.0131 0.997443 -1.12596 0.997443 -1.12596 0.0197922 82.0131 
3.16228 0.0206785 82.1515 0.997387 -1.17685 0.997387 -1.17685 0.0206785 82.1515 
3.31131 0.021605 82.2781 0.997327 -1.23003 0.997327 -1.23003 0.021605 82.2781 
3.46737 0.0225734 82.3932 0.997263 -1.28561 0.997263 -1.28561 0.0225734 82.3932 
3.63078 0.0235857 82.497 0.997194 -1.34368 0.997194 -1.34368 0.0235857 82.497 
3.80189 0.0246436 82.5897 0.997121 -1.40437 0.997121 -1.40437 0.0246436 82.5897 
3.98107 0.0257494 82.6714 0.997043 -1.46778 0.997043 -1.46778 0.0257494 82.6714 
4.16869 0.0269051 82.7425 0.996958 -1.53405 0.996958 -1.53405 0.0269051 82.7425 
4.36516 0.0281128 82.803 0.996868 -1.60329 0.996868 -1.60329 0.0281128 82.803 
4.57088 0.029375 82.853 0.996772 -1.67563 0.996772 -1.67563 0.029375 82.853 
4.7863 0.030694 82.8927 0.996668 -1.75123 0.996668 -1.75123 0.030694 82.8927 
5.01187 0.0320723 82.9222 0.996557 -1.83022 0.996557 -1.83022 0.0320723 82.9222 
5.24807 0.0335125 82.9416 0.996437 -1.91274 0.996437 -1.91274 0.0335125 82.9416 
5.49541 0.0350174 82.9508 0.996309 -1.99897 0.996309 -1.99897 0.0350174 82.9508 
5.7544 0.0365898 82.9501 0.996171 -2.08905 0.996171 -2.08905 0.0365898 82.9501 
6.0256 0.0382326 82.9394 0.996023 -2.18316 0.996023 -2.18316 0.0382326 82.9394 
6.30957 0.039949 82.9188 0.995865 -2.28149 0.995865 -2.28149 0.039949 82.9188 
6.60693 0.0417422 82.8882 0.995694 -2.3842 0.995694 -2.3842 0.0417422 82.8882 
6.91831 0.0436155 82.8476 0.995511 -2.4915 0.995511 -2.4915 0.0436155 82.8476 
7.24436 0.0455724 82.797 0.995313 -2.60359 0.995313 -2.60359 0.0455724 82.797 
7.58578 0.0476165 82.7364 0.995101 -2.72067 0.995101 -2.72067 0.0476165 82.7364 
7.94328 0.0497516 82.6656 0.994873 -2.84297 0.994873 -2.84297 0.0497516 82.6656 
8.31764 0.0519817 82.5847 0.994628 -2.97071 0.994628 -2.97071 0.0519817 82.5847 
8.70964 0.0543108 82.4935 0.994364 -3.10412 0.994364 -3.10412 0.0543108 82.4935 
9.12011 0.0567432 82.3918 0.99408 -3.24345 0.99408 -3.24345 0.0567432 82.3918 
9.54993 0.0592833 82.2797 0.993774 -3.38895 0.993774 -3.38895 0.0592833 82.2797 
10 0.0619356 82.1568 0.993445 -3.5409 0.993445 -3.5409 0.0619356 82.1568 
10.4713 0.064705 82.0232 0.99309 -3.69957 0.99309 -3.69957 0.064705 82.0232 
10.9648 0.0675963 81.8785 0.992708 -3.86523 0.992708 -3.86523 0.0675963 81.8785 
11.4815 0.0706147 81.7225 0.992297 -4.03819 0.992297 -4.03819 0.0706147 81.7225 
12.0226 0.0737654 81.5552 0.991855 -4.21877 0.991855 -4.21877 0.0737654 81.5552 
12.5893 0.077054 81.3762 0.991378 -4.40726 0.991378 -4.40726 0.077054 81.3762 
13.1826 0.0804861 81.1852 0.990864 -4.60402 0.990864 -4.60402 0.0804861 81.1852 
13.8038 0.0840676 80.9822 0.99031 -4.80937 0.99031 -4.80937 0.0840676 80.9822 
14.4544 0.0878045 80.7666 0.989713 -5.02369 0.989713 -5.02369 0.0878045 80.7666 
15.1356 0.091703 80.5383 0.98907 -5.24732 0.98907 -5.24732 0.091703 80.5383 
15.8489 0.0957696 80.2969 0.988377 -5.48066 0.988377 -5.48066 0.0957696 80.2969 
16.5959 0.100011 80.0422 0.98763 -5.72408 0.98763 -5.72408 0.100011 80.0422 
17.378 0.104434 79.7736 0.986826 -5.97801 0.986826 -5.97801 0.104434 79.7736 
18.197 0.109045 79.491 0.985958 -6.24284 0.985958 -6.24284 0.109045 79.491 
19.0546 0.113852 79.1939 0.985023 -6.51902 0.985023 -6.51902 0.113852 79.1939 
19.9526 0.118861 78.8819 0.984016 -6.80697 0.984016 -6.80697 0.118861 78.8819 
20.893 0.124081 78.5546 0.98293 -7.10715 0.98293 -7.10715 0.124081 78.5546 
21.8776 0.129518 78.2115 0.981761 -7.42002 0.981761 -7.42002 0.129518 78.2115 
22.9087 0.135181 77.8523 0.9805 -7.74605 0.9805 -7.74605 0.135181 77.8523 
23.9883 0.141077 77.4765 0.979143 -8.08572 0.979143 -8.08572 0.141077 77.4765 
25.1189 0.147214 77.0836 0.97768 -8.43951 0.97768 -8.43951 0.147214 77.0836 
26.3027 0.1536 76.6731 0.976105 -8.80794 0.976105 -8.80794 0.1536 76.6731 
27.5423 0.160243 76.2446 0.974409 -9.1915 0.974409 -9.1915 0.160243 76.2446 
28.8403 0.16715 75.7975 0.972583 -9.59069 0.972583 -9.59069 0.16715 75.7975 
30.1995 0.174329 75.3313 0.970618 -10.006 0.970618 -10.006 0.174329 75.3313 
31.6228 0.181787 74.8456 0.968504 -10.438 0.968504 -10.438 0.181787 74.8456 
33.1131 0.189533 74.3398 0.96623 -10.8872 0.96623 -10.8872 0.189533 74.3398 
34.6737 0.197573 73.8134 0.963785 -11.354 0.963785 -11.354 0.197573 73.8134 
36.3078 0.205914 73.2659 0.961157 -11.839 0.961157 -11.839 0.205914 73.2659 
38.0189 0.214562 72.6969 0.958334 -12.3427 0.958334 -12.3427 0.214562 72.6969 
39.8107 0.223523 72.1057 0.955302 -12.8655 0.955302 -12.8655 0.223523 72.1057 
41.6869 0.232803 71.4919 0.952048 -13.4079 0.952048 -13.4079 0.232803 71.4919 
43.6516 0.242407 70.8551 0.948558 -13.9703 0.948558 -13.9703 0.242407 70.8551 
45.7088 0.252337 70.1948 0.944817 -14.5531 0.944817 -14.5531 0.252337 70.1948 
47.863 0.262598 69.5106 0.940809 -15.1568 0.940809 -15.1568 0.262598 69.5106 
50.1187 0.27319 68.8021 0.936519 -15.7816 0.936519 -15.7816 0.27319 68.8021 
52.4807 0.284116 68.069 0.93193 -16.4278 0.93193 -16.4278 0.284116 68.069 
54.9541 0.295374 67.3109 0.927026 -17.0956 0.927026 -17.0956 0.295374 67.3109 
57.544 0.306962 66.5276 0.921789 -17.7853 0.921789 -17.7853 0.306962 66.5276 
60.256 0.318878 65.719 0.916204 -18.497 0.916204 -18.497 0.318878 65.719 
63.0957 0.331116 64.8848 0.910253 -19.2306 0.910253 -19.2306 0.331116 64.8848 
66.0693 0.343669 64.0249 0.903918 -19.9862 0.903918 -19.9862 0.343669 64.0249 
69.1831 0.356529 63.1395 0.897184 -20.7636 0.897184 -20.7636 0.356529 63.1395 
72.4436 0.369685 62.2287 0.890035 -21.5625 0.890035 -21.5625 0.369685 62.2287 
75.8578 0.383123 61.2925 0.882454 -22.3827 0.882454 -22.3827 0.383123 61.2925 
79.4328 0.396829 60.3313 0.874428 -23.2236 0.874428 -23.2236 0.396829 60.3313 
83.1764 0.410785 59.3455 0.865944 -24.0847 0.865944 -24.0847 0.410785 59.3455 
87.0964 0.424971 58.3356 0.856988 -24.9653 0.856988 -24.9653 0.424971 58.3356 
91.2011 0.439365 57.3022 0.847552 -25.8645 0.847552 -25.8645 0.439365 57.3022 
95.4993 0.453942 56.246 0.837626 -26.7812 0.837626 -26.7812 0.453942 56.246 
100 0.468676 55.168 0.827205 -27.7144 0.827205 -27.7144 0.468676 55.168 
104.713 0.483537 54.069 0.816284 -28.6626 0.816284 -28.6626 0.483537 54.069 
109.648 0.498494 52.9503 0.804863 -29.6245 0.804863 -29.6245 0.498494 52.9503 
114.815 0.513514 51.8131 0.792943 -30.5984 0.792943 -30.5984 0.513514 51.8131 
120.226 0.528563 50.6586 0.780529 -31.5823 0.780529 -31.5823 0.528563 50.6586 
125.893 0.543603 49.4885 0.767629 -32.5745 0.767629 -32.5745 0.543603 49.4885 
131.826 0.558598 48.3043 0.754256 -33.5727 0.754256 -33.5727 0.558598 48.3043 
138.038 0.57351 47.1078 0.740424 -34.5745 0.740424 -34.5745 0.57351 47.1078 
144.544 0.588299 45.9007 0.726151 -35.5775 0.726151 -35.5775 0.588299 45.9007 
151.356 0.602927 44.6849 0.711461 -36.5791 0.711461 -36.5791 0.602927 44.6849 
158.489 0.617355 43.4624 0.696379 -37.5765 0.696379 -37.5765 0.617355 43.4624 
165.959 0.631545 42.2354 0.680933 -38.5667 0.680933 -38.5667 0.631545 42.2354 
173.78 0.645461 41.0058 0.665157 -39.5466 0.665157 -39.5466 0.645461 41.0058 
181.97 0.659066 39.7758 0.649086 -40.5132 0.649086 -40.5132 0.659066 39.7758 
190.546 0.672328 38.5477 0.632758 -41.463 0.632758 -41.463 0.672328 38.5477 
199.526 0.685215 37.3236 0.616215 -42.3926 0.616215 -42.3926 0.685215 37.3236 
208.93 0.697698 36.1056 0.599497 -43.2987 0.599497 -43.2987 0.697698 36.1056 
218.776 0.709751 34.896 0.582652 -44.1776 0.582652 -44.1776 0.709751 34.896 
229.087 0.721352 33.697 0.565723 -45.0257 0.565723 -45.0257 0.721352 33.697 
239.883 0.73248 32.5105 0.548759 -45.8395 0.548759 -45.8395 0.73248 32.5105 
251.189 0.74312 31.3387 0.531807 -46.6152 0.531807 -46.6152 0.74312 31.3387 
263.027 0.753259 30.1835 0.514913 -47.3492 0.514913 -47.3492 0.753259 30.1835 
275.423 0.762888 29.0469 0.498126 -48.038 0.498126 -48.038 0.762888 29.0469 
288.403 0.772003 27.9305 0.481492 -48.6782 0.481492 -48.6782 0.772003 27.9305 
301.995 0.780601 26.8362 0.465055 -49.2662 0.465055 -49.2662 0.780601 26.8362 
316.228 0.788685 25.7654 0.448859 -49.799 0.448859 -49.799 0.788685 25.7654 
331.131 0.79626 24.7196 0.432944 -50.2734 0.432944 -50.2734 0.79626 24.7196 
346.737 0.803336 23.7002 0.41735 -50.6868 0.41735 -50.6868 0.803336 23.7002 
363.078 0.809925 22.7082 0.402113 -51.0365 0.402113 -51.0365 0.809925 22.7082 
380.189 0.81604 21.7447 0.387265 -51.3205 0.387265 -51.3205 0.81604 21.7447 
398.107 0.8217 20.8105 0.372834 -51.5368 0.372834 -51.5368 0.8217 20.8105 
416.869 0.826924 19.9063 0.358848 -51.6842 0.358848 -51.6842 0.826924 19.9063 
436.516 0.831733 19.0327 0.345327 -51.7615 0.345327 -51.7615 0.831733 19.0327 
457.088 0.83615 18.1899 0.332289 -51.7684 0.332289 -51.7684 0.83615 18.1899 
478.63 0.840199 17.3781 0.319748 -51.7049 0.319748 -51.7049 0.840199 17.3781 
501.187 0.843905 16.5975 0.307714 -51.5714 0.307714 -51.5714 0.843905 16.5975 
524.807 0.847292 15.8478 0.296192 -51.3691 0.296192 -51.3691 0.847292 15.8478 
549.541 0.850385 15.1287 0.285184 -51.0994 0.285184 -51.0994 0.850385 15.1287 
575.44 0.853209 14.44 0.27469 -50.7644 0.27469 -50.7644 0.853209 14.44 
602.56 0.855788 13.781 0.264703 -50.3665 0.264703 -50.3665 0.855788 13.781 
630.957 0.858145 13.1511 0.255216 -49.9087 0.255216 -49.9087 0.858145 13.1511 
660.693 0.860302 12.5496 0.246219 -49.3942 0.246219 -49.3942 0.860302 12.5496 
691.831 0.86228 11.9757 0.237698 -48.8265 0.237698 -48.8265 0.86228 11.9757 
724.436 0.864099 11.4284 0.229639 -48.2094 0.229639 -48.2094 0.864099 11.4284 
758.578 0.865776 10.9069 0.222024 -47.547 0.222024 -47.547 0.865776 10.9069 
794.328 0.867329 10.4101 0.214837 -46.8433 0.214837 -46.8433 0.867329 10.4101 
831.764 0.868772 9.93714 0.208058 -46.1023 0.208058 -46.1023 0.868772 9.93714 
870.964 0.870119 9.48692 0.201667 -45.3283 0.201667 -45.3283 0.870119 9.48692 
912.011 0.871383 9.05846 0.195647 -44.5253 0.195647 -44.5253 0.871383 9.05846 
954.993 0.872574 8.65073 0.189976 -43.6973 0.189976 -43.6973 0.872574 8.65073 
1000 0.873702 8.26276 0.184636 -42.8479 0.184636 -42.8479 0.873702 8.26276 
