# MHz S MA R 50

1	0.014683657	67.810888	0.99454744	-0.78330128	0.99454744	-0.78330128	0.014683657	67.810888	
1.02307230516798	0.014970941	68.161614	0.99452806	-0.8006222	0.99452806	-0.8006222	0.014970941	68.161614	
1.04667694160172	0.015265162	68.505849	0.99450818	-0.81832501	0.99450818	-0.81832501	0.015265162	68.505849	
1.07082619141064	0.015566463	68.843621	0.9944878	-0.83641812	0.9944878	-0.83641812	0.015566463	68.843621	
1.09553262008073	0.015874992	69.174962	0.9944669	-0.85491007	0.9944669	-0.85491007	0.015874992	69.174962	
1.12080908301271	0.016190899	69.499905	0.99444545	-0.87380962	0.99444545	-0.87380962	0.016190899	69.499905	
1.14666873221102	0.016514337	69.818487	0.99442344	-0.89312571	0.99442344	-0.89312571	0.016514337	69.818487	
1.17312502312717	0.016845463	70.130748	0.99440086	-0.91286747	0.99440086	-0.91286747	0.016845463	70.130748	
1.20019172166096	0.017184439	70.43673	0.99437768	-0.93304424	0.99437768	-0.93304424	0.017184439	70.43673	
1.2278829113232	0.017531426	70.736476	0.99435388	-0.95366556	0.99435388	-0.95366556	0.017531426	70.736476	
1.2562130005638	0.017886594	71.030031	0.99432945	-0.97474117	0.99432945	-0.97474117	0.017886594	71.030031	
1.28519673026879	0.018250112	71.317443	0.99430435	-0.99628102	0.99430435	-0.99628102	0.018250112	71.317443	
1.31484918143044	0.018622156	71.598762	0.99427858	-1.0182953	0.99427858	-1.0182953	0.018622156	71.598762	
1.34518578299426	0.019002904	71.874036	0.9942521	-1.0407943	0.9942521	-1.0407943	0.019002904	71.874036	
1.37622231988713	0.019392539	72.143318	0.99422489	-1.0637888	0.99422489	-1.0637888	0.019392539	72.143318	
1.40797494123055	0.019791246	72.40666	0.99419692	-1.0872896	0.99419692	-1.0872896	0.019791246	72.40666	
1.44046016874349	0.020199217	72.664115	0.99416818	-1.1113076	0.99416818	-1.1113076	0.020199217	72.664115	
1.47369490533906	0.020616645	72.915738	0.99413863	-1.1358544	0.99413863	-1.1358544	0.020616645	72.915738	
1.50769644391954	0.02104373	73.161583	0.99410825	-1.1609413	0.99410825	-1.1609413	0.02104373	73.161583	
1.54248247637433	0.021480675	73.401705	0.994077	-1.1865803	0.994077	-1.1865803	0.021480675	73.401705	
1.57807110278549	0.021927688	73.63616	0.99404486	-1.2127834	0.99404486	-1.2127834	0.021927688	73.63616	
1.61448084084573	0.02238498	73.865004	0.9940118	-1.239563	0.9940118	-1.239563	0.02238498	73.865004	
1.65173063549358	0.022852768	74.088293	0.99397777	-1.2669315	0.99397777	-1.2669315	0.022852768	74.088293	
1.68983986877098	0.023331274	74.306083	0.99394276	-1.294902	0.99394276	-1.294902	0.023331274	74.306083	
1.72882836990828	0.023820725	74.518429	0.99390672	-1.3234875	0.99390672	-1.3234875	0.023820725	74.518429	
1.76871642564187	0.024321351	74.725388	0.99386962	-1.3527014	0.99386962	-1.3527014	0.024321351	74.725388	
1.80952479076989	0.024833388	74.927015	0.99383142	-1.3825575	0.99383142	-1.3825575	0.024833388	74.927015	
1.85127469895156	0.025357078	75.123365	0.99379208	-1.4130697	0.99379208	-1.4130697	0.025357078	75.123365	
1.89398787375553	0.025892668	75.314493	0.99375156	-1.4442525	0.99375156	-1.4442525	0.025892668	75.314493	
1.93768653996327	0.026440409	75.500453	0.99370982	-1.4761203	0.99370982	-1.4761203	0.026440409	75.500453	
1.98239343513318	0.027000559	75.681299	0.99366681	-1.5086881	0.99366681	-1.5086881	0.027000559	75.681299	
2.02813182143157	0.027573381	75.857084	0.99362249	-1.5419712	0.99362249	-1.5419712	0.027573381	75.857084	
2.07492549773653	0.028159143	76.027861	0.99357681	-1.5759851	0.99357681	-1.5759851	0.028159143	76.027861	
2.12279881202113	0.02875812	76.193681	0.99352973	-1.6107457	0.99352973	-1.6107457	0.02875812	76.193681	
2.1717766740223	0.029370591	76.354595	0.99348118	-1.6462693	0.99348118	-1.6462693	0.029370591	76.354595	
2.22188456820204	0.029996844	76.510653	0.99343113	-1.6825724	0.99343113	-1.6825724	0.029996844	76.510653	
2.27314856700762	0.030637171	76.661903	0.99337951	-1.719672	0.99337951	-1.719672	0.030637171	76.661903	
2.32559534443778	0.031291869	76.808395	0.99332626	-1.7575853	0.99332626	-1.7575853	0.031291869	76.808395	
2.37925218992187	0.031961245	76.950176	0.99327133	-1.7963301	0.99327133	-1.7963301	0.031961245	76.950176	
2.43414702251933	0.03264561	77.087291	0.99321465	-1.8359243	0.99321465	-1.8359243	0.03264561	77.087291	
2.49030840544663	0.033345282	77.219785	0.99315617	-1.8763865	0.99315617	-1.8763865	0.033345282	77.219785	
2.54776556093947	0.034060585	77.347704	0.9930958	-1.9177353	0.9930958	-1.9177353	0.034060585	77.347704	
2.60654838545793	0.034791852	77.471089	0.9930335	-1.95999	0.9930335	-1.95999	0.034791852	77.471089	
2.66668746524232	0.035539421	77.589982	0.99296917	-2.0031702	0.99296917	-2.0031702	0.035539421	77.589982	
2.72821409222802	0.036303638	77.704424	0.99290275	-2.0472959	0.99290275	-2.0472959	0.036303638	77.704424	
2.79116028032748	0.037084857	77.814455	0.99283416	-2.0923876	0.99283416	-2.0923876	0.037084857	77.814455	
2.85555878208794	0.037883437	77.920111	0.99276332	-2.138466	0.99276332	-2.138466	0.037883437	77.920111	
2.92144310573337	0.038699746	78.021432	0.99269015	-2.1855526	0.99269015	-2.1855526	0.038699746	78.021432	
2.98884753259974	0.039534161	78.118451	0.99261455	-2.2336689	0.99261455	-2.2336689	0.039534161	78.118451	
3.05780713497244	0.040387065	78.211203	0.99253644	-2.2828374	0.99253644	-2.2828374	0.040387065	78.211203	
3.12835779433535	0.04125885	78.299722	0.99245572	-2.3330805	0.99245572	-2.3330805	0.04125885	78.299722	
3.20053622004088	0.042149914	78.384039	0.9923723	-2.3844214	0.9923723	-2.3844214	0.042149914	78.384039	
3.27437996841083	0.043060665	78.464185	0.99228607	-2.4368837	0.99228607	-2.4368837	0.043060665	78.464185	
3.34992746227792	0.043991521	78.540189	0.99219692	-2.4904915	0.99219692	-2.4904915	0.043991521	78.540189	
3.42721801097819	0.044942904	78.612078	0.99210476	-2.5452694	0.99210476	-2.5452694	0.044942904	78.612078	
3.50629183080467	0.045915248	78.679879	0.99200945	-2.6012425	0.99200945	-2.6012425	0.045915248	78.679879	
3.58719006593298	0.046908995	78.743617	0.99191089	-2.6584363	0.99191089	-2.6584363	0.046908995	78.743617	
3.66995480982973	0.047924597	78.803316	0.99180896	-2.716877	0.99180896	-2.716877	0.047924597	78.803316	
3.75462912715481	0.048962512	78.858999	0.99170351	-2.7765912	0.99170351	-2.7765912	0.048962512	78.858999	
3.84125707616911	0.05002321	78.910685	0.99159442	-2.8376061	0.99159442	-2.8376061	0.05002321	78.910685	
3.92988373165914	0.05110717	78.958395	0.99148155	-2.8999494	0.99148155	-2.8999494	0.05110717	78.958395	
4.02055520839066	0.052214879	79.002147	0.99136477	-2.9636496	0.99136477	-2.9636496	0.052214879	79.002147	
4.11331868510335	0.053346835	79.041957	0.9912439	-3.0287353	0.9912439	-3.0287353	0.053346835	79.041957	
4.2082224290592	0.054503545	79.077842	0.99111881	-3.095236	0.99111881	-3.095236	0.054503545	79.077842	
4.30531582115719	0.055685526	79.109814	0.99098933	-3.1631819	0.99098933	-3.1631819	0.055685526	79.109814	
4.40464938162746	0.056893305	79.137887	0.99085529	-3.2326034	0.99085529	-3.2326034	0.056893305	79.137887	
4.50627479631831	0.058127421	79.162071	0.99071652	-3.3035319	0.99071652	-3.3035319	0.058127421	79.162071	
4.61024494358974	0.059388419	79.182377	0.99057283	-3.3759991	0.99057283	-3.3759991	0.059388419	79.182377	
4.71661392182737	0.06067686	79.198813	0.99042405	-3.4500375	0.99042405	-3.4500375	0.06067686	79.198813	
4.82543707759131	0.06199331	79.211385	0.99026996	-3.5256803	0.99026996	-3.5256803	0.06199331	79.211385	
4.93677103441437	0.063338349	79.2201	0.99011037	-3.602961	0.99011037	-3.602961	0.063338349	79.2201	
5.05067372226482	0.064712568	79.224961	0.98994507	-3.6819143	0.98994507	-3.6819143	0.064712568	79.224961	
5.16720440768881	0.066116567	79.225971	0.98977384	-3.7625749	0.98977384	-3.7625749	0.066116567	79.225971	
5.28642372464833	0.067550958	79.223131	0.98959645	-3.8449788	0.98959645	-3.8449788	0.067550958	79.223131	
5.40839370607066	0.069016365	79.216441	0.98941266	-3.9291623	0.98941266	-3.9291623	0.069016365	79.216441	
5.53317781612569	0.070513421	79.2059	0.98922223	-4.0151623	0.98922223	-4.0151623	0.070513421	79.2059	
5.66084098324803	0.072042772	79.191504	0.98902489	-4.1030168	0.98902489	-4.1030168	0.072042772	79.191504	
5.79144963392093	0.073605075	79.17325	0.98882039	-4.1927641	0.98882039	-4.1927641	0.073605075	79.17325	
5.92507172723973	0.075200999	79.151131	0.98860845	-4.2844435	0.98860845	-4.2844435	0.075200999	79.151131	
6.06177679027277	0.076831223	79.125141	0.98838878	-4.3780948	0.98838878	-4.3780948	0.076831223	79.125141	
6.20163595423811	0.078496439	79.09527	0.98816108	-4.4737586	0.98816108	-4.4737586	0.078496439	79.09527	
6.344721991515	0.08019735	79.061509	0.98792505	-4.5714764	0.98792505	-4.5714764	0.08019735	79.061509	
6.49110935350922	0.081934671	79.023846	0.98768036	-4.67129	0.98768036	-4.67129	0.081934671	79.023846	
6.64087420939211	0.083709128	78.982268	0.98742668	-4.7732425	0.98742668	-4.7732425	0.083709128	78.982268	
6.79409448573336	0.08552146	78.936763	0.98716366	-4.8773773	0.98716366	-4.8773773	0.08552146	78.936763	
6.95084990704828	0.087372416	78.887312	0.98689095	-4.9837387	0.98689095	-4.9837387	0.087372416	78.887312	
7.11122203728052	0.089262759	78.833901	0.98660817	-5.0923719	0.98660817	-5.0923719	0.089262759	78.833901	
7.27529432224191	0.091193261	78.776511	0.98631493	-5.2033227	0.98631493	-5.2033227	0.091193261	78.776511	
7.44315213303154	0.093164708	78.715121	0.98601083	-5.3166377	0.98601083	-5.3166377	0.093164708	78.715121	
7.61488281045653	0.095177895	78.649711	0.98569545	-5.4323643	0.98569545	-5.4323643	0.095177895	78.649711	
7.79057571047778	0.097233632	78.580259	0.98536837	-5.5505506	0.98536837	-5.5505506	0.097233632	78.580259	
7.97032225070416	0.099332736	78.50674	0.98502912	-5.6712456	0.98502912	-5.6712456	0.099332736	78.50674	
8.15421595795954	0.10147604	78.429131	0.98467725	-5.7944988	0.98467725	-5.7944988	0.10147604	78.429131	
8.34235251694718	0.10366438	78.347403	0.98431227	-5.9203608	0.98431227	-5.9203608	0.10366438	78.347403	
8.53482982003704	0.10589862	78.261531	0.98393368	-6.0488829	0.98393368	-6.0488829	0.10589862	78.261531	
8.7317480182017	0.10817961	78.171484	0.98354096	-6.1801169	0.98354096	-6.1801169	0.10817961	78.171484	
8.93320957312754	0.11050823	78.077232	0.98313357	-6.3141157	0.98313357	-6.3141157	0.11050823	78.077232	
9.13931931052825	0.11288536	77.978744	0.98271095	-6.4509328	0.98271095	-6.4509328	0.11288536	77.978744	
9.35018447468836	0.1153119	77.875987	0.98227252	-6.5906224	0.98227252	-6.5906224	0.1153119	77.875987	
9.56591478426526	0.11778874	77.768928	0.98181768	-6.7332395	0.98181768	-6.7332395	0.11778874	77.768928	
9.78662248937871	0.12031681	77.657529	0.98134581	-6.8788399	0.98134581	-6.8788399	0.12031681	77.657529	
10.0124224300175	0.12289702	77.541756	0.98085626	-7.02748	0.98085626	-7.02748	0.12289702	77.541756	
10.2434320957935	0.1255303	77.421571	0.98034837	-7.179217	0.98034837	-7.179217	0.1255303	77.421571	
10.4797716870752	0.12821759	77.296934	0.97982144	-7.3341087	0.97982144	-7.3341087	0.12821759	77.296934	
10.7215641775301	0.13095982	77.167806	0.97927476	-7.4922138	0.97927476	-7.4922138	0.13095982	77.167806	
10.9689353781121	0.13375796	77.034145	0.97870759	-7.6535913	0.97870759	-7.6535913	0.13375796	77.034145	
11.2220140025238	0.13661296	76.89591	0.97811916	-7.8183011	0.97811916	-7.8183011	0.13661296	76.89591	
11.4809317341893	0.13952578	76.753056	0.97750867	-7.9864037	0.97750867	-7.9864037	0.13952578	76.753056	
11.7458232947733	0.14249738	76.605541	0.97687531	-8.1579601	0.97687531	-8.1579601	0.14249738	76.605541	
12.0168265142794	0.14552874	76.453319	0.97621823	-8.3330319	0.97621823	-8.3330319	0.14552874	76.453319	
12.2940824027676	0.14862082	76.296343	0.97553655	-8.5116812	0.97553655	-8.5116812	0.14862082	76.296343	
12.5777352237245	0.15177461	76.134566	0.97482936	-8.6939707	0.97482936	-8.6939707	0.15177461	76.134566	
12.8679325691283	0.15499107	75.967941	0.97409573	-8.8799635	0.97409573	-8.8799635	0.15499107	75.967941	
13.1648254362442	0.15827119	75.796419	0.97333468	-9.069723	0.97333468	-9.069723	0.15827119	75.796419	
13.4685683061924	0.16161593	75.61995	0.97254523	-9.2633131	0.97254523	-9.2633131	0.16161593	75.61995	
13.7793192243286	0.16502626	75.438485	0.97172635	-9.4607981	0.97172635	-9.4607981	0.16502626	75.438485	
14.0972398824793	0.16850315	75.251971	0.97087696	-9.6622425	0.97087696	-9.6622425	0.16850315	75.251971	
14.4224957030741	0.17204757	75.060358	0.96999597	-9.8677109	0.96999597	-9.8677109	0.17204757	75.060358	
14.7552559252193	0.17566045	74.863594	0.96908225	-10.077268	0.96908225	-10.077268	0.17566045	74.863594	
15.0956936927576	0.17934276	74.661627	0.96813465	-10.29098	0.96813465	-10.29098	0.17934276	74.661627	
15.4439861443592	0.18309541	74.454403	0.96715195	-10.50891	0.96715195	-10.50891	0.18309541	74.454403	
15.8003145056919	0.18691935	74.241869	0.96613293	-10.731124	0.96613293	-10.731124	0.18691935	74.241869	
16.1648641837172	0.19081546	74.023972	0.96507632	-10.957687	0.96507632	-10.957687	0.19081546	74.023972	
16.5378248631629	0.19478465	73.800658	0.9639808	-11.188664	0.9639808	-11.188664	0.19478465	73.800658	
16.9193906052204	0.19882778	73.571874	0.96284505	-11.424119	0.96284505	-11.424119	0.19882778	73.571874	
17.3097599485202	0.20294572	73.337567	0.96166768	-11.664115	0.96166768	-11.664115	0.20294572	73.337567	
17.7091360124369	0.20713928	73.097682	0.96044727	-11.908718	0.96044727	-11.908718	0.20713928	73.097682	
18.1177266027771	0.21140928	72.852167	0.95918238	-12.157989	0.95918238	-12.157989	0.21140928	72.852167	
18.5357443199064	0.2157565	72.600969	0.95787152	-12.411991	0.95787152	-12.411991	0.2157565	72.600969	
18.9634066693709	0.22018167	72.344036	0.95651316	-12.670786	0.95651316	-12.670786	0.22018167	72.344036	
19.4009361750711	0.22468552	72.081315	0.95510574	-12.934434	0.95510574	-12.934434	0.22468552	72.081315	
19.8485604950468	0.22926872	71.812757	0.95364767	-13.202996	0.95364767	-13.202996	0.22926872	71.812757	
20.3065125399336	0.23393191	71.538311	0.95213732	-13.476528	0.95213732	-13.476528	0.23393191	71.538311	
20.7750305941524	0.23867569	71.257927	0.95057301	-13.75509	0.95057301	-13.75509	0.23867569	71.257927	
21.2543584398948	0.24350061	70.971558	0.94895305	-14.038736	0.94895305	-14.038736	0.24350061	70.971558	
21.7447454839696	0.24840716	70.679158	0.94727571	-14.32752	0.94727571	-14.32752	0.24840716	70.679158	
22.2464468875758	0.25339581	70.38068	0.94553922	-14.621496	0.94553922	-14.621496	0.25339581	70.38068	
22.7597236990692	0.25846694	70.076082	0.94374178	-14.920713	0.94374178	-14.920713	0.25846694	70.076082	
23.284842989793	0.26362089	69.765323	0.94188157	-15.22522	0.94188157	-15.22522	0.26362089	69.765323	
23.8220779930419	0.26885793	69.448361	0.93995673	-15.535064	0.93995673	-15.535064	0.26885793	69.448361	
24.3717082462328	0.27417826	69.12516	0.93796539	-15.850288	0.93796539	-15.850288	0.27417826	69.12516	
24.9340197363548	0.27958203	68.795684	0.93590565	-16.170932	0.93590565	-16.170932	0.27958203	68.795684	
25.5093050487764	0.28506929	68.459901	0.93377557	-16.497037	0.93377557	-16.497037	0.28506929	68.459901	
26.0978635194848	0.29064001	68.117781	0.93157321	-16.828636	0.93157321	-16.828636	0.29064001	68.117781	
26.7000013908386	0.29629411	67.769297	0.92929663	-17.165762	0.92929663	-17.165762	0.29629411	67.769297	
27.3160319709135	0.30203138	67.414425	0.92694383	-17.508444	0.92694383	-17.508444	0.30203138	67.414425	
27.9462757965247	0.30785156	67.053144	0.92451285	-17.856707	0.92451285	-17.856707	0.30785156	67.053144	
28.5910608000106	0.31375427	66.685439	0.92200168	-18.210572	0.92200168	-18.210572	0.31375427	66.685439	
29.2507224798647	0.31973903	66.311296	0.91940835	-18.570055	0.91940835	-18.570055	0.31973903	66.311296	
29.925604075304	0.32580526	65.930706	0.91673085	-18.935171	0.91673085	-18.935171	0.32580526	65.930706	
30.6160567448655	0.3319523	65.543665	0.91396721	-19.305928	0.91396721	-19.305928	0.3319523	65.543665	
31.3224397491232	0.33817934	65.150172	0.91111545	-19.682328	0.91111545	-19.682328	0.33817934	65.150172	
32.0451206376206	0.34448547	64.750232	0.90817361	-20.064371	0.90817361	-20.064371	0.34448547	64.750232	
32.7844754401164	0.35086968	64.343855	0.90513975	-20.45205	0.90513975	-20.45205	0.35086968	64.343855	
33.5408888622429	0.35733082	63.931055	0.90201195	-20.845353	0.90201195	-20.845353	0.35733082	63.931055	
34.3147544856778	0.36386761	63.511852	0.89878835	-21.244263	0.89878835	-21.244263	0.36386761	63.511852	
35.1064749729356	0.37047866	63.086273	0.8954671	-21.648755	0.8954671	-21.648755	0.37047866	63.086273	
35.9164622768832	0.37716245	62.654348	0.89204639	-22.058802	0.89204639	-22.058802	0.37716245	62.654348	
36.7451378550896	0.3839173	62.216116	0.88852448	-22.474366	0.88852448	-22.474366	0.3839173	62.216116	
37.5929328891217	0.39074144	61.77162	0.88489968	-22.895405	0.88489968	-22.895405	0.39074144	61.77162	
38.4602885088989	0.39763293	61.320911	0.88117036	-23.32187	0.88117036	-23.32187	0.39763293	61.320911	
39.3476560222247	0.4045897	60.864045	0.87733497	-23.753706	0.87733497	-23.753706	0.4045897	60.864045	
40.2554971496141	0.41160954	60.401087	0.87339202	-24.190849	0.87339202	-24.190849	0.41160954	60.401087	
41.1842842645387	0.41869012	59.932108	0.86934014	-24.633229	0.86934014	-24.633229	0.41869012	59.932108	
42.1345006392149	0.42582894	59.457185	0.86517802	-25.080769	0.86517802	-25.080769	0.42582894	59.457185	
43.1066406960633	0.43302338	58.976403	0.86090446	-25.533383	0.86090446	-25.533383	0.43302338	58.976403	
44.1012102649693	0.44027069	58.489855	0.85651839	-25.990979	0.85651839	-25.990979	0.44027069	58.489855	
45.1187268464798	0.44756795	57.997641	0.85201882	-26.453456	0.85201882	-26.453456	0.44756795	57.997641	
46.1597198810725	0.45491216	57.49987	0.84740491	-26.920705	0.84740491	-26.920705	0.45491216	57.49987	
47.224731024637	0.46230013	56.996655	0.84267594	-27.392612	0.84267594	-27.392612	0.46230013	56.996655	
48.3143144303131	0.46972858	56.48812	0.83783134	-27.86905	0.83783134	-27.86905	0.46972858	56.48812	
49.429037036831	0.4771941	55.974395	0.83287067	-28.349889	0.83287067	-28.349889	0.4771941	55.974395	
50.5694788635041	0.48469314	55.455619	0.82779366	-28.834989	0.82779366	-28.834989	0.48469314	55.455619	
51.7362333120285	0.49222207	54.931937	0.82260018	-29.3242	0.82260018	-29.3242	0.49222207	54.931937	
52.9299074752453	0.49977713	54.403504	0.81729027	-29.817368	0.81729027	-29.817368	0.49977713	54.403504	
54.1511224530271	0.50735445	53.870479	0.81186415	-30.314329	0.81186415	-30.314329	0.50735445	53.870479	
55.4005136754519	0.51495007	53.333031	0.8063222	-30.814912	0.8063222	-30.814912	0.51495007	53.333031	
56.6787312334347	0.52255997	52.791336	0.80066501	-31.318937	0.80066501	-31.318937	0.52255997	52.791336	
57.9864402169863	0.53018	52.245575	0.79489331	-31.826219	0.79489331	-31.826219	0.53018	52.245575	
59.3243210612774	0.537806	51.695939	0.78900805	-32.336563	0.78900805	-32.336563	0.537806	51.695939	
60.6930699006863	0.54543369	51.142624	0.78301037	-32.849771	0.78301037	-32.849771	0.54543369	51.142624	
62.0933989310164	0.55305878	50.58583	0.77690159	-33.365634	0.77690159	-33.365634	0.55305878	50.58583	
63.5260367800699	0.56067692	50.025768	0.77068324	-33.883939	0.77068324	-33.883939	0.56067692	50.025768	
64.9917288867719	0.56828373	49.462651	0.76435702	-34.404466	0.76435702	-34.404466	0.56828373	49.462651	
66.491237889042	0.57587482	48.896697	0.75792485	-34.926991	0.75792485	-34.926991	0.57587482	48.896697	
68.0253440206146	0.58344578	48.328133	0.75138883	-35.451282	0.75138883	-35.451282	0.58344578	48.328133	
69.594845517015	0.59099222	47.757186	0.74475126	-35.977103	0.74475126	-35.977103	0.59099222	47.757186	
71.2005590309019	0.59850975	47.184091	0.73801463	-36.504214	0.73801463	-36.504214	0.59850975	47.184091	
72.8433200569936	0.605994	46.609083	0.73118159	-37.032369	0.73118159	-37.032369	0.605994	46.609083	
74.5239833667973	0.61344067	46.032404	0.72425501	-37.56132	0.72425501	-37.56132	0.61344067	46.032404	
