# MHz S MA R 50

1 0.029 71.054 0.991 -1.602 0.991 -1.602 0.029 71.054 
1.047 0.031 71.597 0.991 -1.676 0.991 -1.676 0.031 71.597 
1.097 0.032 72.114 0.991 -1.752 0.991 -1.752 0.032 72.114 
1.149 0.033 72.606 0.991 -1.832 0.991 -1.832 0.033 72.606 
1.203 0.035 73.072 0.99 -1.916 0.99 -1.916 0.035 73.072 
1.26 0.036 73.513 0.99 -2.004 0.99 -2.004 0.036 73.513 
1.32 0.038 73.929 0.99 -2.096 0.99 -2.096 0.038 73.929 
1.383 0.039 74.322 0.99 -2.191 0.99 -2.191 0.039 74.322 
1.448 0.041 74.69 0.99 -2.291 0.99 -2.291 0.041 74.69 
1.517 0.043 75.036 0.99 -2.396 0.99 -2.396 0.043 75.036 
1.588 0.045 75.359 0.99 -2.506 0.99 -2.506 0.045 75.359 
1.664 0.047 75.659 0.989 -2.62 0.989 -2.62 0.047 75.659 
1.742 0.049 75.936 0.989 -2.74 0.989 -2.74 0.049 75.936 
1.825 0.051 76.192 0.989 -2.865 0.989 -2.865 0.051 76.192 
1.911 0.053 76.427 0.989 -2.995 0.989 -2.995 0.053 76.427 
2.002 0.056 76.64 0.989 -3.132 0.989 -3.132 0.056 76.64 
2.097 0.058 76.833 0.988 -3.275 0.988 -3.275 0.058 76.833 
2.196 0.061 77.004 0.988 -3.424 0.988 -3.424 0.061 77.004 
2.3 0.063 77.155 0.988 -3.58 0.988 -3.58 0.063 77.155 
2.409 0.066 77.286 0.988 -3.743 0.988 -3.743 0.066 77.286 
2.523 0.069 77.397 0.987 -3.914 0.987 -3.914 0.069 77.397 
2.643 0.072 77.487 0.987 -4.092 0.987 -4.092 0.072 77.487 
2.768 0.075 77.558 0.987 -4.278 0.987 -4.278 0.075 77.558 
2.899 0.079 77.609 0.986 -4.472 0.986 -4.472 0.079 77.609 
3.036 0.082 77.64 0.986 -4.675 0.986 -4.675 0.082 77.64 
3.18 0.086 77.651 0.985 -4.888 0.985 -4.888 0.086 77.651 
3.331 0.09 77.643 0.985 -5.109 0.985 -5.109 0.09 77.643 
3.488 0.094 77.615 0.984 -5.341 0.984 -5.341 0.094 77.615 
3.653 0.098 77.567 0.984 -5.583 0.984 -5.583 0.098 77.567 
3.826 0.102 77.499 0.983 -5.835 0.983 -5.835 0.102 77.499 
4.008 0.107 77.412 0.982 -6.099 0.982 -6.099 0.107 77.412 
4.198 0.112 77.304 0.982 -6.375 0.982 -6.375 0.112 77.304 
4.396 0.117 77.175 0.981 -6.662 0.981 -6.662 0.117 77.175 
4.605 0.122 77.026 0.98 -6.963 0.98 -6.963 0.122 77.026 
4.823 0.127 76.857 0.979 -7.276 0.979 -7.276 0.127 76.857 
5.051 0.133 76.666 0.978 -7.603 0.978 -7.603 0.133 76.666 
5.29 0.139 76.454 0.977 -7.944 0.977 -7.944 0.139 76.454 
5.541 0.145 76.221 0.976 -8.3 0.976 -8.3 0.145 76.221 
5.803 0.151 75.965 0.974 -8.671 0.974 -8.671 0.151 75.965 
6.078 0.158 75.687 0.973 -9.058 0.973 -9.058 0.158 75.687 
6.366 0.165 75.387 0.972 -9.462 0.972 -9.462 0.165 75.387 
6.667 0.172 75.064 0.97 -9.882 0.97 -9.882 0.172 75.064 
6.983 0.18 74.717 0.968 -10.32 0.968 -10.32 0.18 74.717 
7.314 0.188 74.346 0.966 -10.777 0.966 -10.777 0.188 74.346 
7.66 0.196 73.951 0.964 -11.252 0.964 -11.252 0.196 73.951 
8.023 0.204 73.531 0.962 -11.747 0.962 -11.747 0.204 73.531 
8.403 0.213 73.087 0.96 -12.262 0.96 -12.262 0.213 73.087 
8.801 0.222 72.616 0.957 -12.797 0.957 -12.797 0.222 72.616 
9.218 0.232 72.12 0.955 -13.354 0.955 -13.354 0.232 72.12 
9.655 0.242 71.597 0.952 -13.933 0.952 -13.933 0.242 71.597 
10.112 0.252 71.047 0.949 -14.534 0.949 -14.534 0.252 71.047 
10.591 0.262 70.47 0.945 -15.158 0.945 -15.158 0.262 70.47 
11.092 0.273 69.865 0.942 -15.806 0.942 -15.806 0.273 69.865 
11.618 0.284 69.232 0.938 -16.477 0.938 -16.477 0.284 69.232 
12.168 0.296 68.571 0.933 -17.173 0.933 -17.173 0.296 68.571 
12.744 0.308 67.881 0.929 -17.894 0.929 -17.894 0.308 67.881 
13.348 0.32 67.162 0.924 -18.64 0.924 -18.64 0.32 67.162 
13.98 0.333 66.414 0.919 -19.411 0.919 -19.411 0.333 66.414 
14.642 0.346 65.637 0.913 -20.207 0.913 -20.207 0.346 65.637 
15.335 0.36 64.831 0.907 -21.029 0.907 -21.029 0.36 64.831 
16.062 0.374 63.996 0.901 -21.876 0.901 -21.876 0.374 63.996 
16.822 0.388 63.132 0.894 -22.749 0.894 -22.749 0.388 63.132 
17.619 0.402 62.24 0.887 -23.648 0.887 -23.648 0.402 62.24 
18.454 0.417 61.32 0.88 -24.571 0.88 -24.571 0.417 61.32 
19.328 0.432 60.371 0.871 -25.518 0.871 -25.518 0.432 60.371 
20.243 0.447 59.396 0.863 -26.489 0.863 -26.489 0.447 59.396 
21.202 0.463 58.395 0.854 -27.484 0.854 -27.484 0.463 58.395 
22.206 0.478 57.369 0.844 -28.5 0.844 -28.5 0.478 57.369 
23.258 0.494 56.318 0.834 -29.537 0.834 -29.537 0.494 56.318 
24.359 0.51 55.245 0.824 -30.595 0.824 -30.595 0.51 55.245 
25.513 0.526 54.15 0.813 -31.671 0.813 -31.671 0.526 54.15 
26.721 0.543 53.036 0.801 -32.764 0.801 -32.764 0.543 53.036 
27.987 0.559 51.903 0.789 -33.872 0.789 -33.872 0.559 51.903 
29.312 0.575 50.753 0.777 -34.994 0.777 -34.994 0.575 50.753 
30.7 0.591 49.589 0.764 -36.128 0.764 -36.128 0.591 49.589 
32.154 0.607 48.413 0.75 -37.271 0.75 -37.271 0.607 48.413 
33.677 0.623 47.226 0.736 -38.422 0.736 -38.422 0.623 47.226 
35.272 0.639 46.032 0.722 -39.578 0.722 -39.578 0.639 46.032 
36.943 0.655 44.831 0.707 -40.738 0.707 -40.738 0.655 44.831 
38.693 0.67 43.627 0.692 -41.898 0.692 -41.898 0.67 43.627 
40.525 0.685 42.421 0.677 -43.056 0.677 -43.056 0.685 42.421 
42.444 0.7 41.217 0.661 -44.211 0.661 -44.211 0.7 41.217 
44.455 0.714 40.016 0.645 -45.359 0.645 -45.359 0.714 40.016 
46.56 0.728 38.822 0.629 -46.499 0.629 -46.499 0.728 38.822 
48.765 0.741 37.634 0.613 -47.629 0.613 -47.629 0.741 37.634 
51.075 0.754 36.458 0.596 -48.745 0.596 -48.745 0.754 36.458 
53.494 0.767 35.293 0.58 -49.846 0.58 -49.846 0.767 35.293 
56.027 0.779 34.142 0.563 -50.931 0.563 -50.931 0.779 34.142 
58.681 0.791 33.007 0.547 -51.997 0.547 -51.997 0.791 33.007 
61.46 0.802 31.889 0.53 -53.043 0.53 -53.043 0.802 31.889 
64.371 0.813 30.791 0.514 -54.066 0.514 -54.066 0.813 30.791 
67.42 0.823 29.712 0.498 -55.067 0.498 -55.067 0.823 29.712 
70.613 0.833 28.656 0.482 -56.043 0.482 -56.043 0.833 28.656 
73.957 0.842 27.622 0.466 -56.993 0.466 -56.993 0.842 27.622 
77.46 0.851 26.611 0.45 -57.917 0.45 -57.917 0.851 26.611 
81.128 0.86 25.624 0.435 -58.813 0.435 -58.813 0.86 25.624 
84.971 0.867 24.663 0.419 -59.682 0.419 -59.682 0.867 24.663 
88.995 0.875 23.726 0.404 -60.521 0.404 -60.521 0.875 23.726 
93.21 0.882 22.816 0.39 -61.332 0.39 -61.332 0.882 22.816 
97.624 0.889 21.931 0.376 -62.113 0.376 -62.113 0.889 21.931 
102.248 0.895 21.072 0.362 -62.865 0.362 -62.865 0.895 21.072 
107.091 0.901 20.239 0.348 -63.587 0.348 -63.587 0.901 20.239 
112.163 0.906 19.432 0.335 -64.279 0.335 -64.279 0.906 19.432 
117.475 0.912 18.65 0.322 -64.941 0.322 -64.941 0.912 18.65 
123.039 0.916 17.894 0.309 -65.574 0.309 -65.574 0.916 17.894 
128.866 0.921 17.163 0.297 -66.177 0.297 -66.177 0.921 17.163 
134.969 0.925 16.457 0.285 -66.751 0.285 -66.751 0.925 16.457 
141.361 0.929 15.775 0.274 -67.296 0.274 -67.296 0.929 15.775 
148.056 0.933 15.117 0.263 -67.812 0.263 -67.812 0.933 15.117 
155.069 0.937 14.482 0.252 -68.299 0.252 -68.299 0.937 14.482 
162.413 0.94 13.869 0.242 -68.758 0.242 -68.758 0.94 13.869 
170.105 0.943 13.279 0.232 -69.188 0.232 -69.188 0.943 13.279 
178.161 0.946 12.71 0.222 -69.59 0.222 -69.59 0.946 12.71 
186.599 0.948 12.162 0.213 -69.965 0.213 -69.965 0.948 12.162 
195.437 0.951 11.634 0.204 -70.311 0.204 -70.311 0.951 11.634 
204.693 0.953 11.126 0.195 -70.63 0.195 -70.63 0.953 11.126 
214.388 0.955 10.637 0.187 -70.92 0.187 -70.92 0.955 10.637 
224.541 0.957 10.166 0.179 -71.183 0.179 -71.183 0.957 10.166 
235.176 0.959 9.712 0.171 -71.417 0.171 -71.417 0.959 9.712 
246.314 0.961 9.276 0.163 -71.622 0.163 -71.622 0.961 9.276 
257.98 0.963 8.856 0.156 -71.799 0.156 -71.799 0.963 8.856 
270.198 0.964 8.452 0.149 -71.945 0.149 -71.945 0.964 8.452 
282.995 0.966 8.064 0.142 -72.061 0.142 -72.061 0.966 8.064 
296.398 0.967 7.69 0.136 -72.145 0.136 -72.145 0.967 7.69 
310.436 0.968 7.33 0.13 -72.196 0.13 -72.196 0.968 7.33 
325.139 0.969 6.983 0.124 -72.212 0.124 -72.212 0.969 6.983 
340.538 0.97 6.65 0.118 -72.192 0.118 -72.192 0.97 6.65 
356.666 0.971 6.329 0.113 -72.133 0.113 -72.133 0.971 6.329 
373.558 0.972 6.019 0.107 -72.034 0.107 -72.034 0.972 6.019 
391.25 0.973 5.722 0.102 -71.89 0.102 -71.89 0.973 5.722 
409.781 0.974 5.435 0.097 -71.699 0.097 -71.699 0.974 5.435 
429.188 0.975 5.159 0.092 -71.457 0.092 -71.457 0.975 5.159 
449.515 0.975 4.894 0.088 -71.159 0.088 -71.159 0.975 4.894 
470.805 0.976 4.638 0.084 -70.801 0.084 -70.801 0.976 4.638 
493.103 0.976 4.391 0.079 -70.376 0.079 -70.376 0.976 4.391 
516.457 0.977 4.153 0.075 -69.877 0.075 -69.877 0.977 4.153 
540.917 0.977 3.924 0.071 -69.299 0.071 -69.299 0.977 3.924 
566.536 0.977 3.704 0.068 -68.632 0.068 -68.632 0.977 3.704 
593.368 0.978 3.492 0.064 -67.867 0.064 -67.867 0.978 3.492 
621.47 0.978 3.287 0.061 -66.995 0.061 -66.995 0.978 3.287 
650.904 0.978 3.09 0.058 -66.005 0.058 -66.005 0.978 3.09 
681.732 0.978 2.901 0.055 -64.885 0.055 -64.885 0.978 2.901 
714.019 0.978 2.719 0.052 -63.625 0.052 -63.625 0.978 2.719 
747.836 0.978 2.544 0.049 -62.211 0.049 -62.211 0.978 2.544 
783.255 0.978 2.375 0.047 -60.633 0.047 -60.633 0.978 2.375 
820.351 0.978 2.214 0.044 -58.88 0.044 -58.88 0.978 2.214 
859.204 0.978 2.059 0.042 -56.944 0.042 -56.944 0.978 2.059 
899.897 0.978 1.911 0.04 -54.819 0.04 -54.819 0.978 1.911 
942.517 0.977 1.769 0.038 -52.505 0.038 -52.505 0.977 1.769 
987.156 0.977 1.634 0.036 -50.005 0.036 -50.005 0.977 1.634 
1033.909 0.977 1.504 0.035 -47.332 0.035 -47.332 0.977 1.504 
1082.877 0.976 1.382 0.034 -44.506 0.034 -44.506 0.976 1.382 
1134.163 0.976 1.265 0.032 -41.553 0.032 -41.553 0.976 1.265 
1187.879 0.975 1.155 0.032 -38.509 0.032 -38.509 0.975 1.155 
1244.138 0.975 1.051 0.031 -35.417 0.031 -35.417 0.975 1.051 
1303.062 0.975 0.952 0.03 -32.319 0.03 -32.319 0.975 0.952 
1364.777 0.974 0.86 0.03 -29.264 0.03 -29.264 0.974 0.86 
1429.415 0.973 0.774 0.03 -26.293 0.03 -26.293 0.973 0.774 
1497.114 0.973 0.693 0.03 -23.446 0.03 -23.446 0.973 0.693 
1568.019 0.972 0.618 0.03 -20.752 0.03 -20.752 0.972 0.618 
1642.283 0.972 0.548 0.03 -18.235 0.03 -18.235 0.972 0.548 
1720.063 0.971 0.484 0.03 -15.91 0.03 -15.91 0.971 0.484 
1801.528 0.971 0.425 0.03 -13.783 0.03 -13.783 0.971 0.425 
1886.851 0.97 0.371 0.031 -11.855 0.031 -11.855 0.97 0.371 
1976.214 0.97 0.321 0.031 -10.12 0.031 -10.12 0.97 0.321 
2069.811 0.969 0.276 0.031 -8.571 0.031 -8.571 0.969 0.276 
2167.84 0.969 0.235 0.032 -7.195 0.032 -7.195 0.969 0.235 
2270.512 0.968 0.199 0.032 -5.982 0.032 -5.982 0.968 0.199 
2378.046 0.968 0.166 0.033 -4.916 0.033 -4.916 0.968 0.166 
2490.674 0.967 0.136 0.033 -3.984 0.033 -3.984 0.967 0.136 
2608.635 0.967 0.11 0.033 -3.174 0.033 -3.174 0.967 0.11 
2732.184 0.966 0.087 0.034 -2.473 0.034 -2.473 0.966 0.087 
2861.584 0.966 0.066 0.034 -1.868 0.034 -1.868 0.966 0.066 
2997.112 0.965 0.048 0.035 -1.349 0.035 -1.349 0.965 0.048 
3139.06 0.965 0.033 0.035 -0.906 0.035 -0.906 0.965 0.033 
3287.73 0.965 0.019 0.035 -0.53 0.035 -0.53 0.965 0.019 
3443.441 0.964 7.855e-3 0.036 -0.213 0.036 -0.213 0.964 7.855e-3 
3606.527 0.964 -1.991e-3 0.036 0.053 0.036 0.053 0.964 -1.991e-3 
3777.337 0.964 -0.01 0.036 0.275 0.036 0.275 0.964 -0.01 
3956.237 0.964 -0.017 0.036 0.457 0.036 0.457 0.964 -0.017 
4143.61 0.963 -0.023 0.037 0.606 0.037 0.606 0.963 -0.023 
4339.857 0.963 -0.028 0.037 0.726 0.037 0.726 0.963 -0.028 
4545.398 0.963 -0.031 0.037 0.82 0.037 0.82 0.963 -0.031 
4760.675 0.963 -0.034 0.037 0.893 0.037 0.893 0.963 -0.034 
4986.147 0.963 -0.037 0.037 0.947 0.037 0.947 0.963 -0.037 
5222.297 0.963 -0.038 0.037 0.985 0.037 0.985 0.963 -0.038 
5469.633 0.962 -0.039 0.038 1.01 0.038 1.01 0.962 -0.039 
5728.682 0.962 -0.04 0.038 1.024 0.038 1.024 0.962 -0.04 
6000 0.962 -0.04 0.038 1.028 0.038 1.028 0.962 -0.04 
