# MHz S MA R 50

1	0.023068442	71.654135	0.99298059	-1.263517	0.99298059	-1.263517	0.023068442	71.654135	
1.02307230516798	0.023545116	71.929267	0.99294885	-1.2917103	0.99294885	-1.2917103	0.023545116	71.929267	
1.04667694160172	0.024033045	72.198058	0.99291614	-1.3205309	0.99291614	-1.3205309	0.024033045	72.198058	
1.07082619141064	0.024532468	72.460562	0.99288243	-1.3499925	0.99288243	-1.3499925	0.024532468	72.460562	
1.09553262008073	0.025043628	72.716834	0.99284769	-1.3801095	0.99284769	-1.3801095	0.025043628	72.716834	
1.12080908301271	0.025566772	72.966929	0.99281188	-1.4108962	0.99281188	-1.4108962	0.025566772	72.966929	
1.14666873221102	0.026102155	73.210902	0.99277496	-1.4423674	0.99277496	-1.4423674	0.026102155	73.210902	
1.17312502312717	0.026650036	73.448809	0.99273689	-1.4745383	0.99273689	-1.4745383	0.026650036	73.448809	
1.20019172166096	0.027210681	73.680708	0.99269762	-1.5074243	0.99269762	-1.5074243	0.027210681	73.680708	
1.2278829113232	0.027784361	73.906655	0.99265712	-1.5410413	0.99265712	-1.5410413	0.027784361	73.906655	
1.2562130005638	0.028371352	74.126706	0.99261533	-1.5754053	0.99261533	-1.5754053	0.028371352	74.126706	
1.28519673026879	0.028971937	74.340918	0.9925722	-1.6105327	0.9925722	-1.6105327	0.028971937	74.340918	
1.31484918143044	0.029586406	74.549348	0.9925277	-1.6464406	0.9925277	-1.6464406	0.029586406	74.549348	
1.34518578299426	0.030215053	74.752053	0.99248175	-1.6831459	0.99248175	-1.6831459	0.030215053	74.752053	
1.37622231988713	0.030858182	74.949087	0.99243433	-1.7206663	0.99243433	-1.7206663	0.030858182	74.949087	
1.40797494123055	0.0315161	75.140506	0.99238535	-1.7590198	0.99238535	-1.7590198	0.0315161	75.140506	
1.44046016874349	0.032189123	75.326366	0.99233478	-1.7982247	0.99233478	-1.7982247	0.032189123	75.326366	
1.47369490533906	0.032877573	75.506721	0.99228253	-1.8382997	0.99228253	-1.8382997	0.032877573	75.506721	
1.50769644391954	0.033581778	75.681624	0.99222857	-1.8792639	0.99222857	-1.8792639	0.033581778	75.681624	
1.54248247637433	0.034302075	75.851129	0.99217281	-1.9211368	0.99217281	-1.9211368	0.034302075	75.851129	
1.57807110278549	0.035038807	76.015287	0.99211519	-1.9639385	0.99211519	-1.9639385	0.035038807	76.015287	
1.61448084084573	0.035792326	76.174149	0.99205564	-2.0076893	0.99205564	-2.0076893	0.035792326	76.174149	
1.65173063549358	0.036562988	76.327766	0.99199408	-2.05241	0.99199408	-2.05241	0.036562988	76.327766	
1.68983986877098	0.037351161	76.476187	0.99193045	-2.098122	0.99193045	-2.098122	0.037351161	76.476187	
1.72882836990828	0.038157218	76.619461	0.99186465	-2.1448468	0.99186465	-2.1448468	0.038157218	76.619461	
1.76871642564187	0.038981541	76.757633	0.9917966	-2.1926067	0.9917966	-2.1926067	0.038981541	76.757633	
1.80952479076989	0.03982452	76.89075	0.99172623	-2.2414243	0.99172623	-2.2414243	0.03982452	76.89075	
1.85127469895156	0.040686553	77.018856	0.99165343	-2.2913228	0.99165343	-2.2913228	0.040686553	77.018856	
1.89398787375553	0.041568046	77.141996	0.99157812	-2.3423258	0.99157812	-2.3423258	0.041568046	77.141996	
1.93768653996327	0.042469416	77.260211	0.99150019	-2.3944574	0.99150019	-2.3944574	0.042469416	77.260211	
1.98239343513318	0.043391084	77.373542	0.99141956	-2.4477422	0.99141956	-2.4477422	0.043391084	77.373542	
2.02813182143157	0.044333485	77.482029	0.9913361	-2.5022053	0.9913361	-2.5022053	0.044333485	77.482029	
2.07492549773653	0.04529706	77.58571	0.99124972	-2.5578724	0.99124972	-2.5578724	0.04529706	77.58571	
2.12279881202113	0.046282261	77.684621	0.99116029	-2.6147697	0.99116029	-2.6147697	0.046282261	77.684621	
2.1717766740223	0.047289546	77.778798	0.9910677	-2.672924	0.9910677	-2.672924	0.047289546	77.778798	
2.22188456820204	0.048319386	77.868276	0.99097183	-2.7323626	0.99097183	-2.7323626	0.048319386	77.868276	
2.27314856700762	0.049372261	77.953085	0.99087254	-2.7931132	0.99087254	-2.7931132	0.049372261	77.953085	
2.32559534443778	0.05044866	78.033259	0.99076971	-2.8552044	0.99076971	-2.8552044	0.05044866	78.033259	
2.37925218992187	0.051549081	78.108825	0.9906632	-2.9186652	0.9906632	-2.9186652	0.051549081	78.108825	
2.43414702251933	0.052674035	78.179813	0.99055286	-2.9835252	0.99055286	-2.9835252	0.052674035	78.179813	
2.49030840544663	0.05382404	78.246249	0.99043853	-3.0498147	0.99043853	-3.0498147	0.05382404	78.246249	
2.54776556093947	0.054999626	78.308157	0.99032007	-3.1175644	0.99032007	-3.1175644	0.054999626	78.308157	
2.60654838545793	0.056201335	78.365561	0.99019731	-3.1868058	0.99019731	-3.1868058	0.056201335	78.365561	
2.66668746524232	0.057429716	78.418484	0.99007009	-3.2575711	0.99007009	-3.2575711	0.057429716	78.418484	
2.72821409222802	0.058685334	78.466945	0.98993822	-3.3298931	0.98993822	-3.3298931	0.058685334	78.466945	
2.79116028032748	0.059968759	78.510963	0.98980152	-3.403805	0.98980152	-3.403805	0.059968759	78.510963	
2.85555878208794	0.061280577	78.550555	0.9896598	-3.479341	0.9896598	-3.479341	0.061280577	78.550555	
2.92144310573337	0.062621384	78.585738	0.98951287	-3.5565359	0.98951287	-3.5565359	0.062621384	78.585738	
2.98884753259974	0.063991786	78.616525	0.98936052	-3.6354251	0.98936052	-3.6354251	0.063991786	78.616525	
3.05780713497244	0.065392401	78.642928	0.98920253	-3.7160447	0.98920253	-3.7160447	0.065392401	78.642928	
3.12835779433535	0.066823861	78.664959	0.98903869	-3.7984316	0.98903869	-3.7984316	0.066823861	78.664959	
3.20053622004088	0.068286806	78.682627	0.98886875	-3.8826233	0.98886875	-3.8826233	0.068286806	78.682627	
3.27437996841083	0.069781891	78.695938	0.98869248	-3.9686582	0.98869248	-3.9686582	0.069781891	78.695938	
3.34992746227792	0.071309783	78.704901	0.98850963	-4.0565752	0.98850963	-4.0565752	0.071309783	78.704901	
3.42721801097819	0.072871158	78.709518	0.98831994	-4.1464142	0.98831994	-4.1464142	0.072871158	78.709518	
3.50629183080467	0.074466708	78.709792	0.98812313	-4.2382157	0.98812313	-4.2382157	0.074466708	78.709792	
3.58719006593298	0.076097135	78.705726	0.98791893	-4.3320209	0.98791893	-4.3320209	0.076097135	78.705726	
3.66995480982973	0.077763154	78.697318	0.98770704	-4.4278719	0.98770704	-4.4278719	0.077763154	78.697318	
3.75462912715481	0.079465494	78.684567	0.98748715	-4.5258117	0.98748715	-4.5258117	0.079465494	78.684567	
3.84125707616911	0.081204893	78.667469	0.98725895	-4.6258837	0.98725895	-4.6258837	0.081204893	78.667469	
3.92988373165914	0.082982105	78.646018	0.98702212	-4.7281325	0.98702212	-4.7281325	0.082982105	78.646018	
4.02055520839066	0.084797895	78.620209	0.9867763	-4.8326032	0.9867763	-4.8326032	0.084797895	78.620209	
4.11331868510335	0.086653041	78.590032	0.98652115	-4.939342	0.98652115	-4.939342	0.086653041	78.590032	
4.2082224290592	0.088548334	78.555478	0.98625629	-5.0483956	0.98625629	-5.0483956	0.088548334	78.555478	
4.30531582115719	0.090484576	78.516535	0.98598133	-5.1598118	0.98598133	-5.1598118	0.090484576	78.516535	
4.40464938162746	0.092462584	78.47319	0.98569589	-5.2736391	0.98569589	-5.2736391	0.092462584	78.47319	
4.50627479631831	0.094483186	78.425429	0.98539955	-5.3899268	0.98539955	-5.3899268	0.094483186	78.425429	
4.61024494358974	0.096547223	78.373234	0.98509186	-5.5087251	0.98509186	-5.5087251	0.096547223	78.373234	
4.71661392182737	0.098655548	78.316589	0.9847724	-5.630085	0.9847724	-5.630085	0.098655548	78.316589	
4.82543707759131	0.10080903	78.255474	0.98444069	-5.7540583	0.98444069	-5.7540583	0.10080903	78.255474	
4.93677103441437	0.10300854	78.189867	0.98409624	-5.8806977	0.98409624	-5.8806977	0.10300854	78.189867	
5.05067372226482	0.10525497	78.119748	0.98373857	-6.0100568	0.98373857	-6.0100568	0.10525497	78.119748	
5.16720440768881	0.10754922	78.045091	0.98336715	-6.1421899	0.98336715	-6.1421899	0.10754922	78.045091	
5.28642372464833	0.1098922	77.965871	0.98298143	-6.2771522	0.98298143	-6.2771522	0.1098922	77.965871	
5.40839370607066	0.11228485	77.882062	0.98258087	-6.4149998	0.98258087	-6.4149998	0.11228485	77.882062	
5.53317781612569	0.11472809	77.793634	0.98216487	-6.5557894	0.98216487	-6.5557894	0.11472809	77.793634	
5.66084098324803	0.11722287	77.700558	0.98173284	-6.6995789	0.98173284	-6.6995789	0.11722287	77.700558	
5.79144963392093	0.11977014	77.602804	0.98128414	-6.8464266	0.98128414	-6.8464266	0.11977014	77.602804	
5.92507172723973	0.12237088	77.500337	0.98081814	-6.9963919	0.98081814	-6.9963919	0.12237088	77.500337	
6.06177679027277	0.12502605	77.393124	0.98033415	-7.1495348	0.98033415	-7.1495348	0.12502605	77.393124	
6.20163595423811	0.12773665	77.28113	0.97983148	-7.3059162	0.97983148	-7.3059162	0.12773665	77.28113	
6.344721991515	0.13050366	77.164317	0.97930941	-7.4655977	0.97930941	-7.4655977	0.13050366	77.164317	
6.49110935350922	0.13332808	77.042648	0.97876719	-7.6286417	0.97876719	-7.6286417	0.13332808	77.042648	
6.64087420939211	0.13621093	76.916082	0.97820403	-7.7951113	0.97820403	-7.7951113	0.13621093	76.916082	
6.79409448573336	0.1391532	76.784581	0.97761914	-7.9650703	0.97761914	-7.9650703	0.1391532	76.784581	
6.95084990704828	0.14215594	76.648101	0.97701169	-8.138583	0.97701169	-8.138583	0.14215594	76.648101	
7.11122203728052	0.14522015	76.506599	0.97638081	-8.3157147	0.97638081	-8.3157147	0.14522015	76.506599	
7.27529432224191	0.14834687	76.360031	0.9757256	-8.496531	0.9757256	-8.496531	0.14834687	76.360031	
7.44315213303154	0.15153712	76.208353	0.97504516	-8.6810984	0.97504516	-8.6810984	0.15153712	76.208353	
7.61488281045653	0.15479194	76.051517	0.97433852	-8.8694836	0.97433852	-8.8694836	0.15479194	76.051517	
7.79057571047778	0.15811237	75.889476	0.97360469	-9.061754	0.97360469	-9.061754	0.15811237	75.889476	
7.97032225070416	0.16149942	75.722182	0.97284266	-9.2579774	0.97284266	-9.2579774	0.16149942	75.722182	
8.15421595795954	0.16495414	75.549585	0.97205138	-9.4582222	0.97205138	-9.4582222	0.16495414	75.549585	
8.34235251694718	0.16847756	75.371636	0.97122975	-9.6625569	0.97122975	-9.6625569	0.16847756	75.371636	
8.53482982003704	0.17207068	75.188284	0.97037665	-9.8710505	0.97037665	-9.8710505	0.17207068	75.188284	
8.7317480182017	0.17573453	74.999477	0.96949092	-10.083772	0.96949092	-10.083772	0.17573453	74.999477	
8.93320957312754	0.17947012	74.805162	0.96857136	-10.300791	0.96857136	-10.300791	0.17947012	74.805162	
9.13931931052825	0.18327844	74.605288	0.96761675	-10.522177	0.96761675	-10.522177	0.18327844	74.605288	
9.35018447468836	0.18716047	74.399801	0.96662582	-10.747999	0.96662582	-10.747999	0.18716047	74.399801	
9.56591478426526	0.1911172	74.188647	0.96559724	-10.978328	0.96559724	-10.978328	0.1911172	74.188647	
9.78662248937871	0.19514957	73.971773	0.96452968	-11.213231	0.96452968	-11.213231	0.19514957	73.971773	
10.0124224300175	0.19925852	73.749123	0.96342175	-11.452779	0.96342175	-11.452779	0.19925852	73.749123	
10.2434320957935	0.20344498	73.520645	0.96227203	-11.69704	0.96227203	-11.69704	0.20344498	73.520645	
10.4797716870752	0.20770982	73.286284	0.96107904	-11.946083	0.96107904	-11.946083	0.20770982	73.286284	
10.7215641775301	0.21205392	73.045986	0.95984128	-12.199976	0.95984128	-12.199976	0.21205392	73.045986	
10.9689353781121	0.21647812	72.799697	0.95855722	-12.458785	0.95855722	-12.458785	0.21647812	72.799697	
11.2220140025238	0.22098323	72.547363	0.95722526	-12.722578	0.95722526	-12.722578	0.22098323	72.547363	
11.4809317341893	0.22557001	72.288932	0.95584378	-12.991421	0.95584378	-12.991421	0.22557001	72.288932	
11.7458232947733	0.23023921	72.024352	0.95441112	-13.265377	0.95441112	-13.265377	0.23023921	72.024352	
12.0168265142794	0.23499152	71.75357	0.95292558	-13.544511	0.95292558	-13.544511	0.23499152	71.75357	
12.2940824027676	0.23982758	71.476537	0.95138541	-13.828884	0.95138541	-13.828884	0.23982758	71.476537	
12.5777352237245	0.24474801	71.193203	0.94978884	-14.118558	0.94978884	-14.118558	0.24474801	71.193203	
12.8679325691283	0.24975336	70.903519	0.94813406	-14.413591	0.94813406	-14.413591	0.24975336	70.903519	
13.1648254362442	0.25484411	70.60744	0.94641922	-14.714041	0.94641922	-14.714041	0.25484411	70.60744	
13.4685683061924	0.26002071	70.304919	0.94464242	-15.019964	0.94464242	-15.019964	0.26002071	70.304919	
13.7793192243286	0.26528353	69.995914	0.94280177	-15.331412	0.94280177	-15.331412	0.26528353	69.995914	
14.0972398824793	0.27063288	69.680384	0.94089531	-15.648437	0.94089531	-15.648437	0.27063288	69.680384	
14.4224957030741	0.276069	69.358289	0.93892105	-15.971087	0.93892105	-15.971087	0.276069	69.358289	
14.7552559252193	0.28159204	69.029592	0.93687701	-16.299408	0.93687701	-16.299408	0.28159204	69.029592	
15.0956936927576	0.28720208	68.69426	0.93476115	-16.633443	0.93476115	-16.633443	0.28720208	68.69426	
15.4439861443592	0.29289913	68.352262	0.93257142	-16.973231	0.93257142	-16.973231	0.29289913	68.352262	
15.8003145056919	0.29868309	68.003569	0.93030575	-17.318808	0.93030575	-17.318808	0.29868309	68.003569	
16.1648641837172	0.30455377	67.648157	0.92796205	-17.670208	0.92796205	-17.670208	0.30455377	67.648157	
16.5378248631629	0.3105109	67.286005	0.92553823	-18.027458	0.92553823	-18.027458	0.3105109	67.286005	
16.9193906052204	0.31655407	66.917095	0.92303219	-18.390584	0.92303219	-18.390584	0.31655407	66.917095	
17.3097599485202	0.32268282	66.541414	0.9204418	-18.759607	0.9204418	-18.759607	0.32268282	66.541414	
17.7091360124369	0.32889652	66.158953	0.91776496	-19.134541	0.91776496	-19.134541	0.32889652	66.158953	
18.1177266027771	0.33519446	65.769707	0.91499957	-19.515398	0.91499957	-19.515398	0.33519446	65.769707	
18.5357443199064	0.3415758	65.373677	0.91214352	-19.902184	0.91214352	-19.902184	0.3415758	65.373677	
18.9634066693709	0.34803959	64.970868	0.90919473	-20.2949	0.90919473	-20.2949	0.34803959	64.970868	
19.4009361750711	0.35458473	64.561291	0.90615115	-20.693541	0.90615115	-20.693541	0.35458473	64.561291	
19.8485604950468	0.36121	64.144962	0.90301073	-21.098095	0.90301073	-21.098095	0.36121	64.144962	
20.3065125399336	0.36791404	63.721902	0.89977148	-21.508547	0.89977148	-21.508547	0.36791404	63.721902	
20.7750305941524	0.37469536	63.292141	0.89643143	-21.924873	0.89643143	-21.924873	0.37469536	63.292141	
21.2543584398948	0.38155232	62.855713	0.89298866	-22.347044	0.89298866	-22.347044	0.38155232	62.855713	
21.7447454839696	0.38848314	62.412658	0.88944133	-22.775023	0.88944133	-22.775023	0.38848314	62.412658	
22.2464468875758	0.3954859	61.963024	0.88578762	-23.208766	0.88578762	-23.208766	0.3954859	61.963024	
22.7597236990692	0.40255852	61.506866	0.8820258	-23.648224	0.8820258	-23.648224	0.40255852	61.506866	
23.284842989793	0.40969877	61.044247	0.87815422	-24.093338	0.87815422	-24.093338	0.40969877	61.044247	
23.8220779930419	0.41690428	60.575234	0.8741713	-24.544042	0.8741713	-24.544042	0.41690428	60.575234	
24.3717082462328	0.42417253	60.099906	0.87007558	-25.000262	0.87007558	-25.000262	0.42417253	60.099906	
24.9340197363548	0.43150082	59.618347	0.86586567	-25.461918	0.86586567	-25.461918	0.43150082	59.618347	
25.5093050487764	0.43888633	59.130649	0.86154031	-25.928919	0.86154031	-25.928919	0.43888633	59.130649	
26.0978635194848	0.44632608	58.636914	0.85709835	-26.401168	0.85709835	-26.401168	0.44632608	58.636914	
26.7000013908386	0.45381694	58.13725	0.85253876	-26.878557	0.85253876	-26.878557	0.45381694	58.13725	
27.3160319709135	0.46135565	57.631774	0.84786067	-27.360974	0.84786067	-27.360974	0.46135565	57.631774	
27.9462757965247	0.46893877	57.120611	0.84306332	-27.848293	0.84306332	-27.848293	0.46893877	57.120611	
28.5910608000106	0.47656276	56.603896	0.83814613	-28.340384	0.83814613	-28.340384	0.47656276	56.603896	
29.2507224798647	0.48422394	56.081771	0.83310866	-28.837105	0.83310866	-28.837105	0.48422394	56.081771	
29.925604075304	0.49191847	55.554385	0.82795064	-29.338309	0.82795064	-29.338309	0.49191847	55.554385	
30.6160567448655	0.49964243	55.021898	0.82267199	-29.843836	0.82267199	-29.843836	0.49964243	55.021898	
31.3224397491232	0.50739175	54.484478	0.81727279	-30.353521	0.81727279	-30.353521	0.50739175	54.484478	
32.0451206376206	0.51516227	53.942298	0.81175331	-30.86719	0.81175331	-30.86719	0.51516227	53.942298	
32.7844754401164	0.52294974	53.395543	0.80611403	-31.384659	0.80611403	-31.384659	0.52294974	53.395543	
33.5408888622429	0.53074978	52.844403	0.8003556	-31.905739	0.8003556	-31.905739	0.53074978	52.844403	
34.3147544856778	0.53855797	52.289078	0.79447889	-32.43023	0.79447889	-32.43023	0.53855797	52.289078	
35.1064749729356	0.54636979	51.729772	0.78848498	-32.957927	0.78848498	-32.957927	0.54636979	51.729772	
35.9164622768832	0.55418067	51.166701	0.78237515	-33.488616	0.78237515	-33.488616	0.55418067	51.166701	
36.7451378550896	0.56198599	50.600083	0.77615089	-34.022076	0.77615089	-34.022076	0.56198599	50.600083	
37.5929328891217	0.56978109	50.030146	0.7698139	-34.55808	0.7698139	-34.55808	0.56978109	50.030146	
38.4602885088989	0.57756129	49.457122	0.76336611	-35.096394	0.76336611	-35.096394	0.57756129	49.457122	
39.3476560222247	0.58532188	48.88125	0.75680964	-35.636779	0.75680964	-35.636779	0.58532188	48.88125	
40.2554971496141	0.59305816	48.302773	0.75014683	-36.17899	0.75014683	-36.17899	0.59305816	48.302773	
41.1842842645387	0.60076545	47.72194	0.74338023	-36.722775	0.74338023	-36.722775	0.60076545	47.72194	
42.1345006392149	0.60843908	47.139005	0.73651259	-37.267881	0.73651259	-37.267881	0.60843908	47.139005	
43.1066406960633	0.61607443	46.554225	0.72954688	-37.814048	0.72954688	-37.814048	0.61607443	46.554225	
44.1012102649693	0.62366692	45.967859	0.72248622	-38.361013	0.72248622	-38.361013	0.62366692	45.967859	
45.1187268464798	0.63121204	45.380172	0.71533398	-38.908511	0.71533398	-38.908511	0.63121204	45.380172	
46.1597198810725	0.63870536	44.791428	0.70809365	-39.456274	0.70809365	-39.456274	0.63870536	44.791428	
47.224731024637	0.64614254	44.201895	0.70076894	-40.004031	0.70076894	-40.004031	0.64614254	44.201895	
48.3143144303131	0.65351933	43.611842	0.69336369	-40.55151	0.69336369	-40.55151	0.65351933	43.611842	
49.429037036831	0.66083162	43.021537	0.68588193	-41.098439	0.68588193	-41.098439	0.66083162	43.021537	
50.5694788635041	0.66807539	42.43125	0.67832779	-41.644546	0.67832779	-41.644546	0.66807539	42.43125	
51.7362333120285	0.67524678	41.841248	0.67070558	-42.189557	0.67070558	-42.189557	0.67524678	41.841248	
52.9299074752453	0.68234206	41.2518	0.66301969	-42.733202	0.66301969	-42.733202	0.68234206	41.2518	
54.1511224530271	0.68935768	40.663169	0.65527463	-43.27521	0.65527463	-43.27521	0.68935768	40.663169	
55.4005136754519	0.69629022	40.07562	0.64747503	-43.815314	0.64747503	-43.815314	0.69629022	40.07562	
56.6787312334347	0.70313645	39.489413	0.63962556	-44.353249	0.63962556	-44.353249	0.70313645	39.489413	
57.9864402169863	0.70989331	38.904804	0.631731	-44.888751	0.631731	-44.888751	0.70989331	38.904804	
59.3243210612774	0.71655794	38.322046	0.62379615	-45.421564	0.62379615	-45.421564	0.71655794	38.322046	
60.6930699006863	0.72312764	37.741387	0.61582588	-45.951431	0.61582588	-45.951431	0.72312764	37.741387	
62.0933989310164	0.72959993	37.16307	0.60782507	-46.478105	0.60782507	-46.478105	0.72959993	37.16307	
63.5260367800699	0.73597251	36.587334	0.5997986	-47.001339	0.5997986	-47.001339	0.73597251	36.587334	
64.9917288867719	0.74224328	36.014409	0.59175139	-47.520895	0.59175139	-47.520895	0.74224328	36.014409	
66.491237889042	0.74841033	35.444523	0.58368832	-48.036539	0.58368832	-48.036539	0.74841033	35.444523	
68.0253440206146	0.75447198	34.877894	0.57561424	-48.548045	0.57561424	-48.548045	0.75447198	34.877894	
69.594845517015	0.76042671	34.314734	0.56753397	-49.055192	0.56753397	-49.055192	0.76042671	34.314734	
71.2005590309019	0.76627323	33.755249	0.55945228	-49.557767	0.55945228	-49.557767	0.76627323	33.755249	
72.8433200569936	0.77201042	33.199634	0.55137387	-50.055562	0.55137387	-50.055562	0.77201042	33.199634	
74.5239833667973	0.77763738	32.64808	0.54330338	-50.54838	0.54330338	-50.54838	0.77763738	32.64808	
