# MHz S MA R 50

1 3.733e-3 69.539 0.999 -0.201 0.999 -0.201 3.733e-3 69.539 
1.047 3.888e-3 70.129 0.999 -0.21 0.999 -0.21 3.888e-3 70.129 
1.097 4.05e-3 70.699 0.999 -0.219 0.999 -0.219 4.05e-3 70.699 
1.149 4.22e-3 71.251 0.999 -0.229 0.999 -0.229 4.22e-3 71.251 
1.203 4.398e-3 71.785 0.999 -0.24 0.999 -0.24 4.398e-3 71.785 
1.26 4.584e-3 72.3 0.999 -0.251 0.999 -0.251 4.584e-3 72.3 
1.32 4.779e-3 72.797 0.999 -0.262 0.999 -0.262 4.779e-3 72.797 
1.383 4.984e-3 73.278 0.999 -0.274 0.999 -0.274 4.984e-3 73.278 
1.448 5.198e-3 73.741 0.999 -0.286 0.999 -0.286 5.198e-3 73.741 
1.517 5.421e-3 74.187 0.999 -0.299 0.999 -0.299 5.421e-3 74.187 
1.588 5.656e-3 74.618 0.999 -0.313 0.999 -0.313 5.656e-3 74.618 
1.664 5.901e-3 75.032 0.998 -0.327 0.998 -0.327 5.901e-3 75.032 
1.742 6.157e-3 75.432 0.998 -0.342 0.998 -0.342 6.157e-3 75.432 
1.825 6.426e-3 75.816 0.998 -0.358 0.998 -0.358 6.426e-3 75.816 
1.911 6.707e-3 76.185 0.998 -0.374 0.998 -0.374 6.707e-3 76.185 
2.002 7e-3 76.541 0.998 -0.391 0.998 -0.391 7e-3 76.541 
2.097 7.308e-3 76.882 0.998 -0.408 0.998 -0.408 7.308e-3 76.882 
2.196 7.629e-3 77.21 0.998 -0.427 0.998 -0.427 7.629e-3 77.21 
2.3 7.965e-3 77.524 0.998 -0.446 0.998 -0.446 7.965e-3 77.524 
2.409 8.317e-3 77.826 0.998 -0.467 0.998 -0.467 8.317e-3 77.826 
2.523 8.685e-3 78.115 0.998 -0.488 0.998 -0.488 8.685e-3 78.115 
2.643 9.069e-3 78.392 0.998 -0.51 0.998 -0.51 9.069e-3 78.392 
2.768 9.471e-3 78.657 0.998 -0.533 0.998 -0.533 9.471e-3 78.657 
2.899 9.892e-3 78.91 0.998 -0.557 0.998 -0.557 9.892e-3 78.91 
3.036 0.01 79.152 0.998 -0.582 0.998 -0.582 0.01 79.152 
3.18 0.011 79.383 0.998 -0.609 0.998 -0.609 0.011 79.383 
3.331 0.011 79.603 0.998 -0.637 0.998 -0.637 0.011 79.603 
3.488 0.012 79.813 0.998 -0.665 0.998 -0.665 0.012 79.813 
3.653 0.012 80.012 0.998 -0.696 0.998 -0.696 0.012 80.012 
3.826 0.013 80.201 0.998 -0.727 0.998 -0.727 0.013 80.201 
4.008 0.013 80.38 0.998 -0.76 0.998 -0.76 0.013 80.38 
4.198 0.014 80.55 0.998 -0.794 0.998 -0.794 0.014 80.55 
4.396 0.015 80.71 0.998 -0.83 0.998 -0.83 0.015 80.71 
4.605 0.015 80.861 0.998 -0.868 0.998 -0.868 0.015 80.861 
4.823 0.016 81.002 0.998 -0.907 0.998 -0.907 0.016 81.002 
5.051 0.017 81.135 0.998 -0.948 0.998 -0.948 0.017 81.135 
5.29 0.017 81.259 0.997 -0.991 0.997 -0.991 0.017 81.259 
5.541 0.018 81.374 0.997 -1.036 0.997 -1.036 0.018 81.374 
5.803 0.019 81.48 0.997 -1.083 0.997 -1.083 0.019 81.48 
6.078 0.02 81.578 0.997 -1.132 0.997 -1.132 0.02 81.578 
6.366 0.021 81.668 0.997 -1.183 0.997 -1.183 0.021 81.668 
6.667 0.022 81.749 0.997 -1.237 0.997 -1.237 0.022 81.749 
6.983 0.023 81.822 0.997 -1.293 0.997 -1.293 0.023 81.822 
7.314 0.024 81.887 0.997 -1.351 0.997 -1.351 0.024 81.887 
7.66 0.025 81.943 0.997 -1.412 0.997 -1.412 0.025 81.943 
8.023 0.026 81.992 0.997 -1.476 0.997 -1.476 0.026 81.992 
8.403 0.027 82.032 0.997 -1.543 0.997 -1.543 0.027 82.032 
8.801 0.028 82.065 0.996 -1.613 0.996 -1.613 0.028 82.065 
9.218 0.03 82.089 0.996 -1.686 0.996 -1.686 0.03 82.089 
9.655 0.031 82.106 0.996 -1.762 0.996 -1.762 0.031 82.106 
10.112 0.032 82.114 0.996 -1.841 0.996 -1.841 0.032 82.114 
10.591 0.034 82.114 0.996 -1.924 0.996 -1.924 0.034 82.114 
11.092 0.035 82.106 0.996 -2.011 0.996 -2.011 0.035 82.106 
11.618 0.037 82.09 0.996 -2.102 0.996 -2.102 0.037 82.09 
12.168 0.039 82.065 0.995 -2.197 0.995 -2.197 0.039 82.065 
12.744 0.04 82.032 0.995 -2.296 0.995 -2.296 0.04 82.032 
13.348 0.042 81.991 0.995 -2.399 0.995 -2.399 0.042 81.991 
13.98 0.044 81.941 0.995 -2.507 0.995 -2.507 0.044 81.941 
14.642 0.046 81.883 0.995 -2.62 0.995 -2.62 0.046 81.883 
15.335 0.048 81.815 0.994 -2.738 0.994 -2.738 0.048 81.815 
16.062 0.05 81.739 0.994 -2.861 0.994 -2.861 0.05 81.739 
16.822 0.052 81.653 0.994 -2.99 0.994 -2.99 0.052 81.653 
17.619 0.055 81.559 0.993 -3.124 0.993 -3.124 0.055 81.559 
18.454 0.057 81.454 0.993 -3.265 0.993 -3.265 0.057 81.454 
19.328 0.06 81.341 0.993 -3.411 0.993 -3.411 0.06 81.341 
20.243 0.062 81.217 0.992 -3.564 0.992 -3.564 0.062 81.217 
21.202 0.065 81.083 0.992 -3.724 0.992 -3.724 0.065 81.083 
22.206 0.068 80.939 0.992 -3.891 0.992 -3.891 0.068 80.939 
23.258 0.071 80.784 0.991 -4.066 0.991 -4.066 0.071 80.784 
24.359 0.074 80.618 0.991 -4.248 0.991 -4.248 0.074 80.618 
25.513 0.078 80.441 0.99 -4.438 0.99 -4.438 0.078 80.441 
26.721 0.081 80.252 0.989 -4.636 0.989 -4.636 0.081 80.252 
27.987 0.085 80.052 0.989 -4.843 0.989 -4.843 0.085 80.052 
29.312 0.089 79.839 0.988 -5.06 0.988 -5.06 0.089 79.839 
30.7 0.092 79.614 0.988 -5.285 0.988 -5.285 0.092 79.614 
32.154 0.097 79.375 0.987 -5.521 0.987 -5.521 0.097 79.375 
33.677 0.101 79.124 0.986 -5.767 0.986 -5.767 0.101 79.124 
35.272 0.105 78.858 0.985 -6.023 0.985 -6.023 0.105 78.858 
36.943 0.11 78.579 0.984 -6.291 0.984 -6.291 0.11 78.579 
38.693 0.115 78.284 0.983 -6.57 0.983 -6.57 0.115 78.284 
40.525 0.12 77.975 0.982 -6.861 0.982 -6.861 0.12 77.975 
42.444 0.125 77.65 0.981 -7.165 0.981 -7.165 0.125 77.65 
44.455 0.131 77.308 0.98 -7.481 0.98 -7.481 0.131 77.308 
46.56 0.136 76.95 0.978 -7.811 0.978 -7.811 0.136 76.95 
48.765 0.142 76.574 0.977 -8.155 0.977 -8.155 0.142 76.574 
51.075 0.149 76.181 0.975 -8.513 0.975 -8.513 0.149 76.181 
53.494 0.155 75.768 0.974 -8.887 0.974 -8.887 0.155 75.768 
56.027 0.162 75.337 0.972 -9.276 0.972 -9.276 0.162 75.337 
58.681 0.169 74.885 0.97 -9.681 0.97 -9.681 0.169 74.885 
61.46 0.176 74.413 0.968 -10.103 0.968 -10.103 0.176 74.413 
64.371 0.184 73.92 0.965 -10.542 0.965 -10.542 0.184 73.92 
67.42 0.192 73.405 0.963 -10.998 0.963 -10.998 0.192 73.405 
70.613 0.2 72.866 0.96 -11.473 0.96 -11.473 0.2 72.866 
73.957 0.208 72.305 0.957 -11.967 0.957 -11.967 0.208 72.305 
77.46 0.217 71.719 0.954 -12.48 0.954 -12.48 0.217 71.719 
81.128 0.226 71.107 0.951 -13.012 0.951 -13.012 0.226 71.107 
84.971 0.236 70.47 0.948 -13.565 0.948 -13.565 0.236 70.47 
88.995 0.246 69.806 0.944 -14.139 0.944 -14.139 0.246 69.806 
93.21 0.256 69.115 0.94 -14.734 0.94 -14.734 0.256 69.115 
97.624 0.266 68.396 0.935 -15.35 0.935 -15.35 0.266 68.396 
102.248 0.277 67.647 0.931 -15.987 0.931 -15.987 0.277 67.647 
107.091 0.288 66.869 0.926 -16.647 0.926 -16.647 0.288 66.869 
112.163 0.3 66.06 0.92 -17.328 0.92 -17.328 0.3 66.06 
117.475 0.312 65.221 0.914 -18.031 0.914 -18.031 0.312 65.221 
123.039 0.324 64.35 0.908 -18.755 0.908 -18.755 0.324 64.35 
128.866 0.336 63.448 0.901 -19.501 0.901 -19.501 0.336 63.448 
134.969 0.349 62.513 0.894 -20.268 0.894 -20.268 0.349 62.513 
141.361 0.362 61.547 0.887 -21.054 0.887 -21.054 0.362 61.547 
148.056 0.376 60.548 0.878 -21.86 0.878 -21.86 0.376 60.548 
155.069 0.389 59.517 0.87 -22.684 0.87 -22.684 0.389 59.517 
162.413 0.403 58.456 0.861 -23.524 0.861 -23.524 0.403 58.456 
170.105 0.417 57.363 0.851 -24.379 0.851 -24.379 0.417 57.363 
178.161 0.431 56.241 0.841 -25.247 0.841 -25.247 0.431 56.241 
186.599 0.446 55.09 0.83 -26.126 0.83 -26.126 0.446 55.09 
195.437 0.46 53.913 0.818 -27.012 0.818 -27.012 0.46 53.913 
204.693 0.474 52.71 0.806 -27.905 0.806 -27.905 0.474 52.71 
214.388 0.489 51.485 0.794 -28.799 0.794 -28.799 0.489 51.485 
224.541 0.503 50.239 0.781 -29.692 0.781 -29.692 0.503 50.239 
235.176 0.517 48.976 0.767 -30.581 0.767 -30.581 0.517 48.976 
246.314 0.531 47.698 0.753 -31.462 0.753 -31.462 0.531 47.698 
257.98 0.545 46.408 0.738 -32.33 0.738 -32.33 0.545 46.408 
270.198 0.559 45.11 0.724 -33.182 0.724 -33.182 0.559 45.11 
282.995 0.572 43.807 0.708 -34.014 0.708 -34.014 0.572 43.807 
296.398 0.585 42.504 0.693 -34.821 0.693 -34.821 0.585 42.504 
310.436 0.598 41.202 0.677 -35.601 0.677 -35.601 0.598 41.202 
325.139 0.61 39.907 0.66 -36.35 0.66 -36.35 0.61 39.907 
340.538 0.622 38.621 0.644 -37.063 0.644 -37.063 0.622 38.621 
356.666 0.633 37.347 0.628 -37.738 0.628 -37.738 0.633 37.347 
373.558 0.644 36.089 0.611 -38.373 0.611 -38.373 0.644 36.089 
391.25 0.655 34.85 0.595 -38.963 0.595 -38.963 0.655 34.85 
409.781 0.665 33.632 0.579 -39.508 0.579 -39.508 0.665 33.632 
429.188 0.674 32.437 0.563 -40.006 0.563 -40.006 0.674 32.437 
449.515 0.683 31.267 0.547 -40.454 0.547 -40.454 0.683 31.267 
470.805 0.692 30.125 0.531 -40.852 0.531 -40.852 0.692 30.125 
493.103 0.7 29.011 0.515 -41.2 0.515 -41.2 0.7 29.011 
516.457 0.708 27.926 0.5 -41.496 0.5 -41.496 0.708 27.926 
540.917 0.715 26.871 0.485 -41.74 0.485 -41.74 0.715 26.871 
566.536 0.722 25.848 0.471 -41.933 0.471 -41.933 0.722 25.848 
593.368 0.728 24.855 0.457 -42.075 0.457 -42.075 0.728 24.855 
621.47 0.734 23.894 0.443 -42.167 0.443 -42.167 0.734 23.894 
650.904 0.74 22.965 0.43 -42.208 0.43 -42.208 0.74 22.965 
681.732 0.746 22.066 0.417 -42.201 0.417 -42.201 0.746 22.066 
714.019 0.751 21.199 0.405 -42.147 0.405 -42.147 0.751 21.199 
747.836 0.756 20.361 0.393 -42.045 0.393 -42.045 0.756 20.361 
783.255 0.76 19.554 0.381 -41.898 0.381 -41.898 0.76 19.554 
820.351 0.765 18.776 0.37 -41.707 0.37 -41.707 0.765 18.776 
859.204 0.769 18.026 0.359 -41.474 0.359 -41.474 0.769 18.026 
899.897 0.772 17.304 0.349 -41.2 0.349 -41.2 0.772 17.304 
942.517 0.776 16.609 0.339 -40.886 0.339 -40.886 0.776 16.609 
987.156 0.78 15.941 0.329 -40.534 0.329 -40.534 0.78 15.941 
1033.909 0.783 15.298 0.32 -40.145 0.32 -40.145 0.783 15.298 
1082.877 0.786 14.679 0.312 -39.723 0.312 -39.723 0.786 14.679 
1134.163 0.789 14.085 0.303 -39.267 0.303 -39.267 0.789 14.085 
1187.879 0.792 13.513 0.295 -38.781 0.295 -38.781 0.792 13.513 
1244.138 0.794 12.964 0.288 -38.265 0.288 -38.265 0.794 12.964 
1303.062 0.797 12.437 0.28 -37.722 0.28 -37.722 0.797 12.437 
1364.777 0.799 11.93 0.274 -37.153 0.274 -37.153 0.799 11.93 
1429.415 0.802 11.443 0.267 -36.561 0.267 -36.561 0.802 11.443 
1497.114 0.804 10.976 0.261 -35.948 0.261 -35.948 0.804 10.976 
1568.019 0.806 10.527 0.255 -35.314 0.255 -35.314 0.806 10.527 
1642.283 0.808 10.096 0.249 -34.663 0.249 -34.663 0.808 10.096 
1720.063 0.81 9.682 0.244 -33.995 0.244 -33.995 0.81 9.682 
1801.528 0.811 9.285 0.238 -33.314 0.238 -33.314 0.811 9.285 
1886.851 0.813 8.904 0.233 -32.621 0.233 -32.621 0.813 8.904 
1976.214 0.815 8.538 0.229 -31.917 0.229 -31.917 0.815 8.538 
2069.811 0.816 8.187 0.224 -31.205 0.224 -31.205 0.816 8.187 
2167.84 0.818 7.85 0.22 -30.486 0.22 -30.486 0.818 7.85 
2270.512 0.819 7.527 0.216 -29.763 0.216 -29.763 0.819 7.527 
2378.046 0.821 7.216 0.212 -29.036 0.212 -29.036 0.821 7.216 
2490.674 0.822 6.919 0.209 -28.308 0.209 -28.308 0.822 6.919 
2608.635 0.823 6.633 0.205 -27.579 0.205 -27.579 0.823 6.633 
2732.184 0.825 6.359 0.202 -26.852 0.202 -26.852 0.825 6.359 
2861.584 0.826 6.096 0.199 -26.128 0.199 -26.128 0.826 6.096 
2997.112 0.827 5.844 0.196 -25.408 0.196 -25.408 0.827 5.844 
3139.06 0.828 5.603 0.194 -24.693 0.194 -24.693 0.828 5.603 
3287.73 0.829 5.371 0.191 -23.985 0.191 -23.985 0.829 5.371 
3443.441 0.83 5.148 0.188 -23.285 0.188 -23.285 0.83 5.148 
3606.527 0.831 4.935 0.186 -22.593 0.186 -22.593 0.831 4.935 
3777.337 0.832 4.73 0.184 -21.911 0.184 -21.911 0.832 4.73 
3956.237 0.833 4.534 0.182 -21.239 0.182 -21.239 0.833 4.534 
4143.61 0.834 4.346 0.18 -20.578 0.18 -20.578 0.834 4.346 
4339.857 0.835 4.166 0.178 -19.929 0.178 -19.929 0.835 4.166 
4545.398 0.836 3.993 0.176 -19.292 0.176 -19.292 0.836 3.993 
4760.675 0.837 3.827 0.174 -18.667 0.174 -18.667 0.837 3.827 
4986.147 0.837 3.668 0.173 -18.056 0.173 -18.056 0.837 3.668 
5222.297 0.838 3.516 0.171 -17.459 0.171 -17.459 0.838 3.516 
5469.633 0.839 3.369 0.17 -16.875 0.17 -16.875 0.839 3.369 
5728.682 0.84 3.229 0.168 -16.305 0.168 -16.305 0.84 3.229 
6000 0.84 3.095 0.167 -15.749 0.167 -15.749 0.84 3.095 
