# MHz S MA R 50

1 2.428e-3 69.836 0.999 -0.131 0.999 -0.131 2.428e-3 69.836 
1.047 2.528e-3 70.489 0.999 -0.137 0.999 -0.137 2.528e-3 70.489 
1.097 2.633e-3 71.119 0.999 -0.143 0.999 -0.143 2.633e-3 71.119 
1.149 2.743e-3 71.727 0.999 -0.149 0.999 -0.149 2.743e-3 71.727 
1.203 2.858e-3 72.313 0.999 -0.156 0.999 -0.156 2.858e-3 72.313 
1.26 2.978e-3 72.877 0.999 -0.163 0.999 -0.163 2.978e-3 72.877 
1.32 3.105e-3 73.42 0.999 -0.171 0.999 -0.171 3.105e-3 73.42 
1.383 3.237e-3 73.942 0.999 -0.178 0.999 -0.178 3.237e-3 73.942 
1.448 3.376e-3 74.444 0.999 -0.187 0.999 -0.187 3.376e-3 74.444 
1.517 3.521e-3 74.927 0.999 -0.195 0.999 -0.195 3.521e-3 74.927 
1.588 3.673e-3 75.39 0.999 -0.204 0.999 -0.204 3.673e-3 75.39 
1.664 3.833e-3 75.835 0.999 -0.213 0.999 -0.213 3.833e-3 75.835 
1.742 3.999e-3 76.262 0.999 -0.223 0.999 -0.223 3.999e-3 76.262 
1.825 4.174e-3 76.672 0.999 -0.233 0.999 -0.233 4.174e-3 76.672 
1.911 4.356e-3 77.064 0.999 -0.244 0.999 -0.244 4.356e-3 77.064 
2.002 4.547e-3 77.44 0.999 -0.255 0.999 -0.255 4.547e-3 77.44 
2.097 4.747e-3 77.799 0.999 -0.266 0.999 -0.266 4.747e-3 77.799 
2.196 4.957e-3 78.143 0.999 -0.278 0.999 -0.278 4.957e-3 78.143 
2.3 5.175e-3 78.472 0.999 -0.291 0.999 -0.291 5.175e-3 78.472 
2.409 5.404e-3 78.787 0.999 -0.304 0.999 -0.304 5.404e-3 78.787 
2.523 5.644e-3 79.086 0.999 -0.318 0.999 -0.318 5.644e-3 79.086 
2.643 5.894e-3 79.373 0.999 -0.332 0.999 -0.332 5.894e-3 79.373 
2.768 6.156e-3 79.645 0.999 -0.347 0.999 -0.347 6.156e-3 79.645 
2.899 6.43e-3 79.905 0.999 -0.363 0.999 -0.363 6.43e-3 79.905 
3.036 6.717e-3 80.152 0.999 -0.38 0.999 -0.38 6.717e-3 80.152 
3.18 7.016e-3 80.387 0.999 -0.397 0.999 -0.397 7.016e-3 80.387 
3.331 7.33e-3 80.61 0.999 -0.415 0.999 -0.415 7.33e-3 80.61 
3.488 7.657e-3 80.821 0.999 -0.434 0.999 -0.434 7.657e-3 80.821 
3.653 8e-3 81.022 0.999 -0.453 0.999 -0.453 8e-3 81.022 
3.826 8.358e-3 81.211 0.999 -0.474 0.999 -0.474 8.358e-3 81.211 
4.008 8.733e-3 81.39 0.999 -0.495 0.999 -0.495 8.733e-3 81.39 
4.198 9.124e-3 81.558 0.999 -0.518 0.999 -0.518 9.124e-3 81.558 
4.396 9.534e-3 81.716 0.999 -0.541 0.999 -0.541 9.534e-3 81.716 
4.605 9.962e-3 81.865 0.999 -0.566 0.999 -0.566 9.962e-3 81.865 
4.823 0.01 82.004 0.999 -0.591 0.999 -0.591 0.01 82.004 
5.051 0.011 82.133 0.999 -0.618 0.999 -0.618 0.011 82.133 
5.29 0.011 82.254 0.999 -0.646 0.999 -0.646 0.011 82.254 
5.541 0.012 82.365 0.998 -0.676 0.998 -0.676 0.012 82.365 
5.803 0.012 82.468 0.998 -0.706 0.998 -0.706 0.012 82.468 
6.078 0.013 82.563 0.998 -0.738 0.998 -0.738 0.013 82.563 
6.366 0.014 82.649 0.998 -0.771 0.998 -0.771 0.014 82.649 
6.667 0.014 82.726 0.998 -0.806 0.998 -0.806 0.014 82.726 
6.983 0.015 82.796 0.998 -0.843 0.998 -0.843 0.015 82.796 
7.314 0.015 82.858 0.998 -0.881 0.998 -0.881 0.015 82.858 
7.66 0.016 82.912 0.998 -0.921 0.998 -0.921 0.016 82.912 
8.023 0.017 82.958 0.998 -0.963 0.998 -0.963 0.017 82.958 
8.403 0.018 82.997 0.998 -1.006 0.998 -1.006 0.018 82.997 
8.801 0.018 83.028 0.998 -1.052 0.998 -1.052 0.018 83.028 
9.218 0.019 83.051 0.998 -1.099 0.998 -1.099 0.019 83.051 
9.655 0.02 83.067 0.998 -1.149 0.998 -1.149 0.02 83.067 
10.112 0.021 83.076 0.998 -1.201 0.998 -1.201 0.021 83.076 
10.591 0.022 83.078 0.998 -1.255 0.998 -1.255 0.022 83.078 
11.092 0.023 83.072 0.997 -1.311 0.997 -1.311 0.023 83.072 
11.618 0.024 83.059 0.997 -1.371 0.997 -1.371 0.024 83.059 
12.168 0.025 83.038 0.997 -1.432 0.997 -1.432 0.025 83.038 
12.744 0.026 83.01 0.997 -1.497 0.997 -1.497 0.026 83.01 
13.348 0.027 82.975 0.997 -1.565 0.997 -1.565 0.027 82.975 
13.98 0.029 82.933 0.997 -1.635 0.997 -1.635 0.029 82.933 
14.642 0.03 82.883 0.997 -1.709 0.997 -1.709 0.03 82.883 
15.335 0.031 82.826 0.997 -1.786 0.997 -1.786 0.031 82.826 
16.062 0.033 82.761 0.996 -1.866 0.996 -1.866 0.033 82.761 
16.822 0.034 82.689 0.996 -1.95 0.996 -1.95 0.034 82.689 
17.619 0.036 82.609 0.996 -2.038 0.996 -2.038 0.036 82.609 
18.454 0.037 82.521 0.996 -2.13 0.996 -2.13 0.037 82.521 
19.328 0.039 82.426 0.996 -2.225 0.996 -2.225 0.039 82.426 
20.243 0.041 82.322 0.995 -2.325 0.995 -2.325 0.041 82.322 
21.202 0.043 82.211 0.995 -2.43 0.995 -2.43 0.043 82.211 
22.206 0.044 82.091 0.995 -2.539 0.995 -2.539 0.044 82.091 
23.258 0.046 81.963 0.995 -2.653 0.995 -2.653 0.046 81.963 
24.359 0.049 81.826 0.994 -2.772 0.994 -2.772 0.049 81.826 
25.513 0.051 81.68 0.994 -2.896 0.994 -2.896 0.051 81.68 
26.721 0.053 81.525 0.994 -3.026 0.994 -3.026 0.053 81.525 
27.987 0.055 81.362 0.993 -3.161 0.993 -3.161 0.055 81.362 
29.312 0.058 81.189 0.993 -3.303 0.993 -3.303 0.058 81.189 
30.7 0.06 81.006 0.992 -3.45 0.992 -3.45 0.06 81.006 
32.154 0.063 80.813 0.992 -3.604 0.992 -3.604 0.063 80.813 
33.677 0.066 80.61 0.991 -3.765 0.991 -3.765 0.066 80.61 
35.272 0.069 80.397 0.991 -3.933 0.991 -3.933 0.069 80.397 
36.943 0.072 80.173 0.99 -4.108 0.99 -4.108 0.072 80.173 
38.693 0.075 79.938 0.99 -4.291 0.99 -4.291 0.075 79.938 
40.525 0.079 79.692 0.989 -4.482 0.989 -4.482 0.079 79.692 
42.444 0.082 79.433 0.988 -4.681 0.988 -4.681 0.082 79.433 
44.455 0.086 79.163 0.987 -4.888 0.987 -4.888 0.086 79.163 
46.56 0.089 78.881 0.987 -5.105 0.987 -5.105 0.089 78.881 
48.765 0.093 78.585 0.986 -5.331 0.986 -5.331 0.093 78.585 
51.075 0.098 78.276 0.985 -5.567 0.985 -5.567 0.098 78.276 
53.494 0.102 77.954 0.984 -5.812 0.984 -5.812 0.102 77.954 
56.027 0.106 77.617 0.983 -6.068 0.983 -6.068 0.106 77.617 
58.681 0.111 77.266 0.982 -6.335 0.982 -6.335 0.111 77.266 
61.46 0.116 76.899 0.98 -6.614 0.98 -6.614 0.116 76.899 
64.371 0.121 76.517 0.979 -6.903 0.979 -6.903 0.121 76.517 
67.42 0.126 76.119 0.977 -7.206 0.977 -7.206 0.126 76.119 
70.613 0.132 75.703 0.976 -7.52 0.976 -7.52 0.132 75.703 
73.957 0.138 75.271 0.974 -7.848 0.974 -7.848 0.138 75.271 
77.46 0.144 74.82 0.972 -8.189 0.972 -8.189 0.144 74.82 
81.128 0.15 74.351 0.97 -8.544 0.97 -8.544 0.15 74.351 
84.971 0.156 73.862 0.968 -8.913 0.968 -8.913 0.156 73.862 
88.995 0.163 73.353 0.966 -9.297 0.966 -9.297 0.163 73.353 
93.21 0.17 72.824 0.964 -9.696 0.964 -9.696 0.17 72.824 
97.624 0.177 72.273 0.961 -10.111 0.961 -10.111 0.177 72.273 
102.248 0.185 71.7 0.958 -10.543 0.958 -10.543 0.185 71.7 
107.091 0.192 71.104 0.955 -10.99 0.955 -10.99 0.192 71.104 
112.163 0.201 70.485 0.952 -11.455 0.952 -11.455 0.201 70.485 
117.475 0.209 69.84 0.948 -11.937 0.948 -11.937 0.209 69.84 
123.039 0.218 69.171 0.945 -12.436 0.945 -12.436 0.218 69.171 
128.866 0.227 68.475 0.941 -12.954 0.941 -12.954 0.227 68.475 
134.969 0.236 67.752 0.936 -13.489 0.936 -13.489 0.236 67.752 
141.361 0.246 67.001 0.932 -14.043 0.932 -14.043 0.246 67.001 
148.056 0.256 66.222 0.927 -14.615 0.927 -14.615 0.256 66.222 
155.069 0.266 65.414 0.922 -15.205 0.922 -15.205 0.266 65.414 
162.413 0.276 64.575 0.916 -15.814 0.916 -15.814 0.276 64.575 
170.105 0.287 63.706 0.91 -16.44 0.91 -16.44 0.287 63.706 
178.161 0.298 62.806 0.903 -17.084 0.903 -17.084 0.298 62.806 
186.599 0.31 61.875 0.897 -17.744 0.897 -17.744 0.31 61.875 
195.437 0.322 60.912 0.889 -18.42 0.889 -18.42 0.322 60.912 
204.693 0.334 59.916 0.881 -19.112 0.881 -19.112 0.334 59.916 
214.388 0.346 58.889 0.873 -19.817 0.873 -19.817 0.346 58.889 
224.541 0.358 57.831 0.864 -20.534 0.864 -20.534 0.358 57.831 
235.176 0.371 56.741 0.855 -21.262 0.855 -21.262 0.371 56.741 
246.314 0.383 55.621 0.845 -21.998 0.845 -21.998 0.383 55.621 
257.98 0.396 54.472 0.835 -22.74 0.835 -22.74 0.396 54.472 
270.198 0.409 53.295 0.824 -23.485 0.824 -23.485 0.409 53.295 
282.995 0.422 52.092 0.812 -24.23 0.812 -24.23 0.422 52.092 
296.398 0.435 50.865 0.8 -24.973 0.8 -24.973 0.435 50.865 
310.436 0.448 49.616 0.787 -25.708 0.787 -25.708 0.448 49.616 
325.139 0.461 48.348 0.774 -26.434 0.774 -26.434 0.461 48.348 
340.538 0.474 47.064 0.761 -27.144 0.761 -27.144 0.474 47.064 
356.666 0.487 45.767 0.747 -27.837 0.747 -27.837 0.487 45.767 
373.558 0.499 44.461 0.733 -28.507 0.733 -28.507 0.499 44.461 
391.25 0.511 43.149 0.718 -29.15 0.718 -29.15 0.511 43.149 
409.781 0.523 41.836 0.703 -29.762 0.703 -29.762 0.523 41.836 
429.188 0.535 40.525 0.688 -30.34 0.688 -30.34 0.535 40.525 
449.515 0.546 39.22 0.672 -30.879 0.672 -30.879 0.546 39.22 
470.805 0.557 37.924 0.657 -31.377 0.657 -31.377 0.557 37.924 
493.103 0.567 36.641 0.642 -31.83 0.642 -31.83 0.567 36.641 
516.457 0.577 35.376 0.626 -32.237 0.626 -32.237 0.577 35.376 
540.917 0.586 34.13 0.611 -32.594 0.611 -32.594 0.586 34.13 
566.536 0.595 32.906 0.596 -32.901 0.596 -32.901 0.595 32.906 
593.368 0.604 31.708 0.581 -33.157 0.581 -33.157 0.604 31.708 
621.47 0.612 30.537 0.566 -33.36 0.566 -33.36 0.612 30.537 
650.904 0.62 29.394 0.551 -33.512 0.551 -33.512 0.62 29.394 
681.732 0.628 28.283 0.537 -33.612 0.537 -33.612 0.628 28.283 
714.019 0.635 27.203 0.523 -33.661 0.523 -33.661 0.635 27.203 
747.836 0.641 26.156 0.51 -33.661 0.51 -33.661 0.641 26.156 
783.255 0.647 25.141 0.497 -33.612 0.497 -33.612 0.647 25.141 
820.351 0.653 24.16 0.484 -33.518 0.484 -33.518 0.653 24.16 
859.204 0.659 23.212 0.472 -33.378 0.472 -33.378 0.659 23.212 
899.897 0.664 22.298 0.46 -33.197 0.46 -33.197 0.664 22.298 
942.517 0.669 21.415 0.449 -32.975 0.449 -32.975 0.669 21.415 
987.156 0.674 20.565 0.438 -32.716 0.438 -32.716 0.674 20.565 
1033.909 0.679 19.747 0.428 -32.421 0.428 -32.421 0.679 19.747 
1082.877 0.683 18.959 0.418 -32.093 0.418 -32.093 0.683 18.959 
1134.163 0.687 18.202 0.408 -31.735 0.408 -31.735 0.687 18.202 
1187.879 0.691 17.473 0.399 -31.348 0.399 -31.348 0.691 17.473 
1244.138 0.695 16.773 0.39 -30.935 0.39 -30.935 0.695 16.773 
1303.062 0.699 16.1 0.382 -30.498 0.382 -30.498 0.699 16.1 
1364.777 0.702 15.454 0.374 -30.04 0.374 -30.04 0.702 15.454 
1429.415 0.705 14.833 0.366 -29.562 0.366 -29.562 0.705 14.833 
1497.114 0.708 14.236 0.359 -29.067 0.359 -29.067 0.708 14.236 
1568.019 0.711 13.664 0.352 -28.557 0.352 -28.557 0.711 13.664 
1642.283 0.714 13.113 0.345 -28.032 0.345 -28.032 0.714 13.113 
1720.063 0.717 12.585 0.338 -27.496 0.338 -27.496 0.717 12.585 
1801.528 0.72 12.078 0.332 -26.95 0.332 -26.95 0.72 12.078 
1886.851 0.722 11.591 0.326 -26.395 0.326 -26.395 0.722 11.591 
1976.214 0.725 11.124 0.321 -25.834 0.321 -25.834 0.725 11.124 
2069.811 0.727 10.675 0.316 -25.267 0.316 -25.267 0.727 10.675 
2167.84 0.73 10.244 0.311 -24.697 0.311 -24.697 0.73 10.244 
2270.512 0.732 9.83 0.306 -24.123 0.306 -24.123 0.732 9.83 
2378.046 0.734 9.433 0.301 -23.549 0.301 -23.549 0.734 9.433 
2490.674 0.736 9.051 0.297 -22.974 0.297 -22.974 0.736 9.051 
2608.635 0.738 8.685 0.292 -22.4 0.292 -22.4 0.738 8.685 
2732.184 0.74 8.334 0.288 -21.828 0.288 -21.828 0.74 8.334 
2861.584 0.742 7.996 0.285 -21.26 0.285 -21.26 0.742 7.996 
2997.112 0.744 7.672 0.281 -20.695 0.281 -20.695 0.744 7.672 
3139.06 0.746 7.361 0.278 -20.135 0.278 -20.135 0.746 7.361 
3287.73 0.747 7.063 0.274 -19.58 0.274 -19.58 0.747 7.063 
3443.441 0.749 6.776 0.271 -19.032 0.271 -19.032 0.749 6.776 
3606.527 0.751 6.501 0.268 -18.491 0.268 -18.491 0.751 6.501 
3777.337 0.752 6.237 0.265 -17.957 0.265 -17.957 0.752 6.237 
3956.237 0.754 5.983 0.262 -17.431 0.262 -17.431 0.754 5.983 
4143.61 0.755 5.74 0.26 -16.914 0.26 -16.914 0.755 5.74 
4339.857 0.757 5.506 0.257 -16.405 0.257 -16.405 0.757 5.506 
4545.398 0.758 5.282 0.255 -15.906 0.255 -15.906 0.758 5.282 
4760.675 0.76 5.067 0.252 -15.416 0.252 -15.416 0.76 5.067 
4986.147 0.761 4.86 0.25 -14.936 0.25 -14.936 0.761 4.86 
5222.297 0.762 4.662 0.248 -14.466 0.248 -14.466 0.762 4.662 
5469.633 0.764 4.472 0.246 -14.006 0.246 -14.006 0.764 4.472 
5728.682 0.765 4.289 0.244 -13.556 0.244 -13.556 0.765 4.289 
6000 0.766 4.114 0.242 -13.117 0.242 -13.117 0.766 4.114 
