# MHz S MA R 50

1	0.027511777	69.537351	0.99071734	-1.4908498	0.99071734	-1.4908498	0.027511777	69.537351	
1.02307230516798	0.028068861	69.8426	0.99067794	-1.5241085	0.99067794	-1.5241085	0.028068861	69.8426	
1.04667694160172	0.028639287	70.141067	0.99063735	-1.5581066	0.99063735	-1.5581066	0.028639287	70.141067	
1.07082619141064	0.029223334	70.432791	0.99059552	-1.5928607	0.99059552	-1.5928607	0.029223334	70.432791	
1.09553262008073	0.029821287	70.717816	0.99055241	-1.6283873	0.99055241	-1.6283873	0.029821287	70.717816	
1.12080908301271	0.030433439	70.996185	0.99050797	-1.6647035	0.99050797	-1.6647035	0.030433439	70.996185	
1.14666873221102	0.031060086	71.267942	0.99046215	-1.7018267	0.99046215	-1.7018267	0.031060086	71.267942	
1.17312502312717	0.031701534	71.533135	0.9904149	-1.7397748	0.9904149	-1.7397748	0.031701534	71.533135	
1.20019172166096	0.032358094	71.79181	0.99036616	-1.7785658	0.99036616	-1.7785658	0.032358094	71.79181	
1.2278829113232	0.033030083	72.044017	0.99031588	-1.8182184	0.99031588	-1.8182184	0.033030083	72.044017	
1.2562130005638	0.033717827	72.289805	0.990264	-1.8587515	0.990264	-1.8587515	0.033717827	72.289805	
1.28519673026879	0.034421657	72.529223	0.99021046	-1.9001846	0.99021046	-1.9001846	0.034421657	72.529223	
1.31484918143044	0.035141912	72.762322	0.9901552	-1.9425374	0.9901552	-1.9425374	0.035141912	72.762322	
1.34518578299426	0.035878937	72.989153	0.99009814	-1.9858301	0.99009814	-1.9858301	0.035878937	72.989153	
1.37622231988713	0.036633088	73.209766	0.99003923	-2.0300834	0.99003923	-2.0300834	0.036633088	73.209766	
1.40797494123055	0.037404725	73.424213	0.9899784	-2.0753184	0.9899784	-2.0753184	0.037404725	73.424213	
1.44046016874349	0.038194216	73.632545	0.98991555	-2.1215567	0.98991555	-2.1215567	0.038194216	73.632545	
1.47369490533906	0.03900194	73.834812	0.98985063	-2.1688202	0.98985063	-2.1688202	0.03900194	73.834812	
1.50769644391954	0.039828281	74.031065	0.98978356	-2.2171315	0.98978356	-2.2171315	0.039828281	74.031065	
1.54248247637433	0.040673633	74.221355	0.98971423	-2.2665134	0.98971423	-2.2665134	0.040673633	74.221355	
1.57807110278549	0.041538396	74.40573	0.98964258	-2.3169896	0.98964258	-2.3169896	0.041538396	74.40573	
1.61448084084573	0.042422982	74.58424	0.98956851	-2.3685838	0.98956851	-2.3685838	0.042422982	74.58424	
1.65173063549358	0.043327808	74.756933	0.98949193	-2.4213205	0.98949193	-2.4213205	0.043327808	74.756933	
1.68983986877098	0.044253304	74.923858	0.98941274	-2.4752248	0.98941274	-2.4752248	0.044253304	74.923858	
1.72882836990828	0.045199904	75.08506	0.98933083	-2.5303221	0.98933083	-2.5303221	0.045199904	75.08506	
1.76871642564187	0.046168057	75.240587	0.98924611	-2.5866384	0.98924611	-2.5866384	0.046168057	75.240587	
1.80952479076989	0.047158215	75.390482	0.98915846	-2.6442003	0.98915846	-2.6442003	0.047158215	75.390482	
1.85127469895156	0.048170845	75.534791	0.98906776	-2.703035	0.98906776	-2.703035	0.048170845	75.534791	
1.89398787375553	0.049206421	75.673555	0.98897391	-2.7631701	0.98897391	-2.7631701	0.049206421	75.673555	
1.93768653996327	0.050265427	75.806818	0.98887676	-2.8246339	0.98887676	-2.8246339	0.050265427	75.806818	
1.98239343513318	0.051348356	75.934619	0.9887762	-2.8874553	0.9887762	-2.8874553	0.051348356	75.934619	
2.02813182143157	0.052455714	76.056997	0.98867209	-2.9516638	0.98867209	-2.9516638	0.052455714	76.056997	
2.07492549773653	0.053588015	76.173992	0.98856429	-3.0172893	0.98856429	-3.0172893	0.053588015	76.173992	
2.12279881202113	0.054745783	76.285639	0.98845266	-3.0843626	0.98845266	-3.0843626	0.054745783	76.285639	
2.1717766740223	0.055929556	76.391975	0.98833704	-3.152915	0.98833704	-3.152915	0.055929556	76.391975	
2.22188456820204	0.057139878	76.493032	0.98821727	-3.2229784	0.98821727	-3.2229784	0.057139878	76.493032	
2.27314856700762	0.058377308	76.588844	0.98809319	-3.2945855	0.98809319	-3.2945855	0.058377308	76.588844	
2.32559534443778	0.059642415	76.679442	0.98796464	-3.3677695	0.98796464	-3.3677695	0.059642415	76.679442	
2.37925218992187	0.060935776	76.764856	0.98783142	-3.4425644	0.98783142	-3.4425644	0.060935776	76.764856	
2.43414702251933	0.062257985	76.845112	0.98769337	-3.5190047	0.98769337	-3.5190047	0.062257985	76.845112	
2.49030840544663	0.063609643	76.920239	0.98755027	-3.5971258	0.98755027	-3.5971258	0.063609643	76.920239	
2.54776556093947	0.064991365	76.99026	0.98740194	-3.6769637	0.98740194	-3.6769637	0.064991365	76.99026	
2.60654838545793	0.066403777	77.0552	0.98724817	-3.7585551	0.98724817	-3.7585551	0.066403777	77.0552	
2.66668746524232	0.067847517	77.11508	0.98708873	-3.8419374	0.98708873	-3.8419374	0.067847517	77.11508	
2.72821409222802	0.069323235	77.16992	0.98692341	-3.927149	0.98692341	-3.927149	0.069323235	77.16992	
2.79116028032748	0.070831593	77.219738	0.98675196	-4.0142286	0.98675196	-4.0142286	0.070831593	77.219738	
2.85555878208794	0.072373267	77.264552	0.98657415	-4.103216	0.98657415	-4.103216	0.072373267	77.264552	
2.92144310573337	0.073948944	77.304376	0.98638972	-4.1941516	0.98638972	-4.1941516	0.073948944	77.304376	
2.98884753259974	0.075559323	77.339225	0.9861984	-4.2870768	0.9861984	-4.2870768	0.075559323	77.339225	
3.05780713497244	0.077205116	77.369109	0.98599992	-4.3820333	0.98599992	-4.3820333	0.077205116	77.369109	
3.12835779433535	0.078887049	77.394039	0.98579399	-4.4790642	0.98579399	-4.4790642	0.078887049	77.394039	
3.20053622004088	0.080605859	77.414023	0.98558032	-4.578213	0.98558032	-4.578213	0.080605859	77.414023	
3.27437996841083	0.082362298	77.429068	0.98535859	-4.679524	0.98535859	-4.679524	0.082362298	77.429068	
3.34992746227792	0.084157128	77.439179	0.98512849	-4.7830427	0.98512849	-4.7830427	0.084157128	77.439179	
3.42721801097819	0.085991127	77.44436	0.98488967	-4.8888149	0.98488967	-4.8888149	0.085991127	77.44436	
3.50629183080467	0.087865083	77.44461	0.9846418	-4.9968877	0.9846418	-4.9968877	0.087865083	77.44461	
3.58719006593298	0.0897798	77.439932	0.9843845	-5.1073088	0.9843845	-5.1073088	0.0897798	77.439932	
3.66995480982973	0.091736094	77.430321	0.9841174	-5.2201267	0.9841174	-5.2201267	0.091736094	77.430321	
3.75462912715481	0.093734791	77.415776	0.98384011	-5.335391	0.98384011	-5.335391	0.093734791	77.415776	
3.84125707616911	0.095776736	77.396289	0.98355223	-5.4531518	0.98355223	-5.4531518	0.095776736	77.396289	
3.92988373165914	0.09786278	77.371856	0.98325332	-5.5734605	0.98325332	-5.5734605	0.09786278	77.371856	
4.02055520839066	0.099993792	77.342465	0.98294296	-5.696369	0.98294296	-5.696369	0.099993792	77.342465	
4.11331868510335	0.10217065	77.308108	0.98262068	-5.8219302	0.98262068	-5.8219302	0.10217065	77.308108	
4.2082224290592	0.10439425	77.268772	0.982286	-5.950198	0.982286	-5.950198	0.10439425	77.268772	
4.30531582115719	0.10666549	77.224442	0.98193845	-6.0812269	0.98193845	-6.0812269	0.10666549	77.224442	
4.40464938162746	0.1089853	77.175104	0.9815775	-6.2150725	0.9815775	-6.2150725	0.1089853	77.175104	
4.50627479631831	0.11135459	77.12074	0.98120262	-6.3517912	0.98120262	-6.3517912	0.11135459	77.12074	
4.61024494358974	0.11377432	77.061331	0.98081326	-6.4914402	0.98081326	-6.4914402	0.11377432	77.061331	
4.71661392182737	0.11624543	76.996858	0.98040885	-6.6340776	0.98040885	-6.6340776	0.11624543	76.996858	
4.82543707759131	0.11876888	76.927296	0.97998879	-6.7797625	0.97998879	-6.7797625	0.11876888	76.927296	
4.93677103441437	0.12134565	76.852624	0.97955247	-6.9285547	0.97955247	-6.9285547	0.12134565	76.852624	
5.05067372226482	0.12397673	76.772815	0.97909923	-7.0805148	0.97909923	-7.0805148	0.12397673	76.772815	
5.16720440768881	0.12666311	76.687843	0.97862843	-7.2357043	0.97862843	-7.2357043	0.12666311	76.687843	
5.28642372464833	0.12940578	76.597679	0.97813937	-7.3941856	0.97813937	-7.3941856	0.12940578	76.597679	
5.40839370607066	0.13220577	76.502293	0.97763132	-7.5560218	0.97763132	-7.5560218	0.13220577	76.502293	
5.53317781612569	0.13506409	76.401654	0.97710356	-7.7212769	0.97710356	-7.7212769	0.13506409	76.401654	
5.66084098324803	0.13798178	76.295729	0.97655532	-7.8900154	0.97655532	-7.8900154	0.13798178	76.295729	
5.79144963392093	0.14095986	76.184483	0.97598579	-8.0623029	0.97598579	-8.0623029	0.14095986	76.184483	
5.92507172723973	0.14399937	76.067881	0.97539414	-8.2382055	0.97539414	-8.2382055	0.14399937	76.067881	
6.06177679027277	0.14710137	75.945886	0.97477954	-8.4177901	0.97477954	-8.4177901	0.14710137	75.945886	
6.20163595423811	0.1502669	75.818459	0.97414108	-8.6011242	0.97414108	-8.6011242	0.1502669	75.818459	
6.344721991515	0.15349702	75.68556	0.97347786	-8.7882759	0.97347786	-8.7882759	0.15349702	75.68556	
6.49110935350922	0.15679278	75.547149	0.97278892	-8.9793141	0.97278892	-8.9793141	0.15679278	75.547149	
6.64087420939211	0.16015524	75.403184	0.97207328	-9.174308	0.97207328	-9.174308	0.16015524	75.403184	
6.79409448573336	0.16358545	75.253621	0.97132994	-9.3733275	0.97132994	-9.3733275	0.16358545	75.253621	
6.95084990704828	0.16708447	75.098416	0.97055783	-9.576443	0.97055783	-9.576443	0.16708447	75.098416	
7.11122203728052	0.17065335	74.937523	0.96975588	-9.7837251	0.96975588	-9.7837251	0.17065335	74.937523	
7.27529432224191	0.17429313	74.770898	0.96892296	-9.995245	0.96892296	-9.995245	0.17429313	74.770898	
7.44315213303154	0.17800487	74.598491	0.96805792	-10.211074	0.96805792	-10.211074	0.17800487	74.598491	
7.61488281045653	0.18178958	74.420256	0.96715956	-10.431284	0.96715956	-10.431284	0.18178958	74.420256	
7.79057571047778	0.1856483	74.236143	0.96622666	-10.655947	0.96622666	-10.655947	0.1856483	74.236143	
7.97032225070416	0.18958204	74.046104	0.96525794	-10.885134	0.96525794	-10.885134	0.18958204	74.046104	
8.15421595795954	0.19359178	73.850089	0.96425209	-11.118918	0.96425209	-11.118918	0.19359178	73.850089	
8.34235251694718	0.19767853	73.648047	0.96320777	-11.35737	0.96320777	-11.35737	0.19767853	73.648047	
8.53482982003704	0.20184323	73.439927	0.96212358	-11.600563	0.96212358	-11.600563	0.20184323	73.439927	
8.7317480182017	0.20608684	73.22568	0.9609981	-11.848567	0.9609981	-11.848567	0.20608684	73.22568	
8.93320957312754	0.21041026	73.005253	0.95982986	-12.101454	0.95982986	-12.101454	0.21041026	73.005253	
9.13931931052825	0.21481441	72.778595	0.95861734	-12.359295	0.95861734	-12.359295	0.21481441	72.778595	
9.35018447468836	0.21930013	72.545656	0.95735901	-12.62216	0.95735901	-12.62216	0.21930013	72.545656	
9.56591478426526	0.22386827	72.306385	0.95605325	-12.890118	0.95605325	-12.890118	0.22386827	72.306385	
9.78662248937871	0.22851962	72.06073	0.95469845	-13.163237	0.95469845	-13.163237	0.22851962	72.06073	
10.0124224300175	0.23325494	71.808644	0.95329292	-13.441587	0.95329292	-13.441587	0.23325494	71.808644	
10.2434320957935	0.23807496	71.550075	0.95183496	-13.725232	0.95183496	-13.725232	0.23807496	71.550075	
10.4797716870752	0.24298035	71.284976	0.95032281	-14.014239	0.95032281	-14.014239	0.24298035	71.284976	
10.7215641775301	0.24797173	71.013299	0.94875467	-14.308672	0.94875467	-14.308672	0.24797173	71.013299	
10.9689353781121	0.25304968	70.734998	0.94712872	-14.608592	0.94712872	-14.608592	0.25304968	70.734998	
11.2220140025238	0.25821471	70.450027	0.94544309	-14.914061	0.94544309	-14.914061	0.25821471	70.450027	
11.4809317341893	0.26346729	70.158344	0.94369587	-15.225137	0.94369587	-15.225137	0.26346729	70.158344	
11.7458232947733	0.2688078	69.859906	0.94188512	-15.541877	0.94188512	-15.541877	0.2688078	69.859906	
12.0168265142794	0.27423657	69.554674	0.94000887	-15.864335	0.94000887	-15.864335	0.27423657	69.554674	
12.2940824027676	0.27975386	69.242609	0.93806511	-16.192563	0.93806511	-16.192563	0.27975386	69.242609	
12.5777352237245	0.28535983	68.923676	0.93605182	-16.526611	0.93605182	-16.526611	0.28535983	68.923676	
12.8679325691283	0.29105459	68.597842	0.93396694	-16.866524	0.93396694	-16.866524	0.29105459	68.597842	
13.1648254362442	0.29683813	68.265077	0.93180837	-17.212345	0.93180837	-17.212345	0.29683813	68.265077	
13.4685683061924	0.30271037	67.925354	0.92957401	-17.564116	0.92957401	-17.564116	0.30271037	67.925354	
13.7793192243286	0.30867114	67.578649	0.92726175	-17.92187	0.92726175	-17.92187	0.30867114	67.578649	
14.0972398824793	0.31472014	67.224942	0.92486943	-18.285642	0.92486943	-18.285642	0.31472014	67.224942	
14.4224957030741	0.320857	66.864215	0.92239492	-18.655458	0.92239492	-18.655458	0.320857	66.864215	
14.7552559252193	0.32708122	66.496456	0.91983605	-19.031343	0.91983605	-19.031343	0.32708122	66.496456	
15.0956936927576	0.33339218	66.121657	0.91719066	-19.413317	0.91719066	-19.413317	0.33339218	66.121657	
15.4439861443592	0.33978917	65.739813	0.91445661	-19.801393	0.91445661	-19.801393	0.33978917	65.739813	
15.8003145056919	0.34627132	65.350927	0.91163173	-20.195581	0.91163173	-20.195581	0.34627132	65.350927	
16.1648641837172	0.35283766	64.955003	0.9087139	-20.595886	0.9087139	-20.595886	0.35283766	64.955003	
16.5378248631629	0.35948707	64.552052	0.90570099	-21.002304	0.90570099	-21.002304	0.35948707	64.552052	
16.9193906052204	0.36621831	64.142093	0.90259091	-21.414829	0.90259091	-21.414829	0.36621831	64.142093	
17.3097599485202	0.37302998	63.725147	0.89938161	-21.833447	0.89938161	-21.833447	0.37302998	63.725147	
17.7091360124369	0.37992055	63.301244	0.89607105	-22.258138	0.89607105	-22.258138	0.37992055	63.301244	
18.1177266027771	0.38688835	62.870418	0.89265725	-22.688875	0.89265725	-22.688875	0.38688835	62.870418	
18.5357443199064	0.39393155	62.432712	0.88913829	-23.125625	0.88913829	-23.125625	0.39393155	62.432712	
18.9634066693709	0.40104816	61.988174	0.88551231	-23.568346	0.88551231	-23.568346	0.40104816	61.988174	
19.4009361750711	0.40823605	61.53686	0.88177749	-24.01699	0.88177749	-24.01699	0.40823605	61.53686	
19.8485604950468	0.41549293	61.078834	0.87793213	-24.471502	0.87793213	-24.471502	0.41549293	61.078834	
20.3065125399336	0.42281636	60.614165	0.87397457	-24.931817	0.87397457	-24.931817	0.42281636	60.614165	
20.7750305941524	0.43020373	60.142932	0.86990327	-25.397865	0.86990327	-25.397865	0.43020373	60.142932	
21.2543584398948	0.43765226	59.665223	0.86571679	-25.869565	0.86571679	-25.869565	0.43765226	59.665223	
21.7447454839696	0.44515906	59.18113	0.86141378	-26.34683	0.86141378	-26.34683	0.44515906	59.18113	
22.2464468875758	0.45272103	58.690757	0.85699305	-26.829562	0.85699305	-26.829562	0.45272103	58.690757	
22.7597236990692	0.46033495	58.194216	0.85245348	-27.317656	0.85245348	-27.317656	0.46033495	58.194216	
23.284842989793	0.46799743	57.691625	0.84779414	-27.810998	0.84779414	-27.810998	0.46799743	57.691625	
23.8220779930419	0.47570494	57.183112	0.84301421	-28.309466	0.84301421	-28.309466	0.47570494	57.183112	
24.3717082462328	0.48345382	56.668815	0.83811304	-28.812927	0.83811304	-28.812927	0.48345382	56.668815	
24.9340197363548	0.49124023	56.148879	0.83309014	-29.321242	0.83309014	-29.321242	0.49124023	56.148879	
25.5093050487764	0.49906023	55.623458	0.82794518	-29.834261	0.82794518	-29.834261	0.49906023	55.623458	
26.0978635194848	0.50690974	55.092713	0.82267801	-30.351825	0.82267801	-30.351825	0.50690974	55.092713	
26.7000013908386	0.51478456	54.556818	0.81728869	-30.873768	0.81728869	-30.873768	0.51478456	54.556818	
27.3160319709135	0.52268038	54.015949	0.81177742	-31.399914	0.81177742	-31.399914	0.52268038	54.015949	
27.9462757965247	0.53059277	53.470297	0.80614465	-31.930079	0.80614465	-31.930079	0.53059277	53.470297	
28.5910608000106	0.53851723	52.920056	0.800391	-32.46407	0.800391	-32.46407	0.53851723	52.920056	
29.2507224798647	0.54644916	52.365431	0.79451731	-33.001688	0.79451731	-33.001688	0.54644916	52.365431	
29.925604075304	0.55438387	51.806633	0.78852462	-33.542722	0.78852462	-33.542722	0.55438387	51.806633	
30.6160567448655	0.56231663	51.243881	0.78241419	-34.086958	0.78241419	-34.086958	0.56231663	51.243881	
31.3224397491232	0.57024264	50.677401	0.77618751	-34.634171	0.77618751	-34.634171	0.57024264	50.677401	
32.0451206376206	0.57815708	50.107426	0.76984628	-35.184131	0.76984628	-35.184131	0.57815708	50.107426	
32.7844754401164	0.58605509	49.534195	0.76339241	-35.736602	0.76339241	-35.736602	0.58605509	49.534195	
33.5408888622429	0.5939318	48.957954	0.75682803	-36.291338	0.75682803	-36.291338	0.5939318	48.957954	
34.3147544856778	0.60178233	48.378954	0.75015552	-36.848092	0.75015552	-36.848092	0.60178233	48.378954	
35.1064749729356	0.60960182	47.79745	0.74337742	-37.406609	0.74337742	-37.406609	0.60960182	47.79745	
35.9164622768832	0.61738544	47.213703	0.73649654	-37.96663	0.73649654	-37.96663	0.61738544	47.213703	
36.7451378550896	0.6251284	46.627978	0.72951585	-38.52789	0.72951585	-38.52789	0.6251284	46.627978	
37.5929328891217	0.63282597	46.040543	0.72243855	-39.090123	0.72243855	-39.090123	0.63282597	46.040543	
38.4602885088989	0.64047347	45.45167	0.71526802	-39.653058	0.71526802	-39.653058	0.64047347	45.45167	
39.3476560222247	0.64806631	44.861631	0.70800784	-40.216422	0.70800784	-40.216422	0.64806631	44.861631	
40.2554971496141	0.65560002	44.270703	0.70066177	-40.779939	0.70066177	-40.779939	0.65560002	44.270703	
41.1842842645387	0.6630702	43.679163	0.69323373	-41.343332	0.69323373	-41.343332	0.6630702	43.679163	
42.1345006392149	0.67047259	43.087287	0.68572781	-41.906325	0.68572781	-41.906325	0.67047259	43.087287	
43.1066406960633	0.67780306	42.495353	0.67814824	-42.468639	0.67814824	-42.468639	0.67780306	42.495353	
44.1012102649693	0.68505763	41.903638	0.6704994	-43.029997	0.6704994	-43.029997	0.68505763	41.903638	
45.1187268464798	0.69223245	41.312418	0.66278579	-43.590121	0.66278579	-43.590121	0.69223245	41.312418	
46.1597198810725	0.69932387	40.721966	0.65501201	-44.148738	0.65501201	-44.148738	0.69932387	40.721966	
47.224731024637	0.70632838	40.132554	0.64718279	-44.705575	0.64718279	-44.705575	0.70632838	40.132554	
48.3143144303131	0.71324266	39.54445	0.63930291	-45.26036	0.63930291	-45.26036	0.71324266	39.54445	
49.429037036831	0.7200636	38.957919	0.63137724	-45.812829	0.63137724	-45.812829	0.7200636	38.957919	
50.5694788635041	0.72678824	38.373223	0.62341072	-46.362717	0.62341072	-46.362717	0.72678824	38.373223	
51.7362333120285	0.73341385	37.790616	0.61540831	-46.909767	0.61540831	-46.909767	0.73341385	37.790616	
52.9299074752453	0.73993791	37.210351	0.60737501	-47.453725	0.60737501	-47.453725	0.73993791	37.210351	
54.1511224530271	0.74635807	36.632672	0.59931583	-47.994342	0.59931583	-47.994342	0.74635807	36.632672	
55.4005136754519	0.75267222	36.05782	0.59123579	-48.531376	0.59123579	-48.531376	0.75267222	36.05782	
56.6787312334347	0.75887845	35.486026	0.58313989	-49.06459	0.58313989	-49.06459	0.75887845	35.486026	
57.9864402169863	0.76497506	34.917517	0.57503309	-49.593757	0.57503309	-49.593757	0.76497506	34.917517	
59.3243210612774	0.77096055	34.352512	0.56692034	-50.118651	0.56692034	-50.118651	0.77096055	34.352512	
60.6930699006863	0.77683365	33.791221	0.55880651	-50.639059	0.55880651	-50.639059	0.77683365	33.791221	
62.0933989310164	0.78259327	33.233849	0.55069641	-51.154771	0.55069641	-51.154771	0.78259327	33.233849	
63.5260367800699	0.78823854	32.680591	0.54259479	-51.665589	0.54259479	-51.665589	0.78823854	32.680591	
64.9917288867719	0.79376878	32.131633	0.53450629	-52.171319	0.53450629	-52.171319	0.79376878	32.131633	
66.491237889042	0.79918351	31.587154	0.52643547	-52.671779	0.52643547	-52.671779	0.79918351	31.587154	
68.0253440206146	0.80448242	31.047324	0.51838677	-53.166792	0.51838677	-53.166792	0.80448242	31.047324	
69.594845517015	0.80966541	30.512304	0.51036452	-53.65619	0.51036452	-53.65619	0.80966541	30.512304	
71.2005590309019	0.81473253	29.982246	0.50237293	-54.139817	0.50237293	-54.139817	0.81473253	29.982246	
72.8433200569936	0.81968402	29.457293	0.49441608	-54.61752	0.49441608	-54.61752	0.81968402	29.457293	
74.5239833667973	0.82452028	28.93758	0.48649789	-55.089158	0.48649789	-55.089158	0.82452028	28.93758	
