# MHz S MA R 50

1 5.539e-3 72.113 0.998 -0.303 0.998 -0.303 5.539e-3 72.113 
1.047 5.772e-3 72.705 0.998 -0.316 0.998 -0.316 5.772e-3 72.705 
1.097 6.016e-3 73.275 0.998 -0.331 0.998 -0.331 6.016e-3 73.275 
1.149 6.273e-3 73.821 0.998 -0.346 0.998 -0.346 6.273e-3 73.821 
1.203 6.541e-3 74.346 0.998 -0.362 0.998 -0.362 6.541e-3 74.346 
1.26 6.822e-3 74.849 0.998 -0.378 0.998 -0.378 6.822e-3 74.849 
1.32 7.117e-3 75.331 0.998 -0.395 0.998 -0.395 7.117e-3 75.331 
1.383 7.425e-3 75.793 0.998 -0.413 0.998 -0.413 7.425e-3 75.793 
1.448 7.748e-3 76.235 0.998 -0.432 0.998 -0.432 7.748e-3 76.235 
1.517 8.086e-3 76.658 0.998 -0.452 0.998 -0.452 8.086e-3 76.658 
1.588 8.44e-3 77.062 0.998 -0.472 0.998 -0.472 8.44e-3 77.062 
1.664 8.811e-3 77.447 0.998 -0.494 0.998 -0.494 8.811e-3 77.447 
1.742 9.199e-3 77.815 0.998 -0.516 0.998 -0.516 9.199e-3 77.815 
1.825 9.605e-3 78.165 0.998 -0.54 0.998 -0.54 9.605e-3 78.165 
1.911 0.01 78.499 0.998 -0.564 0.998 -0.564 0.01 78.499 
2.002 0.01 78.816 0.998 -0.59 0.998 -0.59 0.01 78.816 
2.097 0.011 79.118 0.998 -0.617 0.998 -0.617 0.011 79.118 
2.196 0.011 79.404 0.998 -0.645 0.998 -0.645 0.011 79.404 
2.3 0.012 79.675 0.998 -0.674 0.998 -0.674 0.012 79.675 
2.409 0.012 79.932 0.998 -0.705 0.998 -0.705 0.012 79.932 
2.523 0.013 80.174 0.998 -0.737 0.998 -0.737 0.013 80.174 
2.643 0.014 80.403 0.998 -0.77 0.998 -0.77 0.014 80.403 
2.768 0.014 80.619 0.998 -0.805 0.998 -0.805 0.014 80.619 
2.899 0.015 80.821 0.998 -0.842 0.998 -0.842 0.015 80.821 
3.036 0.016 81.011 0.998 -0.88 0.998 -0.88 0.016 81.011 
3.18 0.016 81.188 0.998 -0.92 0.998 -0.92 0.016 81.188 
3.331 0.017 81.354 0.998 -0.962 0.998 -0.962 0.017 81.354 
3.488 0.018 81.507 0.998 -1.006 0.998 -1.006 0.018 81.507 
3.653 0.018 81.649 0.997 -1.051 0.997 -1.051 0.018 81.649 
3.826 0.019 81.78 0.997 -1.099 0.997 -1.099 0.019 81.78 
4.008 0.02 81.899 0.997 -1.149 0.997 -1.149 0.02 81.899 
4.198 0.021 82.008 0.997 -1.201 0.997 -1.201 0.021 82.008 
4.396 0.022 82.106 0.997 -1.255 0.997 -1.255 0.022 82.106 
4.605 0.023 82.194 0.997 -1.312 0.997 -1.312 0.023 82.194 
4.823 0.024 82.271 0.997 -1.372 0.997 -1.372 0.024 82.271 
5.051 0.025 82.339 0.997 -1.434 0.997 -1.434 0.025 82.339 
5.29 0.026 82.396 0.997 -1.499 0.997 -1.499 0.026 82.396 
5.541 0.027 82.443 0.997 -1.567 0.997 -1.567 0.027 82.443 
5.803 0.029 82.48 0.997 -1.638 0.997 -1.638 0.029 82.48 
6.078 0.03 82.508 0.997 -1.712 0.997 -1.712 0.03 82.508 
6.366 0.031 82.526 0.996 -1.79 0.996 -1.79 0.031 82.526 
6.667 0.033 82.535 0.996 -1.871 0.996 -1.871 0.033 82.535 
6.983 0.034 82.534 0.996 -1.956 0.996 -1.956 0.034 82.534 
7.314 0.036 82.523 0.996 -2.044 0.996 -2.044 0.036 82.523 
7.66 0.037 82.503 0.996 -2.137 0.996 -2.137 0.037 82.503 
8.023 0.039 82.473 0.996 -2.233 0.996 -2.233 0.039 82.473 
8.403 0.041 82.434 0.995 -2.334 0.995 -2.334 0.041 82.434 
8.801 0.043 82.385 0.995 -2.44 0.995 -2.44 0.043 82.385 
9.218 0.045 82.326 0.995 -2.55 0.995 -2.55 0.045 82.326 
9.655 0.047 82.258 0.995 -2.665 0.995 -2.665 0.047 82.258 
10.112 0.049 82.18 0.995 -2.785 0.995 -2.785 0.049 82.18 
10.591 0.051 82.092 0.994 -2.911 0.994 -2.911 0.051 82.092 
11.092 0.053 81.994 0.994 -3.042 0.994 -3.042 0.053 81.994 
11.618 0.056 81.885 0.994 -3.179 0.994 -3.179 0.056 81.885 
12.168 0.058 81.767 0.993 -3.322 0.993 -3.322 0.058 81.767 
12.744 0.061 81.637 0.993 -3.472 0.993 -3.472 0.061 81.637 
13.348 0.064 81.498 0.993 -3.628 0.993 -3.628 0.064 81.498 
13.98 0.066 81.347 0.992 -3.791 0.992 -3.791 0.066 81.347 
14.642 0.069 81.185 0.992 -3.961 0.992 -3.961 0.069 81.185 
15.335 0.072 81.012 0.991 -4.139 0.991 -4.139 0.072 81.012 
16.062 0.076 80.828 0.991 -4.324 0.991 -4.324 0.076 80.828 
16.822 0.079 80.631 0.99 -4.518 0.99 -4.518 0.079 80.631 
17.619 0.083 80.423 0.99 -4.72 0.99 -4.72 0.083 80.423 
18.454 0.086 80.202 0.989 -4.931 0.989 -4.931 0.086 80.202 
19.328 0.09 79.969 0.988 -5.151 0.988 -5.151 0.09 79.969 
20.243 0.094 79.722 0.988 -5.381 0.988 -5.381 0.094 79.722 
21.202 0.098 79.462 0.987 -5.621 0.987 -5.621 0.098 79.462 
22.206 0.103 79.189 0.986 -5.871 0.986 -5.871 0.103 79.189 
23.258 0.107 78.901 0.985 -6.131 0.985 -6.131 0.107 78.901 
24.359 0.112 78.599 0.984 -6.403 0.984 -6.403 0.112 78.599 
25.513 0.117 78.282 0.983 -6.687 0.983 -6.687 0.117 78.282 
26.721 0.122 77.95 0.982 -6.983 0.982 -6.983 0.122 77.95 
27.987 0.127 77.602 0.981 -7.291 0.981 -7.291 0.127 77.602 
29.312 0.133 77.238 0.979 -7.612 0.979 -7.612 0.133 77.238 
30.7 0.139 76.857 0.978 -7.946 0.978 -7.946 0.139 76.857 
32.154 0.145 76.46 0.976 -8.295 0.976 -8.295 0.145 76.46 
33.677 0.151 76.044 0.975 -8.657 0.975 -8.657 0.151 76.044 
35.272 0.158 75.611 0.973 -9.035 0.973 -9.035 0.158 75.611 
36.943 0.165 75.159 0.971 -9.428 0.971 -9.428 0.165 75.159 
38.693 0.172 74.688 0.969 -9.837 0.969 -9.837 0.172 74.688 
40.525 0.179 74.198 0.967 -10.263 0.967 -10.263 0.179 74.198 
42.444 0.187 73.687 0.964 -10.705 0.964 -10.705 0.187 73.687 
44.455 0.195 73.156 0.962 -11.164 0.962 -11.164 0.195 73.156 
46.56 0.203 72.603 0.959 -11.642 0.959 -11.642 0.203 72.603 
48.765 0.211 72.029 0.956 -12.137 0.956 -12.137 0.211 72.029 
51.075 0.22 71.433 0.953 -12.652 0.953 -12.652 0.22 71.433 
53.494 0.229 70.815 0.95 -13.185 0.95 -13.185 0.229 70.815 
56.027 0.239 70.173 0.946 -13.739 0.946 -13.739 0.239 70.173 
58.681 0.249 69.508 0.942 -14.312 0.942 -14.312 0.249 69.508 
61.46 0.259 68.819 0.938 -14.906 0.938 -14.906 0.259 68.819 
64.371 0.269 68.105 0.934 -15.52 0.934 -15.52 0.269 68.105 
67.42 0.28 67.367 0.929 -16.155 0.929 -16.155 0.28 67.367 
70.613 0.291 66.604 0.924 -16.812 0.924 -16.812 0.291 66.604 
73.957 0.303 65.816 0.918 -17.489 0.918 -17.489 0.303 65.816 
77.46 0.314 65.002 0.913 -18.188 0.913 -18.188 0.314 65.002 
81.128 0.326 64.163 0.907 -18.909 0.907 -18.909 0.326 64.163 
84.971 0.339 63.298 0.9 -19.651 0.9 -19.651 0.339 63.298 
88.995 0.352 62.407 0.893 -20.414 0.893 -20.414 0.352 62.407 
93.21 0.365 61.49 0.886 -21.197 0.886 -21.197 0.365 61.49 
97.624 0.378 60.548 0.878 -22.002 0.878 -22.002 0.378 60.548 
102.248 0.391 59.581 0.87 -22.826 0.87 -22.826 0.391 59.581 
107.091 0.405 58.589 0.861 -23.67 0.861 -23.67 0.405 58.589 
112.163 0.419 57.573 0.852 -24.532 0.852 -24.532 0.419 57.573 
117.475 0.433 56.533 0.843 -25.412 0.843 -25.412 0.433 56.533 
123.039 0.448 55.469 0.832 -26.308 0.832 -26.308 0.448 55.469 
128.866 0.462 54.384 0.822 -27.22 0.822 -27.22 0.462 54.384 
134.969 0.477 53.277 0.811 -28.146 0.811 -28.146 0.477 53.277 
141.361 0.492 52.149 0.799 -29.085 0.799 -29.085 0.492 52.149 
148.056 0.507 51.002 0.787 -30.034 0.787 -30.034 0.507 51.002 
155.069 0.522 49.838 0.774 -30.991 0.774 -30.991 0.522 49.838 
162.413 0.536 48.657 0.761 -31.955 0.761 -31.955 0.536 48.657 
170.105 0.551 47.461 0.747 -32.924 0.747 -32.924 0.551 47.461 
178.161 0.566 46.252 0.733 -33.894 0.733 -33.894 0.566 46.252 
186.599 0.581 45.032 0.719 -34.863 0.719 -34.863 0.581 45.032 
195.437 0.595 43.801 0.704 -35.827 0.704 -35.827 0.595 43.801 
204.693 0.609 42.563 0.688 -36.785 0.688 -36.785 0.609 42.563 
214.388 0.623 41.32 0.672 -37.732 0.672 -37.732 0.623 41.32 
224.541 0.637 40.072 0.656 -38.666 0.656 -38.666 0.637 40.072 
235.176 0.65 38.824 0.64 -39.581 0.64 -39.581 0.65 38.824 
246.314 0.663 37.576 0.623 -40.475 0.623 -40.475 0.663 37.576 
257.98 0.676 36.331 0.606 -41.343 0.606 -41.343 0.676 36.331 
270.198 0.688 35.091 0.589 -42.181 0.589 -42.181 0.688 35.091 
282.995 0.7 33.858 0.572 -42.985 0.572 -42.985 0.7 33.858 
296.398 0.712 32.636 0.555 -43.75 0.555 -43.75 0.712 32.636 
310.436 0.722 31.425 0.538 -44.472 0.538 -44.472 0.722 31.425 
325.139 0.733 30.228 0.52 -45.145 0.52 -45.145 0.733 30.228 
340.538 0.742 29.048 0.503 -45.766 0.503 -45.766 0.742 29.048 
356.666 0.752 27.886 0.486 -46.329 0.486 -46.329 0.752 27.886 
373.558 0.76 26.744 0.469 -46.83 0.469 -46.83 0.76 26.744 
391.25 0.769 25.625 0.453 -47.264 0.453 -47.264 0.769 25.625 
409.781 0.776 24.529 0.436 -47.626 0.436 -47.626 0.776 24.529 
429.188 0.783 23.46 0.42 -47.913 0.42 -47.913 0.783 23.46 
449.515 0.79 22.418 0.404 -48.121 0.404 -48.121 0.79 22.418 
470.805 0.796 21.405 0.389 -48.246 0.389 -48.246 0.796 21.405 
493.103 0.801 20.421 0.374 -48.286 0.374 -48.286 0.801 20.421 
516.457 0.806 19.469 0.36 -48.237 0.36 -48.237 0.806 19.469 
540.917 0.811 18.549 0.347 -48.1 0.347 -48.1 0.811 18.549 
566.536 0.815 17.662 0.333 -47.872 0.333 -47.872 0.815 17.662 
593.368 0.818 16.809 0.321 -47.555 0.321 -47.555 0.818 16.809 
621.47 0.822 15.989 0.309 -47.148 0.309 -47.148 0.822 15.989 
650.904 0.825 15.203 0.297 -46.656 0.297 -46.656 0.825 15.203 
681.732 0.827 14.45 0.287 -46.08 0.287 -46.08 0.827 14.45 
714.019 0.83 13.732 0.276 -45.425 0.276 -45.425 0.83 13.732 
747.836 0.832 13.046 0.267 -44.695 0.267 -44.695 0.832 13.046 
783.255 0.834 12.394 0.258 -43.898 0.258 -43.898 0.834 12.394 
820.351 0.835 11.773 0.25 -43.04 0.25 -43.04 0.835 11.773 
859.204 0.836 11.183 0.242 -42.127 0.242 -42.127 0.836 11.183 
899.897 0.838 10.624 0.235 -41.167 0.235 -41.167 0.838 10.624 
942.517 0.839 10.094 0.228 -40.169 0.228 -40.169 0.839 10.094 
987.156 0.84 9.591 0.222 -39.14 0.222 -39.14 0.84 9.591 
1033.909 0.841 9.116 0.216 -38.088 0.216 -38.088 0.841 9.116 
1082.877 0.841 8.666 0.211 -37.02 0.211 -37.02 0.841 8.666 
1134.163 0.842 8.241 0.206 -35.942 0.206 -35.942 0.842 8.241 
1187.879 0.843 7.839 0.201 -34.863 0.201 -34.863 0.843 7.839 
1244.138 0.843 7.46 0.197 -33.787 0.197 -33.787 0.843 7.46 
1303.062 0.844 7.101 0.193 -32.719 0.193 -32.719 0.844 7.101 
1364.777 0.845 6.761 0.189 -31.663 0.189 -31.663 0.845 6.761 
1429.415 0.845 6.441 0.186 -30.624 0.186 -30.624 0.845 6.441 
1497.114 0.846 6.137 0.183 -29.605 0.183 -29.605 0.846 6.137 
1568.019 0.846 5.85 0.18 -28.608 0.18 -28.608 0.846 5.85 
1642.283 0.847 5.579 0.177 -27.634 0.177 -27.634 0.847 5.579 
1720.063 0.847 5.322 0.175 -26.686 0.175 -26.686 0.847 5.322 
1801.528 0.848 5.078 0.173 -25.765 0.173 -25.765 0.848 5.078 
1886.851 0.848 4.847 0.17 -24.87 0.17 -24.87 0.848 4.847 
1976.214 0.849 4.628 0.168 -24.002 0.168 -24.002 0.849 4.628 
2069.811 0.849 4.421 0.166 -23.161 0.166 -23.161 0.849 4.421 
2167.84 0.85 4.224 0.165 -22.348 0.165 -22.348 0.85 4.224 
2270.512 0.851 4.036 0.163 -21.561 0.163 -21.561 0.851 4.036 
2378.046 0.851 3.858 0.161 -20.801 0.161 -20.801 0.851 3.858 
2490.674 0.852 3.689 0.16 -20.066 0.16 -20.066 0.852 3.689 
2608.635 0.852 3.528 0.158 -19.355 0.158 -19.355 0.852 3.528 
2732.184 0.853 3.375 0.157 -18.67 0.157 -18.67 0.853 3.375 
2861.584 0.853 3.229 0.155 -18.007 0.155 -18.007 0.853 3.229 
2997.112 0.854 3.09 0.154 -17.368 0.154 -17.368 0.854 3.09 
3139.06 0.855 2.957 0.153 -16.75 0.153 -16.75 0.855 2.957 
3287.73 0.855 2.83 0.152 -16.154 0.152 -16.154 0.855 2.83 
3443.441 0.856 2.71 0.151 -15.578 0.151 -15.578 0.856 2.71 
3606.527 0.856 2.594 0.15 -15.022 0.15 -15.022 0.856 2.594 
3777.337 0.857 2.484 0.149 -14.486 0.149 -14.486 0.857 2.484 
3956.237 0.858 2.379 0.148 -13.967 0.148 -13.967 0.858 2.379 
4143.61 0.858 2.279 0.147 -13.467 0.147 -13.467 0.858 2.279 
4339.857 0.859 2.183 0.146 -12.983 0.146 -12.983 0.859 2.183 
4545.398 0.859 2.091 0.145 -12.517 0.145 -12.517 0.859 2.091 
4760.675 0.86 2.003 0.144 -12.066 0.144 -12.066 0.86 2.003 
4986.147 0.86 1.919 0.143 -11.631 0.143 -11.631 0.86 1.919 
5222.297 0.861 1.839 0.142 -11.21 0.142 -11.21 0.861 1.839 
5469.633 0.862 1.762 0.141 -10.805 0.141 -10.805 0.862 1.762 
5728.682 0.862 1.689 0.141 -10.413 0.141 -10.413 0.862 1.689 
6000 0.863 1.618 0.14 -10.034 0.14 -10.034 0.863 1.618 
