# MHz S MA R 50

1 0.025 72.066 0.993 -1.381 0.993 -1.381 0.025 72.066 
1.047 0.026 72.588 0.992 -1.444 0.992 -1.444 0.026 72.588 
1.097 0.027 73.085 0.992 -1.51 0.992 -1.51 0.027 73.085 
1.149 0.029 73.557 0.992 -1.579 0.992 -1.579 0.029 73.557 
1.203 0.03 74.004 0.992 -1.651 0.992 -1.651 0.03 74.004 
1.26 0.031 74.428 0.992 -1.726 0.992 -1.726 0.031 74.428 
1.32 0.032 74.829 0.992 -1.805 0.992 -1.805 0.032 74.829 
1.383 0.034 75.207 0.992 -1.887 0.992 -1.887 0.034 75.207 
1.448 0.035 75.562 0.992 -1.974 0.992 -1.974 0.035 75.562 
1.517 0.037 75.896 0.992 -2.064 0.992 -2.064 0.037 75.896 
1.588 0.038 76.208 0.992 -2.158 0.992 -2.158 0.038 76.208 
1.664 0.04 76.498 0.991 -2.256 0.991 -2.256 0.04 76.498 
1.742 0.042 76.768 0.991 -2.359 0.991 -2.359 0.042 76.768 
1.825 0.044 77.017 0.991 -2.466 0.991 -2.466 0.044 77.017 
1.911 0.046 77.247 0.991 -2.579 0.991 -2.579 0.046 77.247 
2.002 0.048 77.456 0.991 -2.696 0.991 -2.696 0.048 77.456 
2.097 0.05 77.646 0.991 -2.819 0.991 -2.819 0.05 77.646 
2.196 0.052 77.816 0.99 -2.947 0.99 -2.947 0.052 77.816 
2.3 0.054 77.968 0.99 -3.082 0.99 -3.082 0.054 77.968 
2.409 0.057 78.1 0.99 -3.222 0.99 -3.222 0.057 78.1 
2.523 0.059 78.214 0.99 -3.368 0.99 -3.368 0.059 78.214 
2.643 0.062 78.31 0.989 -3.521 0.989 -3.521 0.062 78.31 
2.768 0.065 78.387 0.989 -3.681 0.989 -3.681 0.065 78.387 
2.899 0.068 78.446 0.989 -3.849 0.989 -3.849 0.068 78.446 
3.036 0.071 78.487 0.988 -4.023 0.988 -4.023 0.071 78.487 
3.18 0.074 78.51 0.988 -4.206 0.988 -4.206 0.074 78.51 
3.331 0.077 78.515 0.988 -4.396 0.988 -4.396 0.077 78.515 
3.488 0.081 78.502 0.987 -4.596 0.987 -4.596 0.081 78.502 
3.653 0.084 78.471 0.987 -4.804 0.987 -4.804 0.084 78.471 
3.826 0.088 78.421 0.986 -5.021 0.986 -5.021 0.088 78.421 
4.008 0.092 78.354 0.986 -5.248 0.986 -5.248 0.092 78.354 
4.198 0.096 78.268 0.985 -5.485 0.985 -5.485 0.096 78.268 
4.396 0.1 78.164 0.984 -5.733 0.984 -5.733 0.1 78.164 
4.605 0.105 78.041 0.984 -5.991 0.984 -5.991 0.105 78.041 
4.823 0.11 77.9 0.983 -6.261 0.983 -6.261 0.11 77.9 
5.051 0.115 77.739 0.982 -6.542 0.982 -6.542 0.115 77.739 
5.29 0.12 77.559 0.981 -6.836 0.981 -6.836 0.12 77.559 
5.541 0.125 77.36 0.98 -7.143 0.98 -7.143 0.125 77.36 
5.803 0.13 77.141 0.979 -7.463 0.979 -7.463 0.13 77.141 
6.078 0.136 76.902 0.978 -7.797 0.978 -7.797 0.136 76.902 
6.366 0.142 76.643 0.977 -8.145 0.977 -8.145 0.142 76.643 
6.667 0.149 76.363 0.976 -8.508 0.976 -8.508 0.149 76.363 
6.983 0.155 76.062 0.974 -8.887 0.974 -8.887 0.155 76.062 
7.314 0.162 75.739 0.973 -9.281 0.973 -9.281 0.162 75.739 
7.66 0.169 75.395 0.971 -9.693 0.971 -9.693 0.169 75.395 
8.023 0.176 75.028 0.97 -10.121 0.97 -10.121 0.176 75.028 
8.403 0.184 74.638 0.968 -10.567 0.968 -10.567 0.184 74.638 
8.801 0.192 74.226 0.966 -11.031 0.966 -11.031 0.192 74.226 
9.218 0.2 73.789 0.963 -11.515 0.963 -11.515 0.2 73.789 
9.655 0.209 73.329 0.961 -12.018 0.961 -12.018 0.209 73.329 
10.112 0.218 72.844 0.959 -12.54 0.959 -12.54 0.218 72.844 
10.591 0.227 72.334 0.956 -13.084 0.956 -13.084 0.227 72.334 
11.092 0.237 71.799 0.953 -13.649 0.953 -13.649 0.237 71.799 
11.618 0.247 71.237 0.95 -14.235 0.95 -14.235 0.247 71.237 
12.168 0.257 70.65 0.946 -14.844 0.946 -14.844 0.257 70.65 
12.744 0.268 70.036 0.943 -15.476 0.943 -15.476 0.268 70.036 
13.348 0.279 69.395 0.939 -16.131 0.939 -16.131 0.279 69.395 
13.98 0.29 68.726 0.935 -16.809 0.935 -16.809 0.29 68.726 
14.642 0.302 68.03 0.93 -17.511 0.93 -17.511 0.302 68.03 
15.335 0.314 67.306 0.925 -18.238 0.925 -18.238 0.314 67.306 
16.062 0.326 66.554 0.92 -18.989 0.92 -18.989 0.326 66.554 
16.822 0.339 65.774 0.915 -19.764 0.915 -19.764 0.339 65.774 
17.619 0.352 64.966 0.909 -20.565 0.909 -20.565 0.352 64.966 
18.454 0.366 64.129 0.903 -21.39 0.903 -21.39 0.366 64.129 
19.328 0.38 63.265 0.896 -22.24 0.896 -22.24 0.38 63.265 
20.243 0.394 62.374 0.889 -23.114 0.889 -23.114 0.394 62.374 
21.202 0.408 61.455 0.881 -24.012 0.881 -24.012 0.408 61.455 
22.206 0.423 60.509 0.873 -24.933 0.873 -24.933 0.423 60.509 
23.258 0.438 59.537 0.865 -25.878 0.865 -25.878 0.438 59.537 
24.359 0.453 58.54 0.856 -26.845 0.856 -26.845 0.453 58.54 
25.513 0.468 57.518 0.846 -27.833 0.846 -27.833 0.468 57.518 
26.721 0.484 56.473 0.836 -28.842 0.836 -28.842 0.484 56.473 
27.987 0.5 55.406 0.826 -29.87 0.826 -29.87 0.5 55.406 
29.312 0.516 54.317 0.815 -30.915 0.815 -30.915 0.516 54.317 
30.7 0.531 53.21 0.804 -31.978 0.804 -31.978 0.531 53.21 
32.154 0.547 52.084 0.792 -33.055 0.792 -33.055 0.547 52.084 
33.677 0.563 50.943 0.779 -34.145 0.779 -34.145 0.563 50.943 
35.272 0.579 49.787 0.767 -35.247 0.767 -35.247 0.579 49.787 
36.943 0.595 48.618 0.753 -36.358 0.753 -36.358 0.595 48.618 
38.693 0.611 47.44 0.739 -37.476 0.739 -37.476 0.611 47.44 
40.525 0.626 46.253 0.725 -38.6 0.725 -38.6 0.626 46.253 
42.444 0.642 45.061 0.711 -39.726 0.711 -39.726 0.642 45.061 
44.455 0.657 43.864 0.696 -40.853 0.696 -40.853 0.657 43.864 
46.56 0.672 42.666 0.681 -41.979 0.681 -41.979 0.672 42.666 
48.765 0.686 41.469 0.665 -43.1 0.665 -43.1 0.686 41.469 
51.075 0.701 40.276 0.649 -44.216 0.649 -44.216 0.701 40.276 
53.494 0.714 39.087 0.634 -45.323 0.634 -45.323 0.714 39.087 
56.027 0.728 37.906 0.617 -46.42 0.617 -46.42 0.728 37.906 
58.681 0.741 36.734 0.601 -47.504 0.601 -47.504 0.741 36.734 
61.46 0.754 35.574 0.585 -48.574 0.585 -48.574 0.754 35.574 
64.371 0.766 34.427 0.568 -49.627 0.568 -49.627 0.766 34.427 
67.42 0.778 33.295 0.552 -50.661 0.552 -50.661 0.778 33.295 
70.613 0.789 32.18 0.536 -51.676 0.536 -51.676 0.789 32.18 
73.957 0.8 31.083 0.519 -52.668 0.519 -52.668 0.8 31.083 
77.46 0.81 30.006 0.503 -53.638 0.503 -53.638 0.81 30.006 
81.128 0.82 28.949 0.487 -54.583 0.487 -54.583 0.82 28.949 
84.971 0.83 27.915 0.471 -55.503 0.471 -55.503 0.83 27.915 
88.995 0.839 26.903 0.456 -56.396 0.456 -56.396 0.839 26.903 
93.21 0.847 25.915 0.44 -57.262 0.44 -57.262 0.847 25.915 
97.624 0.855 24.951 0.425 -58.1 0.425 -58.1 0.855 24.951 
102.248 0.863 24.012 0.41 -58.909 0.41 -58.909 0.863 24.012 
107.091 0.87 23.097 0.395 -59.688 0.395 -59.688 0.87 23.097 
112.163 0.877 22.208 0.381 -60.438 0.381 -60.438 0.877 22.208 
117.475 0.884 21.345 0.367 -61.158 0.367 -61.158 0.884 21.345 
123.039 0.89 20.507 0.353 -61.848 0.353 -61.848 0.89 20.507 
128.866 0.895 19.694 0.34 -62.507 0.34 -62.507 0.895 19.694 
134.969 0.901 18.907 0.327 -63.135 0.327 -63.135 0.901 18.907 
141.361 0.906 18.144 0.315 -63.733 0.315 -63.733 0.906 18.144 
148.056 0.911 17.407 0.302 -64.301 0.302 -64.301 0.911 17.407 
155.069 0.915 16.694 0.29 -64.838 0.29 -64.838 0.915 16.694 
162.413 0.919 16.004 0.279 -65.344 0.279 -65.344 0.919 16.004 
170.105 0.923 15.338 0.268 -65.82 0.268 -65.82 0.923 15.338 
178.161 0.927 14.696 0.257 -66.265 0.257 -66.265 0.927 14.696 
186.599 0.93 14.075 0.246 -66.68 0.246 -66.68 0.93 14.075 
195.437 0.934 13.477 0.236 -67.065 0.236 -67.065 0.934 13.477 
204.693 0.937 12.9 0.226 -67.419 0.226 -67.419 0.937 12.9 
214.388 0.94 12.344 0.217 -67.742 0.217 -67.742 0.94 12.344 
224.541 0.942 11.807 0.208 -68.034 0.208 -68.034 0.942 11.807 
235.176 0.945 11.291 0.199 -68.295 0.199 -68.295 0.945 11.291 
246.314 0.947 10.793 0.191 -68.524 0.191 -68.524 0.947 10.793 
257.98 0.949 10.314 0.182 -68.72 0.182 -68.72 0.949 10.314 
270.198 0.951 9.852 0.174 -68.884 0.174 -68.884 0.951 9.852 
282.995 0.953 9.408 0.167 -69.014 0.167 -69.014 0.953 9.408 
296.398 0.955 8.98 0.16 -69.109 0.16 -69.109 0.955 8.98 
310.436 0.956 8.567 0.152 -69.168 0.152 -69.168 0.956 8.567 
325.139 0.958 8.171 0.146 -69.189 0.146 -69.189 0.958 8.171 
340.538 0.959 7.789 0.139 -69.17 0.139 -69.17 0.959 7.789 
356.666 0.961 7.421 0.133 -69.111 0.133 -69.111 0.961 7.421 
373.558 0.962 7.068 0.127 -69.008 0.127 -69.008 0.962 7.068 
391.25 0.963 6.727 0.121 -68.858 0.121 -68.858 0.963 6.727 
409.781 0.964 6.4 0.115 -68.66 0.115 -68.66 0.964 6.4 
429.188 0.965 6.084 0.11 -68.409 0.11 -68.409 0.965 6.084 
449.515 0.966 5.781 0.105 -68.103 0.105 -68.103 0.966 5.781 
470.805 0.967 5.489 0.1 -67.736 0.1 -67.736 0.967 5.489 
493.103 0.967 5.209 0.095 -67.305 0.095 -67.305 0.967 5.209 
516.457 0.968 4.939 0.091 -66.805 0.091 -66.805 0.968 4.939 
540.917 0.968 4.679 0.086 -66.232 0.086 -66.232 0.968 4.679 
566.536 0.969 4.43 0.082 -65.578 0.082 -65.578 0.969 4.43 
593.368 0.969 4.191 0.078 -64.84 0.078 -64.84 0.969 4.191 
621.47 0.97 3.961 0.075 -64.011 0.075 -64.011 0.97 3.961 
650.904 0.97 3.741 0.071 -63.087 0.071 -63.087 0.97 3.741 
681.732 0.97 3.529 0.068 -62.061 0.068 -62.061 0.97 3.529 
714.019 0.97 3.327 0.064 -60.929 0.064 -60.929 0.97 3.327 
747.836 0.97 3.133 0.061 -59.688 0.061 -59.688 0.97 3.133 
783.255 0.97 2.948 0.059 -58.333 0.059 -58.333 0.97 2.948 
820.351 0.971 2.771 0.056 -56.865 0.056 -56.865 0.971 2.771 
859.204 0.97 2.603 0.054 -55.283 0.054 -55.283 0.97 2.603 
899.897 0.97 2.442 0.051 -53.59 0.051 -53.59 0.97 2.442 
942.517 0.97 2.29 0.049 -51.793 0.049 -51.793 0.97 2.29 
987.156 0.97 2.145 0.047 -49.898 0.047 -49.898 0.97 2.145 
1033.909 0.97 2.007 0.046 -47.917 0.046 -47.917 0.97 2.007 
1082.877 0.97 1.877 0.044 -45.865 0.044 -45.865 0.97 1.877 
1134.163 0.969 1.755 0.043 -43.758 0.043 -43.758 0.969 1.755 
1187.879 0.969 1.639 0.042 -41.615 0.042 -41.615 0.969 1.639 
1244.138 0.969 1.53 0.041 -39.454 0.041 -39.454 0.969 1.53 
1303.062 0.969 1.427 0.04 -37.298 0.04 -37.298 0.969 1.427 
1364.777 0.968 1.331 0.039 -35.164 0.039 -35.164 0.968 1.331 
1429.415 0.968 1.242 0.038 -33.074 0.038 -33.074 0.968 1.242 
1497.114 0.968 1.158 0.038 -31.042 0.038 -31.042 0.968 1.158 
1568.019 0.967 1.08 0.037 -29.083 0.037 -29.083 0.967 1.08 
1642.283 0.967 1.007 0.037 -27.209 0.037 -27.209 0.967 1.007 
1720.063 0.967 0.939 0.037 -25.427 0.037 -25.427 0.967 0.939 
1801.528 0.967 0.876 0.037 -23.745 0.037 -23.745 0.967 0.876 
1886.851 0.966 0.818 0.037 -22.163 0.037 -22.163 0.966 0.818 
1976.214 0.966 0.764 0.036 -20.685 0.036 -20.685 0.966 0.764 
2069.811 0.966 0.714 0.036 -19.307 0.036 -19.307 0.966 0.714 
2167.84 0.966 0.668 0.036 -18.028 0.036 -18.028 0.966 0.668 
2270.512 0.965 0.625 0.036 -16.843 0.036 -16.843 0.965 0.625 
2378.046 0.965 0.585 0.036 -15.749 0.036 -15.749 0.965 0.585 
2490.674 0.965 0.549 0.036 -14.739 0.036 -14.739 0.965 0.549 
2608.635 0.965 0.515 0.036 -13.808 0.036 -13.808 0.965 0.515 
2732.184 0.965 0.484 0.036 -12.951 0.036 -12.951 0.965 0.484 
2861.584 0.964 0.455 0.036 -12.162 0.036 -12.162 0.964 0.455 
2997.112 0.964 0.429 0.036 -11.436 0.036 -11.436 0.964 0.429 
3139.06 0.964 0.404 0.036 -10.767 0.036 -10.767 0.964 0.404 
3287.73 0.964 0.381 0.036 -10.15 0.036 -10.15 0.964 0.381 
3443.441 0.964 0.36 0.036 -9.581 0.036 -9.581 0.964 0.36 
3606.527 0.964 0.341 0.036 -9.055 0.036 -9.055 0.964 0.341 
3777.337 0.964 0.322 0.036 -8.57 0.036 -8.57 0.964 0.322 
3956.237 0.964 0.305 0.036 -8.12 0.036 -8.12 0.964 0.305 
4143.61 0.964 0.29 0.036 -7.703 0.036 -7.703 0.964 0.29 
4339.857 0.964 0.275 0.036 -7.316 0.036 -7.316 0.964 0.275 
4545.398 0.964 0.261 0.036 -6.955 0.036 -6.955 0.964 0.261 
4760.675 0.964 0.248 0.036 -6.619 0.036 -6.619 0.964 0.248 
4986.147 0.964 0.236 0.036 -6.306 0.036 -6.306 0.964 0.236 
5222.297 0.964 0.225 0.036 -6.013 0.036 -6.013 0.964 0.225 
5469.633 0.964 0.214 0.036 -5.738 0.036 -5.738 0.964 0.214 
5728.682 0.964 0.205 0.036 -5.48 0.036 -5.48 0.964 0.205 
6000 0.964 0.195 0.036 -5.238 0.036 -5.238 0.964 0.195 
