# MHz S MA R 50

1 9.92e-3 71.086 0.997 -0.539 0.997 -0.539 9.92e-3 71.086 
1.047 0.01 71.715 0.997 -0.564 0.997 -0.564 0.01 71.715 
1.097 0.011 72.319 0.997 -0.59 0.997 -0.59 0.011 72.319 
1.149 0.011 72.899 0.997 -0.617 0.997 -0.617 0.011 72.899 
1.203 0.012 73.454 0.997 -0.645 0.997 -0.645 0.012 73.454 
1.26 0.012 73.985 0.997 -0.674 0.997 -0.674 0.012 73.985 
1.32 0.013 74.493 0.997 -0.705 0.997 -0.705 0.013 74.493 
1.383 0.013 74.978 0.997 -0.738 0.997 -0.738 0.013 74.978 
1.448 0.014 75.441 0.997 -0.771 0.997 -0.771 0.014 75.441 
1.517 0.014 75.882 0.997 -0.806 0.997 -0.806 0.014 75.882 
1.588 0.015 76.302 0.997 -0.843 0.997 -0.843 0.015 76.302 
1.664 0.016 76.701 0.996 -0.882 0.996 -0.882 0.016 76.701 
1.742 0.016 77.081 0.996 -0.922 0.996 -0.922 0.016 77.081 
1.825 0.017 77.441 0.996 -0.964 0.996 -0.964 0.017 77.441 
1.911 0.018 77.782 0.996 -1.008 0.996 -1.008 0.018 77.782 
2.002 0.019 78.104 0.996 -1.054 0.996 -1.054 0.019 78.104 
2.097 0.02 78.408 0.996 -1.102 0.996 -1.102 0.02 78.408 
2.196 0.02 78.695 0.996 -1.153 0.996 -1.153 0.02 78.695 
2.3 0.021 78.964 0.996 -1.205 0.996 -1.205 0.021 78.964 
2.409 0.022 79.216 0.996 -1.26 0.996 -1.26 0.022 79.216 
2.523 0.023 79.453 0.996 -1.318 0.996 -1.318 0.023 79.453 
2.643 0.024 79.673 0.996 -1.378 0.996 -1.378 0.024 79.673 
2.768 0.025 79.877 0.996 -1.441 0.996 -1.441 0.025 79.877 
2.899 0.027 80.067 0.996 -1.506 0.996 -1.506 0.027 80.067 
3.036 0.028 80.241 0.996 -1.575 0.996 -1.575 0.028 80.241 
3.18 0.029 80.4 0.996 -1.647 0.996 -1.647 0.029 80.4 
3.331 0.03 80.546 0.995 -1.722 0.995 -1.722 0.03 80.546 
3.488 0.032 80.676 0.995 -1.8 0.995 -1.8 0.032 80.676 
3.653 0.033 80.794 0.995 -1.882 0.995 -1.882 0.033 80.794 
3.826 0.035 80.897 0.995 -1.968 0.995 -1.968 0.035 80.897 
4.008 0.036 80.987 0.995 -2.058 0.995 -2.058 0.036 80.987 
4.198 0.038 81.063 0.995 -2.151 0.995 -2.151 0.038 81.063 
4.396 0.04 81.126 0.995 -2.249 0.995 -2.249 0.04 81.126 
4.605 0.041 81.177 0.995 -2.351 0.995 -2.351 0.041 81.177 
4.823 0.043 81.214 0.994 -2.458 0.994 -2.458 0.043 81.214 
5.051 0.045 81.238 0.994 -2.57 0.994 -2.57 0.045 81.238 
5.29 0.047 81.25 0.994 -2.687 0.994 -2.687 0.047 81.25 
5.541 0.049 81.249 0.994 -2.809 0.994 -2.809 0.049 81.249 
5.803 0.051 81.235 0.993 -2.936 0.993 -2.936 0.051 81.235 
6.078 0.054 81.208 0.993 -3.069 0.993 -3.069 0.054 81.208 
6.366 0.056 81.169 0.993 -3.209 0.993 -3.209 0.056 81.169 
6.667 0.059 81.116 0.993 -3.354 0.993 -3.354 0.059 81.116 
6.983 0.061 81.051 0.992 -3.506 0.992 -3.506 0.061 81.051 
7.314 0.064 80.973 0.992 -3.665 0.992 -3.665 0.064 80.973 
7.66 0.067 80.882 0.992 -3.831 0.992 -3.831 0.067 80.882 
8.023 0.07 80.778 0.991 -4.004 0.991 -4.004 0.07 80.778 
8.403 0.073 80.66 0.991 -4.185 0.991 -4.185 0.073 80.66 
8.801 0.077 80.529 0.99 -4.374 0.99 -4.374 0.077 80.529 
9.218 0.08 80.385 0.99 -4.571 0.99 -4.571 0.08 80.385 
9.655 0.084 80.226 0.989 -4.777 0.989 -4.777 0.084 80.226 
10.112 0.087 80.054 0.989 -4.993 0.989 -4.993 0.087 80.054 
10.591 0.091 79.867 0.988 -5.217 0.988 -5.217 0.091 79.867 
11.092 0.095 79.665 0.987 -5.452 0.987 -5.452 0.095 79.665 
11.618 0.1 79.449 0.987 -5.697 0.987 -5.697 0.1 79.449 
12.168 0.104 79.218 0.986 -5.952 0.986 -5.952 0.104 79.218 
12.744 0.109 78.971 0.985 -6.219 0.985 -6.219 0.109 78.971 
13.348 0.114 78.708 0.984 -6.497 0.984 -6.497 0.114 78.708 
13.98 0.119 78.429 0.983 -6.787 0.983 -6.787 0.119 78.429 
14.642 0.124 78.134 0.982 -7.09 0.982 -7.09 0.124 78.134 
15.335 0.129 77.821 0.981 -7.406 0.981 -7.406 0.129 77.821 
16.062 0.135 77.491 0.98 -7.735 0.98 -7.735 0.135 77.491 
16.822 0.141 77.144 0.978 -8.078 0.978 -8.078 0.141 77.144 
17.619 0.147 76.778 0.977 -8.435 0.977 -8.435 0.147 76.778 
18.454 0.154 76.393 0.975 -8.808 0.975 -8.808 0.154 76.393 
19.328 0.16 75.99 0.974 -9.196 0.974 -9.196 0.16 75.99 
20.243 0.167 75.566 0.972 -9.6 0.972 -9.6 0.167 75.566 
21.202 0.175 75.123 0.97 -10.02 0.97 -10.02 0.175 75.123 
22.206 0.182 74.659 0.968 -10.458 0.968 -10.458 0.182 74.659 
23.258 0.19 74.174 0.966 -10.913 0.966 -10.913 0.19 74.174 
24.359 0.198 73.667 0.963 -11.387 0.963 -11.387 0.198 73.667 
25.513 0.207 73.139 0.961 -11.879 0.961 -11.879 0.207 73.139 
26.721 0.215 72.587 0.958 -12.39 0.958 -12.39 0.215 72.587 
27.987 0.224 72.013 0.955 -12.921 0.955 -12.921 0.224 72.013 
29.312 0.234 71.415 0.952 -13.472 0.952 -13.472 0.234 71.415 
30.7 0.244 70.794 0.948 -14.044 0.948 -14.044 0.244 70.794 
32.154 0.254 70.148 0.944 -14.637 0.944 -14.637 0.254 70.148 
33.677 0.264 69.477 0.941 -15.251 0.941 -15.251 0.264 69.477 
35.272 0.275 68.781 0.936 -15.887 0.936 -15.887 0.275 68.781 
36.943 0.286 68.059 0.932 -16.545 0.932 -16.545 0.286 68.059 
38.693 0.297 67.312 0.927 -17.226 0.927 -17.226 0.297 67.312 
40.525 0.309 66.54 0.922 -17.929 0.922 -17.929 0.309 66.54 
42.444 0.321 65.741 0.916 -18.654 0.916 -18.654 0.321 65.741 
44.455 0.334 64.916 0.91 -19.403 0.91 -19.403 0.334 64.916 
46.56 0.347 64.065 0.904 -20.174 0.904 -20.174 0.347 64.065 
48.765 0.36 63.188 0.897 -20.968 0.897 -20.968 0.36 63.188 
51.075 0.373 62.285 0.89 -21.784 0.89 -21.784 0.373 62.285 
53.494 0.387 61.356 0.882 -22.622 0.882 -22.622 0.387 61.356 
56.027 0.401 60.403 0.874 -23.481 0.874 -23.481 0.401 60.403 
58.681 0.415 59.425 0.866 -24.361 0.866 -24.361 0.415 59.425 
61.46 0.429 58.422 0.857 -25.262 0.857 -25.262 0.429 58.422 
64.371 0.444 57.397 0.848 -26.182 0.848 -26.182 0.444 57.397 
67.42 0.459 56.349 0.838 -27.121 0.838 -27.121 0.459 56.349 
70.613 0.474 55.279 0.827 -28.077 0.827 -28.077 0.474 55.279 
73.957 0.489 54.19 0.817 -29.049 0.817 -29.049 0.489 54.19 
77.46 0.504 53.081 0.805 -30.035 0.805 -30.035 0.504 53.081 
81.128 0.519 51.955 0.793 -31.035 0.793 -31.035 0.519 51.955 
84.971 0.535 50.813 0.781 -32.046 0.781 -32.046 0.535 50.813 
88.995 0.55 49.656 0.768 -33.067 0.768 -33.067 0.55 49.656 
93.21 0.565 48.486 0.755 -34.095 0.755 -34.095 0.565 48.486 
97.624 0.58 47.305 0.741 -35.129 0.741 -35.129 0.58 47.305 
102.248 0.596 46.115 0.727 -36.166 0.727 -36.166 0.596 46.115 
107.091 0.61 44.918 0.713 -37.205 0.713 -37.205 0.61 44.918 
112.163 0.625 43.716 0.698 -38.242 0.698 -38.242 0.625 43.716 
117.475 0.64 42.511 0.683 -39.276 0.683 -39.276 0.64 42.511 
123.039 0.654 41.305 0.667 -40.304 0.667 -40.304 0.654 41.305 
128.866 0.668 40.1 0.651 -41.323 0.651 -41.323 0.668 40.1 
134.969 0.681 38.898 0.635 -42.33 0.635 -42.33 0.681 38.898 
141.361 0.695 37.701 0.619 -43.324 0.619 -43.324 0.695 37.701 
148.056 0.708 36.511 0.603 -44.301 0.603 -44.301 0.708 36.511 
155.069 0.72 35.33 0.586 -45.259 0.586 -45.259 0.72 35.33 
162.413 0.732 34.161 0.57 -46.196 0.57 -46.196 0.732 34.161 
170.105 0.744 33.004 0.553 -47.108 0.553 -47.108 0.744 33.004 
178.161 0.755 31.861 0.536 -47.992 0.536 -47.992 0.755 31.861 
186.599 0.766 30.734 0.52 -48.848 0.52 -48.848 0.766 30.734 
195.437 0.776 29.625 0.503 -49.671 0.503 -49.671 0.776 29.625 
204.693 0.786 28.534 0.487 -50.459 0.487 -50.459 0.786 28.534 
214.388 0.795 27.464 0.47 -51.211 0.47 -51.211 0.795 27.464 
224.541 0.804 26.415 0.454 -51.922 0.454 -51.922 0.804 26.415 
235.176 0.812 25.388 0.438 -52.592 0.438 -52.592 0.812 25.388 
246.314 0.82 24.384 0.423 -53.216 0.423 -53.216 0.82 24.384 
257.98 0.827 23.405 0.407 -53.794 0.407 -53.794 0.827 23.405 
270.198 0.834 22.45 0.392 -54.322 0.392 -54.322 0.834 22.45 
282.995 0.841 21.52 0.378 -54.799 0.378 -54.799 0.841 21.52 
296.398 0.847 20.617 0.363 -55.221 0.363 -55.221 0.847 20.617 
310.436 0.853 19.74 0.349 -55.588 0.349 -55.588 0.853 19.74 
325.139 0.858 18.889 0.335 -55.896 0.335 -55.896 0.858 18.889 
340.538 0.863 18.066 0.322 -56.144 0.322 -56.144 0.863 18.066 
356.666 0.868 17.269 0.309 -56.33 0.309 -56.33 0.868 17.269 
373.558 0.872 16.5 0.297 -56.453 0.297 -56.453 0.872 16.5 
391.25 0.876 15.758 0.285 -56.511 0.285 -56.511 0.876 15.758 
409.781 0.879 15.044 0.274 -56.504 0.274 -56.504 0.879 15.044 
429.188 0.882 14.356 0.263 -56.43 0.263 -56.43 0.882 14.356 
449.515 0.885 13.696 0.252 -56.289 0.252 -56.289 0.885 13.696 
470.805 0.888 13.061 0.242 -56.081 0.242 -56.081 0.888 13.061 
493.103 0.89 12.454 0.232 -55.808 0.232 -55.808 0.89 12.454 
516.457 0.893 11.871 0.223 -55.468 0.223 -55.468 0.893 11.871 
540.917 0.895 11.315 0.214 -55.065 0.214 -55.065 0.895 11.315 
566.536 0.897 10.782 0.206 -54.599 0.206 -54.599 0.897 10.782 
593.368 0.898 10.274 0.198 -54.073 0.198 -54.073 0.898 10.274 
621.47 0.9 9.79 0.19 -53.49 0.19 -53.49 0.9 9.79 
650.904 0.901 9.328 0.183 -52.852 0.183 -52.852 0.901 9.328 
681.732 0.903 8.888 0.177 -52.163 0.177 -52.163 0.903 8.888 
714.019 0.904 8.469 0.17 -51.426 0.17 -51.426 0.904 8.469 
747.836 0.905 8.07 0.164 -50.646 0.164 -50.646 0.905 8.07 
783.255 0.906 7.692 0.159 -49.826 0.159 -49.826 0.906 7.692 
820.351 0.907 7.331 0.153 -48.971 0.153 -48.971 0.907 7.331 
859.204 0.908 6.989 0.148 -48.084 0.148 -48.084 0.908 6.989 
899.897 0.908 6.664 0.144 -47.17 0.144 -47.17 0.908 6.664 
942.517 0.909 6.355 0.139 -46.234 0.139 -46.234 0.909 6.355 
987.156 0.91 6.062 0.135 -45.278 0.135 -45.278 0.91 6.062 
1033.909 0.911 5.783 0.131 -44.307 0.131 -44.307 0.911 5.783 
1082.877 0.911 5.518 0.128 -43.324 0.128 -43.324 0.911 5.518 
1134.163 0.912 5.266 0.124 -42.333 0.124 -42.333 0.912 5.266 
1187.879 0.913 5.027 0.121 -41.337 0.121 -41.337 0.913 5.027 
1244.138 0.913 4.8 0.118 -40.339 0.118 -40.339 0.913 4.8 
1303.062 0.914 4.584 0.115 -39.341 0.115 -39.341 0.914 4.584 
1364.777 0.914 4.378 0.113 -38.345 0.113 -38.345 0.914 4.378 
1429.415 0.915 4.183 0.11 -37.355 0.11 -37.355 0.915 4.183 
1497.114 0.916 3.996 0.108 -36.372 0.108 -36.372 0.916 3.996 
1568.019 0.916 3.819 0.105 -35.397 0.105 -35.397 0.916 3.819 
1642.283 0.917 3.65 0.103 -34.432 0.103 -34.432 0.917 3.65 
1720.063 0.917 3.49 0.101 -33.478 0.101 -33.478 0.917 3.49 
1801.528 0.918 3.336 0.099 -32.537 0.099 -32.537 0.918 3.336 
1886.851 0.918 3.19 0.098 -31.61 0.098 -31.61 0.918 3.19 
1976.214 0.919 3.051 0.096 -30.697 0.096 -30.697 0.919 3.051 
2069.811 0.919 2.918 0.094 -29.799 0.094 -29.799 0.919 2.918 
2167.84 0.92 2.791 0.093 -28.917 0.093 -28.917 0.92 2.791 
2270.512 0.921 2.67 0.091 -28.051 0.091 -28.051 0.921 2.67 
2378.046 0.921 2.555 0.09 -27.201 0.09 -27.201 0.921 2.555 
2490.674 0.922 2.445 0.089 -26.369 0.089 -26.369 0.922 2.445 
2608.635 0.922 2.339 0.087 -25.554 0.087 -25.554 0.922 2.339 
2732.184 0.923 2.239 0.086 -24.757 0.086 -24.757 0.923 2.239 
2861.584 0.923 2.143 0.085 -23.977 0.085 -23.977 0.923 2.143 
2997.112 0.924 2.051 0.084 -23.216 0.084 -23.216 0.924 2.051 
3139.06 0.924 1.963 0.083 -22.472 0.083 -22.472 0.924 1.963 
3287.73 0.925 1.879 0.082 -21.746 0.082 -21.746 0.925 1.879 
3443.441 0.925 1.799 0.081 -21.037 0.081 -21.037 0.925 1.799 
3606.527 0.925 1.722 0.08 -20.347 0.08 -20.347 0.925 1.722 
3777.337 0.926 1.648 0.079 -19.674 0.079 -19.674 0.926 1.648 
3956.237 0.926 1.578 0.078 -19.019 0.078 -19.019 0.926 1.578 
4143.61 0.927 1.511 0.077 -18.381 0.077 -18.381 0.927 1.511 
4339.857 0.927 1.447 0.077 -17.761 0.077 -17.761 0.927 1.447 
4545.398 0.928 1.385 0.076 -17.157 0.076 -17.157 0.928 1.385 
4760.675 0.928 1.326 0.075 -16.571 0.075 -16.571 0.928 1.326 
4986.147 0.928 1.27 0.075 -16.001 0.075 -16.001 0.928 1.27 
5222.297 0.929 1.216 0.074 -15.448 0.074 -15.448 0.929 1.216 
5469.633 0.929 1.164 0.073 -14.91 0.073 -14.91 0.929 1.164 
5728.682 0.93 1.115 0.073 -14.389 0.073 -14.389 0.93 1.115 
6000 0.93 1.067 0.072 -13.883 0.072 -13.883 0.93 1.067 
