# MHz S MA R 50

1 0.021 74.484 0.995 -1.158 0.995 -1.158 0.021 74.484 
1.047 0.022 74.932 0.995 -1.211 0.995 -1.211 0.022 74.932 
1.097 0.023 75.357 0.995 -1.266 0.995 -1.266 0.023 75.357 
1.149 0.024 75.76 0.994 -1.324 0.994 -1.324 0.024 75.76 
1.203 0.025 76.142 0.994 -1.385 0.994 -1.385 0.025 76.142 
1.26 0.026 76.502 0.994 -1.448 0.994 -1.448 0.026 76.502 
1.32 0.027 76.842 0.994 -1.514 0.994 -1.514 0.027 76.842 
1.383 0.028 77.162 0.994 -1.583 0.994 -1.583 0.028 77.162 
1.448 0.029 77.462 0.994 -1.655 0.994 -1.655 0.029 77.462 
1.517 0.031 77.743 0.994 -1.73 0.994 -1.73 0.031 77.743 
1.588 0.032 78.005 0.994 -1.809 0.994 -1.809 0.032 78.005 
1.664 0.034 78.248 0.994 -1.892 0.994 -1.892 0.034 78.248 
1.742 0.035 78.474 0.994 -1.978 0.994 -1.978 0.035 78.474 
1.825 0.037 78.681 0.993 -2.068 0.993 -2.068 0.037 78.681 
1.911 0.038 78.871 0.993 -2.162 0.993 -2.162 0.038 78.871 
2.002 0.04 79.044 0.993 -2.261 0.993 -2.261 0.04 79.044 
2.097 0.042 79.2 0.993 -2.364 0.993 -2.364 0.042 79.2 
2.196 0.044 79.339 0.993 -2.471 0.993 -2.471 0.044 79.339 
2.3 0.046 79.462 0.993 -2.584 0.993 -2.584 0.046 79.462 
2.409 0.048 79.569 0.992 -2.701 0.992 -2.701 0.048 79.569 
2.523 0.05 79.659 0.992 -2.824 0.992 -2.824 0.05 79.659 
2.643 0.052 79.734 0.992 -2.952 0.992 -2.952 0.052 79.734 
2.768 0.054 79.793 0.992 -3.086 0.992 -3.086 0.054 79.793 
2.899 0.057 79.836 0.992 -3.226 0.992 -3.226 0.057 79.836 
3.036 0.059 79.864 0.991 -3.373 0.991 -3.373 0.059 79.864 
3.18 0.062 79.876 0.991 -3.526 0.991 -3.526 0.062 79.876 
3.331 0.065 79.872 0.991 -3.686 0.991 -3.686 0.065 79.872 
3.488 0.068 79.853 0.99 -3.853 0.99 -3.853 0.068 79.853 
3.653 0.071 79.819 0.99 -4.027 0.99 -4.027 0.071 79.819 
3.826 0.074 79.769 0.99 -4.209 0.99 -4.209 0.074 79.769 
4.008 0.077 79.703 0.989 -4.4 0.989 -4.4 0.077 79.703 
4.198 0.081 79.622 0.989 -4.599 0.989 -4.599 0.081 79.622 
4.396 0.084 79.525 0.988 -4.806 0.988 -4.806 0.084 79.525 
4.605 0.088 79.412 0.988 -5.023 0.988 -5.023 0.088 79.412 
4.823 0.092 79.283 0.987 -5.25 0.987 -5.25 0.092 79.283 
5.051 0.096 79.137 0.986 -5.486 0.986 -5.486 0.096 79.137 
5.29 0.1 78.975 0.986 -5.733 0.986 -5.733 0.1 78.975 
5.541 0.105 78.796 0.985 -5.991 0.985 -5.991 0.105 78.796 
5.803 0.109 78.601 0.984 -6.26 0.984 -6.26 0.109 78.601 
6.078 0.114 78.388 0.983 -6.54 0.983 -6.54 0.114 78.388 
6.366 0.119 78.157 0.982 -6.833 0.982 -6.833 0.119 78.157 
6.667 0.125 77.908 0.981 -7.139 0.981 -7.139 0.125 77.908 
6.983 0.13 77.642 0.98 -7.458 0.98 -7.458 0.13 77.642 
7.314 0.136 77.356 0.979 -7.79 0.979 -7.79 0.136 77.356 
7.66 0.142 77.052 0.978 -8.137 0.978 -8.137 0.142 77.052 
8.023 0.148 76.728 0.977 -8.498 0.977 -8.498 0.148 76.728 
8.403 0.155 76.385 0.975 -8.875 0.975 -8.875 0.155 76.385 
8.801 0.162 76.021 0.974 -9.267 0.974 -9.267 0.162 76.021 
9.218 0.169 75.636 0.972 -9.676 0.972 -9.676 0.169 75.636 
9.655 0.176 75.231 0.97 -10.101 0.97 -10.101 0.176 75.231 
10.112 0.184 74.804 0.968 -10.544 0.968 -10.544 0.184 74.804 
10.591 0.192 74.355 0.966 -11.006 0.966 -11.006 0.192 74.355 
11.092 0.2 73.883 0.964 -11.485 0.964 -11.485 0.2 73.883 
11.618 0.208 73.389 0.961 -11.984 0.961 -11.984 0.208 73.389 
12.168 0.217 72.87 0.959 -12.503 0.959 -12.503 0.217 72.87 
12.744 0.226 72.328 0.956 -13.042 0.956 -13.042 0.226 72.328 
13.348 0.236 71.762 0.953 -13.601 0.953 -13.601 0.236 71.762 
13.98 0.246 71.171 0.95 -14.182 0.95 -14.182 0.246 71.171 
14.642 0.256 70.555 0.946 -14.785 0.946 -14.785 0.256 70.555 
15.335 0.267 69.913 0.942 -15.409 0.942 -15.409 0.267 69.913 
16.062 0.278 69.245 0.938 -16.056 0.938 -16.056 0.278 69.245 
16.822 0.289 68.551 0.934 -16.727 0.934 -16.727 0.289 68.551 
17.619 0.3 67.83 0.929 -17.42 0.929 -17.42 0.3 67.83 
18.454 0.312 67.082 0.924 -18.137 0.924 -18.137 0.312 67.082 
19.328 0.325 66.308 0.919 -18.877 0.919 -18.877 0.325 66.308 
20.243 0.337 65.507 0.913 -19.641 0.913 -19.641 0.337 65.507 
21.202 0.35 64.679 0.907 -20.429 0.907 -20.429 0.35 64.679 
22.206 0.364 63.824 0.901 -21.241 0.901 -21.241 0.364 63.824 
23.258 0.377 62.942 0.894 -22.076 0.894 -22.076 0.377 62.942 
24.359 0.391 62.034 0.887 -22.934 0.887 -22.934 0.391 62.034 
25.513 0.405 61.101 0.879 -23.815 0.879 -23.815 0.405 61.101 
26.721 0.42 60.141 0.871 -24.719 0.871 -24.719 0.42 60.141 
27.987 0.435 59.157 0.862 -25.644 0.862 -25.644 0.435 59.157 
29.312 0.45 58.149 0.853 -26.59 0.853 -26.59 0.45 58.149 
30.7 0.465 57.118 0.843 -27.556 0.843 -27.556 0.465 57.118 
32.154 0.48 56.065 0.833 -28.542 0.833 -28.542 0.48 56.065 
33.677 0.495 54.991 0.823 -29.544 0.823 -29.544 0.495 54.991 
35.272 0.511 53.897 0.812 -30.564 0.812 -30.564 0.511 53.897 
36.943 0.526 52.786 0.8 -31.598 0.8 -31.598 0.526 52.786 
38.693 0.542 51.658 0.788 -32.646 0.788 -32.646 0.542 51.658 
40.525 0.558 50.515 0.776 -33.705 0.776 -33.705 0.558 50.515 
42.444 0.573 49.359 0.763 -34.774 0.763 -34.774 0.573 49.359 
44.455 0.589 48.192 0.749 -35.851 0.749 -35.851 0.589 48.192 
46.56 0.604 47.016 0.736 -36.934 0.736 -36.934 0.604 47.016 
48.765 0.62 45.833 0.721 -38.02 0.721 -38.02 0.62 45.833 
51.075 0.635 44.646 0.707 -39.108 0.707 -39.108 0.635 44.646 
53.494 0.649 43.455 0.692 -40.196 0.692 -40.196 0.649 43.455 
56.027 0.664 42.264 0.677 -41.281 0.677 -41.281 0.664 42.264 
58.681 0.678 41.075 0.661 -42.36 0.661 -42.36 0.678 41.075 
61.46 0.692 39.889 0.646 -43.433 0.646 -43.433 0.692 39.889 
64.371 0.706 38.71 0.63 -44.496 0.63 -44.496 0.706 38.71 
67.42 0.719 37.538 0.614 -45.548 0.614 -45.548 0.719 37.538 
70.613 0.732 36.376 0.598 -46.586 0.598 -46.586 0.732 36.376 
73.957 0.744 35.226 0.581 -47.608 0.581 -47.608 0.744 35.226 
77.46 0.756 34.09 0.565 -48.613 0.565 -48.613 0.756 34.09 
81.128 0.768 32.968 0.549 -49.599 0.549 -49.599 0.768 32.968 
84.971 0.779 31.864 0.533 -50.565 0.533 -50.565 0.779 31.864 
88.995 0.79 30.778 0.516 -51.508 0.516 -51.508 0.79 30.778 
93.21 0.8 29.711 0.5 -52.427 0.5 -52.427 0.8 29.711 
97.624 0.81 28.664 0.484 -53.322 0.484 -53.322 0.81 28.664 
102.248 0.819 27.64 0.469 -54.191 0.469 -54.191 0.819 27.64 
107.091 0.828 26.637 0.453 -55.032 0.453 -55.032 0.828 26.637 
112.163 0.837 25.658 0.438 -55.846 0.438 -55.846 0.837 25.658 
117.475 0.845 24.703 0.423 -56.631 0.423 -56.631 0.845 24.703 
123.039 0.852 23.771 0.408 -57.387 0.408 -57.387 0.852 23.771 
128.866 0.86 22.864 0.393 -58.113 0.393 -58.113 0.86 22.864 
134.969 0.867 21.982 0.379 -58.809 0.379 -58.809 0.867 21.982 
141.361 0.873 21.125 0.365 -59.474 0.365 -59.474 0.873 21.125 
148.056 0.879 20.292 0.352 -60.108 0.352 -60.108 0.879 20.292 
155.069 0.885 19.484 0.338 -60.711 0.338 -60.711 0.885 19.484 
162.413 0.891 18.701 0.326 -61.282 0.326 -61.282 0.891 18.701 
170.105 0.896 17.941 0.313 -61.822 0.313 -61.822 0.896 17.941 
178.161 0.901 17.206 0.301 -62.33 0.301 -62.33 0.901 17.206 
186.599 0.905 16.495 0.289 -62.806 0.289 -62.806 0.905 16.495 
195.437 0.91 15.806 0.277 -63.25 0.277 -63.25 0.91 15.806 
204.693 0.914 15.141 0.266 -63.662 0.266 -63.662 0.914 15.141 
214.388 0.917 14.497 0.255 -64.042 0.255 -64.042 0.917 14.497 
224.541 0.921 13.876 0.245 -64.389 0.245 -64.389 0.921 13.876 
235.176 0.924 13.275 0.235 -64.702 0.235 -64.702 0.924 13.275 
246.314 0.928 12.695 0.225 -64.983 0.225 -64.983 0.928 12.695 
257.98 0.931 12.135 0.215 -65.229 0.215 -65.229 0.931 12.135 
270.198 0.933 11.595 0.206 -65.44 0.206 -65.44 0.933 11.595 
282.995 0.936 11.073 0.197 -65.616 0.197 -65.616 0.936 11.073 
296.398 0.938 10.569 0.189 -65.755 0.189 -65.755 0.938 10.569 
310.436 0.941 10.083 0.18 -65.856 0.18 -65.856 0.941 10.083 
325.139 0.943 9.614 0.172 -65.918 0.172 -65.918 0.943 9.614 
340.538 0.945 9.161 0.165 -65.939 0.165 -65.939 0.945 9.161 
356.666 0.947 8.723 0.157 -65.916 0.157 -65.916 0.947 8.723 
373.558 0.949 8.301 0.15 -65.847 0.15 -65.847 0.949 8.301 
391.25 0.95 7.893 0.143 -65.73 0.143 -65.73 0.95 7.893 
409.781 0.952 7.5 0.136 -65.56 0.136 -65.56 0.952 7.5 
429.188 0.953 7.119 0.13 -65.334 0.13 -65.334 0.953 7.119 
449.515 0.954 6.752 0.124 -65.048 0.124 -65.048 0.954 6.752 
470.805 0.956 6.397 0.118 -64.695 0.118 -64.695 0.956 6.397 
493.103 0.957 6.054 0.112 -64.271 0.112 -64.271 0.957 6.054 
516.457 0.958 5.722 0.106 -63.768 0.106 -63.768 0.958 5.722 
540.917 0.959 5.402 0.101 -63.178 0.101 -63.178 0.959 5.402 
566.536 0.959 5.091 0.096 -62.493 0.096 -62.493 0.959 5.091 
593.368 0.96 4.791 0.091 -61.702 0.091 -61.702 0.96 4.791 
621.47 0.961 4.501 0.086 -60.795 0.086 -60.795 0.961 4.501 
650.904 0.961 4.221 0.082 -59.759 0.082 -59.759 0.961 4.221 
681.732 0.962 3.949 0.078 -58.582 0.078 -58.582 0.962 3.949 
714.019 0.962 3.686 0.074 -57.248 0.074 -57.248 0.962 3.686 
747.836 0.962 3.432 0.07 -55.744 0.07 -55.744 0.962 3.432 
783.255 0.963 3.187 0.066 -54.054 0.066 -54.054 0.963 3.187 
820.351 0.963 2.949 0.063 -52.165 0.063 -52.165 0.963 2.949 
859.204 0.963 2.72 0.06 -50.064 0.06 -50.064 0.963 2.72 
899.897 0.963 2.499 0.057 -47.743 0.057 -47.743 0.963 2.499 
942.517 0.963 2.286 0.054 -45.196 0.054 -45.196 0.963 2.286 
987.156 0.962 2.08 0.052 -42.428 0.052 -42.428 0.962 2.08 
1033.909 0.962 1.882 0.05 -39.45 0.05 -39.45 0.962 1.882 
1082.877 0.962 1.692 0.048 -36.285 0.048 -36.285 0.962 1.692 
1134.163 0.961 1.51 0.047 -32.968 0.047 -32.968 0.961 1.51 
1187.879 0.961 1.336 0.045 -29.542 0.045 -29.542 0.961 1.336 
1244.138 0.96 1.17 0.045 -26.062 0.045 -26.062 0.96 1.17 
1303.062 0.959 1.011 0.044 -22.589 0.044 -22.589 0.959 1.011 
1364.777 0.959 0.861 0.044 -19.181 0.044 -19.181 0.959 0.861 
1429.415 0.958 0.719 0.044 -15.897 0.044 -15.897 0.958 0.719 
1497.114 0.957 0.584 0.044 -12.783 0.044 -12.783 0.957 0.584 
1568.019 0.956 0.458 0.045 -9.877 0.045 -9.877 0.956 0.458 
1642.283 0.955 0.34 0.045 -7.206 0.045 -7.206 0.955 0.34 
1720.063 0.954 0.23 0.046 -4.784 0.046 -4.784 0.954 0.23 
1801.528 0.953 0.129 0.047 -2.613 0.047 -2.613 0.953 0.129 
1886.851 0.952 0.035 0.048 -0.692 0.048 -0.692 0.952 0.035 
1976.214 0.951 -0.051 0.049 0.991 0.049 0.991 0.951 -0.051 
2069.811 0.95 -0.129 0.05 2.449 0.05 2.449 0.95 -0.129 
2167.84 0.949 -0.2 0.051 3.699 0.051 3.699 0.949 -0.2 
2270.512 0.948 -0.263 0.052 4.759 0.052 4.759 0.948 -0.263 
2378.046 0.947 -0.319 0.054 5.646 0.054 5.646 0.947 -0.319 
2490.674 0.946 -0.368 0.055 6.379 0.055 6.379 0.946 -0.368 
2608.635 0.945 -0.411 0.056 6.973 0.056 6.973 0.945 -0.411 
2732.184 0.944 -0.447 0.057 7.446 0.057 7.446 0.944 -0.447 
2861.584 0.943 -0.478 0.058 7.811 0.058 7.811 0.943 -0.478 
2997.112 0.942 -0.504 0.059 8.083 0.059 8.083 0.942 -0.504 
3139.06 0.941 -0.524 0.06 8.272 0.06 8.272 0.941 -0.524 
3287.73 0.94 -0.54 0.061 8.39 0.061 8.39 0.94 -0.54 
3443.441 0.939 -0.551 0.062 8.446 0.062 8.446 0.939 -0.551 
3606.527 0.938 -0.559 0.062 8.451 0.062 8.451 0.938 -0.559 
3777.337 0.938 -0.563 0.063 8.41 0.063 8.41 0.938 -0.563 
3956.237 0.937 -0.564 0.064 8.332 0.064 8.332 0.937 -0.564 
4143.61 0.936 -0.563 0.064 8.221 0.064 8.221 0.936 -0.563 
4339.857 0.936 -0.559 0.065 8.085 0.065 8.085 0.936 -0.559 
4545.398 0.935 -0.553 0.065 7.927 0.065 7.927 0.935 -0.553 
4760.675 0.935 -0.545 0.066 7.751 0.066 7.751 0.935 -0.545 
4986.147 0.934 -0.535 0.066 7.561 0.066 7.561 0.934 -0.535 
5222.297 0.934 -0.525 0.067 7.361 0.067 7.361 0.934 -0.525 
5469.633 0.933 -0.513 0.067 7.152 0.067 7.152 0.933 -0.513 
5728.682 0.933 -0.5 0.067 6.938 0.067 6.938 0.933 -0.5 
6000 0.933 -0.487 0.068 6.72 0.068 6.72 0.933 -0.487 
