# MHz           S          MA           R         50
!Freq             MagS11           AngS11           MagS21           AngS21           MagS12           AngS12           MagS22           AngS22
 1                0.00133931497    30.9883386       0.998852081     -0.0395545461     0.998852081     -0.0395545461     0.00133931497    30.9883386      
 1.01             0.00134403017    31.2106848       0.998850737     -0.0399500379     0.998850737     -0.0399500379     0.00134403017    31.2106848      
 1.0201           0.00134880726    31.4338187       0.998849387     -0.0403494838     0.998849387     -0.0403494838     0.00134880726    31.4338187      
 1.030301         0.00135364706    31.6577286       0.99884803      -0.0407529234     0.99884803      -0.0407529234     0.00135364706    31.6577286      
 1.04060401       0.00135855041    31.8824025       0.998846666     -0.0411603965     0.998846666     -0.0411603965     0.00135855041    31.8824025      
 1.05101005       0.00136351814    32.1078283       0.998845296     -0.0415719435     0.998845296     -0.0415719435     0.00136351814    32.1078283      
 1.06152015       0.0013685511     32.3339936       0.998843918     -0.0419876051     0.998843918     -0.0419876051     0.0013685511     32.3339936      
 1.07213535       0.00137365015    32.5608857       0.998842534     -0.0424074225     0.998842534     -0.0424074225     0.00137365015    32.5608857      
 1.08285671       0.00137881615    32.7884918       0.998841142     -0.0428314371     0.998841142     -0.0428314371     0.00137881615    32.7884918      
 1.09368527       0.00138404999    33.016799        0.998839744     -0.043259691      0.998839744     -0.043259691      0.00138404999    33.016799       
 1.10462213       0.00138935253    33.2457938       0.998838338     -0.0436922265     0.998838338     -0.0436922265     0.00138935253    33.2457938      
 1.11566835       0.00139472467    33.4754628       0.998836926     -0.0441290865     0.998836926     -0.0441290865     0.00139472467    33.4754628      
 1.12682503       0.00140016732    33.7057922       0.998835506     -0.0445703141     0.998835506     -0.0445703141     0.00140016732    33.7057922      
 1.13809328       0.00140568138    33.9367683       0.998834079     -0.045015953      0.998834079     -0.045015953      0.00140568138    33.9367683      
 1.14947421       0.00141126778    34.1683767       0.998832645     -0.0454660474     0.998832645     -0.0454660474     0.00141126778    34.1683767      
 1.16096896       0.00141692743    34.4006033       0.998831203     -0.0459206417     0.998831203     -0.0459206417     0.00141692743    34.4006033      
 1.17257864       0.00142266129    34.6334334       0.998829755     -0.046379781      0.998829755     -0.046379781      0.00142266129    34.6334334      
 1.18430443       0.00142847028    34.8668524       0.998828299     -0.0468435106     0.998828299     -0.0468435106     0.00142847028    34.8668524      
 1.19614748       0.00143435538    35.1008453       0.998826835     -0.0473118766     0.998826835     -0.0473118766     0.00143435538    35.1008453      
 1.20810895       0.00144031754    35.335397        0.998825365     -0.0477849251     0.998825365     -0.0477849251     0.00144031754    35.335397       
 1.22019004       0.00144635774    35.5704922       0.998823886     -0.0482627031     0.998823886     -0.0482627031     0.00144635774    35.5704922      
 1.23239194       0.00145247696    35.8061155       0.998822401     -0.0487452577     0.998822401     -0.0487452577     0.00145247696    35.8061155      
 1.24471586       0.00145867619    36.0422512       0.998820907     -0.0492326368     0.998820907     -0.0492326368     0.00145867619    36.0422512      
 1.25716302       0.00146495644    36.2788834       0.998819407     -0.0497248886     0.998819407     -0.0497248886     0.00146495644    36.2788834      
 1.26973465       0.00147131871    36.5159963       0.998817898     -0.0502220618     0.998817898     -0.0502220618     0.00147131871    36.5159963      
 1.282432         0.00147776403    36.7535736       0.998816383     -0.0507242056     0.998816383     -0.0507242056     0.00147776403    36.7535736      
 1.29525631       0.00148429342    36.991599        0.998814859     -0.0512313697     0.998814859     -0.0512313697     0.00148429342    36.991599       
 1.30820888       0.00149090794    37.2300561       0.998813328     -0.0517436042     0.998813328     -0.0517436042     0.00149090794    37.2300561      
 1.32129097       0.00149760861    37.4689283       0.998811788     -0.0522609599     0.998811788     -0.0522609599     0.00149760861    37.4689283      
 1.33450388       0.00150439651    37.7081989       0.998810242     -0.0527834879     0.998810242     -0.0527834879     0.00150439651    37.7081989      
 1.34784892       0.0015112727     37.9478509       0.998808687     -0.05331124       0.998808687     -0.05331124       0.0015112727     37.9478509      
 1.3613274        0.00151823825    38.1878673       0.998807124     -0.0538442684     0.998807124     -0.0538442684     0.00151823825    38.1878673      
 1.37494068       0.00152529426    38.4282311       0.998805554     -0.0543826257     0.998805554     -0.0543826257     0.00152529426    38.4282311      
 1.38869009       0.00153244183    38.668925        0.998803975     -0.0549263654     0.998803975     -0.0549263654     0.00153244183    38.668925       
 1.40257699       0.00153968205    38.9099315       0.998802389     -0.0554755411     0.998802389     -0.0554755411     0.00153968205    38.9099315      
 1.41660276       0.00154701604    39.1512333       0.998800794     -0.0560302073     0.998800794     -0.0560302073     0.00154701604    39.1512333      
 1.43076878       0.00155444494    39.3928127       0.998799192     -0.0565904188     0.998799192     -0.0565904188     0.00155444494    39.3928127      
 1.44507647       0.00156196987    39.6346521       0.998797581     -0.057156231      0.998797581     -0.057156231      0.00156196987    39.6346521      
 1.45952724       0.00156959198    39.8767338       0.998795962     -0.0577277        0.998795962     -0.0577277        0.00156959198    39.8767338      
 1.47412251       0.00157731243    40.1190399       0.998794335     -0.0583048822     0.998794335     -0.0583048822     0.00157731243    40.1190399      
 1.48886373       0.00158513238    40.3615525       0.998792699     -0.0588878349     0.998792699     -0.0588878349     0.00158513238    40.3615525      
 1.50375237       0.00159305302    40.6042536       0.998791056     -0.0594766156     0.998791056     -0.0594766156     0.00159305302    40.6042536      
 1.51878989       0.00160107551    40.8471252       0.998789404     -0.0600712827     0.998789404     -0.0600712827     0.00160107551    40.8471252      
 1.53397779       0.00160920107    41.0901492       0.998787743     -0.0606718949     0.998787743     -0.0606718949     0.00160920107    41.0901492      
 1.54931757       0.00161743089    41.3333074       0.998786074     -0.0612785117     0.998786074     -0.0612785117     0.00161743089    41.3333074      
 1.56481075       0.00162576619    41.5765816       0.998784397     -0.0618911932     0.998784397     -0.0618911932     0.00162576619    41.5765816      
 1.58045885       0.0016342082     41.8199537       0.998782711     -0.0625099999     0.998782711     -0.0625099999     0.0016342082     41.8199537      
 1.59626344       0.00164275815    42.0634053       0.998781016     -0.0631349931     0.998781016     -0.0631349931     0.00164275815    42.0634053      
 1.61222608       0.00165141729    42.3069182       0.998779313     -0.0637662346     0.998779313     -0.0637662346     0.00165141729    42.3069182      
 1.62834834       0.00166018688    42.5504742       0.998777601     -0.0644037868     0.998777601     -0.0644037868     0.00166018688    42.5504742      
 1.64463182       0.00166906818    42.7940548       0.998775881     -0.065047713      0.998775881     -0.065047713      0.00166906818    42.7940548      
 1.66107814       0.00167806247    43.0376418       0.998774152     -0.0656980767     0.998774152     -0.0656980767     0.00167806247    43.0376418      
 1.67768892       0.00168717105    43.281217        0.998772413     -0.0663549423     0.998772413     -0.0663549423     0.00168717105    43.281217       
 1.69446581       0.0016963952     43.5247619       0.998770666     -0.0670183749     0.998770666     -0.0670183749     0.0016963952     43.5247619      
 1.71141047       0.00170573625    43.7682585       0.998768911     -0.06768844       0.998768911     -0.06768844       0.00170573625    43.7682585      
 1.72852457       0.0017151955     44.0116883       0.998767146     -0.068365204      0.998767146     -0.068365204      0.0017151955     44.0116883      
 1.74580982       0.00172477429    44.2550332       0.998765372     -0.0690487338     0.998765372     -0.0690487338     0.00172477429    44.2550332      
 1.76326792       0.00173447397    44.4982751       0.998763589     -0.0697390971     0.998763589     -0.0697390971     0.00173447397    44.4982751      
 1.7809006        0.00174429588    44.7413957       0.998761797     -0.0704363621     0.998761797     -0.0704363621     0.00174429588    44.7413957      
 1.7987096        0.00175424139    44.9843771       0.998759996     -0.0711405978     0.998759996     -0.0711405978     0.00175424139    44.9843771      
 1.8166967        0.00176431188    45.2272013       0.998758185     -0.071851874      0.998758185     -0.071851874      0.00176431188    45.2272013      
 1.83486367       0.00177450872    45.4698502       0.998756366     -0.072570261      0.998756366     -0.072570261      0.00177450872    45.4698502      
 1.8532123        0.00178483333    45.712306        0.998754537     -0.0732958298     0.998754537     -0.0732958298     0.00178483333    45.712306       
 1.87174443       0.00179528709    45.9545508       0.998752698     -0.0740286524     0.998752698     -0.0740286524     0.00179528709    45.9545508      
 1.89046187       0.00180587145    46.1965671       0.998750851     -0.0747688011     0.998750851     -0.0747688011     0.00180587145    46.1965671      
 1.90936649       0.00181658781    46.4383371       0.998748994     -0.0755163492     0.998748994     -0.0755163492     0.00181658781    46.4383371      
 1.92846015       0.00182743764    46.6798433       0.998747127     -0.0762713706     0.998747127     -0.0762713706     0.00182743764    46.6798433      
 1.94774475       0.00183842238    46.9210683       0.998745251     -0.0770339402     0.998745251     -0.0770339402     0.00183842238    46.9210683      
 1.9672222        0.0018495435     47.1619949       0.998743365     -0.0778041332     0.998743365     -0.0778041332     0.0018495435     47.1619949      
 1.98689442       0.00186080248    47.4026056       0.998741469     -0.078582026      0.998741469     -0.078582026      0.00186080248    47.4026056      
 2.00676337       0.0018722008     47.6428836       0.998739564     -0.0793676954     0.998739564     -0.0793676954     0.0018722008     47.6428836      
 2.026831         0.00188373997    47.8828118       0.998737649     -0.0801612193     0.998737649     -0.0801612193     0.00188373997    47.8828118      
 2.04709931       0.0018954215     48.1223735       0.998735724     -0.0809626761     0.998735724     -0.0809626761     0.0018954215     48.1223735      
 2.06757031       0.00190724692    48.3615518       0.998733789     -0.0817721451     0.998733789     -0.0817721451     0.00190724692    48.3615518      
 2.08824601       0.00191921777    48.6003303       0.998731844     -0.0825897064     0.998731844     -0.0825897064     0.00191921777    48.6003303      
 2.10912847       0.00193133558    48.8386926       0.99872989      -0.0834154409     0.99872989      -0.0834154409     0.00193133558    48.8386927      
 2.13021975       0.00194360194    49.0766225       0.998727925     -0.0842494303     0.998727925     -0.0842494303     0.00194360194    49.0766225      
 2.15152195       0.00195601841    49.3141038       0.99872595      -0.0850917571     0.99872595      -0.0850917571     0.00195601841    49.3141038      
 2.17303717       0.00196858658    49.5511206       0.998723965     -0.0859425046     0.998723965     -0.0859425046     0.00196858658    49.5511206      
 2.19476754       0.00198130805    49.7876572       0.99872197      -0.086801757      0.99872197      -0.086801757      0.00198130805    49.7876572      
 2.21671522       0.00199418444    50.023698        0.998719964     -0.0876695993     0.998719964     -0.0876695993     0.00199418444    50.023698       
 2.23888237       0.00200721736    50.2592276       0.998717948     -0.0885461174     0.998717948     -0.0885461174     0.00200721736    50.2592276      
 2.26127119       0.00202040848    50.4942307       0.998715922     -0.089431398      0.998715922     -0.089431398      0.00202040848    50.4942307      
 2.2838839        0.00203375942    50.7286923       0.998713885     -0.0903255286     0.998713885     -0.0903255286     0.00203375942    50.7286923      
 2.30672274       0.00204727187    50.9625975       0.998711838     -0.0912285978     0.998711838     -0.0912285978     0.00204727187    50.9625975      
 2.32978997       0.0020609475     51.1959317       0.99870978      -0.0921406949     0.99870978      -0.0921406949     0.0020609475     51.1959317      
 2.35308787       0.002074788      51.4286804       0.998707711     -0.09306191       0.998707711     -0.09306191       0.002074788      51.4286804      
 2.37661875       0.00208879509    51.6608294       0.998705632     -0.0939923344     0.998705632     -0.0939923344     0.00208879509    51.6608294      
 2.40038494       0.00210297049    51.8923645       0.998703542     -0.0949320602     0.998703542     -0.0949320602     0.00210297049    51.8923645      
 2.42438879       0.00211731592    52.123272        0.998701441     -0.0958811801     0.998701441     -0.0958811801     0.00211731592    52.123272       
 2.44863267       0.00213183315    52.3535381       0.99869933      -0.0968397883     0.99869933      -0.0968397883     0.00213183315    52.3535381      
 2.473119         0.00214652393    52.5831494       0.998697207     -0.0978079794     0.998697207     -0.0978079794     0.00214652393    52.5831494      
 2.49785019       0.00216139004    52.8120927       0.998695073     -0.0987858493     0.998695073     -0.0987858493     0.00216139004    52.8120927      
 2.52282869       0.00217643328    53.0403551       0.998692929     -0.0997734947     0.998692929     -0.0997734947     0.00217643328    53.0403551      
 2.54805698       0.00219165545    53.2679236       0.998690773     -0.100771013      0.998690773     -0.100771013      0.00219165545    53.2679236      
 2.57353755       0.00220705839    53.4947858       0.998688606     -0.101778504      0.998688606     -0.101778504      0.00220705839    53.4947858      
 2.59927293       0.00222264392    53.7209293       0.998686427     -0.102796066      0.998686427     -0.102796066      0.00222264392    53.7209293      
 2.62526565       0.0022384139     53.9463419       0.998684238     -0.1038238        0.998684238     -0.1038238        0.0022384139     53.9463419      
 2.65151831       0.0022543702     54.1710119       0.998682037     -0.104861809      0.998682037     -0.104861809      0.0022543702     54.1710119      
 2.67803349       0.00227051471    54.3949275       0.998679824     -0.105910194      0.998679824     -0.105910194      0.00227051471    54.3949275      
 2.70481383       0.00228684932    54.6180773       0.9986776       -0.106969059      0.9986776       -0.106969059      0.00228684932    54.6180773      
 2.73186197       0.00230337596    54.8404502       0.998675364     -0.108038509      0.998675364     -0.108038509      0.00230337596    54.8404502      
 2.75918059       0.00232009655    55.0620351       0.998673117     -0.10911865       0.998673117     -0.10911865       0.00232009655    55.0620351      
 2.78677239       0.00233701305    55.2828213       0.998670858     -0.110209589      0.998670858     -0.110209589      0.00233701305    55.2828213      
 2.81464012       0.00235412742    55.5027984       0.998668587     -0.111311433      0.998668587     -0.111311433      0.00235412742    55.5027984      
 2.84278652       0.00237144165    55.7219561       0.998666304     -0.112424292      0.998666304     -0.112424292      0.00237144165    55.7219561      
 2.87121438       0.00238895773    55.9402843       0.998664009     -0.113548276      0.998664009     -0.113548276      0.00238895773    55.9402843      
 2.89992653       0.00240667768    56.1577733       0.998661703     -0.114683496      0.998661703     -0.114683496      0.00240667768    56.1577733      
 2.92892579       0.00242460353    56.3744136       0.998659384     -0.115830064      0.998659384     -0.115830064      0.00242460353    56.3744136      
 2.95821505       0.00244273734    56.5901958       0.998657053     -0.116988093      0.998657053     -0.116988093      0.00244273734    56.5901958      
 2.9877972        0.00246108118    56.805111        0.99865471      -0.118157699      0.99865471      -0.118157699      0.00246108118    56.805111       
 3.01767517       0.00247963714    57.0191501       0.998652354     -0.119338996      0.998652354     -0.119338996      0.00247963714    57.0191501      
 3.04785192       0.00249840731    57.2323047       0.998649986     -0.120532103      0.998649986     -0.120532103      0.00249840731    57.2323047      
 3.07833044       0.00251739382    57.4445664       0.998647606     -0.121737136      0.998647606     -0.121737136      0.00251739382    57.4445664      
 3.10911375       0.00253659883    57.6559272       0.998645213     -0.122954215      0.998645213     -0.122954215      0.00253659883    57.6559272      
 3.14020489       0.00255602448    57.866379        0.998642808     -0.12418346       0.998642808     -0.12418346       0.00255602448    57.866379       
 3.17160693       0.00257567295    58.0759143       0.998640389     -0.125424993      0.998640389     -0.125424993      0.00257567295    58.0759143      
 3.203323         0.00259554646    58.2845256       0.998637958     -0.126678937      0.998637958     -0.126678937      0.00259554646    58.2845256      
 3.23535623       0.0026156472     58.4922058       0.998635515     -0.127945416      0.998635515     -0.127945416      0.0026156472     58.4922058      
 3.2677098        0.00263597744    58.698948        0.998633058     -0.129224555      0.998633058     -0.129224555      0.00263597744    58.698948       
 3.30038689       0.00265653942    58.9047453       0.998630588     -0.13051648       0.998630588     -0.13051648       0.00265653942    58.9047453      
 3.33339076       0.00267733541    59.1095914       0.998628105     -0.13182132       0.998628105     -0.13182132       0.00267733541    59.1095914      
 3.36672467       0.00269836773    59.31348         0.998625609     -0.133139203      0.998625609     -0.133139203      0.00269836773    59.31348        
 3.40039192       0.00271963869    59.5164051       0.9986231       -0.13447026       0.9986231       -0.13447026       0.00271963869    59.5164051      
 3.43439584       0.00274115064    59.7183608       0.998620578     -0.135814623      0.998620578     -0.135814623      0.00274115064    59.7183608      
 3.4687398        0.00276290592    59.9193416       0.998618042     -0.137172424      0.998618042     -0.137172424      0.00276290592    59.9193416      
 3.50342719       0.00278490693    60.1193421       0.998615493     -0.138543798      0.998615493     -0.138543798      0.00278490693    60.1193421      
