# MHz           S          MA           R         50
!Freq             MagS11           AngS11           MagS21           AngS21           MagS12           AngS12           MagS22           AngS22
 1                0.00631138133    27.5603697       0.994409098     -0.168254268      0.994409098     -0.168254268      0.00631138133    27.5603697      
 1.01             0.00633039563    27.7685126       0.994403005     -0.169935774      0.994403005     -0.169935774      0.00633039563    27.7685126      
 1.0201           0.00634965898    27.9775848       0.99439688      -0.17163408       0.99439688      -0.17163408       0.00634965898    27.9775848      
 1.030301         0.00636917482    28.1875782       0.994390723     -0.173349353      0.994390723     -0.173349353      0.00636917482    28.1875782      
 1.04060401       0.00638894663    28.3984843       0.994384534     -0.175081763      0.994384534     -0.175081763      0.00638894663    28.3984843      
 1.05101005       0.00640897793    28.6102944       0.994378314     -0.17683148       0.994378314     -0.17683148       0.00640897793    28.6102944      
 1.06152015       0.00642927228    28.8229996       0.99437206      -0.178598677      0.99437206      -0.178598677      0.00642927228    28.8229996      
 1.07213535       0.00644983327    29.0365908       0.994365775     -0.18038353       0.994365775     -0.18038353       0.00644983327    29.0365908      
 1.08285671       0.00647066455    29.2510584       0.994359456     -0.182186214      0.994359456     -0.182186214      0.00647066455    29.2510584      
 1.09368527       0.00649176981    29.4663929       0.994353105     -0.184006907      0.994353105     -0.184006907      0.00649176981    29.4663929      
 1.10462213       0.00651315275    29.6825843       0.99434672      -0.185845789      0.99434672      -0.185845789      0.00651315275    29.6825843      
 1.11566835       0.00653481715    29.8996225       0.994340303     -0.187703043      0.994340303     -0.187703043      0.00653481715    29.8996225      
 1.12682503       0.00655676681    30.1174971       0.994333851     -0.18957885       0.994333851     -0.18957885       0.00655676681    30.1174971      
 1.13809328       0.00657900558    30.3361973       0.994327366     -0.191473397      0.994327366     -0.191473397      0.00657900558    30.3361973      
 1.14947421       0.00660153734    30.5557124       0.994320847     -0.19338687       0.994320847     -0.19338687       0.00660153734    30.5557124      
 1.16096896       0.00662436602    30.7760312       0.994314294     -0.19531946       0.994314294     -0.19531946       0.00662436602    30.7760312      
 1.17257864       0.0066474956     30.9971423       0.994307707     -0.197271355      0.994307707     -0.197271355      0.0066474956     30.9971423      
 1.18430443       0.0066709301     31.2190341       0.994301085     -0.19924275       0.994301085     -0.19924275       0.0066709301     31.2190341      
 1.19614748       0.00669467356    31.4416948       0.994294428     -0.201233839      0.994294428     -0.201233839      0.00669467356    31.4416948      
 1.20810895       0.00671873009    31.6651122       0.994287737     -0.203244818      0.994287737     -0.203244818      0.00671873009    31.6651122      
 1.22019004       0.00674310383    31.8892741       0.99428101      -0.205275886      0.99428101      -0.205275886      0.00674310383    31.8892741      
 1.23239194       0.00676779897    32.1141678       0.994274248     -0.207327244      0.994274248     -0.207327244      0.00676779897    32.1141678      
 1.24471586       0.00679281973    32.3397806       0.99426745      -0.209399094      0.99426745      -0.209399094      0.00679281973    32.3397806      
 1.25716302       0.00681817039    32.5660995       0.994260617     -0.211491642      0.994260617     -0.211491642      0.00681817039    32.5660995      
 1.26973465       0.00684385527    32.7931112       0.994253748     -0.213605092      0.994253748     -0.213605092      0.00684385527    32.7931112      
 1.282432         0.00686987873    33.0208022       0.994246842     -0.215739655      0.994246842     -0.215739655      0.00686987873    33.0208022      
 1.29525631       0.00689624516    33.2491589       0.9942399       -0.217895541      0.9942399       -0.217895541      0.00689624516    33.2491589      
 1.30820888       0.00692295903    33.4781674       0.994232921     -0.220072963      0.994232921     -0.220072963      0.00692295903    33.4781674      
 1.32129097       0.00695002481    33.7078135       0.994225905     -0.222272135      0.994225905     -0.222272135      0.00695002481    33.7078135      
 1.33450388       0.00697744705    33.9380828       0.994218853     -0.224493276      0.994218853     -0.224493276      0.00697744705    33.9380828      
 1.34784892       0.00700523033    34.168961        0.994211763     -0.226736603      0.994211763     -0.226736603      0.00700523033    34.168961       
 1.3613274        0.00703337927    34.4004331       0.994204635     -0.22900234       0.994204635     -0.22900234       0.00703337927    34.4004331      
 1.37494068       0.00706189855    34.6324842       0.994197469     -0.231290709      0.994197469     -0.231290709      0.00706189855    34.6324842      
 1.38869009       0.00709079289    34.8650993       0.994190266     -0.233601937      0.994190266     -0.233601937      0.00709079289    34.8650993      
 1.40257699       0.00712006704    35.0982629       0.994183024     -0.235936251      0.994183024     -0.235936251      0.00712006704    35.0982629      
 1.41660276       0.0071497258     35.3319595       0.994175744     -0.238293883      0.994175744     -0.238293883      0.0071497258     35.3319595      
 1.43076878       0.00717977405    35.5661734       0.994168425     -0.240675064      0.994168425     -0.240675064      0.00717977405    35.5661734      
 1.44507647       0.00721021667    35.8008886       0.994161067     -0.24308003       0.994161067     -0.24308003       0.00721021667    35.8008886      
 1.45952724       0.0072410586     36.0360892       0.994153669     -0.245509019      0.994153669     -0.245509019      0.0072410586     36.0360892      
 1.47412251       0.00727230484    36.2717589       0.994146232     -0.24796227       0.994146232     -0.24796227       0.00727230484    36.2717589      
 1.48886373       0.00730396042    36.5078812       0.994138756     -0.250440026      0.994138756     -0.250440026      0.00730396042    36.5078812      
 1.50375237       0.00733603043    36.7444396       0.994131239     -0.25294253       0.994131239     -0.25294253       0.00733603043    36.7444396      
 1.51878989       0.00736852       36.9814173       0.994123682     -0.255470031      0.994123682     -0.255470031      0.00736852       36.9814173      
 1.53397779       0.0074014343     37.2187975       0.994116085     -0.258022777      0.994116085     -0.258022777      0.0074014343     37.2187975      
 1.54931757       0.00743477855    37.4565631       0.994108447     -0.260601021      0.994108447     -0.260601021      0.00743477855    37.4565631      
 1.56481075       0.00746855802    37.6946969       0.994100768     -0.263205016      0.994100768     -0.263205016      0.00746855802    37.6946969      
 1.58045885       0.00750277804    37.9331817       0.994093047     -0.265835021      0.994093047     -0.265835021      0.00750277804    37.9331817      
 1.59626344       0.00753744397    38.172           0.994085285     -0.268491295      0.994085285     -0.268491295      0.00753744397    38.172          
 1.61222608       0.00757256121    38.4111342       0.994077481     -0.2711741        0.994077481     -0.2711741        0.00757256121    38.4111342      
 1.62834834       0.00760813523    38.6505666       0.994069635     -0.2738837        0.994069635     -0.2738837        0.00760813523    38.6505666      
 1.64463182       0.00764417153    38.8902795       0.994061747     -0.276620364      0.994061747     -0.276620364      0.00764417153    38.8902795      
 1.66107814       0.00768067567    39.130255        0.994053816     -0.279384361      0.994053816     -0.279384361      0.00768067567    39.130255       
 1.67768892       0.00771765326    39.370475        0.994045842     -0.282175964      0.994045842     -0.282175964      0.00771765326    39.370475       
 1.69446581       0.00775510995    39.6109215       0.994037825     -0.284995449      0.994037825     -0.284995449      0.00775510995    39.6109215      
 1.71141047       0.00779305143    39.8515763       0.994029764     -0.287843094      0.994029764     -0.287843094      0.00779305143    39.8515763      
 1.72852457       0.00783148345    40.0924212       0.994021659     -0.29071918       0.994021659     -0.29071918       0.00783148345    40.0924212      
 1.74580982       0.00787041182    40.3334377       0.994013511     -0.293623991      0.994013511     -0.293623991      0.00787041182    40.3334377      
 1.76326792       0.00790984239    40.5746076       0.994005318     -0.296557814      0.994005318     -0.296557814      0.00790984239    40.5746076      
 1.7809006        0.00794978104    40.8159123       0.99399708      -0.299520937      0.99399708      -0.299520937      0.00794978104    40.8159123      
 1.7987096        0.00799023373    41.0573333       0.993988797     -0.302513654      0.993988797     -0.302513654      0.00799023373    41.0573333      
 1.8166967        0.00803120645    41.2988521       0.993980469     -0.30553626       0.993980469     -0.30553626       0.00803120645    41.2988521      
 1.83486367       0.00807270525    41.5404501       0.993972096     -0.308589054      0.993972096     -0.308589054      0.00807270525    41.5404501      
 1.8532123        0.00811473622    41.7821087       0.993963676     -0.311672335      0.993963676     -0.311672335      0.00811473622    41.7821087      
 1.87174443       0.00815730552    42.0238091       0.99395521      -0.31478641       0.99395521      -0.31478641       0.00815730552    42.0238091      
 1.89046187       0.00820041934    42.2655327       0.993946698     -0.317931584      0.993946698     -0.317931584      0.00820041934    42.2655327      
 1.90936649       0.00824408393    42.5072608       0.993938139     -0.321108169      0.993938139     -0.321108169      0.00824408393    42.5072608      
 1.92846015       0.00828830559    42.7489747       0.993929533     -0.324316478      0.993929533     -0.324316478      0.00828830559    42.7489747      
 1.94774475       0.00833309067    42.9906558       0.993920879     -0.327556827      0.993920879     -0.327556827      0.00833309067    42.9906558      
 1.9672222        0.00837844557    43.2322852       0.993912177     -0.330829536      0.993912177     -0.330829536      0.00837844557    43.2322852      
 1.98689442       0.00842437676    43.4738443       0.993903427     -0.334134929      0.993903427     -0.334134929      0.00842437676    43.4738443      
 2.00676337       0.00847089074    43.7153146       0.993894629     -0.33747333       0.993894629     -0.33747333       0.00847089074    43.7153146      
 2.026831         0.00851799407    43.9566772       0.993885782     -0.34084507       0.993885782     -0.34084507       0.00851799407    43.9566772      
 2.04709931       0.00856569336    44.1979137       0.993876885     -0.344250482      0.993876885     -0.344250482      0.00856569336    44.1979137      
 2.06757031       0.00861399529    44.4390055       0.993867939     -0.3476899        0.993867939     -0.3476899        0.00861399529    44.4390055      
 2.08824601       0.00866290657    44.6799341       0.993858944     -0.351163665      0.993858944     -0.351163665      0.00866290657    44.6799341      
 2.10912847       0.00871243397    44.9206811       0.993849898     -0.35467212       0.993849898     -0.35467212       0.00871243397    44.9206811      
 2.13021975       0.00876258434    45.1612279       0.993840801     -0.35821561       0.993840801     -0.35821561       0.00876258434    45.1612279      
 2.15152195       0.00881336454    45.4015565       0.993831653     -0.361794485      0.993831653     -0.361794485      0.00881336454    45.4015565      
 2.17303717       0.00886478152    45.6416483       0.993822454     -0.365409097      0.993822454     -0.365409097      0.00886478152    45.6416483      
 2.19476754       0.00891684227    45.8814854       0.993813203     -0.369059805      0.993813203     -0.369059805      0.00891684227    45.8814854      
 2.21671522       0.00896955385    46.1210497       0.9938039       -0.372746967      0.9938039       -0.372746967      0.00896955385    46.1210497      
 2.23888237       0.00902292336    46.360323        0.993794545     -0.376470948      0.993794545     -0.376470948      0.00902292336    46.360323       
 2.26127119       0.00907695796    46.5992877       0.993785137     -0.380232115      0.993785137     -0.380232115      0.00907695796    46.5992877      
 2.2838839        0.00913166487    46.8379258       0.993775675     -0.384030838      0.993775675     -0.384030838      0.00913166487    46.8379258      
 2.30672274       0.00918705136    47.0762197       0.99376616      -0.387867493      0.99376616      -0.387867493      0.00918705136    47.0762197      
 2.32978997       0.00924312479    47.3141519       0.993756591     -0.391742458      0.993756591     -0.391742458      0.00924312479    47.3141519      
 2.35308787       0.00929989253    47.5517049       0.993746968     -0.395656115      0.993746968     -0.395656115      0.00929989253    47.5517049      
 2.37661875       0.00935736204    47.7888615       0.993737289     -0.39960885       0.993737289     -0.39960885       0.00935736204    47.7888615      
 2.40038494       0.00941554083    48.0256044       0.993727555     -0.403601053      0.993727555     -0.403601053      0.00941554083    48.0256044      
 2.42438879       0.00947443647    48.2619166       0.993717766     -0.407633117      0.993717766     -0.407633117      0.00947443647    48.2619166      
 2.44863267       0.00953405659    48.4977813       0.99370792      -0.411705441      0.99370792      -0.411705441      0.00953405659    48.4977813      
 2.473119         0.0095944089     48.7331817       0.993698018     -0.415818427      0.993698018     -0.415818427      0.0095944089     48.7331817      
 2.49785019       0.00965550113    48.9681013       0.993688059     -0.419972478      0.993688059     -0.419972478      0.00965550113    48.9681013      
 2.52282869       0.00971734111    49.2025236       0.993678043     -0.424168006      0.993678043     -0.424168006      0.00971734111    49.2025236      
 2.54805698       0.0097799367     49.4364324       0.993667969     -0.428405424      0.993667969     -0.428405424      0.0097799367     49.4364324      
 2.57353755       0.00984329587    49.6698116       0.993657836     -0.43268515       0.993657836     -0.43268515       0.00984329587    49.6698116      
 2.59927293       0.0099074266     49.9026453       0.993647645     -0.437007605      0.993647645     -0.437007605      0.0099074266     49.9026453      
 2.62526565       0.00997233697    50.1349178       0.993637394     -0.441373217      0.993637394     -0.441373217      0.00997233697    50.1349178      
 2.65151831       0.0100380351     50.3666134       0.993627084     -0.445782415      0.993627084     -0.445782415      0.0100380351     50.3666134      
 2.67803349       0.0101045292     50.597717        0.993616713     -0.450235634      0.993616713     -0.450235634      0.0101045292     50.597717       
 2.70481383       0.0101718276     50.8282132       0.993606282     -0.454733313      0.993606282     -0.454733313      0.0101718276     50.8282132      
 2.73186197       0.0102399385     51.0580871       0.99359579      -0.459275897      0.99359579      -0.459275897      0.0102399385     51.0580871      
 2.75918059       0.0103088703     51.2873239       0.993585237     -0.463863832      0.993585237     -0.463863832      0.0103088703     51.2873239      
 2.78677239       0.0103786316     51.5159091       0.993574621     -0.468497571      0.993574621     -0.468497571      0.0103786316     51.5159091      
 2.81464012       0.0104492309     51.7438283       0.993563942     -0.47317757       0.993563942     -0.47317757       0.0104492309     51.7438283      
 2.84278652       0.0105206767     51.9710672       0.993553201     -0.477904292      0.993553201     -0.477904292      0.0105206767     51.9710672      
 2.87121438       0.0105929778     52.1976121       0.993542396     -0.482678202      0.993542396     -0.482678202      0.0105929778     52.1976121      
 2.89992653       0.0106661428     52.423449        0.993531526     -0.48749977       0.993531526     -0.48749977       0.0106661428     52.423449       
 2.92892579       0.0107401807     52.6485645       0.993520592     -0.492369472      0.993520592     -0.492369472      0.0107401807     52.6485645      
 2.95821505       0.0108151003     52.8729453       0.993509593     -0.497287788      0.993509593     -0.497287788      0.0108151003     52.8729453      
 2.9877972        0.0108909105     53.0965782       0.993498528     -0.502255203      0.993498528     -0.502255203      0.0108909105     53.0965782      
 3.01767517       0.0109676204     53.3194505       0.993487397     -0.507272207      0.993487397     -0.507272207      0.0109676204     53.3194505      
 3.04785192       0.0110452391     53.5415494       0.993476199     -0.512339293      0.993476199     -0.512339293      0.0110452391     53.5415494      
 3.07833044       0.0111237758     53.7628626       0.993464934     -0.517456961      0.993464934     -0.517456961      0.0111237758     53.7628626      
 3.10911375       0.0112032398     53.9833778       0.9934536       -0.522625716      0.9934536       -0.522625716      0.0112032398     53.9833778      
 3.14020489       0.0112836404     54.2030831       0.993442198     -0.527846067      0.993442198     -0.527846067      0.0112836404     54.2030831      
 3.17160693       0.0113649869     54.4219668       0.993430727     -0.533118528      0.993430727     -0.533118528      0.0113649869     54.4219668      
 3.203323         0.011447289      54.6400174       0.993419186     -0.538443619      0.993419186     -0.538443619      0.011447289      54.6400174      
 3.23535623       0.0115305561     54.8572236       0.993407575     -0.543821865      0.993407575     -0.543821865      0.0115305561     54.8572236      
 3.2677098        0.011614798      55.0735744       0.993395893     -0.549253796      0.993395893     -0.549253796      0.011614798      55.0735744      
 3.30038689       0.0117000244     55.2890589       0.993384139     -0.554739946      0.993384139     -0.554739946      0.0117000244     55.2890589      
 3.33339076       0.0117862451     55.5036667       0.993372314     -0.560280857      0.993372314     -0.560280857      0.0117862451     55.5036667      
 3.36672467       0.0118734699     55.7173873       0.993360415     -0.565877075      0.993360415     -0.565877075      0.0118734699     55.7173873      
 3.40039192       0.011961709      55.9302108       0.993348443     -0.57152915       0.993348443     -0.57152915       0.011961709      55.9302108      
 3.43439584       0.0120509723     56.1421272       0.993336397     -0.57723764       0.993336397     -0.57723764       0.0120509723     56.1421272      
 3.4687398        0.0121412701     56.353127        0.993324275     -0.583003107      0.993324275     -0.583003107      0.0121412701     56.353127       
 3.50342719       0.0122326125     56.5632007       0.993312079     -0.588826119      0.993312079     -0.588826119      0.0122326125     56.5632007      
