# MHz           S          MA           R         50
!Freq             MagS11           AngS11           MagS21           AngS21           MagS12           AngS12           MagS22           AngS22
 1                0.00180273247    31.4126558       0.998461926     -0.0539169529     0.998461926     -0.0539169529     0.00180273247    31.4126558      
 1.01             0.00180926898    31.6350159       0.998460028     -0.0544560191     0.998460028     -0.0544560191     0.00180926898    31.6350159      
 1.0201           0.00181589038    31.8581247       0.99845812      -0.0550004744     0.99845812      -0.0550004744     0.00181589038    31.8581247      
 1.030301         0.0018225978     32.0819702       0.998456202     -0.0555503726     0.998456202     -0.0555503726     0.0018225978     32.0819702      
 1.04060401       0.00182939236    32.3065402       0.998454275     -0.0561057683     0.998454275     -0.0561057683     0.00182939236    32.3065402      
 1.05101005       0.0018362752     32.5318222       0.998452338     -0.0566667162     0.998452338     -0.0566667162     0.0018362752     32.5318222      
 1.06152015       0.00184324746    32.7578036       0.998450391     -0.057233272      0.998450391     -0.057233272      0.00184324746    32.7578036      
 1.07213535       0.00185031032    32.9844714       0.998448434     -0.0578054917     0.998448434     -0.0578054917     0.00185031032    32.9844714      
 1.08285671       0.00185746494    33.2118127       0.998446468     -0.0583834318     0.998446468     -0.0583834318     0.00185746494    33.2118127      
 1.09368527       0.00186471252    33.4398141       0.998444491     -0.0589671496     0.998444491     -0.0589671496     0.00186471252    33.4398141      
 1.10462213       0.00187205424    33.6684622       0.998442505     -0.0595567029     0.998442505     -0.0595567029     0.00187205424    33.6684622      
 1.11566835       0.00187949131    33.8977431       0.998440508     -0.0601521499     0.998440508     -0.0601521499     0.00187949131    33.8977431      
 1.12682503       0.00188702497    34.127643        0.998438501     -0.0607535495     0.998438501     -0.0607535495     0.00188702497    34.127643       
 1.13809328       0.00189465644    34.3581478       0.998436484     -0.0613609613     0.998436484     -0.0613609613     0.00189465644    34.3581478      
 1.14947421       0.00190238696    34.5892433       0.998434457     -0.0619744454     0.998434457     -0.0619744454     0.00190238696    34.5892433      
 1.16096896       0.0019102178     34.8209148       0.99843242      -0.0625940624     0.99843242      -0.0625940624     0.0019102178     34.8209148      
 1.17257864       0.00191815023    35.0531478       0.998430372     -0.0632198736     0.998430372     -0.0632198736     0.00191815023    35.0531478      
 1.18430443       0.00192618552    35.2859274       0.998428314     -0.063851941      0.998428314     -0.063851941      0.00192618552    35.2859274      
 1.19614748       0.00193432498    35.5192386       0.998426246     -0.0644903271     0.998426246     -0.0644903271     0.00193432498    35.5192386      
 1.20810895       0.00194256991    35.7530661       0.998424167     -0.0651350951     0.998424167     -0.0651350951     0.00194256991    35.7530661      
 1.22019004       0.00195092162    35.9873945       0.998422077     -0.0657863087     0.998422077     -0.0657863087     0.00195092162    35.9873945      
 1.23239194       0.00195938146    36.2222084       0.998419977     -0.0664440323     0.998419977     -0.0664440323     0.00195938146    36.2222084      
 1.24471586       0.00196795076    36.457492        0.998417866     -0.0671083311     0.998417866     -0.0671083311     0.00196795076    36.457492       
 1.25716302       0.00197663088    36.6932295       0.998415745     -0.0677792708     0.998415745     -0.0677792708     0.00197663088    36.6932295      
 1.26973465       0.00198542319    36.9294048       0.998413612     -0.0684569176     0.998413612     -0.0684569176     0.00198542319    36.9294048      
 1.282432         0.00199432907    37.1660018       0.998411469     -0.0691413388     0.998411469     -0.0691413388     0.00199432907    37.1660018      
 1.29525631       0.00200334992    37.4030042       0.998409315     -0.0698326019     0.998409315     -0.0698326019     0.00200334992    37.4030042      
 1.30820888       0.00201248714    37.6403956       0.99840715      -0.0705307754     0.99840715      -0.0705307754     0.00201248714    37.6403956      
 1.32129097       0.00202174216    37.8781593       0.998404974     -0.0712359283     0.998404974     -0.0712359283     0.00202174216    37.8781593      
 1.33450388       0.00203111641    38.1162788       0.998402787     -0.0719481303     0.998402787     -0.0719481303     0.00203111641    38.1162788      
 1.34784892       0.00204061133    38.3547371       0.998400588     -0.0726674521     0.998400588     -0.0726674521     0.00204061133    38.3547371      
 1.3613274        0.00205022838    38.5935174       0.998398379     -0.0733939646     0.998398379     -0.0733939646     0.00205022838    38.5935174      
 1.37494068       0.00205996904    38.8326027       0.998396158     -0.0741277399     0.998396158     -0.0741277399     0.00205996904    38.8326027      
 1.38869009       0.00206983478    39.0719757       0.998393926     -0.0748688504     0.998393926     -0.0748688504     0.00206983478    39.0719757      
 1.40257699       0.00207982711    39.3116193       0.998391683     -0.0756173695     0.998391683     -0.0756173695     0.00207982711    39.3116193      
 1.41660276       0.00208994754    39.5515161       0.998389428     -0.0763733712     0.998389428     -0.0763733712     0.00208994754    39.5515161      
 1.43076878       0.00210019759    39.7916487       0.998387162     -0.0771369303     0.998387162     -0.0771369303     0.00210019759    39.7916487      
 1.44507647       0.0021105788     40.0319997       0.998384884     -0.0779081224     0.998384884     -0.0779081224     0.0021105788     40.0319997      
 1.45952724       0.00212109272    40.2725514       0.998382594     -0.0786870237     0.998382594     -0.0786870237     0.00212109272    40.2725514      
 1.47412251       0.00213174091    40.5132863       0.998380293     -0.0794737113     0.998380293     -0.0794737113     0.00213174091    40.5132863      
 1.48886373       0.00214252496    40.7541866       0.99837798      -0.0802682631     0.99837798      -0.0802682631     0.00214252496    40.7541866      
 1.50375237       0.00215344644    40.9952347       0.998375655     -0.0810707575     0.998375655     -0.0810707575     0.00215344644    40.9952347      
 1.51878989       0.00216450697    41.2364127       0.998373319     -0.0818812741     0.998373319     -0.0818812741     0.00216450697    41.2364127      
 1.53397779       0.00217570817    41.4777027       0.99837097      -0.0826998929     0.99837097      -0.0826998929     0.00217570817    41.4777027      
 1.54931757       0.00218705167    41.719087        0.998368609     -0.083526695      0.998368609     -0.083526695      0.00218705167    41.719087       
 1.56481075       0.00219853911    41.9605477       0.998366237     -0.0843617622     0.998366237     -0.0843617622     0.00219853911    41.9605477      
 1.58045885       0.00221017215    42.2020668       0.998363852     -0.085205177      0.998363852     -0.085205177      0.00221017215    42.2020668      
 1.59626344       0.00222195246    42.4436263       0.998361455     -0.0860570228     0.998361455     -0.0860570228     0.00222195246    42.4436263      
 1.61222608       0.00223388174    42.6852085       0.998359045     -0.0869173841     0.998359045     -0.0869173841     0.00223388174    42.6852085      
 1.62834834       0.00224596169    42.9267952       0.998356624     -0.0877863457     0.998356624     -0.0877863457     0.00224596169    42.9267952      
 1.64463182       0.00225819401    43.1683687       0.99835419      -0.0886639938     0.99835419      -0.0886639938     0.00225819401    43.1683687      
 1.66107814       0.00227058044    43.4099109       0.998351743     -0.0895504151     0.998351743     -0.0895504151     0.00227058044    43.4099109      
 1.67768892       0.00228312273    43.651404        0.998349284     -0.0904456973     0.998349284     -0.0904456973     0.00228312273    43.651404       
 1.69446581       0.00229582263    43.8928301       0.998346812     -0.091349929      0.998346812     -0.091349929      0.00229582263    43.8928301      
 1.71141047       0.00230868192    44.1341713       0.998344328     -0.0922631996     0.998344328     -0.0922631996     0.00230868192    44.1341713      
 1.72852457       0.00232170237    44.3754099       0.99834183      -0.0931855994     0.99834183      -0.0931855994     0.00232170237    44.3754099      
 1.74580982       0.0023348858     44.616528        0.99833932      -0.0941172197     0.99833932      -0.0941172197     0.0023348858     44.616528       
 1.76326792       0.00234823403    44.857508        0.998336797     -0.0950581527     0.998336797     -0.0950581527     0.00234823403    44.857508       
 1.7809006        0.00236174887    45.0983321       0.998334262     -0.0960084913     0.998334262     -0.0960084913     0.00236174887    45.0983321      
 1.7987096        0.00237543218    45.3389829       0.998331713     -0.0969683297     0.998331713     -0.0969683297     0.00237543218    45.3389829      
 1.8166967        0.00238928583    45.5794427       0.99832915      -0.0979377627     0.99832915      -0.0979377627     0.00238928583    45.5794427      
 1.83486367       0.00240331168    45.8196941       0.998326575     -0.0989168863     0.998326575     -0.0989168863     0.00240331168    45.8196941      
 1.8532123        0.00241751163    46.0597198       0.998323986     -0.0999057972     0.998323986     -0.0999057972     0.00241751163    46.0597198      
 1.87174443       0.00243188759    46.2995024       0.998321385     -0.100904593      0.998321385     -0.100904593      0.00243188759    46.2995024      
 1.89046187       0.00244644148    46.5390248       0.998318769     -0.101913374      0.998318769     -0.101913374      0.00244644148    46.5390248      
 1.90936649       0.00246117523    46.7782698       0.99831614      -0.102932237      0.99831614      -0.102932237      0.00246117523    46.7782698      
 1.92846015       0.0024760908     47.0172206       0.998313498     -0.103961286      0.998313498     -0.103961286      0.0024760908     47.0172206      
 1.94774475       0.00249119017    47.2558601       0.998310842     -0.105000621      0.998310842     -0.105000621      0.00249119017    47.2558601      
 1.9672222        0.00250647531    47.4941717       0.998308172     -0.106050345      0.998308172     -0.106050345      0.00250647531    47.4941717      
 1.98689442       0.00252194823    47.7321387       0.998305488     -0.107110562      0.998305488     -0.107110562      0.00252194823    47.7321387      
 2.00676337       0.00253761095    47.9697447       0.998302791     -0.108181376      0.998302791     -0.108181376      0.00253761095    47.9697447      
 2.026831         0.0025534655     48.2069731       0.998300079     -0.109262895      0.998300079     -0.109262895      0.0025534655     48.2069731      
 2.04709931       0.00256951393    48.4438079       0.998297354     -0.110355224      0.998297354     -0.110355224      0.00256951393    48.4438079      
 2.06757031       0.0025857583     48.6802328       0.998294614     -0.111458472      0.998294614     -0.111458472      0.0025857583     48.6802328      
 2.08824601       0.00260220072    48.916232        0.99829186      -0.112572748      0.99829186      -0.112572748      0.00260220072    48.916232       
 2.10912847       0.00261884326    49.1517896       0.998289092     -0.113698162      0.998289092     -0.113698162      0.00261884326    49.1517896      
 2.13021975       0.00263568805    49.38689         0.998286309     -0.114834825      0.998286309     -0.114834825      0.00263568805    49.38689        
 2.15152195       0.00265273724    49.6215177       0.998283512     -0.11598285       0.998283512     -0.11598285       0.00265273724    49.6215177      
 2.17303717       0.00266999296    49.8556574       0.998280701     -0.11714235       0.998280701     -0.11714235       0.00266999296    49.8556574      
 2.19476754       0.00268745739    50.089294        0.998277875     -0.118313441      0.998277875     -0.118313441      0.00268745739    50.089294       
 2.21671522       0.00270513272    50.3224125       0.998275034     -0.119496237      0.998275034     -0.119496237      0.00270513272    50.3224125      
 2.23888237       0.00272302115    50.5549981       0.998272178     -0.120690856      0.998272178     -0.120690856      0.00272302115    50.5549981      
 2.26127119       0.00274112491    50.7870362       0.998269307     -0.121897416      0.998269307     -0.121897416      0.00274112491    50.7870362      
 2.2838839        0.00275944623    51.0185124       0.998266422     -0.123116037      0.998266422     -0.123116037      0.00275944623    51.0185124      
 2.30672274       0.00277798739    51.2494124       0.998263521     -0.124346838      0.998263521     -0.124346838      0.00277798739    51.2494124      
 2.32978997       0.00279675065    51.4797222       0.998260605     -0.125589942      0.998260605     -0.125589942      0.00279675065    51.4797222      
 2.35308787       0.00281573831    51.7094279       0.998257674     -0.126845471      0.998257674     -0.126845471      0.00281573831    51.7094279      
 2.37661875       0.0028349527     51.938516        0.998254728     -0.12811355       0.998254728     -0.12811355       0.0028349527     51.938516       
 2.40038494       0.00285439614    52.1669729       0.998251766     -0.129394304      0.998251766     -0.129394304      0.00285439614    52.1669729      
 2.42438879       0.002874071      52.3947855       0.998248789     -0.13068786       0.998248789     -0.13068786       0.002874071      52.3947855      
 2.44863267       0.00289397964    52.6219406       0.998245796     -0.131994345      0.998245796     -0.131994345      0.00289397964    52.6219406      
 2.473119         0.00291412446    52.8484256       0.998242788     -0.13331389       0.998242788     -0.13331389       0.00291412446    52.8484256      
 2.49785019       0.00293450787    53.0742277       0.998239763     -0.134646624      0.998239763     -0.134646624      0.00293450787    53.0742277      
 2.52282869       0.00295513231    53.2993346       0.998236723     -0.135992678      0.998236723     -0.135992678      0.00295513231    53.2993346      
 2.54805698       0.00297600023    53.5237341       0.998233667     -0.137352188      0.998233667     -0.137352188      0.00297600023    53.5237341      
 2.57353755       0.00299711411    53.7474142       0.998230594     -0.138725286      0.998230594     -0.138725286      0.00299711411    53.7474142      
 2.59927293       0.00301847645    53.9703633       0.998227506     -0.140112108      0.998227506     -0.140112108      0.00301847645    53.9703633      
 2.62526565       0.00304008975    54.1925697       0.998224401     -0.141512792      0.998224401     -0.141512792      0.00304008975    54.1925697      
 2.65151831       0.00306195656    54.4140223       0.99822128      -0.142927477      0.99822128      -0.142927477      0.00306195656    54.4140223      
 2.67803349       0.00308407945    54.6347099       0.998218142     -0.144356301      0.998218142     -0.144356301      0.00308407945    54.6347099      
 2.70481383       0.00310646098    54.8546217       0.998214988     -0.145799407      0.998214988     -0.145799407      0.00310646098    54.8546217      
 2.73186197       0.00312910376    55.0737471       0.998211817     -0.147256937      0.998211817     -0.147256937      0.00312910376    55.0737471      
 2.75918059       0.00315201042    55.2920757       0.99820863      -0.148729035      0.99820863      -0.148729035      0.00315201042    55.2920757      
 2.78677239       0.00317518361    55.5095974       0.998205425     -0.150215847      0.998205425     -0.150215847      0.00317518361    55.5095974      
 2.81464012       0.00319862599    55.7263021       0.998202204     -0.15171752       0.998202204     -0.15171752       0.00319862599    55.7263021      
 2.84278652       0.00322234027    55.9421804       0.998198965     -0.153234202      0.998198965     -0.153234202      0.00322234027    55.9421804      
 2.87121438       0.00324632915    56.1572226       0.998195709     -0.154766044      0.998195709     -0.154766044      0.00324632915    56.1572226      
 2.89992653       0.00327059538    56.3714195       0.998192436     -0.156313196      0.998192436     -0.156313196      0.00327059538    56.3714195      
 2.92892579       0.00329514173    56.5847622       0.998189146     -0.157875812      0.998189146     -0.157875812      0.00329514173    56.5847622      
 2.95821505       0.00331997097    56.7972418       0.998185838     -0.159454046      0.998185838     -0.159454046      0.00331997097    56.7972418      
 2.9877972        0.00334508593    57.0088499       0.998182512     -0.161048055      0.998182512     -0.161048055      0.00334508593    57.0088499      
 3.01767517       0.00337048944    57.2195781       0.998179169     -0.162657995      0.998179169     -0.162657995      0.00337048944    57.2195781      
 3.04785192       0.00339618436    57.4294183       0.998175808     -0.164284027      0.998175808     -0.164284027      0.00339618436    57.4294183      
 3.07833044       0.00342217358    57.6383627       0.998172428     -0.165926311      0.998172428     -0.165926311      0.00342217358    57.6383627      
 3.10911375       0.00344846001    57.8464036       0.998169031     -0.167585009      0.998169031     -0.167585009      0.00344846001    57.8464036      
 3.14020489       0.0034750466     58.0535337       0.998165616     -0.169260286      0.998165616     -0.169260286      0.0034750466     58.0535337      
 3.17160693       0.00350193629    58.2597458       0.998162182     -0.170952306      0.998162182     -0.170952306      0.00350193629    58.2597458      
 3.203323         0.0035291321     58.4650329       0.99815873      -0.172661238      0.99815873      -0.172661238      0.0035291321     58.465033       
 3.23535623       0.00355663703    58.6693884       0.998155259     -0.17438725       0.998155259     -0.17438725       0.00355663703    58.6693884      
 3.2677098        0.00358445412    58.8728057       0.99815177      -0.176130513      0.99815177      -0.176130513      0.00358445412    58.8728057      
 3.30038689       0.00361258646    59.0752786       0.998148261     -0.177891199      0.998148261     -0.177891199      0.00361258646    59.0752786      
 3.33339076       0.00364103714    59.276801        0.998144734     -0.179669483      0.998144734     -0.179669483      0.00364103714    59.276801       
 3.36672467       0.00366980928    59.4773671       0.998141188     -0.18146554       0.998141188     -0.18146554       0.00366980928    59.4773671      
 3.40039192       0.00369890604    59.6769713       0.998137623     -0.183279548      0.998137623     -0.183279548      0.00369890604    59.6769713      
 3.43439584       0.00372833061    59.8756082       0.998134038     -0.185111686      0.998134038     -0.185111686      0.00372833061    59.8756082      
 3.4687398        0.0037580862     60.0732726       0.998130435     -0.186962135      0.998130435     -0.186962135      0.0037580862     60.0732726      
 3.50342719       0.00378817604    60.2699595       0.998126811     -0.188831079      0.998126811     -0.188831079      0.00378817604    60.2699595      
