# MHz           S          MA           R         50
!Freq             MagS11           AngS11           MagS21           AngS21           MagS12           AngS12           MagS22           AngS22
 1                0.000493630457   27.2468251       0.999561167     -0.0129543129     0.999561167     -0.0129543129     0.000493630457   27.2468251      
 1.01             0.000495063529   27.4557843       0.999560723     -0.0130838502     0.999560723     -0.0130838502     0.000495063529   27.4557843      
 1.0201           0.000496515615   27.6657241       0.999560277     -0.0132146828     0.999560277     -0.0132146828     0.000496515615   27.6657241      
 1.030301         0.000497986982   27.876637        0.999559828     -0.0133468237     0.999559828     -0.0133468237     0.000497986982   27.876637       
 1.04060401       0.000499477899   28.0885152       0.999559378     -0.0134802858     0.999559378     -0.0134802858     0.000499477899   28.0885152      
 1.05101005       0.000500988637   28.3013506       0.999558925     -0.0136150825     0.999558925     -0.0136150825     0.000500988637   28.3013506      
 1.06152015       0.000502519472   28.515135        0.999558469     -0.0137512271     0.999558469     -0.0137512271     0.000502519472   28.515135       
 1.07213535       0.000504070684   28.7298598       0.999558012     -0.013888733      0.999558012     -0.013888733      0.000504070684   28.7298598      
 1.08285671       0.000505642554   28.9455161       0.999557552     -0.0140276139     0.999557552     -0.0140276139     0.000505642554   28.9455161      
 1.09368527       0.000507235366   29.1620948       0.99955709      -0.0141678835     0.99955709      -0.0141678835     0.000507235366   29.1620948      
 1.10462213       0.00050884941    29.3795869       0.999556626     -0.0143095557     0.999556626     -0.0143095557     0.00050884941    29.3795869      
 1.11566835       0.000510484976   29.5979824       0.999556159     -0.0144526445     0.999556159     -0.0144526445     0.000510484976   29.5979824      
 1.12682503       0.00051214236    29.8172718       0.99955569      -0.0145971641     0.99955569      -0.0145971641     0.00051214236    29.8172718      
 1.13809328       0.00051382186    30.0374448       0.999555218     -0.0147431288     0.999555218     -0.0147431288     0.00051382186    30.0374448      
 1.14947421       0.000515523777   30.2584911       0.999554745     -0.014890553      0.999554745     -0.014890553      0.000515523777   30.2584911      
 1.16096896       0.000517248415   30.4804003       0.999554268     -0.0150394514     0.999554268     -0.0150394514     0.000517248415   30.4804003      
 1.17257864       0.000518996084   30.7031614       0.99955379      -0.0151898386     0.99955379      -0.0151898386     0.000518996084   30.7031614      
 1.18430443       0.000520767093   30.9267634       0.999553309     -0.0153417296     0.999553309     -0.0153417296     0.000520767093   30.9267634      
 1.19614748       0.000522561757   31.1511949       0.999552825     -0.0154951394     0.999552825     -0.0154951395     0.000522561757   31.1511949      
 1.20810895       0.000524380396   31.3764443       0.99955234      -0.0156500832     0.99955234      -0.0156500832     0.000524380396   31.3764443      
 1.22019004       0.000526223329   31.6025          0.999551851     -0.0158065764     0.999551851     -0.0158065764     0.000526223329   31.6025         
 1.23239194       0.000528090883   31.8293496       0.999551361     -0.0159646343     0.999551361     -0.0159646343     0.000528090883   31.8293496      
 1.24471586       0.000529983384   32.0569811       0.999550868     -0.0161242727     0.999550868     -0.0161242727     0.000529983384   32.0569811      
 1.25716302       0.000531901166   32.2853817       0.999550372     -0.0162855073     0.999550372     -0.0162855073     0.000531901166   32.2853817      
 1.26973465       0.000533844562   32.5145387       0.999549874     -0.0164483542     0.999549874     -0.0164483542     0.000533844562   32.5145387      
 1.282432         0.000535813912   32.7444392       0.999549373     -0.0166128295     0.999549373     -0.0166128295     0.000535813912   32.7444392      
 1.29525631       0.000537809557   32.9750698       0.99954887      -0.0167789493     0.99954887      -0.0167789493     0.000537809557   32.9750698      
 1.30820888       0.000539831843   33.206417        0.999548365     -0.0169467303     0.999548365     -0.0169467303     0.000539831843   33.206417       
 1.32129097       0.000541881119   33.4384672       0.999547857     -0.0171161889     0.999547857     -0.0171161889     0.000541881119   33.4384672      
 1.33450388       0.000543957737   33.6712064       0.999547346     -0.0172873419     0.999547346     -0.0172873419     0.000543957737   33.6712064      
 1.34784892       0.000546062053   33.9046203       0.999546833     -0.0174602064     0.999546833     -0.0174602064     0.000546062053   33.9046203      
 1.3613274        0.000548194427   34.1386948       0.999546317     -0.0176347993     0.999546317     -0.0176347993     0.000548194427   34.1386948      
 1.37494068       0.000550355222   34.3734151       0.999545799     -0.0178111381     0.999545799     -0.0178111381     0.000550355222   34.3734151      
 1.38869009       0.000552544804   34.6087663       0.999545278     -0.0179892401     0.999545278     -0.0179892401     0.000552544804   34.6087663      
 1.40257699       0.000554763544   34.8447336       0.999544754     -0.018169123      0.999544754     -0.018169123      0.000554763544   34.8447336      
 1.41660276       0.000557011815   35.0813017       0.999544228     -0.0183508046     0.999544228     -0.0183508046     0.000557011815   35.0813017      
 1.43076878       0.000559289995   35.3184552       0.999543699     -0.0185343029     0.999543699     -0.0185343029     0.000559289995   35.3184552      
 1.44507647       0.000561598464   35.5561784       0.999543167     -0.0187196359     0.999543167     -0.0187196359     0.000561598464   35.5561784      
 1.45952724       0.000563937607   35.7944554       0.999542633     -0.0189068222     0.999542633     -0.0189068222     0.000563937607   35.7944554      
 1.47412251       0.000566307812   36.0332704       0.999542096     -0.0190958802     0.999542096     -0.0190958802     0.000566307812   36.0332704      
 1.48886373       0.000568709472   36.2726072       0.999541557     -0.0192868286     0.999541557     -0.0192868286     0.000568709472   36.2726072      
 1.50375237       0.00057114298    36.5124493       0.999541014     -0.0194796863     0.999541014     -0.0194796863     0.00057114298    36.5124493      
 1.51878989       0.000573608737   36.7527803       0.999540469     -0.0196744725     0.999540469     -0.0196744725     0.000573608737   36.7527803      
 1.53397779       0.000576107145   36.9935834       0.999539922     -0.0198712063     0.999539922     -0.0198712063     0.000576107145   36.9935835      
 1.54931757       0.000578638611   37.2348418       0.999539371     -0.0200699073     0.999539371     -0.0200699073     0.000578638611   37.2348418      
 1.56481075       0.000581203544   37.4765385       0.999538818     -0.0202705952     0.999538818     -0.0202705952     0.000581203545   37.4765385      
 1.58045885       0.000583802359   37.7186563       0.999538262     -0.0204732898     0.999538262     -0.0204732898     0.000583802359   37.7186563      
 1.59626344       0.000586435473   37.9611778       0.999537703     -0.0206780111     0.999537703     -0.0206780111     0.000586435473   37.9611778      
 1.61222608       0.000589103308   38.2040856       0.999537141     -0.0208847795     0.999537141     -0.0208847795     0.000589103308   38.2040856      
 1.62834834       0.000591806287   38.4473623       0.999536577     -0.0210936154     0.999536577     -0.0210936154     0.000591806287   38.4473623      
 1.64463182       0.000594544841   38.6909898       0.99953601      -0.0213045395     0.99953601      -0.0213045395     0.000594544841   38.6909898      
 1.66107814       0.000597319402   38.9349506       0.99953544      -0.0215175726     0.99953544      -0.0215175726     0.000597319402   38.9349506      
 1.67768892       0.000600130406   39.1792266       0.999534867     -0.0217327359     0.999534867     -0.0217327359     0.000600130406   39.1792266      
 1.69446581       0.000602978292   39.4237997       0.999534291     -0.0219500507     0.999534291     -0.0219500507     0.000602978292   39.4237997      
 1.71141047       0.000605863506   39.6686518       0.999533712     -0.0221695383     0.999533712     -0.0221695383     0.000605863506   39.6686518      
 1.72852457       0.000608786494   39.9137647       0.99953313      -0.0223912207     0.99953313      -0.0223912207     0.000608786494   39.9137647      
 1.74580982       0.000611747709   40.1591199       0.999532546     -0.0226151197     0.999532546     -0.0226151197     0.000611747709   40.1591199      
 1.76326792       0.000614747605   40.4046991       0.999531958     -0.0228412575     0.999531958     -0.0228412575     0.000614747605   40.4046991      
 1.7809006        0.000617786643   40.6504837       0.999531368     -0.0230696565     0.999531368     -0.0230696565     0.000617786643   40.6504837      
 1.7987096        0.000620865284   40.8964551       0.999530774     -0.0233003392     0.999530774     -0.0233003392     0.000620865284   40.8964551      
 1.8166967        0.000623983997   41.1425947       0.999530178     -0.0235333286     0.999530178     -0.0235333286     0.000623983997   41.1425947      
 1.83486367       0.000627143253   41.3888839       0.999529578     -0.0237686476     0.999529578     -0.0237686476     0.000627143253   41.3888839      
 1.8532123        0.000630343525   41.6353039       0.999528976     -0.0240063197     0.999528976     -0.0240063197     0.000630343525   41.6353039      
 1.87174443       0.000633585294   41.8818358       0.999528371     -0.0242463682     0.999528371     -0.0242463682     0.000633585294   41.8818358      
 1.89046187       0.000636869042   42.1284609       0.999527762     -0.024488817      0.999527762     -0.024488817      0.000636869042   42.1284609      
 1.90936649       0.000640195255   42.3751603       0.99952715      -0.0247336901     0.99952715      -0.0247336901     0.000640195255   42.3751603      
 1.92846015       0.000643564425   42.6219152       0.999526536     -0.0249810116     0.999526536     -0.0249810116     0.000643564425   42.6219152      
 1.94774475       0.000646977046   42.8687067       0.999525918     -0.0252308062     0.999525918     -0.0252308062     0.000646977046   42.8687067      
 1.9672222        0.000650433617   43.1155158       0.999525297     -0.0254830984     0.999525297     -0.0254830984     0.000650433617   43.1155158      
 1.98689442       0.000653934642   43.3623238       0.999524673     -0.0257379134     0.999524673     -0.0257379134     0.000653934642   43.3623238      
 2.00676337       0.000657480627   43.6091117       0.999524046     -0.0259952762     0.999524046     -0.0259952762     0.000657480627   43.6091117      
 2.026831         0.000661072083   43.8558607       0.999523416     -0.0262552125     0.999523416     -0.0262552125     0.000661072083   43.8558607      
 2.04709931       0.000664709526   44.102552        0.999522782     -0.0265177478     0.999522782     -0.0265177478     0.000664709526   44.102552       
 2.06757031       0.000668393475   44.3491668       0.999522146     -0.0267829083     0.999522146     -0.0267829083     0.000668393475   44.3491668      
 2.08824601       0.000672124453   44.5956862       0.999521506     -0.0270507201     0.999521506     -0.0270507201     0.000672124453   44.5956862      
 2.10912847       0.000675902989   44.8420916       0.999520863     -0.0273212097     0.999520863     -0.0273212097     0.000675902989   44.8420916      
 2.13021975       0.000679729614   45.0883644       0.999520216     -0.027594404      0.999520216     -0.027594404      0.000679729614   45.0883644      
 2.15152195       0.000683604864   45.3344858       0.999519567     -0.02787033       0.999519567     -0.02787033       0.000683604864   45.3344858      
 2.17303717       0.000687529281   45.5804374       0.999518914     -0.0281490149     0.999518914     -0.0281490149     0.000687529281   45.5804374      
 2.19476754       0.000691503409   45.8262007       0.999518258     -0.0284304864     0.999518258     -0.0284304864     0.000691503409   45.8262007      
 2.21671522       0.000695527797   46.0717573       0.999517598     -0.0287147724     0.999517598     -0.0287147724     0.000695527797   46.0717574      
 2.23888237       0.000699602999   46.317089        0.999516936     -0.0290019009     0.999516936     -0.0290019009     0.000699602999   46.317089       
 2.26127119       0.000703729572   46.5621774       0.999516269     -0.0292919005     0.999516269     -0.0292919005     0.000703729572   46.5621774      
 2.2838839        0.000707908079   46.8070044       0.9995156       -0.0295847997     0.9995156       -0.0295847997     0.000707908079   46.8070044      
 2.30672274       0.000712139087   47.0515522       0.999514927     -0.0298806276     0.999514927     -0.0298806276     0.000712139087   47.0515522      
 2.32978997       0.000716423167   47.2958028       0.999514251     -0.0301794135     0.999514251     -0.0301794135     0.000716423167   47.2958028      
 2.35308787       0.000720760895   47.5397383       0.999513571     -0.030481187      0.999513571     -0.030481187      0.000720760895   47.5397383      
 2.37661875       0.000725152851   47.7833412       0.999512888     -0.0307859779     0.999512888     -0.0307859779     0.000725152851   47.7833412      
 2.40038494       0.00072959962    48.026594        0.999512201     -0.0310938163     0.999512201     -0.0310938163     0.00072959962    48.026594       
 2.42438879       0.000734101792   48.2694792       0.999511511     -0.0314047329     0.999511511     -0.0314047329     0.000734101792   48.2694792      
 2.44863267       0.000738659962   48.5119796       0.999510818     -0.0317187582     0.999510818     -0.0317187582     0.000738659962   48.5119796      
 2.473119         0.000743274727   48.7540781       0.999510121     -0.0320359235     0.999510121     -0.0320359235     0.000743274727   48.7540781      
 2.49785019       0.000747946692   48.9957578       0.99950942      -0.0323562601     0.99950942      -0.0323562601     0.000747946692   48.9957578      
 2.52282869       0.000752676466   49.2370019       0.999508716     -0.0326797998     0.999508716     -0.0326797998     0.000752676466   49.2370019      
 2.54805698       0.000757464661   49.4777938       0.999508009     -0.0330065744     0.999508009     -0.0330065744     0.000757464661   49.4777938      
 2.57353755       0.000762311897   49.718117        0.999507297     -0.0333366165     0.999507297     -0.0333366165     0.000762311897   49.718117       
 2.59927293       0.000767218795   49.9579552       0.999506583     -0.0336699587     0.999506583     -0.0336699587     0.000767218795   49.9579552      
 2.62526565       0.000772185984   50.1972925       0.999505864     -0.0340066339     0.999505864     -0.0340066339     0.000772185984   50.1972925      
 2.65151831       0.000777214098   50.4361128       0.999505142     -0.0343466755     0.999505142     -0.0343466755     0.000777214098   50.4361128      
 2.67803349       0.000782303775   50.6744004       0.999504417     -0.0346901171     0.999504417     -0.0346901171     0.000782303775   50.6744004      
 2.70481383       0.000787455657   50.9121398       0.999503687     -0.0350369928     0.999503687     -0.0350369928     0.000787455657   50.9121398      
 2.73186197       0.000792670394   51.1493157       0.999502954     -0.0353873369     0.999502954     -0.0353873368     0.000792670394   51.1493157      
 2.75918059       0.000797948638   51.385913        0.999502217     -0.0357411839     0.999502217     -0.0357411839     0.000797948638   51.385913       
 2.78677239       0.000803291049   51.6219166       0.999501477     -0.0360985691     0.999501477     -0.0360985691     0.000803291049   51.6219166      
 2.81464012       0.000808698292   51.857312        0.999500733     -0.0364595277     0.999500733     -0.0364595277     0.000808698292   51.857312       
 2.84278652       0.000814171035   52.0920846       0.999499984     -0.0368240955     0.999499984     -0.0368240955     0.000814171035   52.0920846      
 2.87121438       0.000819709953   52.32622         0.999499233     -0.0371923086     0.999499233     -0.0371923086     0.000819709953   52.32622        
 2.89992653       0.000825315728   52.5597043       0.999498477     -0.0375642034     0.999498477     -0.0375642034     0.000825315728   52.5597043      
 2.92892579       0.000830989045   52.7925236       0.999497718     -0.0379398167     0.999497718     -0.0379398167     0.000830989045   52.7925236      
 2.95821505       0.000836730595   53.0246643       0.999496954     -0.0383191857     0.999496954     -0.0383191857     0.000836730595   53.0246643      
 2.9877972        0.000842541077   53.2561129       0.999496187     -0.0387023479     0.999496187     -0.0387023479     0.000842541077   53.2561129      
 3.01767517       0.000848421192   53.4868564       0.999495416     -0.0390893413     0.999495416     -0.0390893413     0.000848421192   53.4868564      
 3.04785192       0.00085437165    53.7168817       0.999494641     -0.0394802042     0.999494641     -0.0394802042     0.00085437165    53.7168817      
 3.07833044       0.000860393166   53.9461762       0.999493862     -0.0398749753     0.999493862     -0.0398749753     0.000860393166   53.9461762      
 3.10911375       0.000866486459   54.1747274       0.999493079     -0.0402736936     0.999493079     -0.0402736936     0.000866486459   54.1747274      
 3.14020489       0.000872652257   54.4025231       0.999492292     -0.0406763986     0.999492292     -0.0406763986     0.000872652257   54.4025231      
 3.17160693       0.000878891291   54.6295514       0.999491501     -0.0410831302     0.999491501     -0.0410831302     0.000878891291   54.6295514      
 3.203323         0.0008852043     54.8558004       0.999490706     -0.0414939286     0.999490706     -0.0414939286     0.0008852043     54.8558004      
 3.23535623       0.00089159203    55.0812587       0.999489908     -0.0419088345     0.999489908     -0.0419088345     0.00089159203    55.0812587      
 3.2677098        0.000898055231   55.305915        0.999489105     -0.042327889      0.999489105     -0.042327889      0.000898055231   55.305915       
 3.30038689       0.00090459466    55.5297584       0.999488297     -0.0427511335     0.999488297     -0.0427511335     0.00090459466    55.5297584      
 3.33339076       0.000911211081   55.752778        0.999487486     -0.0431786099     0.999487486     -0.0431786099     0.000911211081   55.752778       
 3.36672467       0.000917905264   55.9749635       0.999486671     -0.0436103606     0.999486671     -0.0436103606     0.000917905264   55.9749635      
 3.40039192       0.000924677987   56.1963044       0.999485851     -0.0440464282     0.999485851     -0.0440464282     0.000924677987   56.1963044      
 3.43439584       0.000931530031   56.4167909       0.999485028     -0.044486856      0.999485028     -0.044486856      0.000931530031   56.4167909      
 3.4687398        0.000938462188   56.636413        0.9994842       -0.0449316875     0.9994842       -0.0449316875     0.000938462188   56.636413       
 3.50342719       0.000945475254   56.8551615       0.999483368     -0.0453809667     0.999483368     -0.0453809667     0.000945475254   56.8551614      
