# MHz           S          MA           R         50
!Freq             MagS11           AngS11           MagS21           AngS21           MagS12           AngS12           MagS22           AngS22
 1                0.000451253416   27.3302584       0.999599139     -0.0118752379     0.999599139     -0.0118752379     0.000451253416   27.3302584      
 1.01             0.000452611116   27.5368209       0.999598685     -0.0119939848     0.999598685     -0.0119939848     0.000452611116   27.5368209      
 1.0201           0.000453986322   27.7443249       0.999598229     -0.0121139192     0.999598229     -0.0121139192     0.000453986322   27.7443249      
 1.030301         0.000455379276   27.952763        0.999597771     -0.0122350528     0.999597771     -0.0122350528     0.000455379276   27.952763       
 1.04060401       0.000456790222   28.1621275       0.99959731      -0.0123573976     0.99959731      -0.0123573976     0.000456790222   28.1621275      
 1.05101005       0.000458219406   28.3724102       0.999596847     -0.0124809658     0.999596847     -0.0124809658     0.000458219406   28.3724101      
 1.06152015       0.000459667078   28.5836029       0.999596381     -0.0126057696     0.999596381     -0.0126057696     0.000459667078   28.5836029      
 1.07213535       0.00046113349    28.7956974       0.999595914     -0.0127318213     0.999595914     -0.0127318213     0.00046113349    28.7956974      
 1.08285671       0.000462618898   29.0086847       0.999595444     -0.0128591335     0.999595444     -0.0128591335     0.000462618898   29.0086847      
 1.09368527       0.00046412356    29.2225561       0.999594971     -0.0129877187     0.999594971     -0.0129877187     0.00046412356    29.2225561      
 1.10462213       0.000465647737   29.4373022       0.999594496     -0.0131175896     0.999594496     -0.0131175896     0.000465647737   29.4373022      
 1.11566835       0.000467191692   29.6529138       0.999594019     -0.0132487592     0.999594019     -0.0132487592     0.000467191692   29.6529138      
 1.12682503       0.000468755695   29.8693812       0.99959354      -0.0133812404     0.99959354      -0.0133812404     0.000468755695   29.8693812      
 1.13809328       0.000470340012   30.0866944       0.999593058     -0.0135150463     0.999593058     -0.0135150463     0.000470340012   30.0866945      
 1.14947421       0.000471944919   30.3048435       0.999592573     -0.0136501901     0.999592573     -0.0136501901     0.000471944919   30.3048435      
 1.16096896       0.00047357069    30.523818        0.999592087     -0.0137866853     0.999592087     -0.0137866853     0.00047357069    30.5238181      
 1.17257864       0.000475217605   30.7436073       0.999591597     -0.0139245454     0.999591597     -0.0139245454     0.000475217605   30.7436074      
 1.18430443       0.000476885946   30.9642007       0.999591106     -0.0140637839     0.999591106     -0.0140637839     0.000476885946   30.9642007      
 1.19614748       0.000478575997   31.1855871       0.999590612     -0.0142044147     0.999590612     -0.0142044147     0.000478575997   31.1855871      
 1.20810895       0.000480288048   31.4077551       0.999590115     -0.0143464518     0.999590115     -0.0143464518     0.000480288048   31.4077551      
 1.22019004       0.000482022387   31.6306934       0.999589616     -0.0144899091     0.999589616     -0.0144899091     0.000482022387   31.6306934      
 1.23239194       0.00048377931    31.8543902       0.999589114     -0.0146348008     0.999589114     -0.0146348008     0.00048377931    31.8543902      
 1.24471586       0.000485559115   32.0788334       0.99958861      -0.0147811414     0.99958861      -0.0147811414     0.000485559115   32.0788334      
 1.25716302       0.0004873621     32.304011        0.999588104     -0.0149289452     0.999588104     -0.0149289452     0.0004873621     32.304011       
 1.26973465       0.000489188571   32.5299106       0.999587594     -0.015078227      0.999587594     -0.015078227      0.000489188571   32.5299106      
 1.282432         0.000491038832   32.7565194       0.999587083     -0.0152290015     0.999587083     -0.0152290015     0.000491038832   32.7565194      
 1.29525631       0.000492913195   32.9838248       0.999586568     -0.0153812836     0.999586568     -0.0153812836     0.000492913195   32.9838248      
 1.30820888       0.000494811971   33.2118135       0.999586052     -0.0155350884     0.999586052     -0.0155350884     0.000494811971   33.2118135      
 1.32129097       0.000496735477   33.4404725       0.999585532     -0.0156904311     0.999585532     -0.0156904311     0.000496735478   33.4404725      
 1.33450388       0.000498684033   33.6697881       0.99958501      -0.0158473272     0.99958501      -0.0158473272     0.000498684033   33.6697881      
 1.34784892       0.000500657959   33.8997468       0.999584486     -0.016005792      0.999584486     -0.016005792      0.000500657959   33.8997468      
 1.3613274        0.000502657583   34.1303345       0.999583958     -0.0161658415     0.999583958     -0.0161658415     0.000502657583   34.1303345      
 1.37494068       0.000504683233   34.3615374       0.999583428     -0.0163274912     0.999583428     -0.0163274912     0.000504683233   34.3615374      
 1.38869009       0.000506735241   34.593341        0.999582896     -0.0164907574     0.999582896     -0.0164907574     0.000506735241   34.593341       
 1.40257699       0.000508813942   34.8257309       0.999582361     -0.016655656      0.999582361     -0.016655656      0.000508813942   34.8257309      
 1.41660276       0.000510919675   35.0586926       0.999581823     -0.0168222035     0.999581823     -0.0168222035     0.000510919675   35.0586926      
 1.43076878       0.000513052781   35.2922111       0.999581282     -0.0169904164     0.999581282     -0.0169904164     0.000513052781   35.2922111      
 1.44507647       0.000515213607   35.5262713       0.999580739     -0.0171603112     0.999580739     -0.0171603112     0.000515213607   35.5262713      
 1.45952724       0.000517402499   35.7608583       0.999580193     -0.0173319049     0.999580193     -0.0173319049     0.000517402499   35.7608583      
 1.47412251       0.00051961981    35.9959565       0.999579644     -0.0175052143     0.999579644     -0.0175052143     0.00051961981    35.9959565      
 1.48886373       0.000521865894   36.2315504       0.999579092     -0.0176802567     0.999579092     -0.0176802567     0.000521865894   36.2315504      
 1.50375237       0.000524141112   36.4676243       0.999578538     -0.0178570494     0.999578538     -0.0178570494     0.000524141112   36.4676243      
 1.51878989       0.000526445823   36.7041625       0.999577981     -0.0180356098     0.999577981     -0.0180356098     0.000526445823   36.7041625      
 1.53397779       0.000528780393   36.9411488       0.999577421     -0.0182159558     0.999577421     -0.0182159558     0.000528780393   36.9411488      
 1.54931757       0.00053114519    37.1785671       0.999576858     -0.018398105      0.999576858     -0.018398105      0.00053114519    37.1785671      
 1.56481075       0.000533540586   37.4164012       0.999576293     -0.0185820755     0.999576293     -0.0185820755     0.000533540586   37.4164012      
 1.58045885       0.000535966957   37.6546345       0.999575725     -0.0187678856     0.999575725     -0.0187678856     0.000535966957   37.6546345      
 1.59626344       0.000538424681   37.8932505       0.999575153     -0.0189555537     0.999575153     -0.0189555537     0.000538424681   37.8932505      
 1.61222608       0.00054091414    38.1322326       0.999574579     -0.0191450982     0.999574579     -0.0191450982     0.00054091414    38.1322326      
 1.62834834       0.000543435719   38.3715639       0.999574002     -0.019336538      0.999574002     -0.019336538      0.000543435719   38.3715639      
 1.64463182       0.000545989808   38.6112275       0.999573423     -0.0195298921     0.999573423     -0.0195298921     0.000545989808   38.6112275      
 1.66107814       0.000548576798   38.8512063       0.99957284      -0.0197251795     0.99957284      -0.0197251795     0.000548576798   38.8512063      
 1.67768892       0.000551197086   39.0914831       0.999572254     -0.0199224197     0.999572254     -0.0199224197     0.000551197086   39.0914831      
 1.69446581       0.000553851071   39.3320409       0.999571666     -0.020121632      0.999571666     -0.020121632      0.000553851071   39.3320409      
 1.71141047       0.000556539155   39.5728621       0.999571074     -0.0203228363     0.999571074     -0.0203228363     0.000556539155   39.5728621      
 1.72852457       0.000559261746   39.8139294       0.99957048      -0.0205260525     0.99957048      -0.0205260525     0.000559261746   39.8139294      
 1.74580982       0.000562019253   40.0552252       0.999569882     -0.0207313007     0.999569882     -0.0207313007     0.000562019253   40.0552253      
 1.76326792       0.000564812089   40.2967321       0.999569282     -0.0209386011     0.999569282     -0.0209386011     0.000564812089   40.2967321      
 1.7809006        0.000567640671   40.5384323       0.999568678     -0.0211479744     0.999568678     -0.0211479744     0.000567640671   40.5384323      
 1.7987096        0.000570505421   40.7803082       0.999568072     -0.0213594412     0.999568072     -0.0213594412     0.000570505421   40.7803081      
 1.8166967        0.000573406762   41.0223419       0.999567462     -0.0215730224     0.999567462     -0.0215730224     0.000573406762   41.0223419      
 1.83486367       0.000576345122   41.2645156       0.999566849     -0.0217887393     0.999566849     -0.0217887393     0.000576345122   41.2645156      
 1.8532123        0.000579320932   41.5068116       0.999566234     -0.0220066132     0.999566234     -0.0220066132     0.000579320932   41.5068116      
 1.87174443       0.000582334628   41.7492119       0.999565615     -0.0222266656     0.999565615     -0.0222266656     0.000582334628   41.7492119      
 1.89046187       0.000585386648   41.9916985       0.999564993     -0.0224489183     0.999564993     -0.0224489183     0.000585386648   41.9916985      
 1.90936649       0.000588477435   42.2342537       0.999564368     -0.0226733933     0.999564368     -0.0226733933     0.000588477435   42.2342537      
 1.92846015       0.000591607434   42.4768593       0.99956374      -0.0229001129     0.99956374      -0.0229001129     0.000591607434   42.4768593      
 1.94774475       0.000594777096   42.7194975       0.999563108     -0.0231290994     0.999563108     -0.0231290994     0.000594777096   42.7194975      
 1.9672222        0.000597986875   42.9621503       0.999562474     -0.0233603756     0.999562474     -0.0233603756     0.000597986875   42.9621502      
 1.98689442       0.000601237227   43.2047996       0.999561836     -0.0235939643     0.999561836     -0.0235939643     0.000601237227   43.2047996      
 2.00676337       0.000604528614   43.4474276       0.999561195     -0.0238298887     0.999561195     -0.0238298887     0.000604528614   43.4474276      
 2.026831         0.0006078615     43.6900163       0.999560551     -0.0240681721     0.999560551     -0.0240681721     0.0006078615     43.6900163      
 2.04709931       0.000611236356   43.9325478       0.999559904     -0.0243088381     0.999559904     -0.0243088381     0.000611236356   43.9325478      
 2.06757031       0.000614653652   44.1750042       0.999559253     -0.0245519105     0.999559253     -0.0245519105     0.000614653652   44.1750042      
 2.08824601       0.000618113866   44.4173678       0.999558599     -0.0247974134     0.999558599     -0.0247974134     0.000618113866   44.4173678      
 2.10912847       0.000621617478   44.6596205       0.999557942     -0.0250453711     0.999557942     -0.0250453711     0.000621617478   44.6596205      
 2.13021975       0.000625164973   44.9017449       0.999557282     -0.0252958082     0.999557282     -0.0252958082     0.000625164973   44.9017449      
 2.15152195       0.000628756838   45.143723        0.999556618     -0.0255487493     0.999556618     -0.0255487493     0.000628756838   45.143723       
 2.17303717       0.000632393566   45.3855373       0.999555951     -0.0258042196     0.999555951     -0.0258042196     0.000632393566   45.3855373      
 2.19476754       0.000636075654   45.6271703       0.99955528      -0.0260622443     0.99955528      -0.0260622443     0.000636075654   45.6271703      
 2.21671522       0.0006398036     45.8686044       0.999554606     -0.0263228491     0.999554606     -0.0263228491     0.0006398036     45.8686044      
 2.23888237       0.000643577911   46.1098223       0.999553929     -0.0265860596     0.999553929     -0.0265860596     0.000643577911   46.1098223      
 2.26127119       0.000647399094   46.3508065       0.999553248     -0.0268519019     0.999553248     -0.0268519019     0.000647399094   46.3508065      
 2.2838839        0.000651267662   46.59154         0.999552564     -0.0271204024     0.999552564     -0.0271204024     0.000651267662   46.59154        
 2.30672274       0.000655184131   46.8320055       0.999551877     -0.0273915876     0.999551877     -0.0273915876     0.000655184131   46.8320055      
 2.32978997       0.000659149023   47.0721861       0.999551186     -0.0276654844     0.999551186     -0.0276654844     0.000659149023   47.0721861      
 2.35308787       0.000663162862   47.3120648       0.999550491     -0.0279421199     0.999550491     -0.0279421199     0.000663162862   47.3120648      
 2.37661875       0.000667226178   47.5516249       0.999549793     -0.0282215214     0.999549793     -0.0282215214     0.000667226178   47.5516249      
 2.40038494       0.000671339504   47.7908496       0.999549092     -0.0285037167     0.999549092     -0.0285037167     0.000671339504   47.7908496      
 2.42438879       0.000675503379   48.0297225       0.999548387     -0.0287887336     0.999548387     -0.0287887336     0.000675503379   48.0297225      
 2.44863267       0.000679718344   48.2682271       0.999547678     -0.0290766003     0.999547678     -0.0290766003     0.000679718344   48.2682271      
 2.473119         0.000683984947   48.5063471       0.999546966     -0.0293673454     0.999546966     -0.0293673455     0.000683984947   48.5063471      
 2.49785019       0.000688303737   48.7440665       0.99954625      -0.0296609977     0.99954625      -0.0296609977     0.000688303737   48.7440665      
 2.52282869       0.000692675272   48.9813692       0.999545531     -0.0299575862     0.999545531     -0.0299575862     0.000692675272   48.9813692      
 2.54805698       0.000697100111   49.2182394       0.999544808     -0.0302571402     0.999544808     -0.0302571402     0.000697100111   49.2182394      
 2.57353755       0.000701578817   49.4546615       0.999544081     -0.0305596894     0.999544081     -0.0305596894     0.000701578817   49.4546615      
 2.59927293       0.000706111962   49.69062         0.999543351     -0.0308652638     0.999543351     -0.0308652638     0.000706111962   49.69062        
 2.62526565       0.000710700118   49.9260994       0.999542617     -0.0311738936     0.999542617     -0.0311738936     0.000710700118   49.9260994      
 2.65151831       0.000715343864   50.1610847       0.999541879     -0.0314856094     0.999541879     -0.0314856094     0.000715343864   50.1610847      
 2.67803349       0.000720043783   50.3955608       0.999541138     -0.0318004419     0.999541138     -0.0318004419     0.000720043783   50.3955608      
 2.70481383       0.000724800462   50.629513        0.999540393     -0.0321184225     0.999540393     -0.0321184225     0.000724800462   50.629513       
 2.73186197       0.000729614496   50.8629266       0.999539644     -0.0324395824     0.999539644     -0.0324395824     0.000729614496   50.8629266      
 2.75918059       0.00073448648    51.0957872       0.999538891     -0.0327639537     0.999538891     -0.0327639537     0.00073448648    51.0957872      
 2.78677239       0.000739417018   51.3280805       0.999538135     -0.0330915682     0.999538135     -0.0330915682     0.000739417018   51.3280805      
 2.81464012       0.000744406716   51.5597925       0.999537374     -0.0334224585     0.999537374     -0.0334224585     0.000744406716   51.5597925      
 2.84278652       0.000749456188   51.7909093       0.99953661      -0.0337566574     0.99953661      -0.0337566574     0.000749456188   51.7909093      
 2.87121438       0.000754566051   52.0214172       0.999535842     -0.0340941978     0.999535842     -0.0340941978     0.000754566051   52.0214172      
 2.89992653       0.000759736926   52.2513029       0.99953507      -0.0344351133     0.99953507      -0.0344351133     0.000759736927   52.2513029      
 2.92892579       0.000764969443   52.480553        0.999534294     -0.0347794375     0.999534294     -0.0347794375     0.000764969443   52.480553       
 2.95821505       0.000770264233   52.7091546       0.999533515     -0.0351272045     0.999533515     -0.0351272045     0.000770264233   52.7091545      
 2.9877972        0.000775621935   52.9370947       0.999532731     -0.0354784488     0.999532731     -0.0354784488     0.000775621935   52.9370947      
 3.01767517       0.000781043192   53.1643609       0.999531943     -0.0358332052     0.999531943     -0.0358332052     0.000781043192   53.1643609      
 3.04785192       0.000786528654   53.3909406       0.999531152     -0.0361915086     0.999531152     -0.0361915086     0.000786528654   53.3909406      
 3.07833044       0.000792078973   53.6168218       0.999530356     -0.0365533947     0.999530356     -0.0365533947     0.000792078973   53.6168218      
 3.10911375       0.00079769481    53.8419925       0.999529556     -0.0369188992     0.999529556     -0.0369188992     0.00079769481    53.8419925      
 3.14020489       0.00080337683    54.066441        0.999528753     -0.0372880583     0.999528753     -0.0372880583     0.00080337683    54.066441       
 3.17160693       0.000809125703   54.2901557       0.999527945     -0.0376609085     0.999527945     -0.0376609085     0.000809125703   54.2901557      
 3.203323         0.000814942107   54.5131254       0.999527133     -0.0380374868     0.999527133     -0.0380374868     0.000814942107   54.5131254      
 3.23535623       0.000820826724   54.735339        0.999526317     -0.0384178304     0.999526317     -0.0384178304     0.000820826724   54.735339       
 3.2677098        0.000826780241   54.9567857       0.999525497     -0.038801977      0.999525497     -0.038801977      0.000826780241   54.9567857      
 3.30038689       0.000832803352   55.177455        0.999524673     -0.0391899646     0.999524673     -0.0391899646     0.000832803352   55.177455       
 3.33339076       0.000838896758   55.3973364       0.999523844     -0.0395818315     0.999523844     -0.0395818315     0.000838896758   55.3973364      
 3.36672467       0.000845061163   55.6164198       0.999523011     -0.0399776166     0.999523011     -0.0399776166     0.000845061163   55.6164198      
 3.40039192       0.00085129728    55.8346954       0.999522175     -0.0403773591     0.999522175     -0.0403773591     0.00085129728    55.8346954      
 3.43439584       0.000857605826   56.0521534       0.999521333     -0.0407810985     0.999521333     -0.0407810985     0.000857605826   56.0521534      
 3.4687398        0.000863987526   56.2687845       0.999520488     -0.0411888747     0.999520488     -0.0411888747     0.000863987526   56.2687845      
 3.50342719       0.00087044311    56.4845794       0.999519638     -0.0416007282     0.999519638     -0.0416007282     0.00087044311    56.4845794      
