# MHz           S          MA           R         50
!Freq             MagS11           AngS11           MagS21           AngS21           MagS12           AngS12           MagS22           AngS22
 1                0.00225706801    33.687852        0.998122743     -0.0718648577     0.998122743     -0.0718648577     0.00225706801    33.687852       
 1.01             0.0022660376     33.9172198       0.998120342     -0.0725833321     0.998120342     -0.0725833321     0.0022660376     33.9172198      
 1.0201           0.00227512376    34.1472046       0.998117929     -0.0733089886     0.998117929     -0.0733089886     0.00227512376    34.1472046      
 1.030301         0.00228432798    34.3777921       0.998115503     -0.0740418991     0.998115503     -0.0740418991     0.00228432798    34.3777921      
 1.04060401       0.00229365177    34.608968        0.998113066     -0.0747821359     0.998113066     -0.0747821359     0.00229365177    34.608968       
 1.05101005       0.00230309664    34.8407178       0.998110616     -0.0755297723     0.998110616     -0.0755297723     0.00230309664    34.8407178      
 1.06152015       0.00231266413    35.0730268       0.998108153     -0.0762848823     0.998108153     -0.0762848823     0.00231266413    35.0730268      
 1.07213535       0.00232235579    35.30588         0.998105678     -0.0770475406     0.998105678     -0.0770475406     0.00232235579    35.30588        
 1.08285671       0.00233217317    35.5392623       0.998103191     -0.0778178225     0.998103191     -0.0778178225     0.00233217317    35.5392623      
 1.09368527       0.00234211785    35.7731585       0.99810069      -0.0785958044     0.99810069      -0.0785958044     0.00234211785    35.7731585      
 1.10462213       0.00235219143    36.0075531       0.998098177     -0.0793815631     0.998098177     -0.0793815631     0.00235219143    36.0075531      
 1.11566835       0.00236239551    36.2424306       0.998095652     -0.0801751764     0.998095652     -0.0801751764     0.00236239551    36.2424306      
 1.12682503       0.00237273172    36.4777752       0.998093113     -0.0809767228     0.998093113     -0.0809767228     0.00237273172    36.4777752      
 1.13809328       0.00238320169    36.7135709       0.998090561     -0.0817862815     0.998090561     -0.0817862815     0.00238320169    36.7135709      
 1.14947421       0.00239380707    36.9498016       0.998087997     -0.0826039327     0.998087997     -0.0826039327     0.00239380707    36.9498016      
 1.16096896       0.00240454954    37.1864513       0.998085419     -0.0834297571     0.998085419     -0.0834297571     0.00240454954    37.1864513      
 1.17257864       0.00241543078    37.4235035       0.998082828     -0.0842638366     0.998082828     -0.0842638366     0.00241543078    37.4235035      
 1.18430443       0.00242645248    37.6609416       0.998080224     -0.0851062536     0.998080224     -0.0851062536     0.00242645248    37.6609416      
 1.19614748       0.00243761635    37.8987492       0.998077606     -0.0859570914     0.998077606     -0.0859570914     0.00243761635    37.8987492      
 1.20810895       0.00244892414    38.1369094       0.998074975     -0.0868164342     0.998074975     -0.0868164342     0.00244892414    38.1369094      
 1.22019004       0.00246037757    38.3754054       0.998072331     -0.0876843669     0.998072331     -0.0876843669     0.00246037757    38.3754054      
 1.23239194       0.00247197842    38.6142202       0.998069673     -0.0885609755     0.998069673     -0.0885609755     0.00247197842    38.6142202      
 1.24471586       0.00248372846    38.8533367       0.998067002     -0.0894463467     0.998067002     -0.0894463467     0.00248372846    38.8533367      
 1.25716302       0.00249562947    39.0927377       0.998064317     -0.0903405679     0.998064317     -0.0903405679     0.00249562947    39.0927377      
 1.26973465       0.00250768327    39.3324059       0.998061618     -0.0912437277     0.998061618     -0.0912437277     0.00250768327    39.3324059      
 1.282432         0.00251989169    39.5723239       0.998058905     -0.0921559153     0.998058905     -0.0921559153     0.00251989169    39.5723239      
 1.29525631       0.00253225655    39.8124743       0.998056179     -0.0930772211     0.998056179     -0.0930772211     0.00253225655    39.8124743      
 1.30820888       0.00254477972    40.0528395       0.998053438     -0.094007736      0.998053438     -0.094007736      0.00254477972    40.0528395      
 1.32129097       0.00255746306    40.293402        0.998050684     -0.0949475523     0.998050684     -0.0949475523     0.00255746306    40.293402       
 1.33450388       0.00257030847    40.5341439       0.998047915     -0.0958967627     0.998047915     -0.0958967627     0.00257030847    40.5341439      
 1.34784892       0.00258331784    40.7750476       0.998045132     -0.0968554613     0.998045132     -0.0968554613     0.00258331784    40.7750476      
 1.3613274        0.0025964931     41.0160954       0.998042335     -0.0978237427     0.998042335     -0.0978237427     0.0025964931     41.0160954      
 1.37494068       0.00260983618    41.2572692       0.998039523     -0.0988017029     0.998039523     -0.0988017029     0.00260983618    41.2572692      
 1.38869009       0.00262334903    41.4985514       0.998036697     -0.0997894384     0.998036697     -0.0997894384     0.00262334903    41.4985514      
 1.40257699       0.00263703363    41.7399239       0.998033857     -0.100787047      0.998033857     -0.100787047      0.00263703363    41.7399239      
 1.41660276       0.00265089196    41.9813688       0.998031002     -0.101794627      0.998031002     -0.101794627      0.00265089196    41.9813688      
 1.43076878       0.00266492602    42.2228681       0.998028132     -0.102812279      0.998028132     -0.102812279      0.00266492602    42.2228681      
 1.44507647       0.00267913783    42.4644039       0.998025247     -0.103840103      0.998025247     -0.103840103      0.00267913783    42.4644039      
 1.45952724       0.00269352942    42.7059582       0.998022348     -0.104878201      0.998022348     -0.104878201      0.00269352942    42.7059582      
 1.47412251       0.00270810286    42.947513        0.998019433     -0.105926675      0.998019433     -0.105926675      0.00270810286    42.947513       
 1.48886373       0.0027228602     43.1890503       0.998016504     -0.106985629      0.998016504     -0.106985629      0.0027228602     43.1890503      
 1.50375237       0.00273780353    43.4305521       0.998013559     -0.108055168      0.998013559     -0.108055168      0.00273780353    43.4305521      
 1.51878989       0.00275293497    43.6720005       0.9980106       -0.109135397      0.9980106       -0.109135397      0.00275293497    43.6720005      
 1.53397779       0.00276825663    43.9133776       0.998007625     -0.110226424      0.998007625     -0.110226424      0.00276825663    43.9133776      
 1.54931757       0.00278377064    44.1546654       0.998004634     -0.111328356      0.998004634     -0.111328356      0.00278377064    44.1546654      
 1.56481075       0.00279947917    44.3958462       0.998001628     -0.112441302      0.998001628     -0.112441302      0.00279947917    44.3958462      
 1.58045885       0.00281538439    44.6369021       0.997998607     -0.113565373      0.997998607     -0.113565373      0.00281538439    44.6369021      
 1.59626344       0.00283148849    44.8778153       0.99799557      -0.11470068       0.99799557      -0.11470068       0.00283148849    44.8778153      
 1.61222608       0.00284779369    45.1185682       0.997992517     -0.115847334      0.997992517     -0.115847334      0.00284779369    45.1185682      
 1.62834834       0.0028643022     45.3591431       0.997989449     -0.117005449      0.997989449     -0.117005449      0.0028643022     45.3591431      
 1.64463182       0.00288101627    45.5995224       0.997986364     -0.11817514       0.997986364     -0.11817514       0.00288101627    45.5995224      
 1.66107814       0.00289793817    45.8396887       0.997983264     -0.119356522      0.997983264     -0.119356522      0.00289793817    45.8396887      
 1.67768892       0.00291507018    46.0796245       0.997980147     -0.120549713      0.997980147     -0.120549713      0.00291507018    46.0796245      
 1.69446581       0.0029324146     46.3193125       0.997977014     -0.12175483       0.997977014     -0.12175483       0.0029324146     46.3193125      
 1.71141047       0.00294997375    46.5587356       0.997973865     -0.122971992      0.997973865     -0.122971992      0.00294997375    46.5587356      
 1.72852457       0.00296774997    46.7978764       0.9979707       -0.12420132       0.9979707       -0.12420132       0.00296774997    46.7978764      
 1.74580982       0.00298574561    47.0367181       0.997967518     -0.125442936      0.997967518     -0.125442936      0.00298574561    47.0367181      
 1.76326792       0.00300396305    47.2752438       0.99796432      -0.126696961      0.99796432      -0.126696961      0.00300396305    47.2752438      
 1.7809006        0.00302240469    47.5134365       0.997961105     -0.127963521      0.997961105     -0.127963521      0.00302240469    47.5134365      
 1.7987096        0.00304107294    47.7512798       0.997957873     -0.12924274       0.997957873     -0.12924274       0.00304107294    47.7512798      
 1.8166967        0.00305997023    47.9887569       0.997954624     -0.130534745      0.997954624     -0.130534745      0.00305997023    47.9887569      
 1.83486367       0.00307909902    48.2258515       0.997951358     -0.131839663      0.997951358     -0.131839663      0.00307909902    48.2258515      
 1.8532123        0.00309846178    48.4625474       0.997948076     -0.133157624      0.997948076     -0.133157624      0.00309846178    48.4625474      
 1.87174443       0.00311806101    48.6988284       0.997944776     -0.134488759      0.997944776     -0.134488759      0.00311806101    48.6988284      
 1.89046187       0.00313789922    48.9346786       0.997941459     -0.135833197      0.997941459     -0.135833197      0.00313789922    48.9346786      
 1.90936649       0.00315797894    49.170082        0.997938124     -0.137191074      0.997938124     -0.137191074      0.00315797894    49.170082       
 1.92846015       0.00317830272    49.4050231       0.997934772     -0.138562522      0.997934772     -0.138562522      0.00317830272    49.4050231      
 1.94774475       0.00319887315    49.6394863       0.997931403     -0.139947678      0.997931403     -0.139947678      0.00319887315    49.6394863      
 1.9672222        0.00321969282    49.8734563       0.997928016     -0.141346678      0.997928016     -0.141346678      0.00321969282    49.8734563      
 1.98689442       0.00324076435    50.1069179       0.997924611     -0.142759661      0.997924611     -0.142759661      0.00324076435    50.1069179      
 2.00676337       0.00326209037    50.3398561       0.997921188     -0.144186766      0.997921188     -0.144186766      0.00326209037    50.3398561      
 2.026831         0.00328367355    50.5722562       0.997917747     -0.145628135      0.997917747     -0.145628135      0.00328367355    50.5722562      
 2.04709931       0.00330551657    50.8041034       0.997914288     -0.14708391       0.997914288     -0.14708391       0.00330551657    50.8041034      
 2.06757031       0.00332762212    51.0353834       0.997910811     -0.148554235      0.997910811     -0.148554235      0.00332762212    51.0353834      
 2.08824601       0.00334999295    51.2660818       0.997907316     -0.150039255      0.997907316     -0.150039255      0.00334999295    51.2660818      
 2.10912847       0.00337263179    51.4961847       0.997903802     -0.151539118      0.997903802     -0.151539118      0.00337263179    51.4961847      
 2.13021975       0.00339554141    51.7256781       0.99790027      -0.153053971      0.99790027      -0.153053971      0.00339554141    51.7256781      
 2.15152195       0.00341872462    51.9545484       0.997896718     -0.154583965      0.997896718     -0.154583965      0.00341872462    51.9545484      
 2.17303717       0.00344218422    52.1827822       0.997893149     -0.15612925       0.997893149     -0.15612925       0.00344218422    52.1827822      
 2.19476754       0.00346592307    52.4103661       0.99788956      -0.15768998       0.99788956      -0.15768998       0.00346592307    52.4103661      
 2.21671522       0.00348994401    52.6372871       0.997885952     -0.159266308      0.997885952     -0.159266308      0.00348994401    52.6372871      
 2.23888237       0.00351424994    52.8635325       0.997882326     -0.160858391      0.997882326     -0.160858391      0.00351424994    52.8635325      
 2.26127119       0.00353884377    53.0890895       0.997878679     -0.162466386      0.997878679     -0.162466386      0.00353884377    53.0890895      
 2.2838839        0.00356372844    53.3139457       0.997875014     -0.164090452      0.997875014     -0.164090452      0.00356372844    53.3139457      
 2.30672274       0.0035889069     53.5380891       0.997871329     -0.165730749      0.997871329     -0.165730749      0.0035889069     53.5380891      
 2.32978997       0.00361438214    53.7615075       0.997867625     -0.167387441      0.997867625     -0.167387441      0.00361438214    53.7615075      
 2.35308787       0.00364015718    53.9841892       0.997863901     -0.169060689      0.997863901     -0.169060689      0.00364015718    53.9841892      
 2.37661875       0.00366623504    54.2061228       0.997860157     -0.170750661      0.997860157     -0.170750661      0.00366623504    54.2061228      
 2.40038494       0.00369261879    54.4272969       0.997856393     -0.172457523      0.997856393     -0.172457523      0.00369261879    54.4272969      
 2.42438879       0.00371931151    54.6477005       0.997852609     -0.174181443      0.997852609     -0.174181443      0.00371931151    54.6477005      
 2.44863267       0.00374631632    54.8673226       0.997848804     -0.175922593      0.997848804     -0.175922593      0.00374631632    54.8673226      
 2.473119         0.00377363636    55.0861527       0.99784498      -0.177681144      0.99784498      -0.177681144      0.00377363636    55.0861527      
 2.49785019       0.00380127479    55.3041803       0.997841135     -0.17945727       0.997841135     -0.17945727       0.00380127479    55.3041803      
 2.52282869       0.0038292348     55.5213954       0.997837269     -0.181251147      0.997837269     -0.181251147      0.0038292348     55.5213954      
 2.54805698       0.00385751963    55.7377879       0.997833382     -0.183062952      0.997833382     -0.183062952      0.00385751963    55.7377879      
 2.57353755       0.00388613251    55.9533482       0.997829475     -0.184892864      0.997829475     -0.184892864      0.00388613251    55.9533482      
 2.59927293       0.00391507672    56.1680667       0.997825547     -0.186741065      0.997825547     -0.186741065      0.00391507672    56.1680667      
 2.62526565       0.00394435558    56.3819344       0.997821597     -0.188607736      0.997821597     -0.188607736      0.00394435558    56.3819344      
 2.65151831       0.0039739724     56.594942        0.997817627     -0.190493063      0.997817627     -0.190493063      0.0039739724     56.594942       
 2.67803349       0.00400393056    56.8070809       0.997813635     -0.192397232      0.997813635     -0.192397232      0.00400393056    56.8070809      
 2.70481383       0.00403423345    57.0183425       0.997809621     -0.19432043       0.997809621     -0.19432043       0.00403423345    57.0183425      
 2.73186197       0.00406488448    57.2287185       0.997805586     -0.196262849      0.997805586     -0.196262849      0.00406488448    57.2287185      
 2.75918059       0.00409588711    57.4382007       0.997801528     -0.19822468       0.997801528     -0.19822468       0.00409588711    57.4382007      
 2.78677239       0.00412724482    57.6467814       0.997797449     -0.200206117      0.997797449     -0.200206117      0.00412724482    57.6467814      
 2.81464012       0.00415896113    57.8544529       0.997793348     -0.202207356      0.997793348     -0.202207356      0.00415896113    57.8544529      
 2.84278652       0.00419103957    58.0612078       0.997789224     -0.204228595      0.997789224     -0.204228595      0.00419103957    58.0612078      
 2.87121438       0.00422348373    58.2670389       0.997785078     -0.206270033      0.997785078     -0.206270033      0.00422348373    58.2670389      
 2.89992653       0.0042562972     58.4719392       0.99778091      -0.208331873      0.99778091      -0.208331873      0.0042562972     58.4719392      
 2.92892579       0.00428948363    58.6759021       0.997776718     -0.210414318      0.997776718     -0.210414318      0.00428948363    58.6759021      
 2.95821505       0.00432304669    58.8789211       0.997772504     -0.212517574      0.997772504     -0.212517574      0.00432304669    58.8789211      
 2.9877972        0.00435699009    59.0809898       0.997768267     -0.214641849      0.997768267     -0.214641849      0.00435699009    59.0809898      
 3.01767517       0.00439131755    59.2821022       0.997764007     -0.216787353      0.997764007     -0.216787353      0.00439131755    59.2821022      
 3.04785192       0.00442603286    59.4822524       0.997759723     -0.218954298      0.997759723     -0.218954298      0.00442603286    59.4822524      
 3.07833044       0.00446113981    59.6814349       0.997755416     -0.221142898      0.997755416     -0.221142898      0.00446113981    59.6814349      
 3.10911375       0.00449664225    59.8796443       0.997751085     -0.223353369      0.997751085     -0.223353369      0.00449664225    59.8796443      
 3.14020489       0.00453254406    60.0768753       0.99774673      -0.225585931      0.99774673      -0.225585931      0.00453254406    60.0768753      
 3.17160693       0.00456884913    60.273123        0.997742351     -0.227840803      0.997742351     -0.227840803      0.00456884913    60.273123       
 3.203323         0.00460556142    60.4683826       0.997737949     -0.230118209      0.997737949     -0.230118209      0.00460556142    60.4683826      
 3.23535623       0.00464268491    60.6626496       0.997733521     -0.232418374      0.997733521     -0.232418374      0.00464268491    60.6626496      
 3.2677098        0.00468022361    60.8559196       0.99772907      -0.234741524      0.99772907      -0.234741524      0.00468022361    60.8559196      
 3.30038689       0.00471818159    61.0481884       0.997724594     -0.23708789       0.997724594     -0.23708789       0.00471818159    61.0481884      
 3.33339076       0.00475656292    61.2394522       0.997720092     -0.239457703      0.997720092     -0.239457703      0.00475656292    61.2394522      
 3.36672467       0.00479537175    61.4297072       0.997715566     -0.241851199      0.997715566     -0.241851199      0.00479537175    61.4297072      
 3.40039192       0.00483461225    61.6189499       0.997711015     -0.244268612      0.997711015     -0.244268612      0.00483461225    61.6189499      
 3.43439584       0.00487428861    61.8071769       0.997706438     -0.246710183      0.997706438     -0.246710183      0.00487428861    61.8071769      
 3.4687398        0.00491440508    61.994385        0.997701836     -0.249176152      0.997701836     -0.249176152      0.00491440508    61.994385       
 3.50342719       0.00495496595    62.1805714       0.997697208     -0.251666764      0.997697208     -0.251666764      0.00495496595    62.1805714      
