# MHz           S          MA           R         50
!Freq             MagS11           AngS11           MagS21           AngS21           MagS12           AngS12           MagS22           AngS22
 1                0.00490050198    29.7221831       0.995747174     -0.139803047      0.995747174     -0.139803047      0.00490050198    29.7221831      
 1.01             0.00491725948    29.9365747       0.995741833     -0.141200323      0.995741833     -0.141200323      0.00491725948    29.9365747      
 1.0201           0.00493423186    30.1517728       0.995736465     -0.142611561      0.995736465     -0.142611561      0.00493423186    30.1517728      
 1.030301         0.00495142197    30.3677671       0.995731068     -0.144036899      0.995731068     -0.144036899      0.00495142197    30.3677671      
 1.04060401       0.00496883271    30.584547        0.995725644     -0.145476479      0.995725644     -0.145476479      0.00496883271    30.584547       
 1.05101005       0.00498646701    30.8021017       0.995720193     -0.146930442      0.995720193     -0.146930442      0.00498646701    30.8021017      
 1.06152015       0.0050043278     31.0204204       0.995714713     -0.148398933      0.995714713     -0.148398933      0.0050043278     31.0204204      
 1.07213535       0.00502241809    31.2394918       0.995709204     -0.149882097      0.995709204     -0.149882097      0.00502241809    31.2394918      
 1.08285671       0.00504074087    31.4593044       0.995703668     -0.15138008       0.995703668     -0.15138008       0.00504074087    31.4593044      
 1.09368527       0.0050592992     31.6798467       0.995698102     -0.15289303       0.995698102     -0.15289303       0.0050592992     31.6798467      
 1.10462213       0.00507809617    31.9011067       0.995692508     -0.154421096      0.995692508     -0.154421096      0.00507809617    31.9011067      
 1.11566835       0.00509713488    32.1230724       0.995686885     -0.155964431      0.995686885     -0.155964431      0.00509713488    32.1230724      
 1.12682503       0.00511641847    32.3457315       0.995681233     -0.157523185      0.995681233     -0.157523185      0.00511641847    32.3457315      
 1.13809328       0.00513595013    32.5690715       0.995675552     -0.159097513      0.995675552     -0.159097513      0.00513595013    32.5690715      
 1.14947421       0.00515573306    32.7930797       0.995669841     -0.160687571      0.995669841     -0.160687571      0.00515573306    32.7930797      
 1.16096896       0.0051757705     33.0177432       0.995664101     -0.162293515      0.995664101     -0.162293515      0.0051757705     33.0177432      
 1.17257864       0.00519606573    33.2430487       0.995658331     -0.163915505      0.995658331     -0.163915505      0.00519606573    33.2430487      
 1.18430443       0.00521662206    33.4689831       0.995652531     -0.165553701      0.995652531     -0.165553701      0.00521662206    33.4689831      
 1.19614748       0.00523744283    33.6955327       0.995646701     -0.167208263      0.995646701     -0.167208263      0.00523744283    33.6955327      
 1.20810895       0.00525853141    33.9226839       0.995640841     -0.168879357      0.995640841     -0.168879357      0.00525853141    33.9226839      
 1.22019004       0.0052798912     34.1504227       0.99563495      -0.170567147      0.99563495      -0.170567147      0.0052798912     34.1504227      
 1.23239194       0.00530152566    34.378735        0.995629029     -0.172271799      0.995629029     -0.172271799      0.00530152566    34.378735       
 1.24471586       0.00532343826    34.6076066       0.995623076     -0.173993482      0.995623076     -0.173993482      0.00532343826    34.6076066      
 1.25716302       0.00534563249    34.8370229       0.995617093     -0.175732367      0.995617093     -0.175732367      0.00534563249    34.8370229      
 1.26973465       0.00536811192    35.0669692       0.995611079     -0.177488624      0.995611079     -0.177488624      0.00536811192    35.0669692      
 1.282432         0.0053908801     35.2974309       0.995605033     -0.179262428      0.995605033     -0.179262428      0.0053908801     35.2974309      
 1.29525631       0.00541394066    35.5283928       0.995598956     -0.181053953      0.995598956     -0.181053953      0.00541394066    35.5283928      
 1.30820888       0.00543729724    35.7598398       0.995592847     -0.182863377      0.995592847     -0.182863377      0.00543729724    35.7598398      
 1.32129097       0.00546095352    35.9917566       0.995586706     -0.184690878      0.995586706     -0.184690878      0.00546095352    35.9917566      
 1.33450388       0.00548491321    36.2241276       0.995580534     -0.186536637      0.995580534     -0.186536637      0.00548491321    36.2241276      
 1.34784892       0.00550918006    36.4569373       0.995574328     -0.188400836      0.995574328     -0.188400836      0.00550918006    36.4569373      
 1.3613274        0.00553375786    36.6901698       0.995568091     -0.190283659      0.995568091     -0.190283659      0.00553375786    36.6901698      
 1.37494068       0.00555865042    36.9238092       0.99556182      -0.192185293      0.99556182      -0.192185293      0.00555865042    36.9238092      
 1.38869009       0.0055838616     37.1578395       0.995555517     -0.194105925      0.995555517     -0.194105925      0.0055838616     37.1578395      
 1.40257699       0.00560939529    37.3922444       0.995549181     -0.196045744      0.995549181     -0.196045744      0.00560939529    37.3922444      
 1.41660276       0.00563525542    37.6270076       0.995542812     -0.198004943      0.995542812     -0.198004943      0.00563525542    37.6270076      
 1.43076878       0.00566144593    37.8621126       0.995536409     -0.199983714      0.995536409     -0.199983714      0.00566144593    37.8621126      
 1.44507647       0.00568797084    38.0975429       0.995529972     -0.201982254      0.995529972     -0.201982254      0.00568797084    38.0975429      
 1.45952724       0.00571483417    38.3332817       0.995523502     -0.20400076       0.995523502     -0.20400076       0.00571483417    38.3332817      
 1.47412251       0.00574203999    38.5693122       0.995516997     -0.20603943       0.995516997     -0.20603943       0.00574203999    38.5693122      
 1.48886373       0.00576959241    38.8056176       0.995510458     -0.208098467      0.995510458     -0.208098467      0.00576959241    38.8056176      
 1.50375237       0.00579749556    39.0421809       0.995503885     -0.210178074      0.995503885     -0.210178074      0.00579749556    39.0421809      
 1.51878989       0.00582575362    39.2789849       0.995497277     -0.212278455      0.995497277     -0.212278455      0.00582575362    39.2789849      
 1.53397779       0.00585437082    39.5160125       0.995490634     -0.214399819      0.995490634     -0.214399819      0.00585437082    39.5160125      
 1.54931757       0.00588335139    39.7532464       0.995483956     -0.216542376      0.995483956     -0.216542376      0.00588335139    39.7532464      
 1.56481075       0.00591269963    39.9906693       0.995477243     -0.218706335      0.995477243     -0.218706335      0.00591269963    39.9906693      
 1.58045885       0.00594241986    40.2282639       0.995470494     -0.220891912      0.995470494     -0.220891912      0.00594241986    40.2282639      
 1.59626344       0.00597251644    40.4660125       0.995463709     -0.223099323      0.995463709     -0.223099323      0.00597251644    40.4660125      
 1.61222608       0.00600299377    40.7038978       0.995456889     -0.225328784      0.995456889     -0.225328784      0.00600299377    40.7038978      
 1.62834834       0.0060338563     40.9419022       0.995450032     -0.227580516      0.995450032     -0.227580516      0.0060338563     40.9419022      
 1.64463182       0.0060651085     41.1800081       0.995443139     -0.229854743      0.995443139     -0.229854743      0.0060651085     41.1800081      
 1.66107814       0.00609675487    41.4181977       0.995436209     -0.232151687      0.995436209     -0.232151687      0.00609675487    41.4181977      
 1.67768892       0.00612879998    41.6564536       0.995429242     -0.234471576      0.995429242     -0.234471576      0.00612879998    41.6564536      
 1.69446581       0.0061612484     41.8947579       0.995422238     -0.23681464       0.995422238     -0.23681464       0.0061612484     41.8947579      
 1.71141047       0.00619410478    42.133093        0.995415196     -0.239181108      0.995415196     -0.239181108      0.00619410478    42.133093       
 1.72852457       0.00622737378    42.3714411       0.995408117     -0.241571216      0.995408117     -0.241571216      0.00622737378    42.3714411      
 1.74580982       0.00626106011    42.6097845       0.995401001     -0.243985199      0.995401001     -0.243985199      0.00626106011    42.6097845      
 1.76326792       0.0062951685     42.8481055       0.995393846     -0.246423295      0.995393846     -0.246423295      0.0062951685     42.8481055      
 1.7809006        0.00632970376    43.0863864       0.995386653     -0.248885746      0.995386653     -0.248885746      0.00632970376    43.0863864      
 1.7987096        0.0063646707     43.3246095       0.995379421     -0.251372794      0.995379421     -0.251372794      0.0063646707     43.3246095      
 1.8166967        0.00640007418    43.562757        0.99537215      -0.253884684      0.99537215      -0.253884684      0.00640007418    43.562757       
 1.83486367       0.00643591912    43.8008113       0.995364841     -0.256421666      0.995364841     -0.256421666      0.00643591912    43.8008113      
 1.8532123        0.00647221046    44.0387549       0.995357492     -0.258983988      0.995357492     -0.258983988      0.00647221046    44.0387549      
 1.87174443       0.00650895319    44.2765701       0.995350103     -0.261571905      0.995350103     -0.261571905      0.00650895319    44.2765701      
 1.89046187       0.00654615234    44.5142394       0.995342675     -0.264185672      0.995342675     -0.264185672      0.00654615234    44.5142394      
 1.90936649       0.00658381297    44.7517452       0.995335207     -0.266825546      0.995335207     -0.266825546      0.00658381297    44.7517452      
 1.92846015       0.00662194019    44.9890702       0.995327698     -0.269491789      0.995327698     -0.269491789      0.00662194019    44.9890702      
 1.94774475       0.00666053916    45.2261971       0.995320149     -0.272184664      0.995320149     -0.272184664      0.00666053916    45.2261971      
 1.9672222        0.00669961507    45.4631084       0.995312558     -0.274904436      0.995312558     -0.274904436      0.00669961507    45.4631084      
 1.98689442       0.00673917316    45.699787        0.995304927     -0.277651374      0.995304927     -0.277651374      0.00673917316    45.699787       
 2.00676337       0.00677921871    45.9362157       0.995297254     -0.280425749      0.995297254     -0.280425749      0.00677921871    45.9362157      
 2.026831         0.00681975705    46.1723776       0.99528954      -0.283227835      0.99528954      -0.283227835      0.00681975705    46.1723776      
 2.04709931       0.00686079352    46.4082555       0.995281783     -0.286057908      0.995281783     -0.286057908      0.00686079352    46.4082555      
 2.06757031       0.00690233356    46.6438328       0.995273984     -0.288916248      0.995273984     -0.288916248      0.00690233356    46.6438328      
 2.08824601       0.0069443826     46.8790925       0.995266143     -0.291803138      0.995266143     -0.291803138      0.0069443826     46.8790925      
 2.10912847       0.00698694616    47.1140181       0.995258259     -0.294718861      0.995258259     -0.294718861      0.00698694616    47.1140181      
 2.13021975       0.00703002976    47.348593        0.995250332     -0.297663707      0.995250332     -0.297663707      0.00703002976    47.348593       
 2.15152195       0.007073639      47.5828008       0.995242361     -0.300637964      0.995242361     -0.300637964      0.007073639      47.5828008      
 2.17303717       0.00711777952    47.8166252       0.995234347     -0.303641928      0.995234347     -0.303641928      0.00711777952    47.8166252      
 2.19476754       0.00716245698    48.0500501       0.995226289     -0.306675895      0.995226289     -0.306675895      0.00716245698    48.0500501      
 2.21671522       0.00720767712    48.2830594       0.995218186     -0.309740163      0.995218186     -0.309740163      0.00720767712    48.2830594      
 2.23888237       0.0072534457     48.5156373       0.995210039     -0.312835035      0.995210039     -0.312835035      0.0072534457     48.5156373      
 2.26127119       0.00729976855    48.7477679       0.995201847     -0.315960818      0.995201847     -0.315960818      0.00729976855    48.7477679      
 2.2838839        0.00734665153    48.9794358       0.995193609     -0.319117819      0.995193609     -0.319117819      0.00734665153    48.9794358      
 2.30672274       0.00739410056    49.2106254       0.995185326     -0.322306349      0.995185326     -0.322306349      0.00739410056    49.2106254      
 2.32978997       0.00744212159    49.4413215       0.995176997     -0.325526725      0.995176997     -0.325526725      0.00744212159    49.4413215      
 2.35308787       0.00749072064    49.671509        0.995168623     -0.328779262      0.995168623     -0.328779262      0.00749072064    49.671509       
 2.37661875       0.00753990377    49.9011729       0.995160201     -0.332064283      0.995160201     -0.332064283      0.00753990377    49.9011729      
 2.40038494       0.00758967708    50.1302984       0.995151733     -0.335382111      0.995151733     -0.335382111      0.00758967708    50.1302984      
 2.42438879       0.00764004673    50.3588709       0.995143217     -0.338733074      0.995143217     -0.338733074      0.00764004673    50.3588709      
 2.44863267       0.00769101895    50.5868759       0.995134655     -0.342117503      0.995134655     -0.342117503      0.00769101895    50.5868759      
 2.473119         0.00774259997    50.8142993       0.995126044     -0.345535732      0.995126044     -0.345535732      0.00774259997    50.8142993      
 2.49785019       0.00779479613    51.041127        0.995117385     -0.348988097      0.995117385     -0.348988097      0.00779479613    51.041127       
 2.52282869       0.00784761378    51.267345        0.995108677     -0.352474939      0.995108677     -0.352474939      0.00784761378    51.267345       
 2.54805698       0.00790105933    51.4929397       0.995099921     -0.355996603      0.995099921     -0.355996603      0.00790105933    51.4929397      
 2.57353755       0.00795513927    51.7178975       0.995091115     -0.359553436      0.995091115     -0.359553436      0.00795513927    51.7178975      
 2.59927293       0.00800986011    51.9422052       0.99508226      -0.363145789      0.99508226      -0.363145789      0.00800986011    51.9422052      
 2.62526565       0.00806522843    52.1658497       0.995073355     -0.366774016      0.995073355     -0.366774016      0.00806522843    52.1658497      
 2.65151831       0.00812125086    52.3888179       0.9950644       -0.370438476      0.9950644       -0.370438476      0.00812125086    52.3888179      
 2.67803349       0.0081779341     52.6110974       0.995055394     -0.374139529      0.995055394     -0.374139529      0.0081779341     52.6110974      
 2.70481383       0.00823528488    52.8326755       0.995046336     -0.377877541      0.995046336     -0.377877541      0.00823528488    52.8326755      
 2.73186197       0.00829331       53.0535399       0.995037228     -0.381652881      0.995037228     -0.381652881      0.00829331       53.0535399      
 2.75918059       0.00835201633    53.2736786       0.995028067     -0.385465921      0.995028067     -0.385465921      0.00835201633    53.2736786      
 2.78677239       0.00841141077    53.4930798       0.995018855     -0.389317037      0.995018855     -0.389317037      0.00841141077    53.4930798      
 2.81464012       0.0084715003     53.7117316       0.995009589     -0.39320661       0.995009589     -0.39320661       0.0084715003     53.7117316      
 2.84278652       0.00853229195    53.9296228       0.995000271     -0.397135022      0.995000271     -0.397135022      0.00853229195    53.9296228      
 2.87121438       0.00859379281    54.1467421       0.994990899     -0.401102662      0.994990899     -0.401102662      0.00859379281    54.1467421      
 2.89992653       0.00865601004    54.3630784       0.994981474     -0.40510992       0.994981474     -0.40510992       0.00865601004    54.3630784      
 2.92892579       0.00871895084    54.578621        0.994971994     -0.409157193      0.994971994     -0.409157193      0.00871895084    54.578621       
 2.95821505       0.00878262249    54.7933594       0.99496246      -0.413244879      0.99496246      -0.413244879      0.00878262249    54.7933594      
 2.9877972        0.00884703233    55.007283        0.99495287      -0.417373381      0.99495287      -0.417373381      0.00884703233    55.007283       
 3.01767517       0.00891218776    55.2203819       0.994943225     -0.421543107      0.994943225     -0.421543107      0.00891218776    55.2203819      
 3.04785192       0.00897809623    55.4326461       0.994933524     -0.425754467      0.994933524     -0.425754467      0.00897809623    55.4326461      
 3.07833044       0.00904476527    55.6440659       0.994923767     -0.430007878      0.994923767     -0.430007878      0.00904476527    55.6440659      
 3.10911375       0.00911220249    55.8546319       0.994913953     -0.434303758      0.994913953     -0.434303758      0.00911220249    55.8546319      
 3.14020489       0.00918041552    56.0643348       0.994904082     -0.438642532      0.994904082     -0.438642532      0.00918041552    56.0643348      
 3.17160693       0.00924941211    56.2731656       0.994894153     -0.443024627      0.994894153     -0.443024627      0.00924941211    56.2731656      
 3.203323         0.00931920003    56.4811154       0.994884166     -0.447450475      0.994884166     -0.447450475      0.00931920003    56.4811154      
 3.23535623       0.00938978716    56.6881757       0.99487412      -0.451920513      0.99487412      -0.451920513      0.00938978716    56.6881757      
 3.2677098        0.00946118141    56.8943381       0.994864015     -0.456435182      0.994864015     -0.456435182      0.00946118141    56.8943381      
 3.30038689       0.00953339078    57.0995946       0.99485385      -0.460994926      0.99485385      -0.460994926      0.00953339078    57.0995946      
 3.33339076       0.00960642335    57.3039371       0.994843626     -0.465600196      0.994843626     -0.465600196      0.00960642335    57.3039371      
 3.36672467       0.00968028724    57.507358        0.994833341     -0.470251445      0.994833341     -0.470251445      0.00968028724    57.507358       
 3.40039192       0.00975499068    57.7098497       0.994822995     -0.474949132      0.994822995     -0.474949132      0.00975499068    57.7098497      
 3.43439584       0.00983054195    57.9114051       0.994812587     -0.47969372       0.994812587     -0.47969372       0.00983054195    57.9114051      
 3.4687398        0.0099069494     58.112017        0.994802117     -0.484485677      0.994802117     -0.484485677      0.0099069494     58.112017       
 3.50342719       0.00998422146    58.3116787       0.994791585     -0.489325476      0.994791585     -0.489325476      0.00998422146    58.3116787      
