# MHz           S          MA           R         50
!Freq             MagS11           AngS11           MagS21           AngS21           MagS12           AngS12           MagS22           AngS22
 1                0.000455333843   18.4879167       0.999568176     -0.00827642456    0.999568176     -0.00827642456    0.000455333843   18.4879167      
 1.01             0.000456086862   18.647608        0.999567867     -0.0083591862     0.999567867     -0.0083591862     0.000456086862   18.647608       
 1.0201           0.000456849534   18.8084227       0.999567556     -0.00844277548    0.999567556     -0.00844277548    0.000456849534   18.8084227      
 1.030301         0.000457622004   18.9703633       0.999567244     -0.00852720056    0.999567244     -0.00852720056    0.000457622004   18.9703633      
 1.04060401       0.000458404424   19.1334317       0.99956693      -0.00861246987    0.99956693      -0.00861246987    0.000458404424   19.1334317      
 1.05101005       0.000459196943   19.2976299       0.999566615     -0.00869859181    0.999566615     -0.00869859181    0.000459196943   19.2976299      
 1.06152015       0.000459999717   19.4629596       0.999566298     -0.00878557494    0.999566298     -0.00878557494    0.000459999717   19.4629595      
 1.07213535       0.000460812901   19.6294224       0.999565979     -0.00887342787    0.999565979     -0.00887342786    0.000460812901   19.6294224      
 1.08285671       0.000461636653   19.7970199       0.999565659     -0.00896215927    0.999565659     -0.00896215927    0.000461636653   19.7970199      
 1.09368527       0.000462471135   19.9657532       0.999565337     -0.00905177794    0.999565337     -0.00905177794    0.000462471135   19.9657532      
 1.10462213       0.000463316509   20.1356237       0.999565014     -0.00914229279    0.999565014     -0.00914229279    0.000463316509   20.1356237      
 1.11566835       0.00046417294    20.3066324       0.999564689     -0.0092337127     0.999564689     -0.0092337127     0.00046417294    20.3066324      
 1.12682503       0.000465040597   20.4787799       0.999564362     -0.0093260468     0.999564362     -0.0093260468     0.000465040597   20.4787799      
 1.13809328       0.00046591965    20.6520671       0.999564034     -0.00941930416    0.999564034     -0.00941930416    0.00046591965    20.6520671      
 1.14947421       0.000466810269   20.8264945       0.999563704     -0.00951349408    0.999563704     -0.00951349408    0.000466810269   20.8264945      
 1.16096896       0.000467712632   21.0020623       0.999563373     -0.00960862582    0.999563373     -0.00960862583    0.000467712632   21.0020623      
 1.17257864       0.000468626915   21.1787707       0.99956304      -0.00970470886    0.99956304      -0.00970470886    0.000468626915   21.1787707      
 1.18430443       0.000469553299   21.3566197       0.999562705     -0.00980175265    0.999562705     -0.00980175265    0.000469553299   21.3566197      
 1.19614748       0.000470491964   21.535609        0.999562368     -0.00989976688    0.999562368     -0.00989976688    0.000470491964   21.535609       
 1.20810895       0.000471443098   21.7157384       0.99956203      -0.00999876114    0.99956203      -0.00999876114    0.000471443098   21.7157384      
 1.22019004       0.000472406886   21.897007        0.99956169      -0.0100987453     0.99956169      -0.0100987453     0.000472406886   21.897007       
 1.23239194       0.00047338352    22.0794143       0.999561348     -0.0101997293     0.999561348     -0.0101997293     0.00047338352    22.0794143      
 1.24471586       0.000474373192   22.2629592       0.999561005     -0.0103017231     0.999561005     -0.0103017231     0.000474373192   22.2629592      
 1.25716302       0.000475376097   22.4476406       0.99956066      -0.0104047367     0.99956066      -0.0104047367     0.000475376097   22.4476406      
 1.26973465       0.000476392435   22.633457        0.999560313     -0.0105087804     0.999560313     -0.0105087804     0.000476392435   22.633457       
 1.282432         0.000477422404   22.8204068       0.999559965     -0.0106138645     0.999559965     -0.0106138645     0.000477422404   22.8204068      
 1.29525631       0.000478466209   23.0084883       0.999559615     -0.0107199994     0.999559615     -0.0107199994     0.000478466209   23.0084883      
 1.30820888       0.000479524056   23.1976994       0.999559263     -0.0108271956     0.999559263     -0.0108271956     0.000479524056   23.1976994      
 1.32129097       0.000480596154   23.3880379       0.999558909     -0.0109354637     0.999558909     -0.0109354637     0.000480596154   23.3880379      
 1.33450388       0.000481682715   23.5795013       0.999558554     -0.0110448144     0.999558554     -0.0110448144     0.000481682715   23.5795013      
 1.34784892       0.000482783953   23.772087        0.999558196     -0.0111552586     0.999558196     -0.0111552586     0.000482783953   23.772087       
 1.3613274        0.000483900085   23.9657921       0.999557837     -0.0112668071     0.999557837     -0.0112668071     0.000483900085   23.9657921      
 1.37494068       0.000485031333   24.1606135       0.999557476     -0.011379471      0.999557476     -0.0113794711     0.000485031333   24.1606135      
 1.38869009       0.000486177919   24.3565476       0.999557114     -0.0114932616     0.999557114     -0.0114932616     0.000486177919   24.3565476      
 1.40257699       0.000487340068   24.553591        0.999556749     -0.01160819       0.999556749     -0.01160819       0.000487340068   24.5535911      
 1.41660276       0.000488518011   24.75174         0.999556383     -0.0117242676     0.999556383     -0.0117242676     0.000488518011   24.75174        
 1.43076878       0.000489711979   24.9509902       0.999556015     -0.0118415059     0.999556015     -0.0118415059     0.000489711979   24.9509902      
 1.44507647       0.000490922206   25.1513375       0.999555645     -0.0119599166     0.999555645     -0.0119599166     0.000490922206   25.1513375      
 1.45952724       0.000492148931   25.3527774       0.999555273     -0.0120795113     0.999555273     -0.0120795113     0.000492148931   25.3527774      
 1.47412251       0.000493392394   25.5553049       0.999554899     -0.0122003018     0.999554899     -0.0122003018     0.000493392394   25.5553049      
 1.48886373       0.000494652841   25.758915        0.999554524     -0.0123223002     0.999554524     -0.0123223002     0.00049465284    25.758915       
 1.50375237       0.000495930515   25.9636026       0.999554146     -0.0124455185     0.999554146     -0.0124455185     0.000495930515   25.9636026      
 1.51878989       0.00049722567    26.1693619       0.999553767     -0.0125699689     0.999553767     -0.0125699689     0.00049722567    26.1693619      
 1.53397779       0.000498538557   26.3761871       0.999553386     -0.0126956638     0.999553386     -0.0126956638     0.000498538557   26.3761871      
 1.54931757       0.000499869432   26.5840722       0.999553002     -0.0128226155     0.999553002     -0.0128226155     0.000499869432   26.5840722      
 1.56481075       0.000501218555   26.7930108       0.999552617     -0.0129508367     0.999552617     -0.0129508367     0.000501218555   26.7930108      
 1.58045885       0.000502586189   27.0029964       0.99955223      -0.01308034       0.99955223      -0.01308034       0.000502586189   27.0029964      
 1.59626344       0.0005039726     27.2140222       0.999551841     -0.0132111382     0.999551841     -0.0132111382     0.0005039726     27.2140222      
 1.61222608       0.000505378054   27.4260808       0.999551451     -0.0133432444     0.999551451     -0.0133432444     0.000505378054   27.4260808      
 1.62834834       0.000506802827   27.639165        0.999551058     -0.0134766716     0.999551058     -0.0134766716     0.000506802826   27.639165       
 1.64463182       0.00050824719    27.8532672       0.999550663     -0.0136114329     0.999550663     -0.0136114329     0.00050824719    27.8532672      
 1.66107814       0.000509711426   28.0683793       0.999550266     -0.0137475418     0.999550266     -0.0137475418     0.000509711426   28.0683794      
 1.67768892       0.000511195813   28.2844933       0.999549867     -0.0138850117     0.999549867     -0.0138850117     0.000511195813   28.2844933      
 1.69446581       0.00051270064    28.5016005       0.999549467     -0.0140238562     0.999549467     -0.0140238562     0.00051270064    28.5016005      
 1.71141047       0.000514226191   28.7196924       0.999549064     -0.014164089      0.999549064     -0.014164089      0.000514226191   28.7196924      
 1.72852457       0.000515772761   28.9387599       0.999548659     -0.0143057241     0.999548659     -0.0143057241     0.000515772761   28.9387599      
 1.74580982       0.000517340644   29.1587936       0.999548252     -0.0144487755     0.999548252     -0.0144487755     0.000517340644   29.1587936      
 1.76326792       0.000518930139   29.3797841       0.999547843     -0.0145932573     0.999547843     -0.0145932573     0.000518930139   29.3797841      
 1.7809006        0.000520541546   29.6017216       0.999547433     -0.0147391838     0.999547433     -0.0147391838     0.000520541546   29.6017216      
 1.7987096        0.000522175172   29.8245958       0.99954702      -0.0148865695     0.99954702      -0.0148865695     0.000522175172   29.8245958      
 1.8166967        0.000523831324   30.0483965       0.999546605     -0.015035429      0.999546605     -0.015035429      0.000523831324   30.0483965      
 1.83486367       0.000525510316   30.273113        0.999546187     -0.0151857769     0.999546187     -0.0151857769     0.000525510316   30.273113       
 1.8532123        0.000527212461   30.4987344       0.999545768     -0.0153376283     0.999545768     -0.0153376283     0.000527212461   30.4987344      
 1.87174443       0.00052893808    30.7252495       0.999545347     -0.0154909981     0.999545347     -0.0154909981     0.00052893808    30.7252495      
 1.89046187       0.000530687494   30.9526469       0.999544924     -0.0156459014     0.999544924     -0.0156459014     0.000530687494   30.9526469      
 1.90936649       0.000532461029   31.1809148       0.999544498     -0.0158023537     0.999544498     -0.0158023537     0.000532461029   31.1809148      
 1.92846015       0.000534259014   31.4100412       0.99954407      -0.0159603704     0.99954407      -0.0159603704     0.000534259014   31.4100412      
 1.94774475       0.000536081782   31.6400139       0.999543641     -0.0161199672     0.999543641     -0.0161199672     0.000536081782   31.6400139      
 1.9672222        0.000537929669   31.8708204       0.999543209     -0.0162811598     0.999543209     -0.0162811598     0.000537929669   31.8708204      
 1.98689442       0.000539803016   32.1024477       0.999542774     -0.0164439643     0.999542774     -0.0164439643     0.000539803016   32.1024477      
 2.00676337       0.000541702164   32.3348831       0.999542338     -0.0166083967     0.999542338     -0.0166083967     0.000541702164   32.3348831      
 2.026831         0.000543627463   32.5681129       0.9995419       -0.0167744733     0.9995419       -0.0167744733     0.000543627463   32.568113       
 2.04709931       0.000545579259   32.8021239       0.999541459     -0.0169422106     0.999541459     -0.0169422106     0.000545579259   32.8021239      
 2.06757031       0.000547557911   33.0369021       0.999541016     -0.0171116251     0.999541016     -0.0171116251     0.00054755791    33.0369021      
 2.08824601       0.000549563772   33.2724334       0.999540571     -0.0172827337     0.999540571     -0.0172827337     0.000549563772   33.2724334      
 2.10912847       0.000551597206   33.5087036       0.999540124     -0.0174555533     0.999540124     -0.0174555533     0.000551597206   33.5087036      
 2.13021975       0.000553658577   33.745698        0.999539674     -0.0176301009     0.999539674     -0.0176301009     0.000553658577   33.745698       
 2.15152195       0.000555748253   33.9834019       0.999539222     -0.0178063938     0.999539222     -0.0178063938     0.000555748253   33.9834019      
 2.17303717       0.000557866607   34.2218002       0.999538768     -0.0179844496     0.999538768     -0.0179844496     0.000557866607   34.2218002      
 2.19476754       0.000560014013   34.4608775       0.999538312     -0.0181642858     0.999538312     -0.0181642858     0.000560014013   34.4608775      
 2.21671522       0.000562190852   34.7006185       0.999537853     -0.0183459203     0.999537853     -0.0183459203     0.000562190852   34.7006186      
 2.23888237       0.000564397505   34.9410074       0.999537392     -0.018529371      0.999537392     -0.018529371      0.000564397505   34.9410074      
 2.26127119       0.000566634361   35.1820282       0.999536929     -0.018714656      0.999536929     -0.018714656      0.000566634361   35.1820282      
 2.2838839        0.000568901808   35.4236647       0.999536463     -0.0189017938     0.999536463     -0.0189017938     0.000568901808   35.4236647      
 2.30672274       0.000571200241   35.6659005       0.999535995     -0.0190908028     0.999535995     -0.0190908028     0.000571200241   35.6659005      
 2.32978997       0.000573530058   35.9087189       0.999535525     -0.0192817018     0.999535525     -0.0192817018     0.000573530058   35.9087189      
 2.35308787       0.000575891659   36.1521034       0.999535052     -0.0194745096     0.999535052     -0.0194745096     0.000575891659   36.1521034      
 2.37661875       0.000578285451   36.3960366       0.999534577     -0.0196692454     0.999534577     -0.0196692454     0.000578285451   36.3960366      
 2.40038494       0.000580711841   36.6405015       0.999534099     -0.0198659283     0.999534099     -0.0198659283     0.000580711841   36.6405015      
 2.42438879       0.000583171243   36.8854807       0.999533619     -0.020064578      0.999533619     -0.020064578      0.000583171243   36.8854807      
 2.44863267       0.000585664071   37.1309566       0.999533137     -0.020265214      0.999533137     -0.020265214      0.000585664071   37.1309566      
 2.473119         0.000588190748   37.3769113       0.999532653     -0.0204678563     0.999532653     -0.0204678563     0.000588190748   37.3769113      
 2.49785019       0.000590751696   37.623327        0.999532165     -0.0206725248     0.999532165     -0.0206725248     0.000590751696   37.623327       
 2.52282869       0.000593347343   37.8701857       0.999531676     -0.0208792398     0.999531676     -0.0208792398     0.000593347343   37.8701857      
 2.54805698       0.00059597812    38.1174688       0.999531184     -0.0210880219     0.999531184     -0.0210880219     0.00059597812    38.1174688      
 2.57353755       0.000598644462   38.3651583       0.999530689     -0.0212988916     0.999530689     -0.0212988916     0.000598644462   38.3651583      
 2.59927293       0.000601346809   38.6132354       0.999530192     -0.0215118698     0.999530192     -0.0215118698     0.000601346809   38.6132354      
 2.62526565       0.000604085603   38.8616814       0.999529693     -0.0217269777     0.999529693     -0.0217269777     0.000604085603   38.8616814      
 2.65151831       0.00060686129    39.1104775       0.999529191     -0.0219442365     0.999529191     -0.0219442365     0.00060686129    39.1104775      
 2.67803349       0.000609674321   39.3596047       0.999528686     -0.0221636677     0.999528686     -0.0221636677     0.000609674321   39.3596047      
 2.70481383       0.000612525151   39.609044        0.999528179     -0.022385293      0.999528179     -0.022385293      0.000612525151   39.609044       
 2.73186197       0.000615414237   39.8587761       0.99952767      -0.0226091344     0.99952767      -0.0226091344     0.000615414237   39.8587761      
 2.75918059       0.000618342041   40.1087818       0.999527157     -0.0228352141     0.999527157     -0.0228352141     0.000618342041   40.1087818      
 2.78677239       0.000621309029   40.3590416       0.999526643     -0.0230635544     0.999526643     -0.0230635544     0.000621309029   40.3590416      
 2.81464012       0.000624315672   40.6095361       0.999526125     -0.0232941779     0.999526125     -0.0232941779     0.000624315672   40.609536       
 2.84278652       0.000627362442   40.8602456       0.999525605     -0.0235271075     0.999525605     -0.0235271075     0.000627362442   40.8602456      
 2.87121438       0.000630449816   41.1111505       0.999525083     -0.0237623662     0.999525083     -0.0237623662     0.000630449816   41.1111505      
 2.89992653       0.000633578278   41.3622312       0.999524558     -0.0239999773     0.999524558     -0.0239999773     0.000633578278   41.3622312      
 2.92892579       0.000636748312   41.6134677       0.99952403      -0.0242399643     0.99952403      -0.0242399643     0.000636748312   41.6134677      
 2.95821505       0.000639960407   41.8648402       0.999523499     -0.024482351      0.999523499     -0.024482351      0.000639960407   41.8648402      
 2.9877972        0.000643215057   42.116329        0.999522966     -0.0247271613     0.999522966     -0.0247271613     0.000643215057   42.116329       
 3.01767517       0.00064651276    42.367914        0.99952243      -0.0249744196     0.99952243      -0.0249744196     0.00064651276    42.367914       
 3.04785192       0.000649854016   42.6195753       0.999521892     -0.0252241502     0.999521892     -0.0252241502     0.000649854016   42.6195753      
 3.07833044       0.000653239331   42.8712929       0.99952135      -0.025476378      0.99952135      -0.025476378      0.000653239331   42.8712929      
 3.10911375       0.000656669214   43.1230469       0.999520806     -0.0257311278     0.999520806     -0.0257311278     0.000656669214   43.1230469      
 3.14020489       0.00066014418    43.3748172       0.999520259     -0.0259884249     0.999520259     -0.0259884249     0.000660144181   43.3748172      
 3.17160693       0.000663664746   43.6265839       0.99951971      -0.0262482947     0.99951971      -0.0262482947     0.000663664746   43.6265839      
 3.203323         0.000667231432   43.8783269       0.999519158     -0.0265107631     0.999519158     -0.0265107631     0.000667231432   43.8783269      
 3.23535623       0.000670844766   44.1300263       0.999518603     -0.0267758559     0.999518603     -0.0267758559     0.000670844766   44.1300263      
 3.2677098        0.000674505277   44.3816621       0.999518045     -0.0270435994     0.999518045     -0.0270435994     0.000674505277   44.3816621      
 3.30038689       0.000678213499   44.6332145       0.999517484     -0.0273140201     0.999517484     -0.0273140201     0.000678213499   44.6332145      
 3.33339076       0.00068196997    44.8846635       0.999516921     -0.0275871448     0.999516921     -0.0275871448     0.00068196997    44.8846635      
 3.36672467       0.000685775234   45.1359894       0.999516354     -0.0278630005     0.999516354     -0.0278630005     0.000685775234   45.1359894      
 3.40039192       0.000689629836   45.3871724       0.999515785     -0.0281416146     0.999515785     -0.0281416146     0.000689629836   45.3871724      
 3.43439584       0.000693534327   45.6381927       0.999515213     -0.0284230145     0.999515213     -0.0284230145     0.000693534327   45.6381927      
 3.4687398        0.000697489264   45.8890308       0.999514638     -0.0287072282     0.999514638     -0.0287072282     0.000697489264   45.8890308      
 3.50342719       0.000701495205   46.1396671       0.99951406      -0.0289942838     0.99951406      -0.0289942838     0.000701495205   46.1396671      
