# MHz           S          MA           R         50
!Freq             MagS11           AngS11           MagS21           AngS21           MagS12           AngS12           MagS22           AngS22
 1                0.00206148309    29.0719847       0.998198746     -0.0574962587     0.998198746     -0.0574962587     0.00206148309    29.0719847      
 1.01             0.0020681354     29.287133        0.998196728     -0.0580711041     0.998196728     -0.0580711041     0.0020681354     29.287133       
 1.0201           0.00207487503    29.503162        0.9981947       -0.0586516962     0.9981947       -0.0586516962     0.00207487503    29.503162       
 1.030301         0.00208170316    29.7200621       0.998192662     -0.0592380925     0.998192662     -0.0592380925     0.00208170316    29.7200621      
 1.04060401       0.00208862099    29.9378235       0.998190613     -0.0598303509     0.998190613     -0.0598303509     0.00208862099    29.9378234      
 1.05101005       0.00209562973    30.1564358       0.998188554     -0.06042853       0.998188554     -0.06042853       0.00209562973    30.1564358      
 1.06152015       0.00210273062    30.3758887       0.998186485     -0.061032689      0.998186485     -0.061032689      0.00210273062    30.3758887      
 1.07213535       0.00210992488    30.5961716       0.998184405     -0.0616428877     0.998184405     -0.0616428877     0.00210992488    30.5961716      
 1.08285671       0.00211721378    30.8172736       0.998182314     -0.0622591865     0.998182314     -0.0622591865     0.00211721378    30.8172736      
 1.09368527       0.00212459858    31.0391835       0.998180213     -0.0628816463     0.998180213     -0.0628816463     0.00212459858    31.0391835      
 1.10462213       0.00213208056    31.26189         0.998178102     -0.0635103287     0.998178102     -0.0635103287     0.00213208056    31.26189        
 1.11566835       0.00213966102    31.4853814       0.998175979     -0.0641452959     0.998175979     -0.0641452959     0.00213966102    31.4853814      
 1.12682503       0.00214734126    31.7096461       0.998173846     -0.0647866107     0.998173846     -0.0647866107     0.00214734126    31.7096461      
 1.13809328       0.0021551226     31.9346718       0.998171702     -0.0654343366     0.998171702     -0.0654343366     0.0021551226     31.9346718      
 1.14947421       0.00216300639    32.1604462       0.998169548     -0.0660885376     0.998169548     -0.0660885376     0.00216300639    32.1604462      
 1.16096896       0.00217099397    32.3869569       0.998167382     -0.0667492785     0.998167382     -0.0667492785     0.00217099397    32.3869569      
 1.17257864       0.0021790867     32.6141911       0.998165205     -0.0674166246     0.998165205     -0.0674166246     0.0021790867     32.6141911      
 1.18430443       0.00218728596    32.8421358       0.998163017     -0.068090642      0.998163017     -0.068090642      0.00218728596    32.8421358      
 1.19614748       0.00219559314    33.0707778       0.998160818     -0.0687713973     0.998160818     -0.0687713973     0.00219559314    33.0707778      
 1.20810895       0.00220400964    33.3001036       0.998158608     -0.0694589578     0.998158608     -0.0694589578     0.00220400964    33.3001036      
 1.22019004       0.0022125369     33.5300996       0.998156387     -0.0701533917     0.998156387     -0.0701533917     0.0022125369     33.5300996      
 1.23239194       0.00222117633    33.760752        0.998154154     -0.0708547675     0.998154154     -0.0708547675     0.00222117633    33.760752       
 1.24471586       0.00222992939    33.9920467       0.99815191      -0.0715631547     0.99815191      -0.0715631547     0.00222992939    33.9920467      
 1.25716302       0.00223879755    34.2239694       0.998149655     -0.0722786234     0.998149655     -0.0722786234     0.00223879755    34.2239694      
 1.26973465       0.00224778226    34.4565057       0.998147388     -0.0730012443     0.998147388     -0.0730012443     0.00224778226    34.4565057      
 1.282432         0.00225688504    34.6896408       0.99814511      -0.0737310889     0.99814511      -0.0737310889     0.00225688504    34.6896408      
 1.29525631       0.00226610738    34.9233598       0.99814282      -0.0744682294     0.99814282      -0.0744682294     0.00226610738    34.9233598      
 1.30820888       0.0022754508     35.1576478       0.998140518     -0.0752127388     0.998140518     -0.0752127388     0.0022754508     35.1576478      
 1.32129097       0.00228491684    35.3924893       0.998138205     -0.0759646906     0.998138205     -0.0759646906     0.00228491684    35.3924893      
 1.33450388       0.00229450704    35.6278691       0.998135879     -0.0767241593     0.998135879     -0.0767241593     0.00229450704    35.6278691      
 1.34784892       0.00230422298    35.8637714       0.998133542     -0.07749122       0.998133542     -0.07749122       0.00230422298    35.8637714      
 1.3613274        0.00231406623    36.1001805       0.998131193     -0.0782659485     0.998131193     -0.0782659485     0.00231406623    36.1001805      
 1.37494068       0.00232403838    36.3370804       0.998128833     -0.0790484216     0.998128833     -0.0790484216     0.00232403838    36.3370804      
 1.38869009       0.00233414104    36.5744549       0.99812646      -0.0798387166     0.99812646      -0.0798387166     0.00233414104    36.5744549      
 1.40257699       0.00234437583    36.8122878       0.998124074     -0.0806369117     0.998124074     -0.0806369117     0.00234437583    36.8122878      
 1.41660276       0.00235474439    37.0505625       0.998121677     -0.0814430858     0.998121677     -0.0814430858     0.00235474439    37.0505625      
 1.43076878       0.00236524838    37.2892625       0.998119268     -0.0822573188     0.998119268     -0.0822573188     0.00236524838    37.2892625      
 1.44507647       0.00237588947    37.5283711       0.998116846     -0.083079691      0.998116846     -0.083079691      0.00237588947    37.5283711      
 1.45952724       0.00238666933    37.7678712       0.998114412     -0.083910284      0.998114412     -0.083910284      0.00238666933    37.7678712      
 1.47412251       0.00239758966    38.007746        0.998111965     -0.0847491798     0.998111965     -0.0847491798     0.00239758966    38.007746       
 1.48886373       0.00240865218    38.2479781       0.998109506     -0.0855964614     0.998109506     -0.0855964614     0.00240865218    38.2479781      
 1.50375237       0.00241985862    38.4885504       0.998107034     -0.0864522127     0.998107034     -0.0864522127     0.00241985862    38.4885504      
 1.51878989       0.00243121072    38.7294455       0.99810455      -0.0873165182     0.99810455      -0.0873165182     0.00243121072    38.7294455      
 1.53397779       0.00244271024    38.9706457       0.998102053     -0.0881894635     0.998102053     -0.0881894635     0.00244271024    38.9706457      
 1.54931757       0.00245435895    39.2121336       0.998099543     -0.089071135      0.998099543     -0.089071135      0.00245435895    39.2121336      
 1.56481075       0.00246615865    39.4538913       0.99809702      -0.0899616198     0.99809702      -0.0899616198     0.00246615865    39.4538913      
 1.58045885       0.00247811114    39.6959011       0.998094484     -0.090861006      0.998094484     -0.090861006      0.00247811114    39.6959011      
 1.59626344       0.00249021825    39.9381451       0.998091935     -0.0917693826     0.998091935     -0.0917693826     0.00249021825    39.9381451      
 1.61222608       0.0025024818     40.1806053       0.998089374     -0.0926868395     0.998089374     -0.0926868395     0.0025024818     40.1806053      
 1.62834834       0.00251490366    40.4232635       0.998086799     -0.0936134673     0.998086799     -0.0936134673     0.00251490366    40.4232635      
 1.64463182       0.00252748569    40.6661018       0.998084211     -0.0945493578     0.998084211     -0.0945493578     0.00252748569    40.6661018      
 1.66107814       0.00254022978    40.9091019       0.998081609     -0.0954946034     0.998081609     -0.0954946034     0.00254022978    40.9091019      
 1.67768892       0.00255313782    41.1522456       0.998078994     -0.0964492978     0.998078994     -0.0964492978     0.00255313782    41.1522456      
 1.69446581       0.00256621174    41.3955146       0.998076366     -0.0974135353     0.998076366     -0.0974135353     0.00256621174    41.3955146      
 1.71141047       0.00257945347    41.6388905       0.998073724     -0.0983874114     0.998073724     -0.0983874114     0.00257945347    41.6388905      
 1.72852457       0.00259286495    41.8823551       0.998071069     -0.0993710222     0.998071069     -0.0993710222     0.00259286495    41.8823551      
 1.74580982       0.00260644815    42.1258898       0.998068399     -0.100364465      0.998068399     -0.100364465      0.00260644815    42.1258898      
 1.76326792       0.00262020506    42.3694764       0.998065717     -0.101367839      0.998065717     -0.101367839      0.00262020506    42.3694764      
 1.7809006        0.00263413766    42.6130963       0.99806302      -0.102381242      0.99806302      -0.102381242      0.00263413766    42.6130963      
 1.7987096        0.00264824798    42.8567312       0.998060309     -0.103404774      0.998060309     -0.103404774      0.00264824798    42.8567312      
 1.8166967        0.00266253805    43.1003626       0.998057585     -0.104438538      0.998057585     -0.104438538      0.00266253805    43.1003626      
 1.83486367       0.00267700991    43.3439721       0.998054846     -0.105482636      0.998054846     -0.105482636      0.00267700991    43.3439721      
 1.8532123        0.00269166563    43.5875413       0.998052093     -0.10653717       0.998052093     -0.10653717       0.00269166563    43.5875413      
 1.87174443       0.00270650729    43.8310518       0.998049326     -0.107602244      0.998049326     -0.107602244      0.00270650729    43.8310518      
 1.89046187       0.00272153699    44.0744852       0.998046545     -0.108677965      0.998046545     -0.108677965      0.00272153699    44.0744852      
 1.90936649       0.00273675684    44.3178232       0.998043749     -0.109764439      0.998043749     -0.109764439      0.00273675684    44.3178232      
 1.92846015       0.00275216897    44.5610475       0.998040939     -0.110861773      0.998040939     -0.110861773      0.00275216897    44.5610475      
 1.94774475       0.00276777554    44.8041399       0.998038114     -0.111970075      0.998038114     -0.111970075      0.00276777554    44.8041399      
 1.9672222        0.00278357871    45.0470821       0.998035275     -0.113089456      0.998035275     -0.113089456      0.00278357871    45.0470821      
 1.98689442       0.00279958067    45.2898562       0.998032421     -0.114220026      0.998032421     -0.114220026      0.00279958067    45.2898562      
 2.00676337       0.00281578362    45.5324439       0.998029552     -0.115361896      0.998029552     -0.115361896      0.00281578362    45.5324439      
 2.026831         0.00283218978    45.7748273       0.998026668     -0.11651518       0.998026668     -0.11651518       0.00283218978    45.7748273      
 2.04709931       0.00284880138    46.0169886       0.998023769     -0.117679992      0.998023769     -0.117679992      0.00284880138    46.0169886      
 2.06757031       0.00286562069    46.2589098       0.998020855     -0.118856447      0.998020855     -0.118856447      0.00286562069    46.2589098      
 2.08824601       0.00288264997    46.5005733       0.998017926     -0.120044661      0.998017926     -0.120044661      0.00288264997    46.5005733      
 2.10912847       0.00289989152    46.7419615       0.998014982     -0.121244752      0.998014982     -0.121244752      0.00289989152    46.7419615      
 2.13021975       0.00291734765    46.9830567       0.998012022     -0.122456839      0.998012022     -0.122456839      0.00291734765    46.9830567      
 2.15152195       0.00293502069    47.2238417       0.998009047     -0.12368104       0.998009047     -0.12368104       0.00293502069    47.2238417      
 2.17303717       0.00295291298    47.4642991       0.998006057     -0.124917479      0.998006057     -0.124917479      0.00295291298    47.4642991      
 2.19476754       0.00297102689    47.7044117       0.998003051     -0.126166276      0.998003051     -0.126166276      0.00297102689    47.7044117      
 2.21671522       0.00298936481    47.9441625       0.998000029     -0.127427555      0.998000029     -0.127427555      0.00298936481    47.9441625      
 2.23888237       0.00300792914    48.1835346       0.997996991     -0.128701441      0.997996991     -0.128701441      0.00300792914    48.1835346      
 2.26127119       0.0030267223     48.4225113       0.997993938     -0.129988061      0.997993938     -0.129988061      0.0030267223     48.4225113      
 2.2838839        0.00304574674    48.6610758       0.997990868     -0.13128754       0.997990868     -0.13128754       0.00304574674    48.6610758      
 2.30672274       0.00306500491    48.8992118       0.997987782     -0.132600008      0.997987782     -0.132600008      0.00306500491    48.8992118      
 2.32978997       0.00308449931    49.1369028       0.997984681     -0.133925595      0.997984681     -0.133925595      0.00308449931    49.1369028      
 2.35308787       0.00310423244    49.3741329       0.997981563     -0.135264431      0.997981563     -0.135264431      0.00310423244    49.3741329      
 2.37661875       0.00312420681    49.6108858       0.997978428     -0.136616649      0.997978428     -0.136616649      0.00312420681    49.6108858      
 2.40038494       0.00314442496    49.8471459       0.997975278     -0.137982383      0.997975278     -0.137982383      0.00314442496    49.8471459      
 2.42438879       0.00316488947    50.0828975       0.99797211      -0.139361768      0.99797211      -0.139361768      0.00316488947    50.0828975      
 2.44863267       0.00318560292    50.3181251       0.997968926     -0.14075494       0.997968926     -0.14075494       0.00318560292    50.3181251      
 2.473119         0.0032065679     50.5528134       0.997965725     -0.142162036      0.997965725     -0.142162036      0.0032065679     50.5528134      
 2.49785019       0.00322778705    50.7869473       0.997962508     -0.143583197      0.997962508     -0.143583197      0.00322778705    50.7869473      
 2.52282869       0.00324926301    51.0205119       0.997959273     -0.145018563      0.997959273     -0.145018563      0.00324926301    51.0205119      
 2.54805698       0.00327099845    51.2534925       0.997956022     -0.146468275      0.997956022     -0.146468275      0.00327099845    51.2534925      
 2.57353755       0.00329299606    51.4858746       0.997952753     -0.147932477      0.997952753     -0.147932477      0.00329299606    51.4858746      
 2.59927293       0.00331525856    51.7176438       0.997949467     -0.149411313      0.997949467     -0.149411313      0.00331525856    51.7176438      
 2.62526565       0.00333778866    51.948786        0.997946163     -0.150904931      0.997946163     -0.150904931      0.00333778866    51.948786       
 2.65151831       0.00336058915    52.1792874       0.997942842     -0.152413477      0.997942842     -0.152413477      0.00336058915    52.1792874      
 2.67803349       0.00338366278    52.4091342       0.997939504     -0.153937101      0.997939504     -0.153937101      0.00338366278    52.4091342      
 2.70481383       0.00340701237    52.6383129       0.997936147     -0.155475953      0.997936147     -0.155475953      0.00340701237    52.6383129      
 2.73186197       0.00343064073    52.8668104       0.997932773     -0.157030186      0.997932773     -0.157030186      0.00343064073    52.8668104      
 2.75918059       0.00345455072    53.0946135       0.997929381     -0.158599954      0.997929381     -0.158599954      0.00345455072    53.0946135      
 2.78677239       0.0034787452     53.3217094       0.997925971     -0.160185411      0.997925971     -0.160185411      0.0034787452     53.3217094      
 2.81464012       0.00350322708    53.5480855       0.997922543     -0.161786714      0.997922543     -0.161786714      0.00350322708    53.5480855      
 2.84278652       0.00352799928    53.7737295       0.997919097     -0.163404022      0.997919097     -0.163404022      0.00352799928    53.7737295      
 2.87121438       0.00355306472    53.9986292       0.997915632     -0.165037494      0.997915632     -0.165037494      0.00355306472    53.9986292      
 2.89992653       0.00357842639    54.2227727       0.997912149     -0.166687293      0.997912149     -0.166687293      0.00357842639    54.2227727      
 2.92892579       0.00360408728    54.4461483       0.997908647     -0.16835358       0.997908647     -0.16835358       0.00360408728    54.4461483      
 2.95821505       0.00363005041    54.6687445       0.997905126     -0.170036522      0.997905126     -0.170036522      0.00363005041    54.6687445      
 2.9877972        0.00365631881    54.8905502       0.997901587     -0.171736284      0.997901587     -0.171736284      0.00365631881    54.8905502      
 3.01767517       0.00368289557    55.1115543       0.997898028     -0.173453034      0.997898028     -0.173453034      0.00368289557    55.1115543      
 3.04785192       0.00370978376    55.3317462       0.997894451     -0.175186943      0.997894451     -0.175186943      0.00370978376    55.3317462      
 3.07833044       0.00373698652    55.5511152       0.997890854     -0.176938181      0.997890854     -0.176938181      0.00373698652    55.5511152      
 3.10911375       0.003764507      55.7696512       0.997887238     -0.178706922      0.997887238     -0.178706922      0.003764507      55.7696512      
 3.14020489       0.00379234837    55.9873441       0.997883603     -0.18049334       0.997883603     -0.18049334       0.00379234837    55.9873441      
 3.17160693       0.00382051383    56.204184        0.997879948     -0.182297613      0.997879948     -0.182297613      0.00382051383    56.204184       
 3.203323         0.0038490066     56.4201615       0.997876273     -0.184119918      0.997876273     -0.184119918      0.0038490066     56.4201615      
 3.23535623       0.00387782996    56.6352672       0.997872578     -0.185960436      0.997872578     -0.185960436      0.00387782996    56.6352672      
 3.2677098        0.00390698719    56.8494921       0.997868864     -0.187819349      0.997868864     -0.187819349      0.00390698719    56.8494921      
 3.30038689       0.00393648159    57.0628272       0.997865129     -0.18969684       0.997865129     -0.18969684       0.00393648159    57.0628272      
 3.33339076       0.00396631651    57.2752641       0.997861374     -0.191593096      0.997861374     -0.191593096      0.00396631651    57.2752641      
 3.36672467       0.00399649533    57.4867942       0.997857599     -0.193508303      0.997857599     -0.193508303      0.00399649533    57.4867942      
 3.40039192       0.00402702144    57.6974096       0.997853803     -0.195442651      0.997853803     -0.195442651      0.00402702144    57.6974096      
 3.43439584       0.00405789828    57.9071023       0.997849987     -0.197396332      0.997849987     -0.197396332      0.00405789828    57.9071023      
 3.4687398        0.00408912931    58.1158647       0.99784615      -0.199369538      0.99784615      -0.199369538      0.00408912931    58.1158647      
 3.50342719       0.00412071802    58.3236893       0.997842292     -0.201362464      0.997842292     -0.201362464      0.00412071802    58.3236893      
