# MHz           S          MA           R         50
!Freq             MagS11           AngS11           MagS21           AngS21           MagS12           AngS12           MagS22           AngS22
 1                0.000455950503   17.632206        0.999565479     -0.00791655867    0.999565479     -0.00791655867    0.000455950503   17.632206       
 1.01             0.000456678078   17.7850633       0.999565157     -0.00799572169    0.999565157     -0.00799572169    0.000456678078   17.7850633      
 1.0201           0.000457414681   17.9390166       0.999564833     -0.00807567624    0.999564833     -0.00807567624    0.000457414681   17.9390166      
 1.030301         0.000458160453   18.0940685       0.999564507     -0.00815643037    0.999564507     -0.00815643037    0.000458160453   18.0940685      
 1.04060401       0.000458915529   18.2502217       0.999564179     -0.00823799198    0.999564179     -0.00823799198    0.000458915529   18.2502217      
 1.05101005       0.000459680051   18.4074789       0.99956385      -0.00832036915    0.99956385      -0.00832036915    0.000459680051   18.4074789      
 1.06152015       0.000460454163   18.5658423       0.999563519     -0.00840357007    0.999563519     -0.00840357007    0.000460454163   18.5658423      
 1.07213535       0.000461238009   18.7253143       0.999563187     -0.00848760295    0.999563187     -0.00848760295    0.000461238009   18.7253143      
 1.08285671       0.000462031735   18.885897        0.999562853     -0.0085724761     0.999562853     -0.0085724761     0.000462031735   18.885897       
 1.09368527       0.000462835492   19.0475924       0.999562517     -0.00865819797    0.999562517     -0.00865819798    0.000462835492   19.0475924      
 1.10462213       0.00046364943    19.2104025       0.99956218      -0.00874477699    0.99956218      -0.00874477699    0.00046364943    19.2104025      
 1.11566835       0.000464473704   19.374329        0.999561841     -0.00883222177    0.999561841     -0.00883222177    0.000464473704   19.374329       
 1.12682503       0.000465308469   19.5393734       0.9995615       -0.00892054095    0.9995615       -0.00892054095    0.000465308469   19.5393734      
 1.13809328       0.000466153883   19.7055372       0.999561157     -0.00900974326    0.999561157     -0.00900974326    0.000466153883   19.7055372      
 1.14947421       0.000467010107   19.8728218       0.999560813     -0.00909983755    0.999560813     -0.00909983755    0.000467010107   19.8728218      
 1.16096896       0.000467877304   20.0412282       0.999560467     -0.00919083277    0.999560467     -0.00919083277    0.000467877304   20.0412282      
 1.17257864       0.000468755638   20.2107574       0.99956012      -0.00928273788    0.99956012      -0.00928273788    0.000468755638   20.2107574      
 1.18430443       0.000469645278   20.3814104       0.99955977      -0.00937556197    0.99955977      -0.00937556197    0.000469645278   20.3814104      
 1.19614748       0.000470546392   20.5531879       0.999559419     -0.00946931425    0.999559419     -0.00946931425    0.000470546392   20.5531879      
 1.20810895       0.000471459153   20.7260901       0.999559066     -0.00956400405    0.999559066     -0.00956400405    0.000471459153   20.7260901      
 1.22019004       0.000472383737   20.9001176       0.999558712     -0.00965964066    0.999558712     -0.00965964066    0.000472383737   20.9001176      
 1.23239194       0.000473320319   21.0752706       0.999558355     -0.00975623358    0.999558355     -0.00975623358    0.000473320319   21.0752705      
 1.24471586       0.00047426908    21.2515489       0.999557997     -0.00985379238    0.999557997     -0.00985379238    0.00047426908    21.2515489      
 1.25716302       0.000475230201   21.4289524       0.999557637     -0.00995232674    0.999557637     -0.00995232674    0.000475230201   21.4289524      
 1.26973465       0.000476203868   21.6074808       0.999557275     -0.0100518464     0.999557275     -0.0100518464     0.000476203868   21.6074808      
 1.282432         0.000477190267   21.7871334       0.999556912     -0.0101523612     0.999556912     -0.0101523612     0.000477190267   21.7871334      
 1.29525631       0.000478189589   21.9679097       0.999556546     -0.010253881      0.999556546     -0.010253881      0.000478189589   21.9679097      
 1.30820888       0.000479202025   22.1498085       0.999556179     -0.010356416      0.999556179     -0.010356416      0.000479202025   22.1498085      
 1.32129097       0.000480227771   22.3328288       0.99955581      -0.0104599763     0.99955581      -0.0104599763     0.000480227771   22.3328288      
 1.33450388       0.000481267026   22.5169693       0.999555439     -0.0105645722     0.999555439     -0.0105645722     0.000481267026   22.5169693      
 1.34784892       0.000482319987   22.7022284       0.999555066     -0.0106702139     0.999555066     -0.0106702139     0.000482319987   22.7022284      
 1.3613274        0.00048338686    22.8886045       0.999554691     -0.010776912      0.999554691     -0.010776912      0.00048338686    22.8886045      
 1.37494068       0.00048446785    23.0760955       0.999554315     -0.010884677      0.999554315     -0.010884677      0.00048446785    23.0760955      
 1.38869009       0.000485563165   23.2646993       0.999553936     -0.0109935196     0.999553936     -0.0109935196     0.000485563165   23.2646993      
 1.40257699       0.000486673016   23.4544136       0.999553556     -0.0111034506     0.999553556     -0.0111034506     0.000486673016   23.4544136      
 1.41660276       0.000487797619   23.6452358       0.999553174     -0.0112144808     0.999553174     -0.0112144808     0.000487797619   23.6452358      
 1.43076878       0.00048893719    23.8371631       0.99955279      -0.0113266213     0.99955279      -0.0113266213     0.00048893719    23.8371631      
 1.44507647       0.000490091948   24.0301924       0.999552404     -0.0114398831     0.999552404     -0.0114398831     0.000490091948   24.0301924      
 1.45952724       0.000491262116   24.2243207       0.999552016     -0.0115542774     0.999552016     -0.0115542774     0.000491262116   24.2243207      
 1.47412251       0.000492447921   24.4195442       0.999551626     -0.0116698157     0.999551626     -0.0116698157     0.000492447921   24.4195442      
 1.48886373       0.00049364959    24.6158594       0.999551234     -0.0117865092     0.999551234     -0.0117865092     0.00049364959    24.6158594      
 1.50375237       0.000494867355   24.8132624       0.99955084      -0.0119043696     0.99955084      -0.0119043696     0.000494867355   24.8132624      
 1.51878989       0.00049610145    25.011749        0.999550444     -0.0120234086     0.999550444     -0.0120234086     0.00049610145    25.011749       
 1.53397779       0.000497352114   25.2113147       0.999550047     -0.0121436378     0.999550047     -0.0121436378     0.000497352114   25.2113147      
 1.54931757       0.000498619585   25.411955        0.999549647     -0.0122650693     0.999549647     -0.0122650693     0.000498619585   25.411955       
 1.56481075       0.000499904107   25.6136648       0.999549245     -0.012387715      0.999549245     -0.012387715      0.000499904107   25.6136648      
 1.58045885       0.000501205928   25.8164392       0.999548841     -0.0125115871     0.999548841     -0.0125115871     0.000501205928   25.8164393      
 1.59626344       0.000502525297   26.0202728       0.999548436     -0.0126366979     0.999548436     -0.0126366979     0.000502525296   26.0202728      
 1.61222608       0.000503862464   26.22516         0.999548028     -0.0127630596     0.999548028     -0.0127630596     0.000503862464   26.22516        
 1.62834834       0.000505217689   26.4310946       0.999547618     -0.0128906849     0.999547618     -0.0128906849     0.000505217689   26.4310946      
 1.64463182       0.000506591229   26.6380709       0.999547206     -0.0130195864     0.999547206     -0.0130195864     0.000506591228   26.6380709      
 1.66107814       0.000507983344   26.8460823       0.999546792     -0.0131497768     0.999546792     -0.0131497769     0.000507983344   26.8460823      
 1.67768892       0.000509394302   27.0551222       0.999546376     -0.0132812691     0.999546376     -0.0132812691     0.000509394302   27.0551222      
 1.69446581       0.00051082437    27.2651836       0.999545958     -0.0134140762     0.999545958     -0.0134140762     0.00051082437    27.2651837      
 1.71141047       0.000512273822   27.4762596       0.999545538     -0.0135482113     0.999545538     -0.0135482113     0.000512273822   27.4762596      
 1.72852457       0.000513742929   27.6883426       0.999545115     -0.0136836876     0.999545115     -0.0136836876     0.000513742929   27.6883426      
 1.74580982       0.000515231971   27.901425        0.999544691     -0.0138205186     0.999544691     -0.0138205186     0.000515231971   27.901425       
 1.76326792       0.00051674123    28.1154988       0.999544264     -0.0139587178     0.999544264     -0.0139587178     0.00051674123    28.1154988      
 1.7809006        0.000518270989   28.3305559       0.999543835     -0.014098299      0.999543835     -0.014098299      0.000518270989   28.3305559      
 1.7987096        0.000519821538   28.5465878       0.999543405     -0.0142392758     0.999543405     -0.0142392758     0.000519821538   28.5465878      
 1.8166967        0.000521393167   28.7635857       0.999542972     -0.0143816624     0.999542972     -0.0143816624     0.000521393167   28.7635857      
 1.83486367       0.000522986171   28.9815407       0.999542536     -0.0145254727     0.999542536     -0.0145254727     0.000522986171   28.9815407      
 1.8532123        0.000524600847   29.2004436       0.999542099     -0.014670721      0.999542099     -0.014670721      0.000524600847   29.2004436      
 1.87174443       0.000526237498   29.4202848       0.99954166      -0.0148174217     0.99954166      -0.0148174217     0.000526237498   29.4202848      
 1.89046187       0.000527896427   29.6410544       0.999541218     -0.0149655893     0.999541218     -0.0149655893     0.000527896427   29.6410544      
 1.90936649       0.000529577944   29.8627426       0.999540774     -0.0151152385     0.999540774     -0.0151152385     0.000529577944   29.8627427      
 1.92846015       0.000531282359   30.085339        0.999540328     -0.0152663841     0.999540328     -0.0152663841     0.000531282359   30.085339       
 1.94774475       0.000533009988   30.3088329       0.999539879     -0.015419041      0.999539879     -0.015419041      0.000533009988   30.3088329      
 1.9672222        0.000534761149   30.5332137       0.999539429     -0.0155732244     0.999539429     -0.0155732244     0.000534761149   30.5332137      
 1.98689442       0.000536536164   30.75847         0.999538976     -0.0157289496     0.999538976     -0.0157289496     0.000536536164   30.75847        
 2.00676337       0.000538335358   30.9845907       0.99953852      -0.0158862318     0.99953852      -0.0158862318     0.000538335358   30.9845907      
 2.026831         0.000540159061   31.2115639       0.999538063     -0.0160450868     0.999538063     -0.0160450868     0.000540159061   31.2115639      
 2.04709931       0.000542007605   31.4393781       0.999537603     -0.0162055302     0.999537603     -0.0162055302     0.000542007605   31.4393781      
 2.06757031       0.000543881325   31.6680208       0.999537141     -0.016367578      0.999537141     -0.016367578      0.000543881325   31.6680208      
 2.08824601       0.000545780562   31.8974797       0.999536677     -0.0165312461     0.999536677     -0.0165312461     0.000545780562   31.8974797      
 2.10912847       0.000547705657   32.1277423       0.99953621      -0.0166965508     0.99953621      -0.0166965508     0.000547705657   32.1277423      
 2.13021975       0.000549656959   32.3587955       0.999535741     -0.0168635084     0.999535741     -0.0168635084     0.000549656959   32.3587955      
 2.15152195       0.000551634818   32.5906262       0.999535269     -0.0170321354     0.999535269     -0.0170321354     0.000551634818   32.5906261      
 2.17303717       0.000553639585   32.823221        0.999534796     -0.0172024486     0.999534796     -0.0172024486     0.000553639585   32.823221       
 2.19476754       0.00055567162    33.0565663       0.99953432      -0.0173744649     0.99953432      -0.0173744649     0.00055567162    33.0565663      
 2.21671522       0.000557731284   33.2906481       0.999533841     -0.0175482011     0.999533841     -0.0175482011     0.000557731284   33.2906481      
 2.23888237       0.000559818941   33.5254523       0.99953336      -0.0177236746     0.99953336      -0.0177236746     0.000559818941   33.5254523      
 2.26127119       0.000561934958   33.7609646       0.999532877     -0.0179009027     0.999532877     -0.0179009027     0.000561934958   33.7609646      
 2.2838839        0.00056407971    33.9971703       0.999532391     -0.018079903      0.999532391     -0.018079903      0.00056407971    33.9971703      
 2.30672274       0.00056625357    34.2340546       0.999531903     -0.0182606931     0.999531903     -0.0182606931     0.00056625357    34.2340546      
 2.32978997       0.000568456918   34.4716024       0.999531412     -0.018443291      0.999531412     -0.018443291      0.000568456918   34.4716024      
 2.35308787       0.000570690136   34.7097985       0.999530919     -0.0186277147     0.999530919     -0.0186277147     0.000570690136   34.7097985      
 2.37661875       0.000572953614   34.9486273       0.999530423     -0.0188139826     0.999530423     -0.0188139826     0.000572953614   34.9486273      
 2.40038494       0.000575247739   35.1880731       0.999529925     -0.0190021129     0.999529925     -0.0190021129     0.000575247739   35.1880731      
 2.42438879       0.000577572906   35.42812         0.999529425     -0.0191921245     0.999529425     -0.0191921245     0.000577572906   35.42812        
 2.44863267       0.000579929513   35.6687518       0.999528922     -0.019384036      0.999528922     -0.019384036      0.000579929513   35.6687518      
 2.473119         0.000582317962   35.9099522       0.999528416     -0.0195778664     0.999528416     -0.0195778664     0.000582317962   35.9099522      
 2.49785019       0.000584738657   36.1517046       0.999527908     -0.0197736351     0.999527908     -0.0197736351     0.000584738657   36.1517046      
 2.52282869       0.000587192009   36.3939923       0.999527397     -0.0199713613     0.999527397     -0.0199713613     0.000587192009   36.3939923      
 2.54805698       0.00058967843    36.6367984       0.999526884     -0.0201710645     0.999526884     -0.0201710645     0.00058967843    36.6367984      
 2.57353755       0.000592198336   36.8801058       0.999526368     -0.0203727647     0.999526368     -0.0203727647     0.000592198336   36.8801058      
 2.59927293       0.000594752149   37.1238972       0.999525849     -0.0205764817     0.999525849     -0.0205764817     0.000594752149   37.1238972      
 2.62526565       0.000597340291   37.3681551       0.999525328     -0.0207822357     0.999525328     -0.0207822357     0.000597340291   37.3681551      
 2.65151831       0.000599963192   37.6128619       0.999524805     -0.0209900471     0.999524805     -0.0209900471     0.000599963192   37.6128619      
 2.67803349       0.000602621283   37.858           0.999524278     -0.0211999364     0.999524278     -0.0211999364     0.000602621283   37.858          
 2.70481383       0.000605314999   38.1035512       0.999523749     -0.0214119245     0.999523749     -0.0214119245     0.000605314999   38.1035512      
 2.73186197       0.000608044782   38.3494975       0.999523218     -0.0216260322     0.999523218     -0.0216260322     0.000608044782   38.3494975      
 2.75918059       0.000610811073   38.5958209       0.999522683     -0.0218422809     0.999522683     -0.0218422809     0.000610811073   38.5958208      
 2.78677239       0.00061361432    38.8425027       0.999522147     -0.0220606919     0.999522147     -0.0220606919     0.00061361432    38.8425027      
 2.81464012       0.000616454975   39.0895247       0.999521607     -0.0222812868     0.999521607     -0.0222812868     0.000616454975   39.0895247      
 2.84278652       0.000619333493   39.3368682       0.999521064     -0.0225040875     0.999521064     -0.0225040875     0.000619333493   39.3368681      
 2.87121438       0.000622250332   39.5845144       0.999520519     -0.022729116      0.999520519     -0.022729116      0.000622250332   39.5845144      
 2.89992653       0.000625205955   39.8324446       0.999519971     -0.0229563946     0.999519971     -0.0229563946     0.000625205955   39.8324446      
 2.92892579       0.00062820083    40.0806398       0.999519421     -0.0231859458     0.999519421     -0.0231859458     0.00062820083    40.0806398      
 2.95821505       0.000631235426   40.3290811       0.999518868     -0.0234177923     0.999518868     -0.0234177923     0.000631235426   40.3290811      
 2.9877972        0.00063431022    40.5777492       0.999518311     -0.0236519571     0.999518311     -0.0236519571     0.00063431022    40.5777492      
 3.01767517       0.00063742569    40.8266251       0.999517752     -0.0238884634     0.999517752     -0.0238884634     0.00063742569    40.8266251      
 3.04785192       0.000640582317   41.0756894       0.999517191     -0.0241273345     0.999517191     -0.0241273345     0.000640582317   41.0756894      
 3.07833044       0.00064378059    41.3249228       0.999516626     -0.0243685941     0.999516626     -0.0243685941     0.00064378059    41.3249228      
 3.10911375       0.000647020999   41.574306        0.999516059     -0.0246122661     0.999516059     -0.0246122661     0.000647020999   41.574306       
 3.14020489       0.000650304038   41.8238196       0.999515488     -0.0248583746     0.999515488     -0.0248583746     0.000650304038   41.8238196      
 3.17160693       0.000653630207   42.073444        0.999514915     -0.025106944      0.999514915     -0.025106944      0.000653630207   42.073444       
 3.203323         0.000657000008   42.3231598       0.999514339     -0.0253579989     0.999514339     -0.0253579989     0.000657000008   42.3231598      
 3.23535623       0.000660413949   42.5729473       0.99951376      -0.0256115641     0.99951376      -0.0256115641     0.000660413949   42.5729473      
 3.2677098        0.00066387254    42.8227871       0.999513178     -0.0258676647     0.999513178     -0.0258676647     0.00066387254    42.8227871      
 3.30038689       0.000667376298   43.0726596       0.999512593     -0.0261263261     0.999512593     -0.0261263261     0.000667376298   43.0726597      
 3.33339076       0.00067092574    43.3225453       0.999512006     -0.0263875739     0.999512006     -0.0263875739     0.00067092574    43.3225453      
 3.36672467       0.000674521391   43.5724245       0.999511415     -0.0266514339     0.999511415     -0.0266514339     0.000674521391   43.5724245      
 3.40039192       0.000678163778   43.8222777       0.999510821     -0.0269179323     0.999510821     -0.0269179323     0.000678163778   43.8222777      
 3.43439584       0.000681853434   44.0720853       0.999510225     -0.0271870955     0.999510225     -0.0271870955     0.000681853434   44.0720853      
 3.4687398        0.000685590894   44.3218279       0.999509625     -0.02745895       0.999509625     -0.02745895       0.000685590894   44.321828       
 3.50342719       0.000689376699   44.571486        0.999509022     -0.0277335228     0.999509022     -0.0277335228     0.000689376699   44.571486       
