# MHz           S          MA           R         50
!Freq             MagS11           AngS11           MagS21           AngS21           MagS12           AngS12           MagS22           AngS22
 1                0.002970385      30.335856        0.997437449     -0.0861786302     0.997437449     -0.0861786302     0.002970385      30.335856       
 1.01             0.00298079295    30.5529255       0.997434211     -0.0870401347     0.997434211     -0.0870401347     0.00298079295    30.5529255      
 1.0201           0.00299133456    30.7707805       0.997430957     -0.0879102499     0.997430957     -0.0879102499     0.00299133456    30.7707805      
 1.030301         0.00300201158    30.9894101       0.997427686     -0.088789062      0.997427686     -0.088789062      0.00300201158    30.9894101      
 1.04060401       0.00301282582    31.2088034       0.997424398     -0.0896766578     0.997424398     -0.0896766578     0.00301282582    31.2088034      
 1.05101005       0.00302377908    31.4289489       0.997421094     -0.0905731251     0.997421094     -0.0905731251     0.00302377908    31.4289489      
 1.06152015       0.00303487317    31.6498353       0.997417772     -0.0914785525     0.997417772     -0.0914785525     0.00303487317    31.6498353      
 1.07213535       0.00304610995    31.8714508       0.997414434     -0.0923930297     0.997414434     -0.0923930297     0.00304610995    31.8714508      
 1.08285671       0.00305749127    32.0937834       0.997411079     -0.0933166469     0.997411079     -0.0933166469     0.00305749127    32.0937834      
 1.09368527       0.00306901903    32.3168211       0.997407706     -0.0942494956     0.997407706     -0.0942494956     0.00306901903    32.3168211      
 1.10462213       0.00308069512    32.5405514       0.997404317     -0.095191668      0.997404317     -0.095191668      0.00308069512    32.5405514      
 1.11566835       0.00309252146    32.7649618       0.99740091      -0.0961432572     0.99740091      -0.0961432572     0.00309252146    32.7649618      
 1.12682503       0.0031045        32.9900394       0.997397486     -0.0971043574     0.997397486     -0.0971043574     0.0031045        32.9900395      
 1.13809328       0.0031166327     33.2157715       0.997394044     -0.0980750636     0.997394044     -0.0980750636     0.0031166327     33.2157715      
 1.14947421       0.00312892154    33.4421446       0.997390585     -0.0990554717     0.997390585     -0.0990554717     0.00312892154    33.4421446      
 1.16096896       0.00314136851    33.6691455       0.997387108     -0.100045679      0.997387108     -0.100045679      0.00314136851    33.6691455      
 1.17257864       0.00315397565    33.8967605       0.997383613     -0.101045783      0.997383613     -0.101045783      0.00315397565    33.8967605      
 1.18430443       0.00316674499    34.1249759       0.9973801       -0.102055882      0.9973801       -0.102055882      0.00316674499    34.1249759      
 1.19614748       0.0031796786     34.3537776       0.99737657      -0.103076077      0.99737657      -0.103076077      0.0031796786     34.3537776      
 1.20810895       0.00319277855    34.5831517       0.997373021     -0.104106469      0.997373021     -0.104106469      0.00319277855    34.5831517      
 1.22019004       0.00320604694    34.8130836       0.997369454     -0.105147159      0.997369454     -0.105147159      0.00320604694    34.8130836      
 1.23239194       0.00321948591    35.0435589       0.997365869     -0.10619825       0.997365869     -0.10619825       0.00321948591    35.0435589      
 1.24471586       0.00323309758    35.2745629       0.997362266     -0.107259846      0.997362266     -0.107259846      0.00323309758    35.2745629      
 1.25716302       0.00324688413    35.5060807       0.997358644     -0.108332053      0.997358644     -0.108332053      0.00324688413    35.5060807      
 1.26973465       0.00326084774    35.7380972       0.997355004     -0.109414975      0.997355004     -0.109414975      0.00326084774    35.7380972      
 1.282432         0.00327499062    35.9705973       0.997351345     -0.110508721      0.997351345     -0.110508721      0.00327499062    35.9705973      
 1.29525631       0.00328931498    36.2035657       0.997347667     -0.111613398      0.997347667     -0.111613398      0.00328931498    36.2035657      
 1.30820888       0.00330382308    36.4369867       0.99734397      -0.112729116      0.99734397      -0.112729116      0.00330382308    36.4369867      
 1.32129097       0.00331851718    36.6708448       0.997340254     -0.113855984      0.997340254     -0.113855984      0.00331851718    36.6708448      
 1.33450388       0.00333339957    36.9051241       0.997336519     -0.114994115      0.997336519     -0.114994115      0.00333339957    36.9051241      
 1.34784892       0.00334847256    37.1398086       0.997332765     -0.116143621      0.997332765     -0.116143621      0.00334847256    37.1398086      
 1.3613274        0.00336373849    37.3748824       0.997328992     -0.117304615      0.997328992     -0.117304615      0.00336373849    37.3748824      
 1.37494068       0.00337919969    37.6103291       0.997325199     -0.118477212      0.997325199     -0.118477212      0.00337919969    37.6103291      
 1.38869009       0.00339485856    37.8461324       0.997321387     -0.119661529      0.997321387     -0.119661529      0.00339485856    37.8461324      
 1.40257699       0.00341071747    38.0822758       0.997317555     -0.120857682      0.997317555     -0.120857682      0.00341071747    38.0822758      
 1.41660276       0.00342677886    38.3187429       0.997313703     -0.122065789      0.997313703     -0.122065789      0.00342677886    38.3187429      
 1.43076878       0.00344304515    38.5555168       0.997309832     -0.12328597       0.997309832     -0.12328597       0.00344304515    38.5555168      
 1.44507647       0.00345951881    38.7925808       0.99730594      -0.124518346      0.99730594      -0.124518346      0.00345951881    38.7925808      
 1.45952724       0.00347620232    39.029918        0.997302029     -0.125763038      0.997302029     -0.125763038      0.00347620232    39.029918       
 1.47412251       0.00349309818    39.2675115       0.997298097     -0.12702017       0.997298097     -0.12702017       0.00349309818    39.2675115      
 1.48886373       0.00351020892    39.505344        0.997294145     -0.128289866      0.997294145     -0.128289866      0.00351020892    39.505344       
 1.50375237       0.00352753709    39.7433986       0.997290172     -0.129572251      0.997290172     -0.129572251      0.00352753709    39.7433986      
 1.51878989       0.00354508525    39.981658        0.997286179     -0.130867452      0.997286179     -0.130867452      0.00354508525    39.981658       
 1.53397779       0.003562856      40.2201048       0.997282166     -0.132175597      0.997282166     -0.132175597      0.003562856      40.2201048      
 1.54931757       0.00358085196    40.4587217       0.997278131     -0.133496815      0.997278131     -0.133496815      0.00358085196    40.4587217      
 1.56481075       0.00359907576    40.6974914       0.997274076     -0.134831238      0.997274076     -0.134831238      0.00359907576    40.6974914      
 1.58045885       0.00361753006    40.9363963       0.997269999     -0.136178996      0.997269999     -0.136178996      0.00361753006    40.9363963      
 1.59626344       0.00363621755    41.1754189       0.997265902     -0.137540224      0.997265902     -0.137540224      0.00363621755    41.1754189      
 1.61222608       0.00365514093    41.4145417       0.997261783     -0.138915055      0.997261783     -0.138915055      0.00365514093    41.4145417      
 1.62834834       0.00367430293    41.6537471       0.997257643     -0.140303626      0.997257643     -0.140303626      0.00367430293    41.6537471      
 1.64463182       0.00369370631    41.8930175       0.997253481     -0.141706074      0.997253481     -0.141706074      0.00369370631    41.8930175      
 1.66107814       0.00371335383    42.1323353       0.997249298     -0.143122538      0.997249298     -0.143122538      0.00371335383    42.1323353      
 1.67768892       0.0037332483     42.3716829       0.997245093     -0.144553157      0.997245093     -0.144553157      0.0037332483     42.3716829      
 1.69446581       0.00375339253    42.6110425       0.997240866     -0.145998073      0.997240866     -0.145998073      0.00375339253    42.6110425      
 1.71141047       0.00377378939    42.8503966       0.997236617     -0.147457429      0.997236617     -0.147457429      0.00377378939    42.8503966      
 1.72852457       0.00379444172    43.0897275       0.997232346     -0.148931369      0.997232346     -0.148931369      0.00379444172    43.0897275      
 1.74580982       0.00381535244    43.3290176       0.997228053     -0.150420039      0.997228053     -0.150420039      0.00381535244    43.3290176      
 1.76326792       0.00383652445    43.5682493       0.997223737     -0.151923585      0.997223737     -0.151923585      0.00383652445    43.5682493      
 1.7809006        0.0038579607     43.807405        0.997219399     -0.153442157      0.997219399     -0.153442157      0.0038579607     43.807405       
 1.7987096        0.00387966415    44.0464672       0.997215038     -0.154975905      0.997215038     -0.154975905      0.00387966415    44.0464672      
 1.8166967        0.0039016378     44.2854183       0.997210654     -0.15652498       0.997210654     -0.15652498       0.0039016378     44.2854183      
 1.83486367       0.00392388465    44.5242409       0.997206247     -0.158089536      0.997206247     -0.158089536      0.00392388465    44.5242409      
 1.8532123        0.00394640775    44.7629176       0.997201818     -0.159669726      0.997201818     -0.159669726      0.00394640775    44.7629176      
 1.87174443       0.00396921017    45.0014309       0.997197365     -0.161265708      0.997197365     -0.161265708      0.00396921017    45.0014309      
 1.89046187       0.00399229499    45.2397637       0.997192888     -0.162877638      0.997192888     -0.162877638      0.00399229499    45.2397637      
 1.90936649       0.00401566533    45.4778986       0.997188389     -0.164505677      0.997188389     -0.164505677      0.00401566533    45.4778986      
 1.92846015       0.00403932433    45.7158186       0.997183865     -0.166149985      0.997183865     -0.166149985      0.00403932433    45.7158186      
 1.94774475       0.00406327515    45.9535065       0.997179318     -0.167810725      0.997179318     -0.167810725      0.00406327515    45.9535065      
 1.9672222        0.004087521      46.1909453       0.997174747     -0.169488061      0.997174747     -0.169488061      0.004087521      46.1909453      
 1.98689442       0.00411206508    46.4281181       0.997170152     -0.171182158      0.997170152     -0.171182158      0.00411206508    46.4281181      
 2.00676337       0.00413691064    46.6650082       0.997165532     -0.172893184      0.997165532     -0.172893184      0.00413691064    46.6650082      
 2.026831         0.00416206096    46.9015989       0.997160889     -0.174621308      0.997160889     -0.174621308      0.00416206096    46.9015989      
 2.04709931       0.00418751933    47.1378734       0.997156221     -0.176366702      0.997156221     -0.176366702      0.00418751933    47.1378734      
 2.06757031       0.00421328907    47.3738155       0.997151528     -0.178129537      0.997151528     -0.178129537      0.00421328907    47.3738155      
 2.08824601       0.00423937354    47.6094086       0.99714681      -0.179909987      0.99714681      -0.179909987      0.00423937354    47.6094086      
 2.10912847       0.00426577611    47.8446367       0.997142068     -0.181708229      0.997142068     -0.181708229      0.00426577611    47.8446367      
 2.13021975       0.0042925002     48.0794834       0.9971373       -0.183524441      0.9971373       -0.183524441      0.0042925002     48.0794834      
 2.15152195       0.00431954923    48.313933        0.997132507     -0.185358801      0.997132507     -0.185358801      0.00431954923    48.313933       
 2.17303717       0.00434692667    48.5479695       0.997127689     -0.187211491      0.997127689     -0.187211491      0.00434692667    48.5479695      
 2.19476754       0.00437463601    48.7815773       0.997122845     -0.189082695      0.997122845     -0.189082695      0.00437463601    48.7815773      
 2.21671522       0.00440268076    49.0147409       0.997117975     -0.190972597      0.997117975     -0.190972597      0.00440268076    49.0147409      
 2.23888237       0.00443106448    49.2474447       0.99711308      -0.192881383      0.99711308      -0.192881383      0.00443106448    49.2474447      
 2.26127119       0.00445979074    49.4796737       0.997108158     -0.194809244      0.997108158     -0.194809244      0.00445979074    49.4796737      
 2.2838839        0.00448886315    49.7114126       0.99710321      -0.196756368      0.99710321      -0.196756368      0.00448886315    49.7114126      
 2.30672274       0.00451828534    49.9426467       0.997098236     -0.198722949      0.997098236     -0.198722949      0.00451828534    49.9426467      
 2.32978997       0.00454806097    50.1733612       0.997093236     -0.20070918       0.997093236     -0.20070918       0.00454806097    50.1733612      
 2.35308787       0.00457819375    50.4035416       0.997088208     -0.202715259      0.997088208     -0.202715259      0.00457819375    50.4035416      
 2.37661875       0.0046086874     50.6331733       0.997083154     -0.204741383      0.997083154     -0.204741383      0.0046086874     50.6331733      
 2.40038494       0.00463954567    50.8622423       0.997078073     -0.206787752      0.997078073     -0.206787752      0.00463954567    50.8622423      
 2.42438879       0.00467077235    51.0907345       0.997072964     -0.20885457       0.997072964     -0.20885457       0.00467077235    51.0907345      
 2.44863267       0.00470237126    51.3186361       0.997067828     -0.210942039      0.997067828     -0.210942039      0.00470237126    51.3186361      
 2.473119         0.00473434626    51.5459334       0.997062665     -0.213050366      0.997062665     -0.213050366      0.00473434626    51.5459334      
 2.49785019       0.00476670121    51.772613        0.997057473     -0.21517976       0.997057473     -0.21517976       0.00476670121    51.772613       
 2.52282869       0.00479944003    51.9986616       0.997052254     -0.217330431      0.997052254     -0.217330431      0.00479944003    51.9986616      
 2.54805698       0.00483256668    52.2240662       0.997047007     -0.219502592      0.997047007     -0.219502592      0.00483256668    52.2240662      
 2.57353755       0.00486608513    52.4488139       0.997041731     -0.221696456      0.997041731     -0.221696456      0.00486608513    52.4488139      
 2.59927293       0.0048999994     52.6728921       0.997036427     -0.223912242      0.997036427     -0.223912242      0.0048999994     52.6728921      
 2.62526565       0.00493431352    52.8962883       0.997031094     -0.226150167      0.997031094     -0.226150167      0.00493431352    52.8962883      
 2.65151831       0.00496903158    53.1189903       0.997025733     -0.228410453      0.997025733     -0.228410453      0.00496903158    53.1189903      
 2.67803349       0.0050041577     53.340986        0.997020342     -0.230693324      0.997020342     -0.230693324      0.0050041577     53.340986       
 2.70481383       0.00503969603    53.5622637       0.997014922     -0.232999004      0.997014922     -0.232999004      0.00503969603    53.5622637      
 2.73186197       0.00507565074    53.7828118       0.997009473     -0.235327722      0.997009473     -0.235327722      0.00507565074    53.7828118      
 2.75918059       0.00511202605    54.0026188       0.997003994     -0.237679707      0.997003994     -0.237679707      0.00511202605    54.0026188      
 2.78677239       0.00514882623    54.2216736       0.996998485     -0.240055193      0.996998485     -0.240055193      0.00514882623    54.2216736      
 2.81464012       0.00518605557    54.4399653       0.996992946     -0.242454413      0.996992946     -0.242454413      0.00518605557    54.4399653      
 2.84278652       0.00522371838    54.657483        0.996987377     -0.244877606      0.996987377     -0.244877606      0.00522371838    54.657483       
 2.87121438       0.00526181904    54.8742164       0.996981778     -0.247325009      0.996981778     -0.247325009      0.00526181904    54.8742164      
 2.89992653       0.00530036196    55.0901551       0.996976148     -0.249796865      0.996976148     -0.249796865      0.00530036196    55.0901551      
 2.92892579       0.00533935156    55.3052891       0.996970487     -0.252293418      0.996970487     -0.252293418      0.00533935156    55.3052891      
 2.95821505       0.00537879233    55.5196085       0.996964795     -0.254814916      0.996964795     -0.254814916      0.00537879233    55.5196085      
 2.9877972        0.00541868878    55.7331037       0.996959072     -0.257361606      0.996959072     -0.257361606      0.00541868878    55.7331037      
 3.01767517       0.00545904547    55.9457652       0.996953317     -0.25993374       0.996953317     -0.25993374       0.00545904547    55.9457652      
 3.04785192       0.005499867      56.157584        0.996947531     -0.262531573      0.996947531     -0.262531573      0.005499867      56.157584       
 3.07833044       0.005541158      56.368551        0.996941713     -0.265155362      0.996941713     -0.265155362      0.005541158      56.368551       
 3.10911375       0.00558292315    56.5786576       0.996935862     -0.267805365      0.996935862     -0.267805365      0.00558292315    56.5786576      
 3.14020489       0.00562516717    56.7878953       0.99692998      -0.270481843      0.99692998      -0.270481843      0.00562516717    56.7878953      
 3.17160693       0.0056678948     56.9962557       0.996924064     -0.273185063      0.996924064     -0.273185063      0.0056678948     56.9962557      
 3.203323         0.00571111086    57.2037307       0.996918116     -0.27591529       0.996918116     -0.27591529       0.00571111086    57.2037307      
 3.23535623       0.00575482019    57.4103127       0.996912135     -0.278672794      0.996912135     -0.278672794      0.00575482019    57.4103127      
 3.2677098        0.00579902766    57.6159939       0.996906121     -0.281457848      0.996906121     -0.281457848      0.00579902766    57.6159939      
 3.30038689       0.00584373822    57.820767        0.996900073     -0.284270727      0.996900073     -0.284270727      0.00584373822    57.820767       
 3.33339076       0.00588895682    58.0246247       0.996893991     -0.287111708      0.996893991     -0.287111708      0.00588895682    58.0246247      
 3.36672467       0.00593468849    58.2275602       0.996887876     -0.289981072      0.996887876     -0.289981072      0.00593468849    58.2275602      
 3.40039192       0.00598093829    58.4295667       0.996881726     -0.292879103      0.996881726     -0.292879103      0.00598093829    58.4295667      
 3.43439584       0.00602771132    58.6306377       0.996875541     -0.295806087      0.996875541     -0.295806087      0.00602771132    58.6306377      
 3.4687398        0.00607501274    58.8307668       0.996869322     -0.298762313      0.996869322     -0.298762313      0.00607501274    58.8307668      
 3.50342719       0.00612284775    59.029948        0.996863068     -0.301748072      0.996863068     -0.301748072      0.00612284775    59.029948       
