# MHz           S          MA           R         50
!Freq             MagS11           AngS11           MagS21           AngS21           MagS12           AngS12           MagS22           AngS22
 1                0.00105211085    36.5974981       0.999155517     -0.0359696014     0.999155517     -0.0359696014     0.00105211085    36.5974981      
 1.01             0.00105684407    36.8307627       0.999154293     -0.036329253      0.999154293     -0.036329253      0.00105684407    36.8307627      
 1.0201           0.0010616374     37.0644401       0.999153063     -0.0366925005     0.999153063     -0.0366925005     0.0010616374     37.0644401      
 1.030301         0.00106649159    37.2985148       0.999151826     -0.0370593797     0.999151826     -0.0370593797     0.00106649159    37.2985148      
 1.04060401       0.00107140738    37.5329709       0.999150584     -0.037429927      0.999150584     -0.037429927      0.00107140738    37.5329709      
 1.05101005       0.00107638551    37.7677925       0.999149335     -0.0378041791     0.999149335     -0.0378041791     0.00107638551    37.7677925      
 1.06152015       0.00108142674    38.0029636       0.99914808      -0.038182173      0.99914808      -0.038182173      0.00108142674    38.0029636      
 1.07213535       0.00108653183    38.2384681       0.999146819     -0.0385639461     0.999146819     -0.0385639461     0.00108653183    38.2384681      
 1.08285671       0.00109170155    38.4742897       0.999145551     -0.0389495362     0.999145551     -0.0389495362     0.00109170155    38.4742897      
 1.09368527       0.00109693668    38.7104121       0.999144277     -0.0393389815     0.999144277     -0.0393389815     0.00109693668    38.7104121      
 1.10462213       0.00110223799    38.946819        0.999142997     -0.0397323205     0.999142997     -0.0397323205     0.00110223799    38.946819       
 1.11566835       0.00110760627    39.1834936       0.99914171      -0.0401295921     0.99914171      -0.0401295921     0.00110760627    39.1834936      
 1.12682503       0.00111304233    39.4204194       0.999140417     -0.0405308356     0.999140417     -0.0405308356     0.00111304233    39.4204194      
 1.13809328       0.00111854696    39.6575798       0.999139117     -0.0409360908     0.999139117     -0.0409360908     0.00111854696    39.6575798      
 1.14947421       0.00112412097    39.894958        0.99913781      -0.0413453977     0.99913781      -0.0413453977     0.00112412097    39.894958       
 1.16096896       0.00112976519    40.1325371       0.999136497     -0.0417587969     0.999136497     -0.0417587969     0.00112976519    40.1325371      
 1.17257864       0.00113548043    40.3703002       0.999135177     -0.0421763292     0.999135177     -0.0421763292     0.00113548043    40.3703002      
 1.18430443       0.00114126754    40.6082304       0.999133851     -0.0425980361     0.999133851     -0.0425980361     0.00114126754    40.6082304      
 1.19614748       0.00114712734    40.8463107       0.999132518     -0.0430239591     0.999132518     -0.0430239591     0.00114712734    40.8463107      
 1.20810895       0.00115306068    41.084524        0.999131178     -0.0434541406     0.999131178     -0.0434541406     0.00115306068    41.084524       
 1.22019004       0.00115906842    41.3228533       0.999129832     -0.0438886229     0.999129832     -0.0438886229     0.00115906842    41.3228533      
 1.23239194       0.00116515142    41.5612813       0.999128478     -0.0443274492     0.999128478     -0.0443274492     0.00116515142    41.5612813      
 1.24471586       0.00117131055    41.7997911       0.999127118     -0.0447706629     0.999127118     -0.0447706629     0.00117131055    41.7997911      
 1.25716302       0.00117754668    42.0383653       0.999125751     -0.0452183077     0.999125751     -0.0452183077     0.00117754668    42.0383653      
 1.26973465       0.00118386069    42.2769869       0.999124377     -0.0456704281     0.999124377     -0.0456704281     0.00118386069    42.2769869      
 1.282432         0.00119025348    42.5156387       0.999122996     -0.0461270688     0.999122996     -0.0461270688     0.00119025348    42.5156387      
 1.29525631       0.00119672594    42.7543034       0.999121609     -0.0465882749     0.999121609     -0.0465882749     0.00119672594    42.7543034      
 1.30820888       0.00120327898    42.9929638       0.999120214     -0.0470540921     0.999120214     -0.0470540921     0.00120327898    42.9929638      
 1.32129097       0.00120991352    43.2316029       0.999118812     -0.0475245664     0.999118812     -0.0475245664     0.00120991352    43.2316029      
 1.33450388       0.00121663047    43.4702034       0.999117403     -0.0479997445     0.999117403     -0.0479997445     0.00121663047    43.4702034      
 1.34784892       0.00122343076    43.7087482       0.999115986     -0.0484796734     0.999115986     -0.0484796734     0.00122343076    43.7087482      
 1.3613274        0.00123031532    43.9472202       0.999114563     -0.0489644005     0.999114563     -0.0489644005     0.00123031532    43.9472202      
 1.37494068       0.00123728512    44.1856022       0.999113133     -0.0494539739     0.999113133     -0.0494539739     0.00123728512    44.1856022      
 1.38869009       0.00124434108    44.4238774       0.999111695     -0.0499484419     0.999111695     -0.0499484419     0.00124434108    44.4238774      
 1.40257699       0.00125148418    44.6620287       0.99911025      -0.0504478535     0.99911025      -0.0504478535     0.00125148418    44.6620287      
 1.41660276       0.00125871539    44.9000391       0.999108797     -0.0509522581     0.999108797     -0.0509522581     0.00125871539    44.9000391      
 1.43076878       0.00126603567    45.1378919       0.999107338     -0.0514617057     0.999107338     -0.0514617057     0.00126603567    45.1378919      
 1.44507647       0.00127344601    45.3755701       0.999105871     -0.0519762466     0.999105871     -0.0519762466     0.00127344601    45.3755701      
 1.45952724       0.00128094741    45.613057        0.999104396     -0.0524959318     0.999104396     -0.0524959318     0.00128094741    45.613057       
 1.47412251       0.00128854087    45.8503361       0.999102914     -0.0530208126     0.999102914     -0.0530208126     0.00128854087    45.8503361      
 1.48886373       0.00129622739    46.0873906       0.999101424     -0.0535509411     0.999101424     -0.0535509411     0.00129622739    46.0873906      
 1.50375237       0.00130400799    46.3242042       0.999099927     -0.0540863697     0.999099927     -0.0540863697     0.00130400799    46.3242042      
 1.51878989       0.0013118837     46.5607603       0.999098423     -0.0546271513     0.999098423     -0.0546271513     0.0013118837     46.5607603      
 1.53397779       0.00131985554    46.7970427       0.99909691      -0.0551733395     0.99909691      -0.0551733395     0.00131985554    46.7970427      
 1.54931757       0.00132792457    47.0330353       0.99909539      -0.0557249883     0.99909539      -0.0557249883     0.00132792457    47.0330353      
 1.56481075       0.00133609183    47.2687218       0.999093863     -0.0562821524     0.999093863     -0.0562821524     0.00133609183    47.2687218      
 1.58045885       0.00134435839    47.5040864       0.999092327     -0.0568448868     0.999092327     -0.0568448868     0.00134435839    47.5040864      
 1.59626344       0.0013527253     47.7391131       0.999090784     -0.0574132472     0.999090784     -0.0574132472     0.0013527253     47.7391131      
 1.61222608       0.00136119365    47.9737862       0.999089233     -0.0579872899     0.999089233     -0.0579872899     0.00136119365    47.9737862      
 1.62834834       0.00136976453    48.2080902       0.999087674     -0.0585670716     0.999087674     -0.0585670716     0.00136976453    48.2080902      
 1.64463182       0.00137843902    48.4420095       0.999086107     -0.0591526498     0.999086107     -0.0591526498     0.00137843902    48.4420095      
 1.66107814       0.00138721824    48.6755289       0.999084532     -0.0597440824     0.999084532     -0.0597440824     0.00138721824    48.6755289      
 1.67768892       0.00139610328    48.9086331       0.999082949     -0.0603414279     0.999082949     -0.0603414279     0.00139610328    48.9086331      
 1.69446581       0.00140509529    49.141307        0.999081358     -0.0609447454     0.999081358     -0.0609447454     0.00140509529    49.141307       
 1.71141047       0.00141419538    49.3735358       0.999079759     -0.0615540946     0.999079759     -0.0615540946     0.00141419538    49.3735358      
 1.72852457       0.0014234047     49.6053048       0.999078152     -0.0621695359     0.999078152     -0.0621695359     0.0014234047     49.6053048      
 1.74580982       0.0014327244     49.8365994       0.999076536     -0.06279113       0.999076536     -0.06279113       0.0014327244     49.8365994      
 1.76326792       0.00144215564    50.0674051       0.999074913     -0.0634189386     0.999074913     -0.0634189385     0.00144215564    50.0674051      
 1.7809006        0.00145169958    50.2977077       0.999073281     -0.0640530236     0.999073281     -0.0640530236     0.00145169958    50.2977077      
 1.7987096        0.00146135741    50.5274931       0.99907164      -0.064693448      0.99907164      -0.064693448      0.00146135741    50.5274931      
 1.8166967        0.00147113031    50.7567475       0.999069992     -0.065340275      0.999069992     -0.065340275      0.00147113031    50.7567475      
 1.83486367       0.00148101949    50.9854571       0.999068335     -0.0659935687     0.999068335     -0.0659935687     0.00148101949    50.9854571      
 1.8532123        0.00149102614    51.2136084       0.999066669     -0.0666533936     0.999066669     -0.0666533936     0.00149102614    51.2136084      
 1.87174443       0.0015011515     51.4411879       0.999064995     -0.0673198151     0.999064995     -0.0673198151     0.0015011515     51.4411879      
 1.89046187       0.00151139678    51.6681826       0.999063313     -0.0679928991     0.999063313     -0.0679928991     0.00151139678    51.6681826      
 1.90936649       0.00152176323    51.8945794       0.999061622     -0.0686727123     0.999061622     -0.0686727123     0.00152176323    51.8945794      
 1.92846015       0.0015322521     52.1203656       0.999059922     -0.0693593218     0.999059922     -0.0693593218     0.0015322521     52.1203656      
 1.94774475       0.00154286464    52.3455286       0.999058214     -0.0700527957     0.999058214     -0.0700527957     0.00154286464    52.3455286      
 1.9672222        0.00155360212    52.570056        0.999056496     -0.0707532025     0.999056496     -0.0707532025     0.00155360212    52.570056       
 1.98689442       0.00156446583    52.7939356       0.99905477      -0.0714606115     0.99905477      -0.0714606115     0.00156446583    52.7939356      
 2.00676337       0.00157545707    53.0171554       0.999053036     -0.0721750927     0.999053036     -0.0721750927     0.00157545707    53.0171554      
 2.026831         0.00158657712    53.2397035       0.999051292     -0.0728967169     0.999051292     -0.0728967169     0.00158657712    53.2397035      
 2.04709931       0.00159782731    53.4615686       0.999049539     -0.0736255554     0.999049539     -0.0736255554     0.00159782731    53.4615686      
 2.06757031       0.00160920896    53.6827391       0.999047778     -0.0743616804     0.999047778     -0.0743616804     0.00160920896    53.6827391      
 2.08824601       0.0016207234     53.9032038       0.999046007     -0.0751051646     0.999046007     -0.0751051646     0.0016207234     53.9032038      
 2.10912847       0.00163237199    54.122952        0.999044228     -0.0758560817     0.999044228     -0.0758560817     0.00163237199    54.122952       
 2.13021975       0.00164415608    54.3419728       0.999042439     -0.0766145058     0.999042439     -0.0766145058     0.00164415608    54.3419728      
 2.15152195       0.00165607705    54.5602556       0.999040641     -0.0773805122     0.999040641     -0.0773805122     0.00165607705    54.5602556      
 2.17303717       0.00166813627    54.7777903       0.999038833     -0.0781541765     0.999038833     -0.0781541765     0.00166813627    54.7777903      
 2.19476754       0.00168033514    54.9945666       0.999037017     -0.0789355754     0.999037017     -0.0789355754     0.00168033514    54.9945666      
 2.21671522       0.00169267507    55.2105748       0.999035191     -0.0797247861     0.999035191     -0.0797247861     0.00169267507    55.2105748      
 2.23888237       0.00170515748    55.4258051       0.999033356     -0.0805218867     0.999033356     -0.0805218867     0.00170515748    55.4258051      
 2.26127119       0.00171778379    55.6402482       0.999031511     -0.081326956      0.999031511     -0.081326956      0.00171778379    55.6402482      
 2.2838839        0.00173055546    55.8538948       0.999029657     -0.0821400738     0.999029657     -0.0821400738     0.00173055546    55.8538948      
 2.30672274       0.00174347393    56.0667359       0.999027793     -0.0829613205     0.999027793     -0.0829613205     0.00174347393    56.0667359      
 2.32978997       0.00175654068    56.2787626       0.99902592      -0.0837907773     0.99902592      -0.0837907773     0.00175654068    56.2787626      
 2.35308787       0.00176975718    56.4899666       0.999024037     -0.0846285263     0.999024037     -0.0846285263     0.00176975718    56.4899666      
 2.37661875       0.00178312493    56.7003394       0.999022144     -0.0854746504     0.999022144     -0.0854746504     0.00178312493    56.7003394      
 2.40038494       0.00179664545    56.9098728       0.999020242     -0.0863292333     0.999020242     -0.0863292333     0.00179664545    56.9098728      
 2.42438879       0.00181032024    57.118559        0.999018329     -0.0871923596     0.999018329     -0.0871923596     0.00181032024    57.118559       
 2.44863267       0.00182415085    57.3263904       0.999016407     -0.0880641146     0.999016407     -0.0880641146     0.00182415085    57.3263904      
 2.473119         0.00183813882    57.5333593       0.999014475     -0.0889445846     0.999014475     -0.0889445846     0.00183813882    57.5333593      
 2.49785019       0.00185228572    57.7394586       0.999012533     -0.0898338567     0.999012533     -0.0898338567     0.00185228572    57.7394586      
 2.52282869       0.00186659312    57.9446813       0.999010581     -0.0907320189     0.999010581     -0.0907320189     0.00186659312    57.9446813      
 2.54805698       0.0018810626     58.1490204       0.999008619     -0.0916391601     0.999008619     -0.0916391601     0.0018810626     58.1490204      
 2.57353755       0.00189569579    58.3524695       0.999006646     -0.0925553699     0.999006646     -0.0925553699     0.00189569579    58.3524695      
 2.59927293       0.00191049428    58.555022        0.999004664     -0.0934807391     0.999004664     -0.0934807391     0.00191049428    58.555022       
 2.62526565       0.00192545972    58.7566719       0.999002671     -0.0944153592     0.999002671     -0.0944153592     0.00192545972    58.7566719      
 2.65151831       0.00194059376    58.9574132       0.999000668     -0.0953593227     0.999000668     -0.0953593227     0.00194059376    58.9574132      
 2.67803349       0.00195589805    59.1572401       0.998998654     -0.0963127229     0.998998654     -0.0963127229     0.00195589805    59.1572401      
 2.70481383       0.00197137428    59.356147        0.99899663      -0.0972756541     0.99899663      -0.0972756541     0.00197137428    59.356147       
 2.73186197       0.00198702414    59.5541287       0.998994596     -0.0982482118     0.998994596     -0.0982482118     0.00198702414    59.5541287      
 2.75918059       0.00200284933    59.7511799       0.99899255      -0.099230492      0.99899255      -0.099230492      0.00200284933    59.7511799      
 2.78677239       0.00201885158    59.9472958       0.998990495     -0.100222592      0.998990495     -0.100222592      0.00201885158    59.9472958      
 2.81464012       0.00203503263    60.1424716       0.998988428     -0.10122461       0.998988428     -0.10122461       0.00203503263    60.1424716      
 2.84278652       0.00205139424    60.3367028       0.998986351     -0.102236645      0.998986351     -0.102236645      0.00205139424    60.3367028      
 2.87121438       0.00206793817    60.5299851       0.998984263     -0.103258797      0.998984263     -0.103258797      0.00206793817    60.5299851      
 2.89992653       0.00208466623    60.7223143       0.998982164     -0.104291167      0.998982164     -0.104291167      0.00208466623    60.7223143      
 2.92892579       0.0021015802     60.9136866       0.998980054     -0.105333857      0.998980054     -0.105333857      0.0021015802     60.9136866      
 2.95821505       0.00211868192    61.1040981       0.998977933     -0.106386972      0.998977933     -0.106386972      0.00211868192    61.1040981      
 2.9877972        0.00213597321    61.2935453       0.998975801     -0.107450614      0.998975801     -0.107450614      0.00213597321    61.2935453      
 3.01767517       0.00215345595    61.4820249       0.998973658     -0.108524888      0.998973658     -0.108524888      0.00215345595    61.4820249      
 3.04785192       0.00217113199    61.6695337       0.998971504     -0.109609903      0.998971504     -0.109609903      0.00217113199    61.6695337      
 3.07833044       0.00218900323    61.8560687       0.998969338     -0.110705763      0.998969338     -0.110705763      0.00218900323    61.8560687      
 3.10911375       0.00220707158    62.0416272       0.998967161     -0.111812579      0.998967161     -0.111812579      0.00220707158    62.0416272      
 3.14020489       0.00222533897    62.2262064       0.998964973     -0.112930459      0.998964973     -0.112930459      0.00222533897    62.2262064      
 3.17160693       0.00224380733    62.4098039       0.998962773     -0.114059514      0.998962773     -0.114059514      0.00224380733    62.4098039      
 3.203323         0.00226247863    62.5924175       0.998960561     -0.115199856      0.998960561     -0.115199856      0.00226247863    62.5924175      
 3.23535623       0.00228135485    62.7740451       0.998958338     -0.116351598      0.998958338     -0.116351598      0.00228135485    62.7740451      
 3.2677098        0.00230043799    62.9546848       0.998956103     -0.117514853      0.998956103     -0.117514853      0.00230043799    62.9546848      
 3.30038689       0.00231973006    63.1343348       0.998953857     -0.118689737      0.998953857     -0.118689737      0.00231973006    63.1343348      
 3.33339076       0.00233923312    63.3129935       0.998951599     -0.119876365      0.998951599     -0.119876365      0.00233923312    63.3129935      
 3.36672467       0.0023589492     63.4906595       0.998949328     -0.121074856      0.998949328     -0.121074856      0.0023589492     63.4906595      
 3.40039192       0.00237888039    63.6673316       0.998947046     -0.122285328      0.998947046     -0.122285328      0.00237888039    63.6673316      
 3.43439584       0.00239902878    63.8430086       0.998944752     -0.123507899      0.998944752     -0.123507899      0.00239902878    63.8430086      
 3.4687398        0.0024193965     64.0176895       0.998942445     -0.124742693      0.998942445     -0.124742693      0.0024193965     64.0176895      
 3.50342719       0.00243998567    64.1913737       0.998940127     -0.12598983       0.998940127     -0.12598983       0.00243998567    64.1913737      
