# MHz           S          MA           R         50
!Freq             MagS11           AngS11           MagS21           AngS21           MagS12           AngS12           MagS22           AngS22
 1                0.00152248687    29.5986032       0.99867647      -0.0431428283     0.99867647      -0.0431428283     0.00152248687    29.5986032      
 1.01             0.00152745374    29.8173229       0.998675047     -0.0435741945     0.998675047     -0.0435741945     0.00152745374    29.8173229      
 1.0201           0.00153248665    30.0369173       0.998673616     -0.0440098735     0.998673616     -0.0440098735     0.00153248665    30.0369173      
 1.030301         0.00153758651    30.2573761       0.998672178     -0.0444499084     0.998672178     -0.0444499084     0.00153758651    30.2573761      
 1.04060401       0.00154275421    30.4786886       0.998670733     -0.0448943426     0.998670733     -0.0448943426     0.00154275421    30.4786886      
 1.05101005       0.00154799068    30.7008441       0.998669281     -0.0453432202     0.998669281     -0.0453432202     0.00154799068    30.700844       
 1.06152015       0.00155329685    30.9238313       0.998667821     -0.0457965856     0.998667821     -0.0457965856     0.00155329685    30.9238313      
 1.07213535       0.00155867364    31.147639        0.998666354     -0.0462544836     0.998666354     -0.0462544836     0.00155867364    31.147639       
 1.08285671       0.00156412201    31.3722555       0.99866488      -0.0467169596     0.99866488      -0.0467169596     0.00156412201    31.3722555      
 1.09368527       0.00156964292    31.5976691       0.998663398     -0.0471840593     0.998663398     -0.0471840593     0.00156964292    31.5976691      
 1.10462213       0.00157523734    31.8238677       0.998661909     -0.0476558289     0.998661909     -0.0476558289     0.00157523734    31.8238677      
 1.11566835       0.00158090623    32.0508388       0.998660412     -0.0481323152     0.998660412     -0.0481323152     0.00158090623    32.0508388      
 1.12682503       0.0015866506     32.2785701       0.998658907     -0.0486135653     0.998658907     -0.0486135653     0.0015866506     32.2785701      
 1.13809328       0.00159247143    32.5070486       0.998657395     -0.0490996267     0.998657395     -0.0490996267     0.00159247143    32.5070486      
 1.14947421       0.00159836974    32.7362613       0.998655875     -0.0495905477     0.998655875     -0.0495905477     0.00159836974    32.7362613      
 1.16096896       0.00160434655    32.9661951       0.998654348     -0.0500863767     0.998654348     -0.0500863767     0.00160434655    32.9661951      
 1.17257864       0.00161040288    33.1968364       0.998652813     -0.0505871628     0.998652813     -0.0505871628     0.00161040288    33.1968364      
 1.18430443       0.00161653978    33.4281714       0.99865127      -0.0510929557     0.99865127      -0.0510929557     0.00161653978    33.4281714      
 1.19614748       0.00162275829    33.6601863       0.998649719     -0.0516038053     0.998649719     -0.0516038053     0.00162275829    33.6601863      
 1.20810895       0.00162905948    33.8928669       0.998648161     -0.0521197622     0.998648161     -0.0521197622     0.00162905948    33.8928669      
 1.22019004       0.00163544441    34.1261989       0.998646594     -0.0526408774     0.998646594     -0.0526408774     0.00163544441    34.1261989      
 1.23239194       0.00164191417    34.3601675       0.99864502      -0.0531672025     0.99864502      -0.0531672025     0.00164191417    34.3601675      
 1.24471586       0.00164846985    34.5947582       0.998643437     -0.0536987896     0.998643437     -0.0536987896     0.00164846985    34.5947582      
 1.25716302       0.00165511255    34.8299557       0.998641847     -0.0542356913     0.998641847     -0.0542356913     0.00165511255    34.8299557      
 1.26973465       0.00166184339    35.065745        0.998640249     -0.0547779608     0.998640249     -0.0547779608     0.00166184339    35.065745       
 1.282432         0.00166866349    35.3021106       0.998638642     -0.0553256516     0.998638642     -0.0553256516     0.00166866349    35.3021106      
 1.29525631       0.00167557398    35.5390369       0.998637027     -0.055878818      0.998637027     -0.055878818      0.00167557398    35.5390369      
 1.30820888       0.00168257601    35.7765082       0.998635405     -0.0564375146     0.998635405     -0.0564375146     0.00168257601    35.7765082      
 1.32129097       0.00168967074    36.0145085       0.998633773     -0.0570017969     0.998633773     -0.0570017969     0.00168967074    36.0145085      
 1.33450388       0.00169685933    36.2530216       0.998632134     -0.0575717206     0.998632134     -0.0575717206     0.00169685933    36.2530216      
 1.34784892       0.00170414296    36.4920312       0.998630486     -0.0581473421     0.998630486     -0.0581473421     0.00170414296    36.4920312      
 1.3613274        0.00171152282    36.7315207       0.99862883      -0.0587287183     0.99862883      -0.0587287183     0.00171152282    36.7315207      
 1.37494068       0.00171900012    36.9714736       0.998627166     -0.0593159069     0.998627166     -0.0593159069     0.00171900012    36.9714736      
 1.38869009       0.00172657605    37.211873        0.998625493     -0.0599089659     0.998625493     -0.0599089659     0.00172657605    37.211873       
 1.40257699       0.00173425185    37.452702        0.998623811     -0.0605079539     0.998623811     -0.0605079539     0.00173425185    37.452702       
 1.41660276       0.00174202874    37.6939433       0.998622121     -0.0611129303     0.998622121     -0.0611129303     0.00174202874    37.6939433      
 1.43076878       0.00174990797    37.9355798       0.998620423     -0.0617239549     0.998620423     -0.0617239549     0.00174990797    37.9355798      
 1.44507647       0.0017578908     38.177594        0.998618716     -0.0623410881     0.998618716     -0.0623410881     0.0017578908     38.177594       
 1.45952724       0.00176597848    38.4199684       0.998617        -0.0629643911     0.998617        -0.0629643911     0.00176597848    38.4199684      
 1.47412251       0.0017741723     38.6626853       0.998615275     -0.0635939255     0.998615275     -0.0635939255     0.0017741723     38.6626853      
 1.48886373       0.00178247355    38.905727        0.998613542     -0.0642297536     0.998613542     -0.0642297536     0.00178247355    38.905727       
 1.50375237       0.00179088353    39.1490755       0.998611799     -0.0648719383     0.998611799     -0.0648719383     0.00179088353    39.1490755      
 1.51878989       0.00179940354    39.3927127       0.998610048     -0.0655205431     0.998610048     -0.0655205431     0.00179940354    39.3927127      
 1.53397779       0.00180803492    39.6366207       0.998608288     -0.0661756322     0.998608288     -0.0661756322     0.00180803492    39.6366207      
 1.54931757       0.00181677898    39.8807813       0.998606519     -0.0668372705     0.998606519     -0.0668372705     0.00181677898    39.8807813      
 1.56481075       0.00182563709    40.125176        0.998604741     -0.0675055234     0.998604741     -0.0675055234     0.00182563709    40.125176       
 1.58045885       0.00183461059    40.3697866       0.998602954     -0.068180457      0.998602954     -0.068180457      0.00183461059    40.3697866      
 1.59626344       0.00184370086    40.6145946       0.998601158     -0.0688621381     0.998601158     -0.0688621381     0.00184370086    40.6145946      
 1.61222608       0.00185290927    40.8595814       0.998599352     -0.0695506341     0.998599352     -0.0695506341     0.00185290927    40.8595814      
 1.62834834       0.00186223721    41.1047286       0.998597538     -0.0702460132     0.998597538     -0.0702460132     0.00186223721    41.1047286      
 1.64463182       0.0018716861     41.3500175       0.998595714     -0.0709483442     0.998595714     -0.0709483442     0.0018716861     41.3500175      
 1.66107814       0.00188125734    41.5954294       0.998593881     -0.0716576965     0.998593881     -0.0716576965     0.00188125734    41.5954294      
 1.67768892       0.00189095236    41.8409455       0.998592038     -0.0723741404     0.998592038     -0.0723741404     0.00189095236    41.8409455      
 1.69446581       0.0019007726     42.0865473       0.998590186     -0.0730977467     0.998590186     -0.0730977467     0.0019007726     42.0865473      
 1.71141047       0.00191071951    42.3322157       0.998588325     -0.073828587      0.998588325     -0.073828587      0.00191071951    42.3322157      
 1.72852457       0.00192079455    42.5779322       0.998586454     -0.0745667336     0.998586454     -0.0745667336     0.00192079455    42.5779322      
 1.74580982       0.0019309992     42.8236778       0.998584573     -0.0753122597     0.998584573     -0.0753122597     0.0019309992     42.8236778      
 1.76326792       0.00194133494    43.0694338       0.998582683     -0.0760652388     0.998582683     -0.0760652388     0.00194133494    43.0694338      
 1.7809006        0.00195180327    43.3151814       0.998580783     -0.0768257456     0.998580783     -0.0768257456     0.00195180327    43.3151814      
 1.7987096        0.00196240571    43.5609017       0.998578874     -0.0775938552     0.998578874     -0.0775938552     0.00196240571    43.5609017      
 1.8166967        0.00197314377    43.806576        0.998576954     -0.0783696437     0.998576954     -0.0783696437     0.00197314377    43.806576       
 1.83486367       0.00198401899    44.0521855       0.998575025     -0.0791531878     0.998575025     -0.0791531878     0.00198401899    44.0521855      
 1.8532123        0.00199503292    44.2977116       0.998573086     -0.079944565      0.998573086     -0.079944565      0.00199503292    44.2977116      
 1.87174443       0.00200618712    44.5431354       0.998571137     -0.0807438537     0.998571137     -0.0807438537     0.00200618712    44.5431354      
 1.89046187       0.00201748316    44.7884384       0.998569178     -0.0815511329     0.998569178     -0.0815511329     0.00201748316    44.7884384      
 1.90936649       0.00202892263    45.033602        0.998567208     -0.0823664824     0.998567208     -0.0823664824     0.00202892263    45.033602       
 1.92846015       0.00204050712    45.2786076       0.998565229     -0.083189983      0.998565229     -0.083189983      0.00204050712    45.2786076      
 1.94774475       0.00205223825    45.5234368       0.99856324      -0.0840217162     0.99856324      -0.0840217162     0.00205223825    45.5234368      
 1.9672222        0.00206411764    45.7680711       0.99856124      -0.0848617641     0.99856124      -0.0848617641     0.00206411764    45.7680711      
 1.98689442       0.00207614692    46.0124923       0.99855923      -0.08571021       0.99855923      -0.08571021       0.00207614692    46.0124923      
 2.00676337       0.00208832775    46.2566822       0.99855721      -0.0865671377     0.99855721      -0.0865671377     0.00208832775    46.2566822      
 2.026831         0.00210066179    46.5006226       0.998555179     -0.0874326321     0.998555179     -0.0874326321     0.00210066179    46.5006226      
 2.04709931       0.00211315071    46.7442954       0.998553138     -0.0883067787     0.998553138     -0.0883067787     0.00211315071    46.7442954      
 2.06757031       0.0021257962     46.9876827       0.998551086     -0.0891896641     0.998551086     -0.0891896641     0.0021257962     46.9876827      
 2.08824601       0.00213859997    47.2307668       0.998549024     -0.0900813755     0.998549024     -0.0900813755     0.00213859997    47.2307668      
 2.10912847       0.00215156373    47.4735298       0.998546951     -0.0909820013     0.998546951     -0.0909820013     0.00215156373    47.4735298      
 2.13021975       0.00216468921    47.7159543       0.998544867     -0.0918916305     0.998544867     -0.0918916305     0.00216468921    47.7159543      
 2.15152195       0.00217797816    47.9580227       0.998542773     -0.0928103531     0.998542773     -0.0928103531     0.00217797816    47.9580227      
 2.17303717       0.00219143234    48.1997177       0.998540668     -0.0937382599     0.998540668     -0.0937382599     0.00219143234    48.1997177      
 2.19476754       0.0022050535     48.4410222       0.998538551     -0.0946754429     0.998538551     -0.0946754429     0.0022050535     48.4410222      
 2.21671522       0.00221884345    48.6819192       0.998536424     -0.0956219947     0.998536424     -0.0956219947     0.00221884345    48.6819192      
 2.23888237       0.00223280397    48.9223917       0.998534286     -0.0965780089     0.998534286     -0.0965780089     0.00223280397    48.9223917      
 2.26127119       0.00224693689    49.162423        0.998532137     -0.0975435801     0.998532137     -0.0975435801     0.00224693689    49.162423       
 2.2838839        0.00226124402    49.4019966       0.998529977     -0.0985188039     0.998529977     -0.0985188039     0.00226124402    49.4019966      
 2.30672274       0.00227572723    49.6410961       0.998527805     -0.0995037768     0.998527805     -0.0995037768     0.00227572723    49.6410961      
 2.32978997       0.00229038835    49.8797053       0.998525622     -0.100498596      0.998525622     -0.100498596      0.00229038835    49.8797053      
 2.35308787       0.00230522926    50.1178081       0.998523428     -0.10150336       0.998523428     -0.10150336       0.00230522926    50.1178081      
 2.37661875       0.00232025186    50.3553887       0.998521223     -0.102518169      0.998521223     -0.102518169      0.00232025186    50.3553887      
 2.40038494       0.00233545804    50.5924314       0.998519006     -0.103543122      0.998519006     -0.103543122      0.00233545804    50.5924314      
 2.42438879       0.00235084972    50.8289207       0.998516777     -0.104578321      0.998516777     -0.104578321      0.00235084972    50.8289207      
 2.44863267       0.00236642884    51.0648413       0.998514537     -0.105623869      0.998514537     -0.105623869      0.00236642884    51.0648413      
 2.473119         0.00238219734    51.3001782       0.998512285     -0.106679868      0.998512285     -0.106679868      0.00238219734    51.3001782      
 2.49785019       0.00239815718    51.5349165       0.998510022     -0.107746424      0.998510022     -0.107746424      0.00239815718    51.5349165      
 2.52282869       0.00241431035    51.7690414       0.998507746     -0.108823642      0.998507746     -0.108823642      0.00241431035    51.7690414      
 2.54805698       0.00243065885    52.0025386       0.998505459     -0.109911628      0.998505459     -0.109911628      0.00243065885    52.0025386      
 2.57353755       0.00244720468    52.2353937       0.99850316      -0.11101049       0.99850316      -0.11101049       0.00244720468    52.2353937      
 2.59927293       0.00246394987    52.4675928       0.998500849     -0.112120337      0.998500849     -0.112120337      0.00246394987    52.4675928      
 2.62526565       0.00248089648    52.699122        0.998498525     -0.113241279      0.998498525     -0.113241279      0.00248089648    52.699122       
 2.65151831       0.00249804655    52.9299677       0.99849619      -0.114373426      0.99849619      -0.114373426      0.00249804655    52.9299677      
 2.67803349       0.00251540218    53.1601165       0.998493842     -0.115516891      0.998493842     -0.115516891      0.00251540218    53.1601165      
 2.70481383       0.00253296545    53.3895554       0.998491482     -0.116671786      0.998491482     -0.116671786      0.00253296545    53.3895554      
 2.73186197       0.00255073848    53.6182713       0.99848911      -0.117838225      0.99848911      -0.117838225      0.00255073848    53.6182713      
 2.75918059       0.0025687234     53.8462517       0.998486725     -0.119016325      0.998486725     -0.119016325      0.0025687234     53.8462517      
 2.78677239       0.00258692236    54.073484        0.998484328     -0.120206202      0.998484328     -0.120206202      0.00258692236    54.073484       
 2.81464012       0.00260533752    54.2999561       0.998481918     -0.121407973      0.998481918     -0.121407973      0.00260533752    54.2999561      
 2.84278652       0.00262397107    54.5256559       0.998479496     -0.122621758      0.998479496     -0.122621758      0.00262397107    54.5256559      
 2.87121438       0.00264282521    54.7505719       0.99847706      -0.123847675      0.99847706      -0.123847675      0.00264282521    54.7505719      
 2.89992653       0.00266190216    54.9746924       0.998474612     -0.125085848      0.998474612     -0.125085848      0.00266190216    54.9746924      
 2.92892579       0.00268120416    55.1980062       0.998472151     -0.126336397      0.998472151     -0.126336397      0.00268120416    55.1980062      
 2.95821505       0.00270073347    55.4205023       0.998469677     -0.127599448      0.998469677     -0.127599448      0.00270073347    55.4205023      
 2.9877972        0.00272049236    55.6421699       0.99846719      -0.128875124      0.99846719      -0.128875124      0.00272049236    55.6421699      
 3.01767517       0.00274048314    55.8629986       0.99846469      -0.130163551      0.99846469      -0.130163551      0.00274048314    55.8629986      
 3.04785192       0.00276070811    56.0829781       0.998462176     -0.131464859      0.998462176     -0.131464859      0.00276070811    56.0829781      
 3.07833044       0.00278116961    56.3020983       0.998459649     -0.132779174      0.998459649     -0.132779174      0.00278116961    56.3020983      
 3.10911375       0.00280187       56.5203494       0.998457109     -0.134106627      0.998457109     -0.134106627      0.00280187       56.5203494      
 3.14020489       0.00282281166    56.737722        0.998454556     -0.13544735       0.998454556     -0.13544735       0.00282281166    56.737722       
 3.17160693       0.00284399698    56.9542067       0.998451988     -0.136801475      0.998451988     -0.136801475      0.00284399698    56.9542067      
 3.203323         0.00286542837    57.1697945       0.998449408     -0.138169136      0.998449408     -0.138169136      0.00286542837    57.1697945      
 3.23535623       0.00288710828    57.3844767       0.998446813     -0.139550468      0.998446813     -0.139550468      0.00288710828    57.3844767      
 3.2677098        0.00290903916    57.5982445       0.998444205     -0.140945608      0.998444205     -0.140945608      0.00290903916    57.5982445      
 3.30038689       0.00293122349    57.8110899       0.998441582     -0.142354693      0.998441582     -0.142354693      0.00293122349    57.8110899      
 3.33339076       0.00295366378    58.0230046       0.998438946     -0.143777864      0.998438946     -0.143777864      0.00295366378    58.0230046      
 3.36672467       0.00297636255    58.2339809       0.998436296     -0.145215261      0.998436296     -0.145215261      0.00297636255    58.2339809      
 3.40039192       0.00299932235    58.4440113       0.998433631     -0.146667026      0.998433631     -0.146667026      0.00299932235    58.4440113      
 3.43439584       0.00302254574    58.6530883       0.998430953     -0.148133303      0.998430953     -0.148133303      0.00302254574    58.6530883      
 3.4687398        0.00304603531    58.8612049       0.99842826      -0.149614236      0.99842826      -0.149614236      0.00304603531    58.8612049      
 3.50342719       0.00306979368    59.0683543       0.998425552     -0.151109973      0.998425552     -0.151109973      0.00306979368    59.0683543      
