# MHz           S          MA           R         50
!Freq             MagS11           AngS11           MagS21           AngS21           MagS12           AngS12           MagS22           AngS22
 1                0.00426831995    31.7423827       0.996372657     -0.12913001       0.996372657     -0.12913001       0.00426831995    31.7423827      
 1.01             0.00428427472    31.9634367       0.996367862     -0.130420685      0.996367862     -0.130420685      0.00428427472    31.9634367      
 1.0201           0.00430043381    32.185191        0.996363043     -0.131724257      0.996363043     -0.131724257      0.00430043381    32.185191       
 1.030301         0.00431679987    32.4076335       0.9963582       -0.133040855      0.9963582       -0.133040855      0.00431679987    32.4076335      
 1.04060401       0.00433337559    32.6307516       0.996353331     -0.134370609      0.996353331     -0.134370609      0.00433337559    32.6307516      
 1.05101005       0.00435016367    32.8545328       0.996348437     -0.135713652      0.996348437     -0.135713652      0.00435016367    32.8545328      
 1.06152015       0.00436716685    33.0789641       0.996343518     -0.137070114      0.996343518     -0.137070114      0.00436716685    33.0789641      
 1.07213535       0.00438438788    33.3040325       0.996338574     -0.138440131      0.996338574     -0.138440131      0.00438438788    33.3040325      
 1.08285671       0.00440182955    33.5297247       0.996333604     -0.139823838      0.996333604     -0.139823838      0.00440182955    33.5297247      
 1.09368527       0.00441949469    33.7560274       0.996328609     -0.141221371      0.996328609     -0.141221371      0.00441949469    33.7560274      
 1.10462213       0.00443738613    33.9829268       0.996323588     -0.142632869      0.996323588     -0.142632869      0.00443738613    33.9829268      
 1.11566835       0.00445550674    34.2104092       0.996318541     -0.144058471      0.996318541     -0.144058471      0.00445550674    34.2104092      
 1.12682503       0.00447385944    34.4384604       0.996313468     -0.145498318      0.996313468     -0.145498318      0.00447385944    34.4384604      
 1.13809328       0.00449244715    34.6670664       0.996308369     -0.146952552      0.996308369     -0.146952552      0.00449244715    34.6670664      
 1.14947421       0.00451127283    34.8962127       0.996303243     -0.148421318      0.996303243     -0.148421318      0.00451127283    34.8962127      
 1.16096896       0.00453033946    35.1258848       0.996298091     -0.149904759      0.996298091     -0.149904759      0.00453033946    35.1258848      
 1.17257864       0.00454965006    35.3560679       0.996292912     -0.151403023      0.996292912     -0.151403023      0.00454965006    35.3560679      
 1.18430443       0.00456920768    35.5867472       0.996287707     -0.152916258      0.996287707     -0.152916258      0.00456920768    35.5867472      
 1.19614748       0.00458901538    35.8179075       0.996282474     -0.154444614      0.996282474     -0.154444614      0.00458901538    35.8179075      
 1.20810895       0.00460907628    36.0495338       0.996277215     -0.15598824       0.996277215     -0.15598824       0.00460907628    36.0495338      
 1.22019004       0.0046293935     36.2816106       0.996271928     -0.157547291      0.996271928     -0.157547291      0.0046293935     36.2816106      
 1.23239194       0.0046499702     36.5141224       0.996266613     -0.159121919      0.996266613     -0.159121919      0.0046499702     36.5141224      
 1.24471586       0.00467080958    36.7470534       0.996261271     -0.160712281      0.996261271     -0.160712281      0.00467080958    36.7470534      
 1.25716302       0.00469191485    36.980388        0.996255902     -0.162318533      0.996255902     -0.162318533      0.00469191485    36.980388       
 1.26973465       0.00471328926    37.2141102       0.996250504     -0.163940835      0.996250504     -0.163940835      0.00471328926    37.2141102      
 1.282432         0.0047349361     37.4482039       0.996245078     -0.165579346      0.996245078     -0.165579346      0.0047349361     37.4482039      
 1.29525631       0.00475685868    37.6826529       0.996239625     -0.167234229      0.996239625     -0.167234229      0.00475685868    37.6826529      
 1.30820888       0.00477906033    37.9174408       0.996234142     -0.168905647      0.996234142     -0.168905647      0.00477906033    37.9174408      
 1.32129097       0.00480154442    38.1525513       0.996228631     -0.170593765      0.996228631     -0.170593765      0.00480154442    38.1525513      
 1.33450388       0.00482431436    38.3879678       0.996223092     -0.17229875       0.996223092     -0.17229875       0.00482431436    38.3879678      
 1.34784892       0.00484737357    38.6236736       0.996217523     -0.17402077       0.996217523     -0.17402077       0.00484737357    38.6236736      
 1.3613274        0.00487072551    38.859652        0.996211926     -0.175759996      0.996211926     -0.175759996      0.00487072551    38.859652       
 1.37494068       0.00489437369    39.0958862       0.996206299     -0.177516599      0.996206299     -0.177516599      0.00489437369    39.0958862      
 1.38869009       0.00491832162    39.3323591       0.996200642     -0.179290753      0.996200642     -0.179290753      0.00491832162    39.3323591      
 1.40257699       0.00494257285    39.5690538       0.996194956     -0.181082633      0.996194956     -0.181082633      0.00494257285    39.5690538      
 1.41660276       0.00496713097    39.8059533       0.996189241     -0.182892416      0.996189241     -0.182892416      0.00496713097    39.8059533      
 1.43076878       0.0049919996     40.0430403       0.996183495     -0.184720282      0.996183495     -0.184720282      0.0049919996     40.0430403      
 1.44507647       0.00501718238    40.2802975       0.996177719     -0.186566409      0.996177719     -0.186566409      0.00501718238    40.2802975      
 1.45952724       0.005042683      40.5177079       0.996171913     -0.188430982      0.996171913     -0.188430982      0.005042683      40.5177079      
 1.47412251       0.00506850516    40.7552538       0.996166077     -0.190314184      0.996166077     -0.190314184      0.00506850516    40.7552538      
 1.48886373       0.00509465261    40.9929181       0.99616021      -0.192216201      0.99616021      -0.192216201      0.00509465261    40.9929181      
 1.50375237       0.00512112912    41.2306833       0.996154311     -0.194137222      0.996154311     -0.194137222      0.00512112912    41.2306833      
 1.51878989       0.0051479385     41.4685319       0.996148382     -0.196077435      0.996148382     -0.196077435      0.0051479385     41.4685319      
 1.53397779       0.00517508459    41.7064464       0.996142422     -0.198037032      0.996142422     -0.198037032      0.00517508459    41.7064464      
 1.54931757       0.00520257126    41.9444093       0.99613643      -0.200016208      0.99613643      -0.200016208      0.00520257126    41.9444093      
 1.56481075       0.00523040242    42.1824031       0.996130407     -0.202015157      0.996130407     -0.202015157      0.00523040242    42.1824031      
 1.58045885       0.00525858201    42.4204103       0.996124351     -0.204034077      0.996124351     -0.204034077      0.00525858201    42.4204103      
 1.59626344       0.00528711399    42.6584133       0.996118264     -0.206073167      0.996118264     -0.206073167      0.00528711399    42.6584133      
 1.61222608       0.00531600236    42.8963946       0.996112145     -0.20813263       0.996112145     -0.20813263       0.00531600236    42.8963946      
 1.62834834       0.00534525118    43.1343366       0.996105993     -0.210212668      0.996105993     -0.210212668      0.00534525118    43.1343366      
 1.64463182       0.0053748645     43.3722219       0.996099808     -0.212313486      0.996099808     -0.212313486      0.0053748645     43.3722219      
 1.66107814       0.00540484644    43.610033        0.996093591     -0.214435293      0.996093591     -0.214435293      0.00540484644    43.610033       
 1.67768892       0.00543520112    43.8477523       0.996087341     -0.216578297      0.996087341     -0.216578297      0.00543520112    43.8477523      
 1.69446581       0.00546593274    44.0853626       0.996081057     -0.218742711      0.996081057     -0.218742711      0.00546593274    44.0853626      
 1.71141047       0.00549704548    44.3228463       0.996074741     -0.220928749      0.996074741     -0.220928749      0.00549704548    44.3228463      
 1.72852457       0.0055285436     44.5601862       0.99606839      -0.223136625      0.99606839      -0.223136625      0.0055285436     44.5601862      
 1.74580982       0.00556043138    44.7973649       0.996062006     -0.225366559      0.996062006     -0.225366559      0.00556043138    44.7973649      
 1.76326792       0.00559271312    45.0343653       0.996055587     -0.22761877       0.996055587     -0.22761877       0.00559271312    45.0343653      
 1.7809006        0.00562539317    45.2711702       0.996049135     -0.229893481      0.996049135     -0.229893481      0.00562539317    45.2711702      
 1.7987096        0.00565847593    45.5077624       0.996042647     -0.232190917      0.996042647     -0.232190917      0.00565847593    45.5077624      
 1.8166967        0.0056919658     45.7441251       0.996036126     -0.234511304      0.996036126     -0.234511304      0.0056919658     45.7441251      
 1.83486367       0.00572586724    45.9802411       0.996029569     -0.236854871      0.996029569     -0.236854871      0.00572586724    45.9802411      
 1.8532123        0.00576018475    46.2160937       0.996022977     -0.239221851      0.996022977     -0.239221851      0.00576018475    46.2160937      
 1.87174443       0.00579492285    46.4516661       0.99601635      -0.241612477      0.99601635      -0.241612477      0.00579492285    46.4516661      
 1.89046187       0.00583008612    46.6869417       0.996009687     -0.244026984      0.996009687     -0.244026984      0.00583008612    46.6869417      
 1.90936649       0.00586567915    46.9219039       0.996002988     -0.246465612      0.996002988     -0.246465612      0.00586567915    46.9219039      
 1.92846015       0.00590170658    47.1565363       0.995996253     -0.248928601      0.995996253     -0.248928601      0.00590170658    47.1565363      
 1.94774475       0.0059381731     47.3908225       0.995989482     -0.251416194      0.995989482     -0.251416194      0.0059381731     47.3908225      
 1.9672222        0.00597508342    47.6247463       0.995982674     -0.253928638      0.995982674     -0.253928638      0.00597508342    47.6247463      
 1.98689442       0.00601244229    47.8582916       0.99597583      -0.256466179      0.99597583      -0.256466179      0.00601244229    47.8582916      
 2.00676337       0.00605025451    48.0914426       0.995968949     -0.259029069      0.995968949     -0.259029069      0.00605025451    48.0914426      
 2.026831         0.00608852492    48.3241832       0.99596203      -0.261617561      0.99596203      -0.261617561      0.00608852492    48.3241832      
 2.04709931       0.00612725838    48.556498        0.995955074     -0.264231911      0.995955074     -0.264231911      0.00612725838    48.556498       
 2.06757031       0.00616645982    48.7883712       0.99594808      -0.266872376      0.99594808      -0.266872376      0.00616645982    48.7883712      
 2.08824601       0.00620613417    49.0197876       0.995941048     -0.269539217      0.995941048     -0.269539217      0.00620613417    49.0197876      
 2.10912847       0.00624628644    49.250732        0.995933978     -0.272232697      0.995933978     -0.272232697      0.00624628644    49.250732       
 2.13021975       0.00628692165    49.4811891       0.995926869     -0.274953084      0.995926869     -0.274953084      0.00628692165    49.4811891      
 2.15152195       0.0063280449     49.7111441       0.995919722     -0.277700644      0.995919722     -0.277700644      0.0063280449     49.7111441      
 2.17303717       0.00636966128    49.9405822       0.995912535     -0.280475649      0.995912535     -0.280475649      0.00636966128    49.9405822      
 2.19476754       0.00641177596    50.1694889       0.99590531      -0.283278374      0.99590531      -0.283278374      0.00641177596    50.1694889      
 2.21671522       0.00645439415    50.3978497       0.995898044     -0.286109095      0.995898044     -0.286109095      0.00645439415    50.3978497      
 2.23888237       0.00649752108    50.6256504       0.995890739     -0.288968092      0.995890739     -0.288968092      0.00649752108    50.6256504      
 2.26127119       0.00654116205    50.8528769       0.995883394     -0.291855646      0.995883394     -0.291855646      0.00654116205    50.8528769      
 2.2838839        0.00658532238    51.0795154       0.995876008     -0.294772043      0.995876008     -0.294772043      0.00658532238    51.0795154      
 2.30672274       0.00663000746    51.3055521       0.995868582     -0.297717571      0.995868582     -0.297717571      0.00663000746    51.3055521      
 2.32978997       0.00667522269    51.5309736       0.995861115     -0.30069252       0.995861115     -0.30069252       0.00667522269    51.5309736      
 2.35308787       0.00672097355    51.7557664       0.995853607     -0.303697185      0.995853607     -0.303697185      0.00672097355    51.7557664      
 2.37661875       0.00676726555    51.9799176       0.995846057     -0.306731861      0.995846057     -0.306731861      0.00676726555    51.9799176      
 2.40038494       0.00681410424    52.2034142       0.995838465     -0.309796849      0.995838465     -0.309796849      0.00681410424    52.2034142      
 2.42438879       0.00686149523    52.4262435       0.995830831     -0.312892451      0.995830831     -0.312892451      0.00686149523    52.4262435      
 2.44863267       0.00690944416    52.6483928       0.995823155     -0.316018973      0.995823155     -0.316018973      0.00690944416    52.6483928      
 2.473119         0.00695795674    52.86985         0.995815437     -0.319176722      0.995815437     -0.319176722      0.00695795674    52.86985        
 2.49785019       0.0070070387     53.0906029       0.995807675     -0.322366012      0.995807675     -0.322366012      0.0070070387     53.0906029      
 2.52282869       0.00705669585    53.3106397       0.99579987      -0.325587156      0.99579987      -0.325587156      0.00705669585    53.3106397      
 2.54805698       0.00710693402    53.5299485       0.995792021     -0.328840473      0.995792021     -0.328840473      0.00710693402    53.5299485      
 2.57353755       0.0071577591     53.7485179       0.995784129     -0.332126283      0.995784129     -0.332126283      0.0071577591     53.7485179      
 2.59927293       0.00720917704    53.9663368       0.995776192     -0.335444912      0.995776192     -0.335444912      0.00720917704    53.9663368      
 2.62526565       0.00726119382    54.1833939       0.995768211     -0.338796686      0.995768211     -0.338796686      0.00726119382    54.1833939      
 2.65151831       0.0073138155     54.3996784       0.995760185     -0.342181937      0.995760185     -0.342181937      0.0073138155     54.3996784      
 2.67803349       0.00736704817    54.6151798       0.995752113     -0.345600998      0.995752113     -0.345600998      0.00736704817    54.6151798      
 2.70481383       0.00742089796    54.8298876       0.995743996     -0.349054207      0.995743996     -0.349054207      0.00742089796    54.8298876      
 2.73186197       0.00747537109    55.0437916       0.995735834     -0.352541905      0.995735834     -0.352541905      0.00747537109    55.0437916      
 2.75918059       0.0075304738     55.2568819       0.995727625     -0.356064435      0.995727625     -0.356064435      0.0075304738     55.2568819      
 2.78677239       0.00758621241    55.4691487       0.99571937      -0.359622147      0.99571937      -0.359622147      0.00758621241    55.4691487      
 2.81464012       0.00764259326    55.6805824       0.995711067     -0.36321539       0.995711067     -0.36321539       0.00764259326    55.6805824      
 2.84278652       0.00769962279    55.8911738       0.995702718     -0.366844519      0.995702718     -0.366844519      0.00769962279    55.8911738      
 2.87121438       0.00775730746    56.1009137       0.995694321     -0.370509893      0.995694321     -0.370509893      0.00775730746    56.1009137      
 2.89992653       0.00781565379    56.3097932       0.995685876     -0.374211872      0.995685876     -0.374211872      0.00781565379    56.3097932      
 2.92892579       0.00787466839    56.5178038       0.995677383     -0.377950823      0.995677383     -0.377950823      0.00787466839    56.5178038      
 2.95821505       0.00793435788    56.724937        0.995668841     -0.381727115      0.995668841     -0.381727115      0.00793435788    56.724937       
 2.9877972        0.00799472897    56.9311845       0.99566025      -0.385541119      0.99566025      -0.385541119      0.00799472897    56.9311845      
 3.01767517       0.00805578842    57.1365384       0.995651609     -0.389393213      0.995651609     -0.389393213      0.00805578842    57.1365384      
 3.04785192       0.00811754304    57.3409909       0.995642919     -0.393283776      0.995642919     -0.393283776      0.00811754304    57.3409909      
 3.07833044       0.00817999973    57.5445344       0.995634179     -0.397213192      0.995634179     -0.397213192      0.00817999973    57.5445344      
 3.10911375       0.00824316542    57.7471615       0.995625388     -0.401181849      0.995625388     -0.401181849      0.00824316542    57.7471615      
 3.14020489       0.00830704712    57.9488652       0.995616546     -0.405190139      0.995616546     -0.405190139      0.00830704712    57.9488652      
 3.17160693       0.00837165188    58.1496385       0.995607653     -0.409238456      0.995607653     -0.409238456      0.00837165188    58.1496385      
 3.203323         0.00843698685    58.3494746       0.995598708     -0.413327201      0.995598708     -0.413327201      0.00843698685    58.3494746      
 3.23535623       0.0085030592     58.5483673       0.995589711     -0.417456776      0.995589711     -0.417456776      0.0085030592     58.5483673      
 3.2677098        0.0085698762     58.74631         0.995580662     -0.42162759       0.995580662     -0.42162759       0.0085698762     58.74631        
 3.30038689       0.00863744517    58.9432969       0.995571559     -0.425840053      0.995571559     -0.425840053      0.00863744517    58.9432969      
 3.33339076       0.00870577349    59.1393219       0.995562403     -0.430094581      0.995562403     -0.430094581      0.00870577349    59.1393219      
 3.36672467       0.00877486863    59.3343795       0.995553193     -0.434391594      0.995553193     -0.434391594      0.00877486863    59.3343795      
 3.40039192       0.0088447381     59.5284642       0.995543929     -0.438731515      0.995543929     -0.438731515      0.0088447381     59.5284642      
 3.43439584       0.0089153895     59.7215708       0.99553461      -0.443114773      0.99553461      -0.443114773      0.0089153895     59.7215708      
 3.4687398        0.00898683049    59.9136942       0.995525236     -0.4475418        0.995525236     -0.4475418        0.00898683049    59.9136942      
 3.50342719       0.00905906879    60.1048296       0.995515807     -0.452013033      0.995515807     -0.452013033      0.00905906879    60.1048296      
