# MHz           S          MA           R         50
!Freq             MagS11           AngS11           MagS21           AngS21           MagS12           AngS12           MagS22           AngS22
 1                0.00682071691    27.6554055       0.993963557     -0.182492025      0.993963557     -0.182492025      0.00682071691    27.6554055      
 1.01             0.00684202       27.8609771       0.993956222     -0.184315591      0.993956222     -0.184315591      0.00684202       27.8609771      
 1.0201           0.00686359435    28.067436        0.993948849     -0.186157373      0.993948849     -0.186157373      0.00686359435    28.067436       
 1.030301         0.00688544363    28.2747739       0.993941438     -0.188017552      0.993941438     -0.188017552      0.00688544363    28.2747739      
 1.04060401       0.00690757157    28.4829827       0.993933988     -0.189896311      0.993933988     -0.189896311      0.00690757157    28.4829827      
 1.05101005       0.00692998194    28.6920535       0.9939265       -0.191793836      0.9939265       -0.191793836      0.00692998194    28.6920535      
 1.06152015       0.00695267856    28.9019776       0.993918973     -0.193710315      0.993918973     -0.193710315      0.00695267856    28.9019776      
 1.07213535       0.00697566529    29.1127458       0.993911407     -0.195645936      0.993911407     -0.195645936      0.00697566529    29.1127458      
 1.08285671       0.00699894601    29.324349        0.993903801     -0.197600892      0.993903801     -0.197600892      0.00699894601    29.324349       
 1.09368527       0.00702252468    29.5367775       0.993896156     -0.199575374      0.993896156     -0.199575374      0.00702252468    29.5367775      
 1.10462213       0.00704640528    29.7500216       0.993888471     -0.201569577      0.993888471     -0.201569577      0.00704640528    29.7500216      
 1.11566835       0.00707059185    29.9640713       0.993880746     -0.203583699      0.993880746     -0.203583699      0.00707059185    29.9640713      
 1.12682503       0.00709508845    30.1789163       0.993872981     -0.205617939      0.993872981     -0.205617939      0.00709508845    30.1789163      
 1.13809328       0.0071198992     30.3945463       0.993865175     -0.207672496      0.993865175     -0.207672496      0.0071198992     30.3945463      
 1.14947421       0.00714502827    30.6109505       0.993857329     -0.209747575      0.993857329     -0.209747575      0.00714502827    30.6109505      
 1.16096896       0.00717047987    30.828118        0.993849441     -0.211843379      0.993849441     -0.211843379      0.00717047987    30.828118       
 1.17257864       0.00719625825    31.0460378       0.993841512     -0.213960116      0.993841512     -0.213960116      0.00719625825    31.0460378      
 1.18430443       0.00722236771    31.2646984       0.993833542     -0.216097994      0.993833542     -0.216097994      0.00722236771    31.2646984      
 1.19614748       0.00724881259    31.4840882       0.99382553      -0.218257225      0.99382553      -0.218257225      0.00724881259    31.4840882      
 1.20810895       0.00727559729    31.7041956       0.993817476     -0.220438022      0.993817476     -0.220438022      0.00727559729    31.7041956      
 1.22019004       0.00730272623    31.9250085       0.99380938      -0.2226406        0.99380938      -0.2226406        0.00730272623    31.9250085      
 1.23239194       0.0073302039     32.1465147       0.993801242     -0.224865176      0.993801242     -0.224865176      0.0073302039     32.1465147      
 1.24471586       0.00735803484    32.3687016       0.99379306      -0.22711197       0.99379306      -0.22711197       0.00735803484    32.3687016      
 1.25716302       0.00738622361    32.5915568       0.993784836     -0.229381204      0.993784836     -0.229381204      0.00738622361    32.5915568      
 1.26973465       0.00741477483    32.8150672       0.993776568     -0.231673101      0.993776568     -0.231673101      0.00741477483    32.8150672      
 1.282432         0.00744369318    33.03922         0.993768257     -0.233987889      0.993768257     -0.233987889      0.00744369318    33.03922        
 1.29525631       0.00747298336    33.2640017       0.993759902     -0.236325794      0.993759902     -0.236325794      0.00747298336    33.2640017      
 1.30820888       0.00750265015    33.4893989       0.993751503     -0.238687049      0.993751503     -0.238687049      0.00750265015    33.4893989      
 1.32129097       0.00753269835    33.7153979       0.99374306      -0.241071885      0.99374306      -0.241071885      0.00753269835    33.7153979      
 1.33450388       0.00756313282    33.9419849       0.993734572     -0.24348054       0.993734572     -0.24348054       0.00756313282    33.9419849      
 1.34784892       0.00759395847    34.1691459       0.99372604      -0.245913249      0.99372604      -0.245913249      0.00759395847    34.1691459      
 1.3613274        0.00762518025    34.3968665       0.993717462     -0.248370253      0.993717462     -0.248370253      0.00762518025    34.3968665      
 1.37494068       0.00765680317    34.6251324       0.993708839     -0.250851795      0.993708839     -0.250851795      0.00765680317    34.6251324      
 1.38869009       0.00768883227    34.8539289       0.99370017      -0.253358119      0.99370017      -0.253358119      0.00768883227    34.8539289      
 1.40257699       0.00772127265    35.0832412       0.993691455     -0.255889473      0.993691455     -0.255889473      0.00772127265    35.0832412      
 1.41660276       0.00775412947    35.3130545       0.993682694     -0.258446107      0.993682694     -0.258446107      0.00775412947    35.3130545      
 1.43076878       0.00778740792    35.5433534       0.993673886     -0.261028273      0.993673886     -0.261028273      0.00778740792    35.5433534      
 1.44507647       0.00782111325    35.7741229       0.993665031     -0.263636225      0.993665031     -0.263636225      0.00782111325    35.7741229      
 1.45952724       0.00785525075    36.0053473       0.99365613      -0.266270221      0.99365613      -0.266270221      0.00785525075    36.0053473      
 1.47412251       0.00788982577    36.2370111       0.993647181     -0.268930521      0.993647181     -0.268930521      0.00788982577    36.2370111      
 1.48886373       0.00792484371    36.4690985       0.993638184     -0.271617388      0.993638184     -0.271617388      0.00792484371    36.4690985      
 1.50375237       0.00796031001    36.7015935       0.993629139     -0.274331086      0.993629139     -0.274331086      0.00796031001    36.7015935      
 1.51878989       0.00799623018    36.9344803       0.993620046     -0.277071883      0.993620046     -0.277071883      0.00799623018    36.9344803      
 1.53397779       0.00803260975    37.1677424       0.993610904     -0.279840049      0.993610904     -0.279840049      0.00803260975    37.1677424      
 1.54931757       0.00806945432    37.4013637       0.993601713     -0.282635859      0.993601713     -0.282635859      0.00806945432    37.4013637      
 1.56481075       0.00810676954    37.6353276       0.993592473     -0.285459587      0.993592473     -0.285459587      0.00810676954    37.6353276      
 1.58045885       0.00814456112    37.8696176       0.993583184     -0.288311511      0.993583184     -0.288311511      0.00814456112    37.8696176      
 1.59626344       0.0081828348     38.1042169       0.993573844     -0.291191915      0.993573844     -0.291191915      0.0081828348     38.1042169      
 1.61222608       0.00822159639    38.3391088       0.993564454     -0.294101081      0.993564454     -0.294101081      0.00822159639    38.3391088      
 1.62834834       0.00826085173    38.5742764       0.993555014     -0.297039296      0.993555014     -0.297039296      0.00826085173    38.5742764      
 1.64463182       0.00830060674    38.8097026       0.993545523     -0.300006851      0.993545523     -0.300006851      0.00830060674    38.8097026      
 1.66107814       0.00834086737    39.0453703       0.99353598      -0.303004038      0.99353598      -0.303004038      0.00834086737    39.0453703      
 1.67768892       0.00838163964    39.2812624       0.993526387     -0.306031152      0.993526387     -0.306031152      0.00838163964    39.2812624      
 1.69446581       0.0084229296     39.5173615       0.993516741     -0.309088493      0.993516741     -0.309088493      0.0084229296     39.5173615      
 1.71141047       0.00846474337    39.7536503       0.993507043     -0.312176362      0.993507043     -0.312176362      0.00846474337    39.7536503      
 1.72852457       0.00850708713    39.9901114       0.993497292     -0.315295064      0.993497292     -0.315295064      0.00850708713    39.9901114      
 1.74580982       0.00854996708    40.2267272       0.993487489     -0.318444905      0.993487489     -0.318444905      0.00854996708    40.2267272      
 1.76326792       0.00859338952    40.4634803       0.993477632     -0.321626197      0.993477632     -0.321626197      0.00859338952    40.4634803      
 1.7809006        0.00863736076    40.7003529       0.993467722     -0.324839254      0.993467722     -0.324839254      0.00863736076    40.7003529      
 1.7987096        0.0086818872     40.9373275       0.993457757     -0.328084392      0.993457757     -0.328084392      0.0086818872     40.9373275      
 1.8166967        0.00872697527    41.1743863       0.993447739     -0.331361932      0.993447739     -0.331361932      0.00872697527    41.1743863      
 1.83486367       0.00877263146    41.4115117       0.993437665     -0.334672196      0.993437665     -0.334672196      0.00877263146    41.4115117      
 1.8532123        0.00881886232    41.6486858       0.993427537     -0.338015511      0.993427537     -0.338015511      0.00881886232    41.6486858      
 1.87174443       0.00886567445    41.8858908       0.993417353     -0.341392208      0.993417353     -0.341392208      0.00886567445    41.8858908      
 1.89046187       0.00891307452    42.1231091       0.993407113     -0.344802618      0.993407113     -0.344802618      0.00891307452    42.1231091      
 1.90936649       0.00896106923    42.3603227       0.993396817     -0.348247078      0.993396817     -0.348247078      0.00896106923    42.3603227      
 1.92846015       0.00900966535    42.5975139       0.993386465     -0.351725928      0.993386465     -0.351725928      0.00900966535    42.5975139      
 1.94774475       0.00905886971    42.8346648       0.993376055     -0.355239511      0.993376055     -0.355239511      0.00905886971    42.8346648      
 1.9672222        0.0091086892     43.0717577       0.993365588     -0.358788173      0.993365588     -0.358788173      0.0091086892     43.0717577      
 1.98689442       0.00915913075    43.3087748       0.993355063     -0.362372264      0.993355063     -0.362372264      0.00915913075    43.3087748      
 2.00676337       0.00921020137    43.5456983       0.993344481     -0.365992138      0.993344481     -0.365992138      0.00921020137    43.5456983      
 2.026831         0.00926190809    43.7825104       0.993333839     -0.369648151      0.993333839     -0.369648151      0.00926190809    43.7825104      
 2.04709931       0.00931425805    44.0191936       0.993323139     -0.373340664      0.993323139     -0.373340664      0.00931425805    44.0191936      
 2.06757031       0.00936725841    44.25573         0.993312379     -0.377070041      0.993312379     -0.377070041      0.00936725841    44.25573        
 2.08824601       0.0094209164     44.4921022       0.993301559     -0.38083665       0.993301559     -0.38083665       0.0094209164     44.4921022      
 2.10912847       0.0094752393     44.7282926       0.993290679     -0.384640862      0.993290679     -0.384640862      0.0094752393     44.7282926      
 2.13021975       0.00953023448    44.9642836       0.993279739     -0.388483052      0.993279739     -0.388483052      0.00953023448    44.9642836      
 2.15152195       0.00958590933    45.2000578       0.993268737     -0.392363599      0.993268737     -0.392363599      0.00958590933    45.2000578      
 2.17303717       0.00964227134    45.4355979       0.993257674     -0.396282885      0.993257674     -0.396282885      0.00964227134    45.4355979      
 2.19476754       0.00969932801    45.6708866       0.993246549     -0.400241296      0.993246549     -0.400241296      0.00969932801    45.6708866      
 2.21671522       0.00975708696    45.9059066       0.993235361     -0.404239224      0.993235361     -0.404239224      0.00975708696    45.9059066      
 2.23888237       0.00981555583    46.1406409       0.99322411      -0.408277061      0.99322411      -0.408277061      0.00981555583    46.1406409      
 2.26127119       0.00987474233    46.3750725       0.993212796     -0.412355207      0.993212796     -0.412355207      0.00987474233    46.3750725      
 2.2838839        0.00993465425    46.6091843       0.993201419     -0.416474062      0.993201419     -0.416474062      0.00993465425    46.6091843      
 2.30672274       0.00999529942    46.8429597       0.993189977     -0.420634033      0.993189977     -0.420634033      0.00999529942    46.8429597      
 2.32978997       0.0100566858     47.0763818       0.99317847      -0.42483553       0.99317847      -0.42483553       0.0100566858     47.0763818      
 2.35308787       0.0101188212     47.3094341       0.993166898     -0.429078967      0.993166898     -0.429078967      0.0101188212     47.3094341      
 2.37661875       0.0101817138     47.5421001       0.99315526      -0.433364762      0.99315526      -0.433364762      0.0101817138     47.5421001      
 2.40038494       0.0102453717     47.7743635       0.993143556     -0.437693338      0.993143556     -0.437693338      0.0102453717     47.7743635      
 2.42438879       0.010309803      48.006208        0.993131785     -0.442065121      0.993131785     -0.442065121      0.010309803      48.006208       
 2.44863267       0.010375016      48.2376176       0.993119947     -0.446480541      0.993119947     -0.446480541      0.010375016      48.2376176      
 2.473119         0.0104410189     48.4685763       0.993108042     -0.450940035      0.993108042     -0.450940035      0.0104410189     48.4685763      
 2.49785019       0.0105078201     48.6990684       0.993096068     -0.455444041      0.993096068     -0.455444041      0.0105078201     48.6990684      
 2.52282869       0.0105754281     48.9290781       0.993084025     -0.459993003      0.993084025     -0.459993003      0.0105754281     48.9290781      
 2.54805698       0.0106438513     49.15859         0.993071913     -0.46458737       0.993071913     -0.46458737       0.0106438513     49.15859        
 2.57353755       0.0107130983     49.3875887       0.993059732     -0.469227594      0.993059732     -0.469227594      0.0107130983     49.3875887      
 2.59927293       0.0107831778     49.6160591       0.993047479     -0.473914132      0.993047479     -0.473914132      0.0107831778     49.6160591      
 2.62526565       0.0108540985     49.8439862       0.993035156     -0.478647446      0.993035156     -0.478647446      0.0108540985     49.8439862      
 2.65151831       0.0109258691     50.0713551       0.993022762     -0.483428003      0.993022762     -0.483428003      0.0109258691     50.0713551      
 2.67803349       0.0109984985     50.2981511       0.993010296     -0.488256273      0.993010296     -0.488256273      0.0109984985     50.2981511      
 2.70481383       0.0110719956     50.5243598       0.992997757     -0.493132732      0.992997757     -0.493132732      0.0110719956     50.5243598      
 2.73186197       0.0111463695     50.7499668       0.992985144     -0.49805786       0.992985144     -0.49805786       0.0111463695     50.7499668      
 2.75918059       0.0112216291     50.9749581       0.992972458     -0.503032143      0.992972458     -0.503032143      0.0112216291     50.9749581      
 2.78677239       0.0112977837     51.1993196       0.992959698     -0.50805607       0.992959698     -0.50805607       0.0112977837     51.1993196      
 2.81464012       0.0113748425     51.4230377       0.992946863     -0.513130137      0.992946863     -0.513130137      0.0113748425     51.4230377      
 2.84278652       0.0114528147     51.6460987       0.992933952     -0.518254843      0.992933952     -0.518254843      0.0114528147     51.6460987      
 2.87121438       0.0115317098     51.8684893       0.992920965     -0.523430692      0.992920965     -0.523430692      0.0115317098     51.8684893      
 2.89992653       0.0116115372     52.0901963       0.992907902     -0.528658196      0.992907902     -0.528658196      0.0116115372     52.0901963      
 2.92892579       0.0116923064     52.3112068       0.992894761     -0.533937867      0.992894761     -0.533937867      0.0116923064     52.3112068      
 2.95821505       0.011774027      52.531508        0.992881542     -0.539270227      0.992881542     -0.539270227      0.011774027      52.531508       
 2.9877972        0.0118567088     52.7510874       0.992868244     -0.544655801      0.992868244     -0.544655801      0.0118567088     52.7510874      
 3.01767517       0.0119403615     52.9699325       0.992854867     -0.550095119      0.992854867     -0.550095119      0.0119403615     52.9699325      
 3.04785192       0.0120249949     53.1880313       0.992841411     -0.555588716      0.992841411     -0.555588716      0.0120249949     53.1880313      
 3.07833044       0.012110619      53.4053718       0.992827873     -0.561137133      0.992827873     -0.561137133      0.012110619      53.4053718      
 3.10911375       0.0121972438     53.6219423       0.992814254     -0.566740917      0.992814254     -0.566740917      0.0121972438     53.6219423      
 3.14020489       0.0122848795     53.8377313       0.992800554     -0.57240062       0.992800554     -0.57240062       0.0122848795     53.8377313      
 3.17160693       0.0123735361     54.0527274       0.99278677      -0.578116798      0.99278677      -0.578116798      0.0123735361     54.0527274      
 3.203323         0.012463224      54.2669197       0.992772903     -0.583890015      0.992772903     -0.583890015      0.012463224      54.2669197      
 3.23535623       0.0125539536     54.4802971       0.992758952     -0.589720839      0.992758952     -0.589720839      0.0125539536     54.4802971      
 3.2677098        0.0126457353     54.6928492       0.992744917     -0.595609844      0.992744917     -0.595609844      0.0126457353     54.6928492      
 3.30038689       0.0127385796     54.9045654       0.992730795     -0.601557609      0.992730795     -0.601557609      0.0127385796     54.9045654      
 3.33339076       0.0128324971     55.1154356       0.992716588     -0.60756472       0.992716588     -0.60756472       0.0128324971     55.1154356      
 3.36672467       0.0129274987     55.3254497       0.992702293     -0.613631768      0.992702293     -0.613631768      0.0129274987     55.3254497      
 3.40039192       0.013023595      55.534598        0.992687911     -0.619759351      0.992687911     -0.619759351      0.013023595      55.534598       
 3.43439584       0.0131207971     55.7428709       0.99267344      -0.625948072      0.99267344      -0.625948072      0.0131207971     55.7428709      
 3.4687398        0.0132191159     55.9502591       0.992658879     -0.632198539      0.992658879     -0.632198539      0.0132191159     55.9502591      
 3.50342719       0.0133185625     56.1567535       0.992644229     -0.638511368      0.992644229     -0.638511368      0.0133185625     56.1567535      
