# MHz           S          MA           R         50
!Freq             MagS11           AngS11           MagS21           AngS21           MagS12           AngS12           MagS22           AngS22
 1                0.000723387542   38.6579696       0.999435217     -0.025905362      0.999435217     -0.025905362      0.000723387542   38.6579696      
 1.01             0.000726938667   38.8904605       0.999434293     -0.0261643915     0.999434293     -0.0261643915     0.000726938667   38.8904605      
 1.0201           0.000730533772   39.1232041       0.999433365     -0.0264260109     0.999433365     -0.0264260109     0.000730533772   39.1232041      
 1.030301         0.000734173377   39.3561844       0.999432432     -0.0266902461     0.999432432     -0.0266902461     0.000734173377   39.3561844      
 1.04060401       0.000737858006   39.5893858       0.999431494     -0.0269571233     0.999431494     -0.0269571233     0.000737858006   39.5893858      
 1.05101005       0.000741588186   39.8227922       0.999430552     -0.0272266689     0.999430552     -0.0272266689     0.000741588186   39.8227922      
 1.06152015       0.000745364452   40.0563876       0.999429605     -0.0274989095     0.999429605     -0.0274989095     0.000745364452   40.0563876      
 1.07213535       0.000749187341   40.290156        0.999428653     -0.0277738722     0.999428653     -0.0277738722     0.000749187341   40.290156       
 1.08285671       0.000753057396   40.5240813       0.999427696     -0.0280515841     0.999427696     -0.0280515841     0.000753057396   40.5240813      
 1.09368527       0.000756975164   40.7581473       0.999426735     -0.0283320727     0.999426735     -0.0283320727     0.000756975164   40.7581473      
 1.10462213       0.000760941198   40.9923379       0.999425768     -0.0286153658     0.999425768     -0.0286153658     0.000760941198   40.9923379      
 1.11566835       0.000764956054   41.2266368       0.999424797     -0.0289014914     0.999424797     -0.0289014914     0.000764956054   41.2266368      
 1.12682503       0.000769020295   41.4610278       0.999423821     -0.0291904779     0.999423821     -0.0291904779     0.000769020295   41.4610278      
 1.13809328       0.000773134487   41.6954946       0.99942284      -0.0294823537     0.99942284      -0.0294823537     0.000773134487   41.6954946      
 1.14947421       0.000777299203   41.9300209       0.999421854     -0.029777148      0.999421854     -0.029777148      0.000777299203   41.9300209      
 1.16096896       0.000781515018   42.1645905       0.999420863     -0.0300748896     0.999420863     -0.0300748896     0.000781515018   42.1645905      
 1.17257864       0.000785782516   42.399187        0.999419868     -0.0303756083     0.999419868     -0.0303756083     0.000785782516   42.399187       
 1.18430443       0.000790102281   42.6337942       0.999418867     -0.0306793337     0.999418867     -0.0306793337     0.000790102281   42.6337942      
 1.19614748       0.000794474906   42.8683957       0.999417861     -0.0309860959     0.999417861     -0.0309860959     0.000794474906   42.8683957      
 1.20810895       0.000798900989   43.1029753       0.99941685      -0.0312959253     0.99941685      -0.0312959253     0.000798900989   43.1029753      
 1.22019004       0.000803381129   43.3375168       0.999415834     -0.0316088524     0.999415834     -0.0316088524     0.000803381129   43.3375168      
 1.23239194       0.000807915936   43.5720038       0.999414813     -0.0319249084     0.999414813     -0.0319249084     0.000807915936   43.5720038      
 1.24471586       0.000812506021   43.8064202       0.999413787     -0.0322441244     0.999413787     -0.0322441244     0.000812506021   43.8064202      
 1.25716302       0.000817152001   44.0407498       0.999412755     -0.0325665321     0.999412755     -0.0325665321     0.000817152001   44.0407498      
 1.26973465       0.000821854498   44.2749764       0.999411719     -0.0328921633     0.999411719     -0.0328921633     0.000821854498   44.2749764      
 1.282432         0.000826614142   44.509084        0.999410677     -0.0332210504     0.999410677     -0.0332210504     0.000826614142   44.509084       
 1.29525631       0.000831431564   44.7430565       0.99940963      -0.0335532258     0.99940963      -0.0335532258     0.000831431564   44.7430565      
 1.30820888       0.000836307404   44.976878        0.999408578     -0.0338887224     0.999408578     -0.0338887224     0.000836307404   44.976878       
 1.32129097       0.000841242305   45.2105325       0.99940752      -0.0342275735     0.99940752      -0.0342275735     0.000841242305   45.2105325      
 1.33450388       0.000846236917   45.4440042       0.999406457     -0.0345698125     0.999406457     -0.0345698125     0.000846236917   45.4440042      
 1.34784892       0.000851291895   45.6772772       0.999405389     -0.0349154734     0.999405389     -0.0349154734     0.000851291895   45.6772772      
 1.3613274        0.000856407898   45.9103359       0.999404315     -0.0352645903     0.999404315     -0.0352645903     0.000856407898   45.9103359      
 1.37494068       0.000861585594   46.1431647       0.999403236     -0.0356171978     0.999403236     -0.0356171978     0.000861585594   46.1431647      
 1.38869009       0.000866825652   46.375748        0.999402151     -0.0359733308     0.999402151     -0.0359733308     0.000866825652   46.375748       
 1.40257699       0.000872128751   46.6080703       0.999401061     -0.0363330245     0.999401061     -0.0363330245     0.000872128751   46.6080703      
 1.41660276       0.000877495572   46.8401164       0.999399966     -0.0366963146     0.999399966     -0.0366963146     0.000877495572   46.8401164      
 1.43076878       0.000882926805   47.071871        0.999398865     -0.037063237      0.999398865     -0.037063237      0.000882926805   47.071871       
 1.44507647       0.000888423144   47.3033188       0.999397758     -0.037433828      0.999397758     -0.037433828      0.000888423144   47.3033188      
 1.45952724       0.000893985288   47.534445        0.999396646     -0.0378081243     0.999396646     -0.0378081243     0.000893985288   47.534445       
 1.47412251       0.000899613944   47.7652346       0.999395528     -0.0381861629     0.999395528     -0.0381861629     0.000899613944   47.7652346      
 1.48886373       0.000905309823   47.9956729       0.999394405     -0.0385679813     0.999394405     -0.0385679813     0.000905309823   47.9956728      
 1.50375237       0.000911073644   48.225745        0.999393276     -0.0389536172     0.999393276     -0.0389536172     0.000911073644   48.225745       
 1.51878989       0.000916906129   48.4554365       0.999392141     -0.0393431087     0.999392141     -0.0393431087     0.000916906129   48.4554365      
 1.53397779       0.00092280801    48.684733        0.999391001     -0.0397364946     0.999391001     -0.0397364946     0.00092280801    48.684733       
 1.54931757       0.000928780021   48.9136203       0.999389855     -0.0401338136     0.999389855     -0.0401338136     0.000928780021   48.9136203      
 1.56481075       0.000934822905   49.1420841       0.999388703     -0.0405351051     0.999388703     -0.0405351051     0.000934822905   49.1420841      
 1.58045885       0.000940937411   49.3701105       0.999387545     -0.0409404088     0.999387545     -0.0409404088     0.000940937411   49.3701105      
 1.59626344       0.000947124292   49.5976858       0.999386381     -0.0413497648     0.999386381     -0.0413497648     0.000947124292   49.5976858      
 1.61222608       0.000953384311   49.8247961       0.999385211     -0.0417632137     0.999385211     -0.0417632137     0.000953384311   49.8247961      
 1.62834834       0.000959718235   50.051428        0.999384036     -0.0421807963     0.999384036     -0.0421807963     0.000959718235   50.051428       
 1.64463182       0.000966126836   50.2775681       0.999382855     -0.042602554      0.999382855     -0.042602554      0.000966126836   50.2775681      
 1.66107814       0.000972610897   50.5032032       0.999381667     -0.0430285286     0.999381667     -0.0430285286     0.000972610897   50.5032032      
 1.67768892       0.000979171203   50.7283203       0.999380474     -0.0434587621     0.999380474     -0.0434587621     0.000979171203   50.7283203      
 1.69446581       0.000985808549   50.9529064       0.999379274     -0.0438932971     0.999379274     -0.0438932971     0.000985808549   50.9529064      
 1.71141047       0.000992523735   51.176949        0.999378069     -0.0443321768     0.999378069     -0.0443321768     0.000992523735   51.176949       
 1.72852457       0.000999317568   51.4004354       0.999376857     -0.0447754444     0.999376857     -0.0447754444     0.000999317568   51.4004354      
 1.74580982       0.00100619086    51.6233533       0.99937564      -0.0452231438     0.99937564      -0.0452231438     0.00100619086    51.6233533      
 1.76326792       0.00101314444    51.8456906       0.999374416     -0.0456753195     0.999374416     -0.0456753195     0.00101314444    51.8456906      
 1.7809006        0.00102017913    52.0674352       0.999373186     -0.046132016      0.999373186     -0.046132016      0.00102017913    52.0674352      
 1.7987096        0.00102729576    52.2885755       0.999371949     -0.0465932787     0.999371949     -0.0465932787     0.00102729576    52.2885755      
 1.8166967        0.00103449518    52.5090996       0.999370707     -0.0470591531     0.999370707     -0.0470591531     0.00103449518    52.5090996      
 1.83486367       0.00104177823    52.7289963       0.999369458     -0.0475296854     0.999369458     -0.0475296854     0.00104177823    52.7289963      
 1.8532123        0.00104914578    52.9482542       0.999368203     -0.0480049221     0.999368203     -0.0480049221     0.00104914578    52.9482542      
 1.87174443       0.00105659869    53.1668624       0.999366941     -0.0484849103     0.999366941     -0.0484849103     0.00105659869    53.1668624      
 1.89046187       0.00106413782    53.38481         0.999365673     -0.0489696974     0.999365673     -0.0489696974     0.00106413782    53.38481        
 1.90936649       0.00107176406    53.6020862       0.999364399     -0.0494593315     0.999364399     -0.0494593315     0.00107176406    53.6020862      
 1.92846015       0.0010794783     53.8186808       0.999363118     -0.049953861      0.999363118     -0.049953861      0.0010794783     53.8186808      
 1.94774475       0.00108728142    54.0345833       0.999361831     -0.0504533348     0.999361831     -0.0504533348     0.00108728142    54.0345833      
 1.9672222        0.00109517434    54.2497838       0.999360537     -0.0509578023     0.999360537     -0.0509578023     0.00109517434    54.2497838      
 1.98689442       0.00110315796    54.4642724       0.999359236     -0.0514673136     0.999359236     -0.0514673136     0.00110315796    54.4642724      
 2.00676337       0.00111123319    54.6780393       0.999357929     -0.0519819189     0.999357929     -0.0519819189     0.00111123319    54.6780393      
 2.026831         0.00111940097    54.8910752       0.999356615     -0.0525016693     0.999356615     -0.0525016693     0.00111940097    54.8910752      
 2.04709931       0.00112766222    55.1033708       0.999355295     -0.0530266161     0.999355295     -0.0530266161     0.00112766222    55.1033708      
 2.06757031       0.0011360179     55.3149171       0.999353968     -0.0535568114     0.999353968     -0.0535568114     0.0011360179     55.3149171      
 2.08824601       0.00114446894    55.5257051       0.999352634     -0.0540923075     0.999352634     -0.0540923075     0.00114446894    55.5257051      
 2.10912847       0.00115301632    55.7357263       0.999351294     -0.0546331575     0.999351294     -0.0546331575     0.00115301632    55.7357263      
 2.13021975       0.00116166098    55.9449722       0.999349946     -0.055179415      0.999349946     -0.055179415      0.00116166098    55.9449722      
 2.15152195       0.00117040393    56.1534345       0.999348592     -0.0557311338     0.999348592     -0.0557311338     0.00117040393    56.1534345      
 2.17303717       0.00117924612    56.3611052       0.999347231     -0.0562883687     0.999347231     -0.0562883687     0.00117924612    56.3611052      
 2.19476754       0.00118818857    56.5679766       0.999345863     -0.0568511749     0.999345863     -0.0568511749     0.00118818857    56.5679766      
 2.21671522       0.00119723227    56.7740409       0.999344488     -0.0574196079     0.999344488     -0.0574196079     0.00119723227    56.7740409      
 2.23888237       0.00120637822    56.9792908       0.999343106     -0.057993724      0.999343106     -0.057993724      0.00120637822    56.9792908      
 2.26127119       0.00121562746    57.183719        0.999341716     -0.0585735801     0.999341716     -0.0585735801     0.00121562746    57.183719       
 2.2838839        0.00122498102    57.3873185       0.99934032      -0.0591592336     0.99934032      -0.0591592336     0.00122498102    57.3873185      
 2.30672274       0.00123443992    57.5900825       0.999338917     -0.0597507423     0.999338917     -0.0597507423     0.00123443992    57.5900825      
 2.32978997       0.00124400521    57.7920044       0.999337507     -0.0603481649     0.999337507     -0.0603481649     0.00124400521    57.7920044      
 2.35308787       0.00125367796    57.9930778       0.999336089     -0.0609515604     0.999336089     -0.0609515604     0.00125367796    57.9930778      
 2.37661875       0.00126345924    58.1932964       0.999334664     -0.0615609885     0.999334664     -0.0615609885     0.00126345924    58.1932964      
 2.40038494       0.00127335011    58.3926543       0.999333232     -0.0621765096     0.999333232     -0.0621765096     0.00127335011    58.3926543      
 2.42438879       0.00128335166    58.5911457       0.999331792     -0.0627981846     0.999331792     -0.0627981846     0.00128335166    58.5911457      
 2.44863267       0.00129346499    58.7887649       0.999330346     -0.063426075      0.999330346     -0.063426075      0.00129346499    58.7887649      
 2.473119         0.0013036912     58.9855065       0.999328891     -0.0640602429     0.999328891     -0.0640602429     0.0013036912     58.9855065      
 2.49785019       0.00131403142    59.1813653       0.99932743      -0.0647007511     0.99932743      -0.0647007511     0.00131403142    59.1813653      
 2.52282869       0.00132448676    59.3763363       0.999325961     -0.0653476629     0.999325961     -0.0653476629     0.00132448676    59.3763363      
 2.54805698       0.00133505837    59.5704146       0.999324484     -0.0660010424     0.999324484     -0.0660010424     0.00133505837    59.5704146      
 2.57353755       0.00134574739    59.7635956       0.999323        -0.0666609543     0.999323        -0.0666609543     0.00134574739    59.7635956      
 2.59927293       0.00135655498    59.9558748       0.999321508     -0.0673274637     0.999321508     -0.0673274637     0.00135655498    59.9558748      
 2.62526565       0.0013674823     60.1472479       0.999320008     -0.0680006368     0.999320008     -0.0680006368     0.0013674823     60.1472479      
 2.65151831       0.00137853054    60.3377109       0.999318501     -0.06868054       0.999318501     -0.06868054       0.00137853054    60.3377109      
 2.67803349       0.00138970089    60.5272599       0.999316986     -0.0693672407     0.999316986     -0.0693672407     0.00138970089    60.5272599      
 2.70481383       0.00140099455    60.7158911       0.999315464     -0.0700608069     0.999315464     -0.0700608069     0.00140099455    60.7158911      
 2.73186197       0.00141241272    60.903601        0.999313933     -0.0707613071     0.999313933     -0.0707613071     0.00141241272    60.903601       
 2.75918059       0.00142395664    61.0903863       0.999312395     -0.0714688107     0.999312395     -0.0714688107     0.00142395664    61.0903863      
 2.78677239       0.00143562754    61.2762438       0.999310849     -0.0721833876     0.999310849     -0.0721833876     0.00143562754    61.2762438      
 2.81464012       0.00144742666    61.4611704       0.999309295     -0.0729051086     0.999309295     -0.0729051086     0.00144742666    61.4611704      
 2.84278652       0.00145935526    61.6451634       0.999307733     -0.0736340452     0.999307733     -0.0736340452     0.00145935526    61.6451634      
 2.87121438       0.00147141462    61.82822         0.999306163     -0.0743702694     0.999306163     -0.0743702694     0.00147141462    61.82822        
 2.89992653       0.00148360602    62.0103378       0.999304584     -0.075113854      0.999304584     -0.075113854      0.00148360602    62.0103378      
 2.92892579       0.00149593074    62.1915145       0.999302998     -0.0758648728     0.999302998     -0.0758648728     0.00149593074    62.1915145      
 2.95821505       0.00150839011    62.3717478       0.999301403     -0.0766233999     0.999301403     -0.0766233999     0.00150839011    62.3717478      
 2.9877972        0.00152098542    62.5510359       0.999299801     -0.0773895104     0.999299801     -0.0773895104     0.00152098542    62.5510359      
 3.01767517       0.00153371802    62.7293768       0.99929819      -0.0781632802     0.99929819      -0.0781632802     0.00153371802    62.7293768      
 3.04785192       0.00154658926    62.9067688       0.99929657      -0.0789447857     0.99929657      -0.0789447857     0.00154658926    62.9067688      
 3.07833044       0.00155960048    63.0832106       0.999294943     -0.0797341044     0.999294943     -0.0797341044     0.00155960048    63.0832106      
 3.10911375       0.00157275305    63.2587006       0.999293307     -0.0805313144     0.999293307     -0.0805313144     0.00157275305    63.2587006      
 3.14020489       0.00158604837    63.4332377       0.999291662     -0.0813364944     0.999291662     -0.0813364944     0.00158604837    63.4332377      
 3.17160693       0.00159948782    63.6068208       0.999290009     -0.0821497243     0.999290009     -0.0821497243     0.00159948782    63.6068208      
 3.203323         0.00161307281    63.7794489       0.999288348     -0.0829710843     0.999288348     -0.0829710843     0.00161307281    63.7794489      
 3.23535623       0.00162680478    63.9511214       0.999286677     -0.083800656      0.999286677     -0.083800656      0.00162680478    63.9511214      
 3.2677098        0.00164068514    64.1218375       0.999284999     -0.0846385212     0.999284999     -0.0846385212     0.00164068514    64.1218375      
 3.30038689       0.00165471536    64.2915968       0.999283311     -0.0854847629     0.999283311     -0.0854847629     0.00165471536    64.2915968      
 3.33339076       0.00166889689    64.4603989       0.999281615     -0.0863394649     0.999281615     -0.0863394649     0.00166889689    64.4603989      
 3.36672467       0.00168323123    64.6282435       0.99927991      -0.0872027117     0.99927991      -0.0872027117     0.00168323123    64.6282435      
 3.40039192       0.00169771984    64.7951307       0.999278196     -0.0880745887     0.999278196     -0.0880745887     0.00169771984    64.7951307      
 3.43439584       0.00171236426    64.9610604       0.999276473     -0.0889551823     0.999276473     -0.0889551823     0.00171236426    64.9610604      
 3.4687398        0.00172716599    65.1260328       0.999274742     -0.0898445794     0.999274742     -0.0898445794     0.00172716599    65.1260328      
 3.50342719       0.00174212657    65.2900481       0.999273001     -0.0907428682     0.999273001     -0.0907428682     0.00174212657    65.2900481      
