# MHz           S          MA           R         50
!Freq             MagS11           AngS11           MagS21           AngS21           MagS12           AngS12           MagS22           AngS22
 1                0.00417220372    29.5622885       0.996373061     -0.118369207      0.996373061     -0.118369207      0.00417220372    29.5622885      
 1.01             0.00418675006    29.7731268       0.996368076     -0.119552303      0.996368076     -0.119552303      0.00418675006    29.7731268      
 1.0201           0.00420147809    29.9847483       0.996363067     -0.120747221      0.996363067     -0.120747221      0.00420147809    29.9847483      
 1.030301         0.00421639022    30.1971431       0.996358031     -0.121954079      0.996358031     -0.121954079      0.00421639022    30.1971431      
 1.04060401       0.00423148885    30.4103013       0.99635297      -0.123172996      0.99635297      -0.123172996      0.00423148885    30.4103013      
 1.05101005       0.00424677644    30.6242126       0.996347883     -0.124404093      0.996347883     -0.124404093      0.00424677644    30.6242126      
 1.06152015       0.00426225544    30.8388666       0.996342771     -0.125647491      0.996342771     -0.125647491      0.00426225544    30.8388666      
 1.07213535       0.00427792835    31.0542526       0.996337631     -0.126903313      0.996337631     -0.126903313      0.00427792835    31.0542526      
 1.08285671       0.00429379771    31.2703599       0.996332466     -0.128171684      0.996332466     -0.128171684      0.00429379771    31.2703599      
 1.09368527       0.00430986604    31.4871773       0.996327274     -0.129452729      0.996327274     -0.129452729      0.00430986604    31.4871773      
 1.10462213       0.00432613594    31.7046936       0.996322056     -0.130746574      0.996322056     -0.130746574      0.00432613594    31.7046936      
 1.11566835       0.00434261       31.9228973       0.996316811     -0.132053347      0.996316811     -0.132053347      0.00434261       31.9228973      
 1.12682503       0.00435929086    32.1417768       0.996311539     -0.133373177      0.996311539     -0.133373177      0.00435929086    32.1417768      
 1.13809328       0.00437618117    32.3613202       0.996306239     -0.134706195      0.996306239     -0.134706195      0.00437618117    32.3613202      
 1.14947421       0.00439328361    32.5815155       0.996300913     -0.136052532      0.996300913     -0.136052532      0.00439328361    32.5815155      
 1.16096896       0.0044106009     32.8023504       0.996295559     -0.137412321      0.996295559     -0.137412321      0.0044106009     32.8023504      
 1.17257864       0.00442813578    33.0238124       0.996290178     -0.138785698      0.996290178     -0.138785698      0.00442813578    33.0238124      
 1.18430443       0.00444589102    33.245889        0.99628477      -0.140172797      0.99628477      -0.140172797      0.00444589102    33.245889       
 1.19614748       0.00446386941    33.4685673       0.996279333     -0.141573755      0.996279333     -0.141573755      0.00446386941    33.4685673      
 1.20810895       0.00448207378    33.6918344       0.996273868     -0.142988711      0.996273868     -0.142988711      0.00448207378    33.6918344      
 1.22019004       0.00450050697    33.915677        0.996268376     -0.144417806      0.996268376     -0.144417806      0.00450050697    33.915677       
 1.23239194       0.00451917188    34.1400817       0.996262855     -0.145861179      0.996262855     -0.145861179      0.00451917188    34.1400817      
 1.24471586       0.00453807141    34.3650352       0.996257305     -0.147318973      0.996257305     -0.147318973      0.00453807141    34.3650352      
 1.25716302       0.00455720849    34.5905236       0.996251727     -0.148791333      0.996251727     -0.148791333      0.00455720849    34.5905236      
 1.26973465       0.0045765861     34.816533        0.996246121     -0.150278404      0.996246121     -0.150278404      0.0045765861     34.816533       
 1.282432         0.00459620723    35.0430495       0.996240485     -0.151780333      0.996240485     -0.151780333      0.00459620723    35.0430495      
 1.29525631       0.0046160749     35.2700588       0.99623482      -0.153297269      0.99623482      -0.153297269      0.0046160749     35.2700588      
 1.30820888       0.00463619217    35.4975466       0.996229126     -0.154829361      0.996229126     -0.154829361      0.00463619217    35.4975466      
 1.32129097       0.00465656212    35.7254984       0.996223403     -0.15637676       0.996223403     -0.15637676       0.00465656212    35.7254984      
 1.33450388       0.00467718787    35.9538996       0.99621765      -0.157939619      0.99621765      -0.157939619      0.00467718787    35.9538996      
 1.34784892       0.00469807255    36.1827352       0.996211867     -0.159518094      0.996211867     -0.159518094      0.00469807255    36.1827352      
 1.3613274        0.00471921934    36.4119904       0.996206054     -0.161112339      0.996206054     -0.161112339      0.00471921934    36.4119904      
 1.37494068       0.00474063144    36.6416502       0.996200212     -0.162722513      0.996200212     -0.162722513      0.00474063144    36.6416502      
 1.38869009       0.00476231208    36.8716992       0.996194338     -0.164348774      0.996194338     -0.164348774      0.00476231208    36.8716992      
 1.40257699       0.00478426452    37.1021222       0.996188435     -0.165991282      0.996188435     -0.165991282      0.00478426452    37.1021222      
 1.41660276       0.00480649206    37.3329036       0.996182501     -0.167650202      0.996182501     -0.167650202      0.00480649206    37.3329036      
 1.43076878       0.00482899801    37.564028        0.996176536     -0.169325695      0.996176536     -0.169325695      0.00482899801    37.564028       
 1.44507647       0.00485178573    37.7954796       0.99617054      -0.171017928      0.99617054      -0.171017928      0.00485178573    37.7954796      
 1.45952724       0.0048748586     38.0272427       0.996164513     -0.172727067      0.996164513     -0.172727067      0.0048748586     38.0272427      
 1.47412251       0.00489822004    38.2593013       0.996158455     -0.174453283      0.996158455     -0.174453283      0.00489822004    38.2593013      
 1.48886373       0.00492187349    38.4916394       0.996152365     -0.176196744      0.996152365     -0.176196744      0.00492187349    38.4916394      
 1.50375237       0.00494582243    38.7242409       0.996146243     -0.177957624      0.996146243     -0.177957624      0.00494582243    38.7242409      
 1.51878989       0.00497007036    38.9570897       0.99614009      -0.179736096      0.99614009      -0.179736096      0.00497007036    38.9570897      
 1.53397779       0.00499462083    39.1901695       0.996133904     -0.181532336      0.996133904     -0.181532336      0.00499462083    39.1901695      
 1.54931757       0.00501947739    39.423464        0.996127687     -0.183346521      0.996127687     -0.183346521      0.00501947739    39.423464       
 1.56481075       0.00504464367    39.6569567       0.996121436     -0.185178831      0.996121436     -0.185178831      0.00504464367    39.6569567      
 1.58045885       0.00507012328    39.8906311       0.996115153     -0.187029447      0.996115153     -0.187029447      0.00507012328    39.8906311      
 1.59626344       0.00509591989    40.1244708       0.996108838     -0.188898551      0.996108838     -0.188898551      0.00509591989    40.1244708      
 1.61222608       0.00512203721    40.3584592       0.996102489     -0.190786327      0.996102489     -0.190786327      0.00512203721    40.3584592      
 1.62834834       0.00514847895    40.5925795       0.996096107     -0.192692964      0.996096107     -0.192692964      0.00514847895    40.5925795      
 1.64463182       0.00517524889    40.8268151       0.996089692     -0.194618647      0.996089692     -0.194618647      0.00517524889    40.8268151      
 1.66107814       0.00520235083    41.0611494       0.996083243     -0.196563569      0.996083243     -0.196563569      0.00520235083    41.0611494      
 1.67768892       0.00522978857    41.2955655       0.99607676      -0.198527921      0.99607676      -0.198527921      0.00522978857    41.2955655      
 1.69446581       0.005257566      41.5300466       0.996070243     -0.200511897      0.996070243     -0.200511897      0.005257566      41.5300466      
 1.71141047       0.005285687      41.764576        0.996063692     -0.202515693      0.996063692     -0.202515693      0.005285687      41.764576       
 1.72852457       0.00531415549    41.9991369       0.996057106     -0.204539506      0.996057106     -0.204539506      0.00531415549    41.9991369      
 1.74580982       0.00534297545    42.2337123       0.996050486     -0.206583538      0.996050486     -0.206583538      0.00534297545    42.2337123      
 1.76326792       0.00537215086    42.4682856       0.996043831     -0.208647988      0.996043831     -0.208647988      0.00537215086    42.4682856      
 1.7809006        0.00540168576    42.7028398       0.996037141     -0.210733063      0.996037141     -0.210733063      0.00540168576    42.7028398      
 1.7987096        0.00543158421    42.9373582       0.996030415     -0.212838966      0.996030415     -0.212838966      0.00543158421    42.9373582      
 1.8166967        0.0054618503     43.1718239       0.996023655     -0.214965907      0.996023655     -0.214965907      0.0054618503     43.1718239      
 1.83486367       0.00549248816    43.4062203       0.996016858     -0.217114096      0.996016858     -0.217114096      0.00549248816    43.4062203      
 1.8532123        0.00552350197    43.6405304       0.996010025     -0.219283743      0.996010025     -0.219283743      0.00552350197    43.6405304      
 1.87174443       0.00555489593    43.8747376       0.996003157     -0.221475065      0.996003157     -0.221475065      0.00555489593    43.8747376      
 1.89046187       0.00558667427    44.1088252       0.995996252     -0.223688276      0.995996252     -0.223688276      0.00558667427    44.1088252      
 1.90936649       0.00561884126    44.3427766       0.99598931      -0.225923597      0.99598931      -0.225923597      0.00561884126    44.3427766      
 1.92846015       0.00565140121    44.5765752       0.995982331     -0.228181246      0.995982331     -0.228181246      0.00565140121    44.5765752      
 1.94774475       0.00568435847    44.8102044       0.995975316     -0.230461448      0.995975316     -0.230461448      0.00568435847    44.8102044      
 1.9672222        0.00571771742    45.0436478       0.995968263     -0.232764428      0.995968263     -0.232764428      0.00571771742    45.0436478      
 1.98689442       0.00575148248    45.2768889       0.995961173     -0.235090412      0.995961173     -0.235090412      0.00575148248    45.2768889      
 2.00676337       0.00578565809    45.5099113       0.995954045     -0.237439631      0.995954045     -0.237439631      0.00578565809    45.5099113      
 2.026831         0.00582024875    45.7426989       0.995946878     -0.239812316      0.995946878     -0.239812316      0.00582024875    45.7426989      
 2.04709931       0.00585525899    45.9752355       0.995939674     -0.242208702      0.995939674     -0.242208702      0.00585525899    45.9752355      
 2.06757031       0.00589069337    46.2075049       0.995932431     -0.244629026      0.995932431     -0.244629026      0.00589069337    46.2075049      
 2.08824601       0.0059265565     46.4394911       0.99592515      -0.247073525      0.99592515      -0.247073525      0.0059265565     46.4394911      
 2.10912847       0.00596285301    46.6711782       0.995917829     -0.249542443      0.995917829     -0.249542443      0.00596285301    46.6711782      
 2.13021975       0.0059995876     46.9025505       0.99591047      -0.252036021      0.99591047      -0.252036021      0.0059995876     46.9025505      
 2.15152195       0.00603676496    47.1335921       0.99590307      -0.254554508      0.99590307      -0.254554508      0.00603676496    47.1335921      
 2.17303717       0.00607438988    47.3642876       0.995895631     -0.25709815       0.995895631     -0.25709815       0.00607438988    47.3642876      
 2.19476754       0.00611246713    47.5946214       0.995888153     -0.2596672        0.995888153     -0.2596672        0.00611246713    47.5946214      
 2.21671522       0.00615100157    47.8245782       0.995880633     -0.262261911      0.995880633     -0.262261911      0.00615100157    47.8245782      
 2.23888237       0.00618999806    48.0541428       0.995873074     -0.264882539      0.995873074     -0.264882539      0.00618999806    48.0541428      
 2.26127119       0.00622946152    48.2833          0.995865474     -0.267529343      0.995865474     -0.267529343      0.00622946152    48.2833         
 2.2838839        0.00626939692    48.5120349       0.995857832     -0.270202584      0.995857832     -0.270202584      0.00626939692    48.5120349      
 2.30672274       0.00630980925    48.7403326       0.99585015      -0.272902525      0.99585015      -0.272902525      0.00630980925    48.7403326      
 2.32978997       0.00635070354    48.9681786       0.995842425     -0.275629435      0.995842425     -0.275629435      0.00635070354    48.9681786      
 2.35308787       0.0063920849     49.1955582       0.995834659     -0.278383581      0.995834659     -0.278383581      0.0063920849     49.1955582      
 2.37661875       0.00643395843    49.422457        0.995826851     -0.281165235      0.995826851     -0.281165235      0.00643395843    49.422457       
 2.40038494       0.00647632932    49.6488608       0.995819001     -0.283974673      0.995819001     -0.283974673      0.00647632932    49.6488608      
 2.42438879       0.00651920276    49.8747556       0.995811107     -0.286812171      0.995811107     -0.286812171      0.00651920276    49.8747556      
 2.44863267       0.00656258401    50.1001275       0.995803171     -0.28967801       0.995803171     -0.28967801       0.00656258401    50.1001275      
 2.473119         0.00660647837    50.3249626       0.995795192     -0.292572472      0.995795192     -0.292572472      0.00660647837    50.3249626      
 2.49785019       0.00665089119    50.5492474       0.995787169     -0.295495843      0.995787169     -0.295495843      0.00665089119    50.5492474      
 2.52282869       0.00669582784    50.7729684       0.995779102     -0.298448412      0.995779102     -0.298448412      0.00669582784    50.7729684      
 2.54805698       0.00674129377    50.9961126       0.995770991     -0.30143047       0.995770991     -0.30143047       0.00674129377    50.9961126      
 2.57353755       0.00678729444    51.2186667       0.995762836     -0.304442311      0.995762836     -0.304442311      0.00678729444    51.2186667      
 2.59927293       0.00683383539    51.4406178       0.995754636     -0.307484232      0.995754636     -0.307484232      0.00683383539    51.4406178      
 2.62526565       0.00688092218    51.6619534       0.995746391     -0.310556534      0.995746391     -0.310556534      0.00688092218    51.6619534      
 2.65151831       0.00692856043    51.8826609       0.9957381       -0.313659521      0.9957381       -0.313659521      0.00692856043    51.8826609      
 2.67803349       0.00697675581    52.1027279       0.995729764     -0.316793497      0.995729764     -0.316793497      0.00697675581    52.1027279      
 2.70481383       0.00702551402    52.3221423       0.995721382     -0.319958773      0.995721382     -0.319958773      0.00702551402    52.3221423      
 2.73186197       0.00707484082    52.5408922       0.995712954     -0.323155661      0.995712954     -0.323155661      0.00707484082    52.5408922      
 2.75918059       0.00712474204    52.7589658       0.995704479     -0.326384476      0.995704479     -0.326384476      0.00712474204    52.7589658      
 2.78677239       0.00717522352    52.9763515       0.995695957     -0.329645538      0.995695957     -0.329645537      0.00717522352    52.9763515      
 2.81464012       0.00722629117    53.193038        0.995687388     -0.332939166      0.995687388     -0.332939166      0.00722629117    53.193038       
 2.84278652       0.00727795096    53.4090141       0.995678772     -0.336265688      0.995678772     -0.336265688      0.00727795096    53.4090141      
 2.87121438       0.00733020889    53.6242689       0.995670107     -0.339625431      0.995670107     -0.339625431      0.00733020889    53.6242689      
 2.89992653       0.00738307103    53.8387915       0.995661394     -0.343018726      0.995661394     -0.343018726      0.00738307103    53.8387915      
 2.92892579       0.00743654349    54.0525714       0.995652633     -0.346445908      0.995652633     -0.346445908      0.00743654349    54.0525714      
 2.95821505       0.00749063244    54.2655983       0.995643822     -0.349907316      0.995643822     -0.349907316      0.00749063244    54.2655983      
 2.9877972        0.0075453441     54.4778621       0.995634963     -0.353403291      0.995634963     -0.353403291      0.0075453441     54.4778621      
 3.01767517       0.00760068473    54.6893526       0.995626053     -0.356934177      0.995626053     -0.356934177      0.00760068473    54.6893526      
 3.04785192       0.00765666067    54.9000603       0.995617094     -0.360500324      0.995617094     -0.360500324      0.00765666067    54.9000603      
 3.07833044       0.00771327831    55.1099755       0.995608084     -0.364102084      0.995608084     -0.364102084      0.00771327831    55.1099755      
 3.10911375       0.00777054408    55.319089        0.995599023     -0.36773981       0.995599023     -0.36773981       0.00777054408    55.319089       
 3.14020489       0.00782846447    55.5273915       0.995589912     -0.371413863      0.995589912     -0.371413863      0.00782846447    55.5273915      
 3.17160693       0.00788704603    55.7348743       0.995580749     -0.375124604      0.995580749     -0.375124604      0.00788704603    55.7348743      
 3.203323         0.00794629539    55.9415285       0.995571534     -0.378872401      0.995571534     -0.378872401      0.00794629539    55.9415285      
 3.23535623       0.00800621919    56.1473457       0.995562266     -0.382657622      0.995562266     -0.382657622      0.00800621919    56.1473457      
 3.2677098        0.00806682417    56.3523176       0.995552946     -0.386480641      0.995552946     -0.386480641      0.00806682417    56.3523176      
 3.30038689       0.00812811712    56.5564361       0.995543573     -0.390341835      0.995543573     -0.390341835      0.00812811712    56.5564361      
 3.33339076       0.00819010488    56.7596933       0.995534147     -0.394241585      0.995534147     -0.394241585      0.00819010488    56.7596933      
 3.36672467       0.00825279435    56.9620815       0.995524666     -0.398180275      0.995524666     -0.398180275      0.00825279435    56.9620815      
 3.40039192       0.0083161925     57.1635933       0.995515132     -0.402158295      0.995515132     -0.402158295      0.0083161925     57.1635933      
 3.43439584       0.00838030636    57.3642214       0.995505543     -0.406176036      0.995505543     -0.406176036      0.00838030636    57.3642214      
 3.4687398        0.00844514302    57.5639588       0.995495898     -0.410233894      0.995495898     -0.410233894      0.00844514302    57.5639588      
 3.50342719       0.00851070965    57.7627985       0.995486199     -0.414332271      0.995486199     -0.414332271      0.00851070965    57.7627985      
