# MHz           S          MA           R         50
!Freq             MagS11           AngS11           MagS21           AngS21           MagS12           AngS12           MagS22           AngS22
 1                0.00270801335    30.535415        0.997668495     -0.0790153718     0.997668495     -0.0790153718     0.00270801335    30.535415       
 1.01             0.00271751515    30.7540857       0.997665617     -0.0798052958     0.997665617     -0.0798052958     0.00271751515    30.7540857      
 1.0201           0.00272713983    30.973542        0.997662724     -0.0806031156     0.997662724     -0.0806031156     0.00272713983    30.973542       
 1.030301         0.00273688901    31.1937728       0.997659816     -0.08140891       0.997659816     -0.08140891       0.00273688901    31.1937728      
 1.04060401       0.00274676435    31.4147667       0.997656893     -0.0822227588     0.997656893     -0.0822227588     0.00274676435    31.4147667      
 1.05101005       0.0027567675     31.6365122       0.997653956     -0.0830447425     0.997653956     -0.0830447425     0.0027567675     31.6365122      
 1.06152015       0.00276690014    31.8589975       0.997651003     -0.0838749424     0.997651003     -0.0838749424     0.00276690014    31.8589975      
 1.07213535       0.00277716397    32.0822105       0.997648036     -0.0847134405     0.997648036     -0.0847134405     0.00277716397    32.0822105      
 1.08285671       0.00278756071    32.3061391       0.997645053     -0.0855603198     0.997645053     -0.0855603198     0.00278756071    32.3061391      
 1.09368527       0.00279809209    32.5307709       0.997642056     -0.086415664      0.997642056     -0.086415664      0.00279809209    32.5307709      
 1.10462213       0.00280875985    32.756093        0.997639042     -0.0872795578     0.997639042     -0.0872795578     0.00280875985    32.756093       
 1.11566835       0.00281956578    32.9820928       0.997636014     -0.0881520865     0.997636014     -0.0881520865     0.00281956578    32.9820928      
 1.12682503       0.00283051164    33.2087571       0.99763297      -0.0890333365     0.99763297      -0.0890333365     0.00283051164    33.2087571      
 1.13809328       0.00284159925    33.4360725       0.997629911     -0.0899233949     0.997629911     -0.0899233949     0.00284159925    33.4360725      
 1.14947421       0.00285283043    33.6640257       0.997626836     -0.0908223497     0.997626836     -0.0908223497     0.00285283043    33.6640257      
 1.16096896       0.00286420702    33.892603        0.997623745     -0.0917302899     0.997623745     -0.0917302899     0.00286420702    33.892603       
 1.17257864       0.00287573088    34.1217903       0.997620639     -0.0926473051     0.997620639     -0.0926473051     0.00287573088    34.1217903      
 1.18430443       0.00288740389    34.3515737       0.997617517     -0.0935734862     0.997617517     -0.0935734862     0.00288740389    34.3515737      
 1.19614748       0.00289922794    34.5819389       0.997614378     -0.0945089247     0.997614378     -0.0945089247     0.00289922794    34.5819389      
 1.20810895       0.00291120495    34.8128714       0.997611224     -0.0954537131     0.997611224     -0.0954537131     0.00291120495    34.8128714      
 1.22019004       0.00292333685    35.0443565       0.997608054     -0.0964079448     0.997608054     -0.0964079448     0.00292333685    35.0443565      
 1.23239194       0.00293562558    35.2763795       0.997604867     -0.0973717142     0.997604867     -0.0973717142     0.00293562558    35.2763795      
 1.24471586       0.00294807313    35.5089253       0.997601664     -0.0983451166     0.997601664     -0.0983451166     0.00294807313    35.5089253      
 1.25716302       0.00296068148    35.7419787       0.997598445     -0.0993282483     0.997598445     -0.0993282483     0.00296068148    35.7419787      
 1.26973465       0.00297345264    35.9755244       0.997595209     -0.100321207      0.997595209     -0.100321207      0.00297345264    35.9755244      
 1.282432         0.00298638863    36.2095469       0.997591957     -0.101324089      0.997591957     -0.101324089      0.00298638863    36.2095469      
 1.29525631       0.0029994915     36.4440305       0.997588688     -0.102336996      0.997588688     -0.102336996      0.0029994915     36.4440305      
 1.30820888       0.00301276332    36.6789594       0.997585402     -0.103360027      0.997585402     -0.103360027      0.00301276332    36.6789594      
 1.32129097       0.00302620616    36.9143176       0.997582099     -0.104393283      0.997582099     -0.104393283      0.00302620616    36.9143176      
 1.33450388       0.00303982214    37.150089        0.99757878      -0.105436866      0.99757878      -0.105436866      0.00303982214    37.150089       
 1.34784892       0.00305361337    37.3862574       0.997575443     -0.10649088       0.997575443     -0.10649088       0.00305361337    37.3862574      
 1.3613274        0.003067582      37.6228063       0.997572089     -0.107555428      0.997572089     -0.107555428      0.003067582      37.6228063      
 1.37494068       0.00308173018    37.8597193       0.997568718     -0.108630617      0.997568718     -0.108630617      0.00308173018    37.8597193      
 1.38869009       0.0030960601     38.0969797       0.99756533      -0.109716552      0.99756533      -0.109716552      0.0030960601     38.0969797      
 1.40257699       0.00311057396    38.3345707       0.997561924     -0.11081334       0.997561924     -0.11081334       0.00311057396    38.3345707      
 1.41660276       0.00312527398    38.5724755       0.997558501     -0.111921091      0.997558501     -0.111921091      0.00312527398    38.5724755      
 1.43076878       0.0031401624     38.8106771       0.99755506      -0.113039914      0.99755506      -0.113039914      0.0031401624     38.8106771      
 1.44507647       0.00315524148    39.0491583       0.997551602     -0.114169919      0.997551602     -0.114169919      0.00315524148    39.0491583      
 1.45952724       0.00317051349    39.2879021       0.997548125     -0.115311218      0.997548125     -0.115311218      0.00317051349    39.2879021      
 1.47412251       0.00318598075    39.5268912       0.997544631     -0.116463924      0.997544631     -0.116463924      0.00318598075    39.5268912      
 1.48886373       0.00320164555    39.7661082       0.997541119     -0.117628151      0.997541119     -0.117628151      0.00320164555    39.7661082      
 1.50375237       0.00321751026    40.0055357       0.997537588     -0.118804013      0.997537588     -0.118804013      0.00321751026    40.0055357      
 1.51878989       0.00323357722    40.2451562       0.99753404      -0.119991629      0.99753404      -0.119991629      0.00323357722    40.2451562      
 1.53397779       0.00324984882    40.4849521       0.997530473     -0.121191113      0.997530473     -0.121191113      0.00324984882    40.4849521      
 1.54931757       0.00326632746    40.7249058       0.997526887     -0.122402587      0.997526887     -0.122402587      0.00326632746    40.7249058      
 1.56481075       0.00328301556    40.9649997       0.997523283     -0.123626168      0.997523283     -0.123626168      0.00328301556    40.9649997      
 1.58045885       0.00329991556    41.205216        0.997519661     -0.124861978      0.997519661     -0.124861978      0.00329991556    41.205216       
 1.59626344       0.00331702993    41.4455369       0.99751602      -0.12611014       0.99751602      -0.12611014       0.00331702993    41.4455369      
 1.61222608       0.00333436114    41.6859448       0.997512359     -0.127370776      0.997512359     -0.127370776      0.00333436114    41.6859448      
 1.62834834       0.00335191171    41.9264216       0.99750868      -0.128644012      0.99750868      -0.128644012      0.00335191171    41.9264216      
 1.64463182       0.00336968416    42.1669497       0.997504982     -0.129929973      0.997504982     -0.129929973      0.00336968416    42.1669497      
 1.66107814       0.00338768104    42.4075111       0.997501265     -0.131228786      0.997501265     -0.131228786      0.00338768104    42.4075111      
 1.67768892       0.00340590491    42.6480881       0.997497528     -0.13254058       0.997497528     -0.13254058       0.00340590491    42.6480881      
 1.69446581       0.00342435837    42.8886626       0.997493772     -0.133865484      0.997493772     -0.133865484      0.00342435837    42.8886626      
 1.71141047       0.00344304402    43.129217        0.997489996     -0.13520363       0.997489996     -0.13520363       0.00344304402    43.129217       
 1.72852457       0.0034619645     43.3697332       0.997486201     -0.136555149      0.997486201     -0.136555149      0.0034619645     43.3697332      
 1.74580982       0.00348112247    43.6101936       0.997482386     -0.137920176      0.997482386     -0.137920176      0.00348112247    43.6101936      
 1.76326792       0.00350052059    43.8505803       0.997478551     -0.139298845      0.997478551     -0.139298845      0.00350052059    43.8505803      
 1.7809006        0.00352016158    44.0908755       0.997474696     -0.140691293      0.997474696     -0.140691293      0.00352016158    44.0908755      
 1.7987096        0.00354004814    44.3310615       0.997470822     -0.142097657      0.997470822     -0.142097657      0.00354004814    44.3310615      
 1.8166967        0.00356018303    44.5711206       0.997466926     -0.143518076      0.997466926     -0.143518076      0.00356018303    44.5711206      
 1.83486367       0.00358056901    44.8110352       0.997463011     -0.144952691      0.997463011     -0.144952691      0.00358056901    44.8110352      
 1.8532123        0.00360120886    45.0507876       0.997459075     -0.146401644      0.997459075     -0.146401644      0.00360120886    45.0507876      
 1.87174443       0.0036221054     45.2903605       0.997455119     -0.147865077      0.997455119     -0.147865077      0.0036221054     45.2903605      
 1.89046187       0.00364326146    45.5297362       0.997451142     -0.149343136      0.997451142     -0.149343136      0.00364326146    45.5297362      
 1.90936649       0.0036646799     45.7688975       0.997447144     -0.150835967      0.997447144     -0.150835967      0.0036646799     45.7688975      
 1.92846015       0.0036863636     46.0078271       0.997443125     -0.152343717      0.997443125     -0.152343717      0.0036863636     46.0078271      
 1.94774475       0.00370831546    46.2465076       0.997439085     -0.153866535      0.997439085     -0.153866535      0.00370831546    46.2465076      
 1.9672222        0.00373053841    46.4849221       0.997435024     -0.155404571      0.997435024     -0.155404571      0.00373053841    46.4849221      
 1.98689442       0.00375303539    46.7230535       0.997430941     -0.156957979      0.997430941     -0.156957979      0.00375303539    46.7230535      
 2.00676337       0.0037758094     46.9608849       0.997426837     -0.158526911      0.997426837     -0.158526911      0.0037758094     46.9608849      
 2.026831         0.00379886341    47.1983995       0.997422712     -0.160111522      0.997422712     -0.160111522      0.00379886341    47.1983995      
 2.04709931       0.00382220047    47.4355806       0.997418565     -0.161711969      0.997418565     -0.161711969      0.00382220047    47.4355806      
 2.06757031       0.0038458236     47.6724116       0.997414396     -0.163328411      0.997414396     -0.163328411      0.0038458236     47.6724116      
 2.08824601       0.0038697359     47.9088762       0.997410205     -0.164961007      0.997410205     -0.164961007      0.0038697359     47.9088762      
 2.10912847       0.00389394045    48.1449579       0.997405992     -0.166609918      0.997405992     -0.166609918      0.00389394045    48.1449579      
 2.13021975       0.00391844037    48.3806406       0.997401756     -0.168275308      0.997401756     -0.168275308      0.00391844037    48.3806406      
 2.15152195       0.00394323882    48.6159083       0.997397499     -0.169957341      0.997397499     -0.169957341      0.00394323882    48.6159083      
 2.17303717       0.00396833896    48.8507451       0.997393219     -0.171656183      0.997393219     -0.171656183      0.00396833896    48.8507451      
 2.19476754       0.00399374401    49.0851353       0.997388916     -0.173372003      0.997388916     -0.173372003      0.00399374401    49.0851353      
 2.21671522       0.00401945717    49.3190632       0.99738459      -0.175104969      0.99738459      -0.175104969      0.00401945717    49.3190632      
 2.23888237       0.0040454817     49.5525135       0.997380242     -0.176855254      0.997380242     -0.176855254      0.0040454817     49.5525135      
 2.26127119       0.00407182089    49.785471        0.99737587      -0.17862303       0.99737587      -0.17862303       0.00407182089    49.785471       
 2.2838839        0.00409847803    50.0179204       0.997371475     -0.180408471      0.997371475     -0.180408471      0.00409847803    50.0179204      
 2.30672274       0.00412545645    50.249847        0.997367057     -0.182211756      0.997367057     -0.182211756      0.00412545645    50.249847       
 2.32978997       0.00415275952    50.4812359       0.997362616     -0.18403306       0.997362616     -0.18403306       0.00415275952    50.4812359      
 2.35308787       0.00418039062    50.7120727       0.99735815      -0.185872566      0.99735815      -0.185872566      0.00418039062    50.7120727      
 2.37661875       0.00420835317    50.9423429       0.997353661     -0.187730454      0.997353661     -0.187730454      0.00420835317    50.9423429      
 2.40038494       0.0042366506     51.1720323       0.997349148     -0.189606908      0.997349148     -0.189606908      0.0042366506     51.1720323      
 2.42438879       0.00426528639    51.401127        0.997344611     -0.191502113      0.997344611     -0.191502113      0.00426528639    51.401127       
 2.44863267       0.00429426403    51.6296132       0.99734005      -0.193416258      0.99734005      -0.193416258      0.00429426403    51.6296132      
 2.473119         0.00432358705    51.8574772       0.997335464     -0.19534953       0.997335464     -0.19534953       0.00432358705    51.8574772      
 2.49785019       0.00435325901    52.0847057       0.997330854     -0.197302122      0.997330854     -0.197302122      0.00435325901    52.0847057      
 2.52282869       0.0043832835     52.3112855       0.997326219     -0.199274225      0.997326219     -0.199274225      0.0043832835     52.3112855      
 2.54805698       0.00441366413    52.5372035       0.997321559     -0.201266036      0.997321559     -0.201266036      0.00441366413    52.5372035      
 2.57353755       0.00444440455    52.7624469       0.997316874     -0.203277751      0.997316874     -0.203277751      0.00444440455    52.7624469      
 2.59927293       0.00447550843    52.9870033       0.997312164     -0.205309568      0.997312164     -0.205309568      0.00447550843    52.9870033      
 2.62526565       0.00450697948    53.2108601       0.997307428     -0.207361689      0.997307428     -0.207361689      0.00450697948    53.2108601      
 2.65151831       0.00453882144    53.4340054       0.997302668     -0.209434316      0.997302668     -0.209434316      0.00453882144    53.4340054      
 2.67803349       0.00457103808    53.656427        0.997297881     -0.211527654      0.997297881     -0.211527654      0.00457103808    53.656427       
 2.70481383       0.0046036332     53.8781134       0.997293068     -0.21364191       0.997293068     -0.21364191       0.0046036332     53.8781134      
 2.73186197       0.00463661063    54.0990531       0.99728823      -0.215777293      0.99728823      -0.215777293      0.00463661063    54.0990531      
 2.75918059       0.00466997424    54.3192347       0.997283365     -0.217934015      0.997283365     -0.217934015      0.00466997424    54.3192347      
 2.78677239       0.00470372793    54.5386471       0.997278474     -0.220112287      0.997278474     -0.220112287      0.00470372793    54.5386471      
 2.81464012       0.00473787563    54.7572797       0.997273556     -0.222312325      0.997273556     -0.222312325      0.00473787563    54.7572797      
 2.84278652       0.0047724213     54.9751216       0.997268612     -0.224534348      0.997268612     -0.224534348      0.0047724213     54.9751216      
 2.87121438       0.00480736894    55.1921627       0.997263641     -0.226778573      0.997263641     -0.226778573      0.00480736894    55.1921627      
 2.89992653       0.00484272259    55.4083927       0.997258643     -0.229045224      0.997258643     -0.229045224      0.00484272259    55.4083927      
 2.92892579       0.00487848631    55.6238017       0.997253617     -0.231334524      0.997253617     -0.231334524      0.00487848631    55.6238017      
 2.95821505       0.00491466421    55.83838         0.997248564     -0.233646699      0.997248564     -0.233646699      0.00491466421    55.83838        
 2.9877972        0.00495126042    56.0521181       0.997243484     -0.235981978      0.997243484     -0.235981978      0.00495126042    56.0521181      
 3.01767517       0.00498827912    56.2650068       0.997238375     -0.238340592      0.997238375     -0.238340592      0.00498827912    56.2650068      
 3.04785192       0.00502572452    56.477037        0.997233239     -0.240722773      0.997233239     -0.240722773      0.00502572452    56.477037       
 3.07833044       0.00506360086    56.6882001       0.997228074     -0.243128758      0.997228074     -0.243128758      0.00506360086    56.6882001      
 3.10911375       0.00510191244    56.8984873       0.997222881     -0.245558783      0.997222881     -0.245558783      0.00510191244    56.8984873      
 3.14020489       0.00514066356    57.1078904       0.99721766      -0.248013088      0.99721766      -0.248013088      0.00514066356    57.1078904      
 3.17160693       0.0051798586     57.3164013       0.99721241      -0.250491918      0.99721241      -0.250491918      0.0051798586     57.3164013      
 3.203323         0.00521950194    57.5240121       0.99720713      -0.252995515      0.99720713      -0.252995515      0.00521950194    57.5240121      
 3.23535623       0.00525959802    57.7307151       0.997201822     -0.255524128      0.997201822     -0.255524128      0.00525959802    57.7307151      
 3.2677098        0.00530015133    57.9365029       0.997196484     -0.258078007      0.997196484     -0.258078007      0.00530015133    57.9365029      
 3.30038689       0.00534116637    58.1413684       0.997191117     -0.260657403      0.997191117     -0.260657403      0.00534116637    58.1413684      
 3.33339076       0.0053826477     58.3453044       0.99718572      -0.263262572      0.99718572      -0.263262572      0.0053826477     58.3453044      
 3.36672467       0.00542459992    58.5483043       0.997180292     -0.265893771      0.997180292     -0.265893771      0.00542459992    58.5483043      
 3.40039192       0.00546702766    58.7503616       0.997174835     -0.26855126       0.997174835     -0.26855126       0.00546702766    58.7503616      
 3.43439584       0.00550993561    58.9514698       0.997169347     -0.271235302      0.997169347     -0.271235302      0.00550993561    58.9514698      
 3.4687398        0.00555332848    59.1516229       0.997163829     -0.273946161      0.997163829     -0.273946161      0.00555332848    59.1516229      
 3.50342719       0.00559721103    59.3508151       0.99715828      -0.276684106      0.99715828      -0.276684106      0.00559721103    59.3508151      
