# MHz           S          MA           R         50
!Freq             MagS11           AngS11           MagS21           AngS21           MagS12           AngS12           MagS22           AngS22
 1                0.000924761736   27.4684594       0.999179582     -0.0244599172     0.999179582     -0.0244599172     0.000924761736   27.4684594      
 1.01             0.000927537929   27.6764201       0.999178679     -0.024704494      0.999178679     -0.024704494      0.000927537929   27.6764201      
 1.0201           0.000930350246   27.8853262       0.999177772     -0.0249515163     0.999177772     -0.0249515163     0.000930350246   27.8853262      
 1.030301         0.000933199185   28.0951701       0.99917686      -0.0252010085     0.99917686      -0.0252010085     0.000933199185   28.0951701      
 1.04060401       0.000936085251   28.3059438       0.999175943     -0.0254529953     0.999175943     -0.0254529953     0.000936085251   28.3059438      
 1.05101005       0.000939008955   28.517639        0.999175021     -0.0257075015     0.999175021     -0.0257075015     0.000939008955   28.517639       
 1.06152015       0.000941970813   28.7302472       0.999174095     -0.0259645525     0.999174095     -0.0259645525     0.000941970813   28.7302472      
 1.07213535       0.000944971347   28.9437599       0.999173165     -0.0262241736     0.999173165     -0.0262241736     0.000944971347   28.9437599      
 1.08285671       0.000948011086   29.1581679       0.99917223      -0.0264863906     0.99917223      -0.0264863906     0.000948011086   29.1581679      
 1.09368527       0.000951090564   29.3734622       0.99917129      -0.0267512294     0.99917129      -0.0267512294     0.000951090564   29.3734622      
 1.10462213       0.00095421032    29.5896333       0.999170345     -0.0270187161     0.999170345     -0.0270187161     0.00095421032    29.5896333      
 1.11566835       0.000957370902   29.8066715       0.999169395     -0.0272888774     0.999169395     -0.0272888774     0.000957370902   29.8066715      
 1.12682503       0.000960572862   30.0245669       0.999168441     -0.0275617399     0.999168441     -0.0275617399     0.000960572862   30.0245669      
 1.13809328       0.000963816757   30.2433093       0.999167482     -0.0278373306     0.999167482     -0.0278373306     0.000963816757   30.2433093      
 1.14947421       0.000967103153   30.4628884       0.999166518     -0.0281156768     0.999166518     -0.0281156768     0.000967103153   30.4628884      
 1.16096896       0.00097043262    30.6832935       0.99916555      -0.0283968061     0.99916555      -0.0283968061     0.000970432621   30.6832935      
 1.17257864       0.000973805735   30.9045137       0.999164576     -0.0286807462     0.999164576     -0.0286807462     0.000973805735   30.9045137      
 1.18430443       0.000977223082   31.1265379       0.999163598     -0.0289675254     0.999163598     -0.0289675254     0.000977223082   31.1265379      
 1.19614748       0.000980685248   31.3493549       0.999162614     -0.0292571718     0.999162614     -0.0292571719     0.000980685248   31.3493549      
 1.20810895       0.00098419283    31.5729529       0.999161626     -0.0295497144     0.999161626     -0.0295497144     0.00098419283    31.5729529      
 1.22019004       0.00098774643    31.7973203       0.999160633     -0.0298451819     0.999160633     -0.0298451819     0.00098774643    31.7973203      
 1.23239194       0.000991346656   32.0224449       0.999159634     -0.0301436036     0.999159634     -0.0301436036     0.000991346656   32.0224449      
 1.24471586       0.000994994122   32.2483144       0.999158631     -0.0304450091     0.999158631     -0.0304450091     0.000994994122   32.2483144      
 1.25716302       0.000998689449   32.4749165       0.999157623     -0.0307494282     0.999157623     -0.0307494282     0.000998689449   32.4749165      
 1.26973465       0.00100243327    32.7022383       0.99915661      -0.0310568911     0.99915661      -0.0310568911     0.00100243327    32.7022383      
 1.282432         0.0010062262     32.930267        0.999155591     -0.031367428      0.999155591     -0.031367428      0.0010062262     32.930267       
 1.29525631       0.0010100689     33.1589893       0.999154567     -0.0316810699     0.999154567     -0.0316810699     0.0010100689     33.1589893      
 1.30820888       0.00101396201    33.3883918       0.999153539     -0.0319978477     0.999153539     -0.0319978477     0.00101396201    33.3883918      
 1.32129097       0.00101790619    33.6184611       0.999152505     -0.0323177928     0.999152505     -0.0323177928     0.00101790618    33.6184611      
 1.33450388       0.00102190208    33.8491832       0.999151466     -0.0326409368     0.999151466     -0.0326409368     0.00102190208    33.8491832      
 1.34784892       0.00102595036    34.0805443       0.999150421     -0.0329673118     0.999150421     -0.0329673118     0.00102595036    34.0805443      
 1.3613274        0.0010300517     34.3125299       0.999149372     -0.03329695       0.999149372     -0.03329695       0.0010300517     34.3125299      
 1.37494068       0.00103420679    34.5451258       0.999148317     -0.033629884      0.999148317     -0.033629884      0.00103420679    34.5451258      
 1.38869009       0.0010384163     34.7783173       0.999147257     -0.0339661469     0.999147257     -0.0339661469     0.0010384163     34.7783173      
 1.40257699       0.00104268093    35.0120897       0.999146191     -0.0343057718     0.999146191     -0.0343057718     0.00104268093    35.0120897      
 1.41660276       0.00104700137    35.2464278       0.99914512      -0.0346487924     0.99914512      -0.0346487924     0.00104700137    35.2464278      
 1.43076878       0.00105137835    35.4813165       0.999144044     -0.0349952427     0.999144044     -0.0349952427     0.00105137835    35.4813165      
 1.44507647       0.00105581256    35.7167405       0.999142962     -0.035345157      0.999142962     -0.035345157      0.00105581256    35.7167405      
 1.45952724       0.00106030472    35.9526843       0.999141875     -0.0356985697     0.999141875     -0.0356985697     0.00106030472    35.9526843      
 1.47412251       0.00106485557    36.189132        0.999140782     -0.0360555161     0.999140782     -0.0360555161     0.00106485557    36.189132       
 1.48886373       0.00106946584    36.4260679       0.999139684     -0.0364160313     0.999139684     -0.0364160313     0.00106946584    36.4260679      
 1.50375237       0.00107413627    36.6634758       0.999138581     -0.036780151      0.999138581     -0.036780151      0.00107413627    36.6634758      
 1.51878989       0.00107886759    36.9013396       0.999137471     -0.0371479114     0.999137471     -0.0371479114     0.00107886759    36.9013396      
 1.53397779       0.00108366058    37.1396429       0.999136356     -0.0375193487     0.999136356     -0.0375193487     0.00108366058    37.1396429      
 1.54931757       0.00108851598    37.3783692       0.999135236     -0.0378944998     0.999135236     -0.0378944998     0.00108851598    37.3783692      
 1.56481075       0.00109343457    37.6175018       0.99913411      -0.0382734017     0.99913411      -0.0382734017     0.00109343457    37.6175018      
 1.58045885       0.00109841712    37.8570241       0.999132978     -0.038656092      0.999132978     -0.038656092      0.00109841712    37.8570241      
 1.59626344       0.00110346441    38.0969189       0.999131841     -0.0390426086     0.999131841     -0.0390426086     0.00110346441    38.0969189      
 1.61222608       0.00110857723    38.3371694       0.999130697     -0.0394329896     0.999130697     -0.0394329896     0.00110857723    38.3371694      
 1.62834834       0.00111375638    38.5777583       0.999129548     -0.0398272738     0.999129548     -0.0398272738     0.00111375638    38.5777583      
 1.64463182       0.00111900265    38.8186684       0.999128393     -0.0402255001     0.999128393     -0.0402255001     0.00111900265    38.8186684      
 1.66107814       0.00112431687    39.0598823       0.999127233     -0.040627708      0.999127233     -0.040627708      0.00112431687    39.0598823      
 1.67768892       0.00112969983    39.3013824       0.999126066     -0.0410339373     0.999126066     -0.0410339373     0.00112969983    39.3013824      
 1.69446581       0.00113515238    39.5431512       0.999124894     -0.0414442281     0.999124894     -0.0414442281     0.00113515238    39.5431512      
 1.71141047       0.00114067533    39.7851711       0.999123716     -0.0418586212     0.999123716     -0.0418586212     0.00114067533    39.7851711      
 1.72852457       0.00114626954    40.0274242       0.999122531     -0.0422771574     0.999122531     -0.0422771574     0.00114626954    40.0274242      
 1.74580982       0.00115193584    40.2698927       0.999121341     -0.0426998782     0.999121341     -0.0426998782     0.00115193584    40.2698927      
 1.76326792       0.00115767508    40.5125587       0.999120145     -0.0431268254     0.999120145     -0.0431268254     0.00115767508    40.5125587      
 1.7809006        0.00116348813    40.7554043       0.999118942     -0.0435580414     0.999118942     -0.0435580414     0.00116348813    40.7554043      
 1.7987096        0.00116937585    40.9984114       0.999117734     -0.0439935687     0.999117734     -0.0439935687     0.00116937585    40.9984114      
 1.8166967        0.00117533912    41.2415618       0.99911652      -0.0444334505     0.99911652      -0.0444334505     0.00117533912    41.2415618      
 1.83486367       0.00118137883    41.4848376       0.999115299     -0.0448777303     0.999115299     -0.0448777303     0.00118137883    41.4848376      
 1.8532123        0.00118749585    41.7282205       0.999114072     -0.0453264521     0.999114072     -0.0453264521     0.00118749585    41.7282205      
 1.87174443       0.00119369109    41.9716922       0.999112839     -0.0457796602     0.999112839     -0.0457796602     0.00119369109    41.9716922      
 1.89046187       0.00119996545    42.2152347       0.9991116       -0.0462373996     0.9991116       -0.0462373996     0.00119996545    42.2152347      
 1.90936649       0.00120631985    42.4588296       0.999110354     -0.0466997155     0.999110354     -0.0466997155     0.00120631985    42.4588296      
 1.92846015       0.0012127552     42.7024587       0.999109102     -0.0471666537     0.999109102     -0.0471666537     0.0012127552     42.7024587      
 1.94774475       0.00121927243    42.9461038       0.999107844     -0.0476382604     0.999107844     -0.0476382604     0.00121927243    42.9461038      
 1.9672222        0.00122587248    43.1897465       0.99910658      -0.0481145823     0.99910658      -0.0481145823     0.00122587248    43.1897465      
 1.98689442       0.00123255628    43.4333687       0.999105309     -0.0485956665     0.999105309     -0.0485956665     0.00123255628    43.4333687      
 2.00676337       0.0012393248     43.676952        0.999104031     -0.0490815605     0.999104031     -0.0490815605     0.0012393248     43.676952       
 2.026831         0.00124617898    43.9204784       0.999102747     -0.0495723126     0.999102747     -0.0495723126     0.00124617898    43.9204784      
 2.04709931       0.00125311979    44.1639295       0.999101457     -0.0500679712     0.999101457     -0.0500679712     0.00125311979    44.1639295      
 2.06757031       0.00126014821    44.4072873       0.99910016      -0.0505685855     0.99910016      -0.0505685855     0.00126014821    44.4072873      
 2.08824601       0.00126726522    44.6505337       0.999098856     -0.0510742049     0.999098856     -0.0510742049     0.00126726522    44.6505337      
 2.10912847       0.00127447181    44.8936506       0.999097546     -0.0515848795     0.999097546     -0.0515848795     0.00127447181    44.8936506      
 2.13021975       0.00128176897    45.13662         0.999096229     -0.0521006598     0.999096229     -0.0521006598     0.00128176897    45.13662        
 2.15152195       0.00128915771    45.379424        0.999094906     -0.0526215969     0.999094906     -0.0526215969     0.00128915771    45.379424       
 2.17303717       0.00129663905    45.6220446       0.999093576     -0.0531477423     0.999093576     -0.0531477423     0.00129663905    45.6220446      
 2.19476754       0.00130421401    45.8644643       0.999092239     -0.0536791481     0.999092239     -0.0536791481     0.00130421401    45.8644643      
 2.21671522       0.00131188361    46.1066651       0.999090895     -0.0542158669     0.999090895     -0.0542158669     0.00131188361    46.1066651      
 2.23888237       0.0013196489     46.3486295       0.999089544     -0.0547579518     0.999089544     -0.0547579518     0.0013196489     46.3486295      
 2.26127119       0.00132751093    46.5903401       0.999088187     -0.0553054564     0.999088187     -0.0553054564     0.00132751093    46.5903401      
 2.2838839        0.00133547074    46.8317792       0.999086822     -0.0558584349     0.999086822     -0.0558584349     0.00133547074    46.8317792      
 2.30672274       0.00134352941    47.0729297       0.999085451     -0.0564169421     0.999085451     -0.0564169421     0.00134352941    47.0729297      
 2.32978997       0.001351688      47.3137743       0.999084073     -0.0569810331     0.999084073     -0.0569810331     0.001351688      47.3137743      
 2.35308787       0.0013599476     47.5542959       0.999082687     -0.057550764      0.999082687     -0.057550764      0.0013599476     47.5542959      
 2.37661875       0.00136830929    47.7944776       0.999081295     -0.0581261909     0.999081295     -0.0581261909     0.00136830929    47.7944776      
 2.40038494       0.00137677418    48.0343025       0.999079895     -0.0587073708     0.999079895     -0.0587073708     0.00137677418    48.0343025      
 2.42438879       0.00138534337    48.2737539       0.999078489     -0.0592943613     0.999078489     -0.0592943613     0.00138534337    48.2737539      
 2.44863267       0.00139401798    48.5128153       0.999077075     -0.0598872205     0.999077075     -0.0598872205     0.00139401798    48.5128153      
 2.473119         0.00140279913    48.7514702       0.999075654     -0.060486007      0.999075654     -0.060486007      0.00140279913    48.7514702      
 2.49785019       0.00141168796    48.9897024       0.999074226     -0.06109078       0.999074226     -0.06109078       0.00141168796    48.9897024      
 2.52282869       0.00142068562    49.2274958       0.99907279      -0.0617015995     0.99907279      -0.0617015995     0.00142068562    49.2274958      
 2.54805698       0.00142979324    49.4648343       0.999071347     -0.0623185258     0.999071347     -0.0623185258     0.00142979324    49.4648343      
 2.57353755       0.001439012      49.7017023       0.999069897     -0.0629416201     0.999069897     -0.0629416201     0.001439012      49.7017023      
 2.59927293       0.00144834307    49.9380841       0.99906844      -0.0635709439     0.99906844      -0.0635709439     0.00144834307    49.9380841      
 2.62526565       0.00145778762    50.1739643       0.999066974     -0.0642065596     0.999066974     -0.0642065596     0.00145778762    50.1739643      
 2.65151831       0.00146734686    50.4093276       0.999065502     -0.0648485299     0.999065502     -0.0648485299     0.00146734686    50.4093276      
 2.67803349       0.00147702197    50.6441589       0.999064022     -0.0654969186     0.999064022     -0.0654969186     0.00147702197    50.6441589      
 2.70481383       0.00148681416    50.8784433       0.999062534     -0.0661517897     0.999062534     -0.0661517897     0.00148681416    50.8784433      
 2.73186197       0.00149672467    51.1121661       0.999061039     -0.066813208      0.999061039     -0.066813208      0.00149672467    51.1121661      
 2.75918059       0.00150675471    51.3453129       0.999059536     -0.067481239      0.999059536     -0.067481239      0.00150675471    51.3453129      
 2.78677239       0.00151690552    51.5778692       0.999058025     -0.0681559488     0.999058025     -0.0681559488     0.00151690552    51.5778692      
 2.81464012       0.00152717837    51.8098211       0.999056507     -0.0688374041     0.999056507     -0.0688374041     0.00152717837    51.8098211      
 2.84278652       0.00153757449    52.0411545       0.999054981     -0.0695256724     0.999054981     -0.0695256724     0.00153757449    52.0411545      
 2.87121438       0.00154809517    52.2718558       0.999053447     -0.0702208218     0.999053447     -0.0702208218     0.00154809517    52.2718558      
 2.89992653       0.00155874169    52.5019115       0.999051905     -0.0709229211     0.999051905     -0.0709229211     0.00155874169    52.5019115      
 2.92892579       0.00156951533    52.7313084       0.999050355     -0.0716320397     0.999050355     -0.0716320397     0.00156951533    52.7313084      
 2.95821505       0.0015804174     52.9600333       0.999048797     -0.0723482478     0.999048797     -0.0723482478     0.0015804174     52.9600333      
 2.9877972        0.00159144922    53.1880734       0.999047232     -0.0730716163     0.999047232     -0.0730716163     0.00159144922    53.1880734      
 3.01767517       0.00160261209    53.4154161       0.999045658     -0.0738022167     0.999045658     -0.0738022167     0.00160261209    53.4154161      
 3.04785192       0.00161390737    53.642049        0.999044076     -0.0745401215     0.999044076     -0.0745401215     0.00161390737    53.642049       
 3.07833044       0.00162533639    53.86796         0.999042486     -0.0752854035     0.999042486     -0.0752854035     0.00162533639    53.86796        
 3.10911375       0.00163690051    54.0931371       0.999040888     -0.0760381365     0.999040888     -0.0760381365     0.00163690051    54.0931371      
 3.14020489       0.0016486011     54.3175685       0.999039281     -0.076798395      0.999039281     -0.076798395      0.0016486011     54.3175685      
 3.17160693       0.00166043954    54.5412428       0.999037667     -0.0775662542     0.999037667     -0.0775662542     0.00166043954    54.5412428      
 3.203323         0.00167241722    54.7641488       0.999036044     -0.0783417902     0.999036044     -0.0783417902     0.00167241722    54.7641488      
 3.23535623       0.00168453555    54.9862754       0.999034412     -0.0791250796     0.999034412     -0.0791250796     0.00168453555    54.9862754      
 3.2677098        0.00169679593    55.2076118       0.999032772     -0.0799161999     0.999032772     -0.0799161999     0.00169679593    55.2076118      
 3.30038689       0.00170919979    55.4281475       0.999031124     -0.0807152295     0.999031124     -0.0807152295     0.00170919979    55.4281475      
 3.33339076       0.00172174858    55.6478722       0.999029467     -0.0815222473     0.999029467     -0.0815222473     0.00172174858    55.6478722      
 3.36672467       0.00173444375    55.8667757       0.999027802     -0.0823373333     0.999027802     -0.0823373333     0.00173444375    55.8667757      
 3.40039192       0.00174728676    56.0848483       0.999026128     -0.0831605681     0.999026128     -0.0831605681     0.00174728676    56.0848483      
 3.43439584       0.00176027908    56.3020804       0.999024446     -0.0839920332     0.999024446     -0.0839920332     0.00176027908    56.3020804      
 3.4687398        0.00177342221    56.5184625       0.999022754     -0.0848318107     0.999022754     -0.0848318107     0.00177342221    56.5184625      
 3.50342719       0.00178671764    56.7339855       0.999021054     -0.0856799839     0.999021054     -0.0856799839     0.00178671764    56.7339855      
