# MHz           S          MA           R         50
!Freq             MagS11           AngS11           MagS21           AngS21           MagS12           AngS12           MagS22           AngS22
 1                0.000397933326   9.07756183       0.999607052     -0.00359858539    0.999607052     -0.00359858539    0.000397933326   9.07756182      
 1.01             0.000398195789   9.16301753       0.999606887     -0.00363457068    0.999606887     -0.00363457068    0.000398195789   9.16301753      
 1.0201           0.000398460958   9.24923271       0.999606722     -0.0036709157     0.999606722     -0.00367091569    0.000398460958   9.2492327       
 1.030301         0.000398728876   9.33621233       0.999606555     -0.0037076243     0.999606555     -0.0037076243     0.000398728876   9.33621233      
 1.04060401       0.000398999581   9.42396288       0.999606388     -0.00374469985    0.999606388     -0.00374469985    0.000398999581   9.42396288      
 1.05101005       0.000399273115   9.51248947       0.999606219     -0.00378214627    0.999606219     -0.00378214627    0.000399273115   9.51248946      
 1.06152015       0.000399549519   9.6017983        0.99960605      -0.0038199671     0.99960605      -0.0038199671     0.000399549519   9.6017983       
 1.07213535       0.000399828836   9.69189513       0.99960588      -0.0038581661     0.99960588      -0.0038581661     0.000399828836   9.69189514      
 1.08285671       0.000400111111   9.7827857        0.999605709     -0.00389674707    0.999605709     -0.00389674707    0.000400111111   9.7827857       
 1.09368527       0.000400396386   9.87447559       0.999605538     -0.00393571391    0.999605538     -0.00393571391    0.000400396386   9.87447559      
 1.10462213       0.000400684706   9.96697087       0.999605365     -0.00397507041    0.999605365     -0.00397507041    0.000400684706   9.96697087      
 1.11566835       0.000400976116   10.0602777       0.999605192     -0.00401482031    0.999605192     -0.00401482031    0.000400976116   10.0602777      
 1.12682503       0.000401270666   10.1544013       0.999605017     -0.00405496783    0.999605017     -0.00405496783    0.000401270666   10.1544013      
 1.13809328       0.000401568398   10.2493478       0.999604842     -0.00409551683    0.999604842     -0.00409551683    0.000401568398   10.2493478      
 1.14947421       0.000401869364   10.3451233       0.999604666     -0.00413647121    0.999604666     -0.00413647121    0.000401869364   10.3451233      
 1.16096896       0.00040217361    10.4417333       0.999604489     -0.00417783518    0.999604489     -0.00417783518    0.00040217361    10.4417333      
 1.17257864       0.000402481187   10.5391838       0.999604311     -0.00421961282    0.999604311     -0.00421961282    0.000402481187   10.5391838      
 1.18430443       0.000402792146   10.6374809       0.999604133     -0.00426180818    0.999604133     -0.00426180818    0.000402792146   10.6374809      
 1.19614748       0.000403106536   10.7366302       0.999603953     -0.00430442551    0.999603953     -0.00430442551    0.000403106536   10.7366302      
 1.20810895       0.000403424412   10.8366379       0.999603773     -0.00434746898    0.999603773     -0.00434746898    0.000403424412   10.8366379      
 1.22019004       0.000403745825   10.9375097       0.999603591     -0.00439094289    0.999603591     -0.00439094289    0.000403745825   10.9375097      
 1.23239194       0.000404070829   11.0392519       0.999603409     -0.00443485144    0.999603409     -0.00443485144    0.000404070829   11.0392519      
 1.24471586       0.000404399479   11.1418697       0.999603226     -0.00447919917    0.999603226     -0.00447919917    0.000404399479   11.1418697      
 1.25716302       0.00040473183    11.2453696       0.999603042     -0.00452399034    0.999603042     -0.00452399034    0.00040473183    11.2453697      
 1.26973465       0.000405067942   11.3497574       0.999602857     -0.00456922938    0.999602857     -0.00456922938    0.000405067942   11.3497574      
 1.282432         0.000405407869   11.4550389       0.999602671     -0.00461492082    0.999602671     -0.00461492082    0.000405407869   11.4550389      
 1.29525631       0.000405751669   11.5612201       0.999602484     -0.00466106915    0.999602484     -0.00466106915    0.000405751669   11.5612201      
 1.30820888       0.000406099405   11.6683069       0.999602296     -0.00470767894    0.999602296     -0.00470767894    0.000406099405   11.6683069      
 1.32129097       0.000406451136   11.776305        0.999602107     -0.00475475486    0.999602107     -0.00475475486    0.000406451136   11.776305       
 1.33450388       0.000406806922   11.8852207       0.999601918     -0.00480230146    0.999601918     -0.00480230146    0.000406806922   11.8852207      
 1.34784892       0.000407166828   11.9950594       0.999601727     -0.0048503236     0.999601727     -0.0048503236     0.000407166828   11.9950594      
 1.3613274        0.000407530916   12.1058273       0.999601535     -0.00489882589    0.999601535     -0.00489882589    0.000407530916   12.1058273      
 1.37494068       0.000407899251   12.2175302       0.999601343     -0.00494781318    0.999601343     -0.00494781318    0.000407899251   12.2175302      
 1.38869009       0.0004082719     12.3301739       0.999601149     -0.00499729035    0.999601149     -0.00499729035    0.0004082719     12.3301739      
 1.40257699       0.000408648928   12.4437642       0.999600955     -0.0050472623     0.999600955     -0.0050472623     0.000408648928   12.4437642      
 1.41660276       0.000409030404   12.558307        0.99960076      -0.0050977339     0.99960076      -0.0050977339     0.000409030404   12.558307       
 1.43076878       0.000409416398   12.6738079       0.999600563     -0.00514871026    0.999600563     -0.00514871026    0.000409416398   12.6738079      
 1.44507647       0.000409806977   12.7902731       0.999600366     -0.00520019628    0.999600366     -0.00520019628    0.000409806977   12.7902731      
 1.45952724       0.000410202217   12.9077079       0.999600167     -0.00525219721    0.999600167     -0.00525219721    0.000410202217   12.9077079      
 1.47412251       0.000410602187   13.0261182       0.999599968     -0.00530471814    0.999599968     -0.00530471815    0.000410602187   13.0261182      
 1.48886373       0.000411006963   13.1455097       0.999599768     -0.00535776425    0.999599768     -0.00535776425    0.000411006963   13.1455097      
 1.50375237       0.000411416618   13.2658881       0.999599566     -0.0054113408     0.999599566     -0.0054113408     0.000411416617   13.2658881      
 1.51878989       0.000411831229   13.387259        0.999599364     -0.00546545309    0.999599364     -0.00546545309    0.000411831229   13.387259       
 1.53397779       0.000412250874   13.509628        0.99959916      -0.00552010652    0.99959916      -0.00552010652    0.000412250874   13.509628       
 1.54931757       0.000412675633   13.6330008       0.999598956     -0.00557530644    0.999598956     -0.00557530644    0.000412675633   13.6330008      
 1.56481075       0.000413105583   13.7573828       0.999598751     -0.00563105833    0.999598751     -0.00563105833    0.000413105583   13.7573828      
 1.58045885       0.000413540808   13.8827796       0.999598544     -0.00568736775    0.999598544     -0.00568736775    0.000413540808   13.8827796      
 1.59626344       0.000413981389   14.0091966       0.999598337     -0.00574424023    0.999598337     -0.00574424023    0.000413981389   14.0091966      
 1.61222608       0.000414427411   14.1366393       0.999598128     -0.00580168142    0.999598128     -0.00580168143    0.000414427411   14.1366393      
 1.62834834       0.000414878959   14.265113        0.999597919     -0.00585969701    0.999597919     -0.00585969701    0.000414878959   14.265113       
 1.64463182       0.000415336121   14.3946231       0.999597708     -0.00591829275    0.999597708     -0.00591829275    0.000415336121   14.3946231      
 1.66107814       0.000415798984   14.5251748       0.999597496     -0.00597747442    0.999597496     -0.00597747441    0.000415798984   14.5251748      
 1.67768892       0.000416267638   14.6567734       0.999597284     -0.00603724788    0.999597284     -0.00603724788    0.000416267638   14.6567734      
 1.69446581       0.000416742174   14.7894241       0.99959707      -0.00609761905    0.99959707      -0.00609761905    0.000416742174   14.7894241      
 1.71141047       0.000417222684   14.9231321       0.999596855     -0.0061585939     0.999596855     -0.0061585939     0.000417222684   14.9231321      
 1.72852457       0.000417709264   15.0579023       0.999596639     -0.00622017848    0.999596639     -0.00622017848    0.000417709264   15.0579023      
 1.74580982       0.000418202008   15.1937397       0.999596422     -0.00628237893    0.999596422     -0.00628237893    0.000418202008   15.1937397      
 1.76326792       0.000418701012   15.3306495       0.999596204     -0.00634520133    0.999596204     -0.00634520133    0.000418701012   15.3306495      
 1.7809006        0.000419206377   15.4686363       0.999595985     -0.0064086519     0.999595985     -0.0064086519     0.000419206377   15.4686363      
 1.7987096        0.000419718203   15.6077049       0.999595765     -0.00647273705    0.999595765     -0.00647273705    0.000419718203   15.6077049      
 1.8166967        0.00042023659    15.7478603       0.999595543     -0.00653746295    0.999595543     -0.00653746295    0.00042023659    15.7478603      
 1.83486367       0.000420761644   15.8891069       0.999595321     -0.00660283613    0.999595321     -0.00660283613    0.000420761644   15.8891069      
 1.8532123        0.000421293468   16.0314494       0.999595097     -0.00666886298    0.999595097     -0.00666886298    0.000421293468   16.0314494      
 1.87174443       0.000421832169   16.1748922       0.999594873     -0.00673555013    0.999594873     -0.00673555013    0.000421832169   16.1748922      
 1.89046187       0.000422377857   16.31944         0.999594647     -0.00680290407    0.999594647     -0.00680290408    0.000422377857   16.31944        
 1.90936649       0.000422930641   16.4650969       0.99959442      -0.00687093155    0.99959442      -0.00687093155    0.000422930641   16.4650969      
 1.92846015       0.000423490631   16.6118672       0.999594192     -0.00693963928    0.999594192     -0.00693963928    0.000423490631   16.6118672      
 1.94774475       0.000424057945   16.7597549       0.999593963     -0.0070090341     0.999593963     -0.0070090341     0.000424057945   16.7597549      
 1.9672222        0.000424632695   16.9087643       0.999593732     -0.00707912279    0.999593732     -0.00707912279    0.000424632695   16.9087643      
 1.98689442       0.000425215      17.0588993       0.999593501     -0.00714991235    0.999593501     -0.00714991235    0.000425215      17.0588994      
 2.00676337       0.000425804977   17.2101638       0.999593268     -0.0072214098     0.999593268     -0.0072214098     0.000425804977   17.2101638      
 2.026831         0.00042640275    17.3625613       0.999593034     -0.00729362219    0.999593034     -0.00729362219    0.00042640275    17.3625613      
 2.04709931       0.000427008438   17.5160958       0.999592799     -0.0073665567     0.999592799     -0.0073665567     0.000427008438   17.5160958      
 2.06757031       0.000427622168   17.6707706       0.999592563     -0.00744022049    0.999592563     -0.00744022049    0.000427622168   17.6707706      
 2.08824601       0.000428244067   17.8265893       0.999592326     -0.00751462088    0.999592326     -0.00751462088    0.000428244067   17.8265893      
 2.10912847       0.000428874262   17.9835549       0.999592087     -0.0075897653     0.999592087     -0.0075897653     0.000428874262   17.9835549      
 2.13021975       0.000429512884   18.1416708       0.999591847     -0.00766566115    0.999591847     -0.00766566115    0.000429512884   18.1416708      
 2.15152195       0.000430160066   18.3009403       0.999591606     -0.00774231583    0.999591606     -0.00774231584    0.000430160065   18.3009403      
 2.17303717       0.000430815941   18.4613658       0.999591364     -0.00781973714    0.999591364     -0.00781973714    0.000430815941   18.4613658      
 2.19476754       0.000431480648   18.6229505       0.999591121     -0.00789793257    0.999591121     -0.00789793257    0.000431480648   18.6229505      
 2.21671522       0.000432154322   18.785697        0.999590876     -0.00797690994    0.999590876     -0.00797690994    0.000432154322   18.7856969      
 2.23888237       0.000432837106   18.9496077       0.999590631     -0.00805667704    0.999590631     -0.00805667704    0.000432837106   18.9496077      
 2.26127119       0.000433529142   19.1146849       0.999590384     -0.00813724184    0.999590384     -0.00813724184    0.000433529142   19.1146849      
 2.2838839        0.000434230576   19.2809312       0.999590135     -0.00821861219    0.999590135     -0.00821861219    0.000434230576   19.2809312      
 2.30672274       0.000434941554   19.4483483       0.999589886     -0.00830079629    0.999589886     -0.00830079629    0.000434941554   19.4483483      
 2.32978997       0.000435662225   19.6169384       0.999589635     -0.00838380216    0.999589635     -0.00838380216    0.000435662225   19.6169384      
 2.35308787       0.000436392741   19.7867033       0.999589383     -0.00846763801    0.999589383     -0.00846763801    0.00043639274    19.7867033      
 2.37661875       0.000437133254   19.9576445       0.99958913      -0.00855231221    0.99958913      -0.00855231221    0.000437133254   19.9576445      
 2.40038494       0.000437883922   20.1297633       0.999588875     -0.00863783317    0.999588875     -0.00863783317    0.000437883922   20.1297633      
 2.42438879       0.000438644901   20.3030614       0.99958862      -0.00872420924    0.99958862      -0.00872420924    0.000438644902   20.3030614      
 2.44863267       0.000439416354   20.4775396       0.999588362     -0.00881144906    0.999588362     -0.00881144906    0.000439416354   20.4775396      
 2.473119         0.000440198443   20.6531989       0.999588104     -0.00889956127    0.999588104     -0.00889956127    0.000440198442   20.6531989      
 2.49785019       0.000440991331   20.8300401       0.999587844     -0.00898855456    0.999587844     -0.00898855456    0.000440991331   20.8300401      
 2.52282869       0.000441795187   21.0080637       0.999587583     -0.00907843775    0.999587583     -0.00907843775    0.000441795187   21.0080637      
 2.54805698       0.000442610181   21.1872703       0.999587321     -0.00916921971    0.999587321     -0.00916921971    0.000442610181   21.1872703      
 2.57353755       0.000443436485   21.3676599       0.999587058     -0.00926090946    0.999587058     -0.00926090947    0.000443436485   21.3676599      
 2.59927293       0.000444274273   21.5492327       0.999586793     -0.00935351607    0.999586793     -0.00935351607    0.000444274273   21.5492327      
 2.62526565       0.000445123724   21.7319884       0.999586527     -0.00944704872    0.999586527     -0.00944704872    0.000445123724   21.7319884      
 2.65151831       0.000445985016   21.9159265       0.999586259     -0.00954151667    0.999586259     -0.00954151667    0.000445985016   21.9159265      
 2.67803349       0.000446858331   22.1010466       0.99958599      -0.00963692924    0.99958599      -0.00963692925    0.000446858331   22.1010466      
 2.70481383       0.000447743855   22.2873479       0.99958572      -0.00973329589    0.99958572      -0.00973329589    0.000447743855   22.2873479      
 2.73186197       0.000448641774   22.4748292       0.999585448     -0.00983062619    0.999585448     -0.00983062619    0.000448641774   22.4748292      
 2.75918059       0.00044955228    22.6634894       0.999585175     -0.00992892974    0.999585175     -0.00992892975    0.00044955228    22.6634894      
 2.78677239       0.000450475563   22.8533272       0.999584901     -0.0100282163     0.999584901     -0.0100282163     0.000450475563   22.8533272      
 2.81464012       0.000451411819   23.0443406       0.999584625     -0.0101284957     0.999584625     -0.0101284957     0.000451411818   23.0443406      
 2.84278652       0.000452361245   23.2365281       0.999584348     -0.0102297778     0.999584348     -0.0102297778     0.000452361245   23.2365281      
 2.87121438       0.000453324043   23.4298872       0.99958407      -0.0103320727     0.99958407      -0.0103320727     0.000453324043   23.4298872      
 2.89992653       0.000454300414   23.6244157       0.99958379      -0.0104353905     0.99958379      -0.0104353905     0.000454300414   23.6244157      
 2.92892579       0.000455290566   23.8201112       0.999583509     -0.0105397414     0.999583509     -0.0105397414     0.000455290566   23.8201112      
 2.95821505       0.000456294707   24.0169705       0.999583226     -0.0106451358     0.999583226     -0.0106451358     0.000456294707   24.0169705      
 2.9877972        0.000457313047   24.2149908       0.999582942     -0.0107515841     0.999582942     -0.0107515841     0.000457313047   24.2149908      
 3.01767517       0.000458345801   24.4141686       0.999582657     -0.0108590969     0.999582657     -0.0108590969     0.000458345801   24.4141686      
 3.04785192       0.000459393185   24.6145006       0.99958237      -0.0109676847     0.99958237      -0.0109676847     0.000459393185   24.6145006      
 3.07833044       0.000460455421   24.8159826       0.999582082     -0.0110773584     0.999582082     -0.0110773584     0.000460455421   24.8159826      
 3.10911375       0.00046153273    25.0186107       0.999581792     -0.0111881287     0.999581792     -0.0111881287     0.00046153273    25.0186107      
 3.14020489       0.000462625337   25.2223807       0.9995815       -0.0113000067     0.9995815       -0.0113000067     0.000462625337   25.2223806      
 3.17160693       0.00046373347    25.4272878       0.999581208     -0.0114130034     0.999581208     -0.0114130034     0.00046373347    25.4272878      
 3.203323         0.000464857363   25.6333272       0.999580914     -0.0115271301     0.999580914     -0.0115271301     0.000464857363   25.6333272      
 3.23535623       0.000465997247   25.8404939       0.999580618     -0.0116423979     0.999580618     -0.0116423979     0.000465997247   25.8404939      
 3.2677098        0.000467153361   26.0487822       0.999580321     -0.0117588184     0.999580321     -0.0117588184     0.000467153361   26.0487822      
 3.30038689       0.000468325944   26.2581866       0.999580022     -0.0118764031     0.999580022     -0.0118764031     0.000468325944   26.2581866      
 3.33339076       0.000469515239   26.4687012       0.999579722     -0.0119951635     0.999579722     -0.0119951635     0.000469515239   26.4687012      
 3.36672467       0.000470721494   26.6803198       0.999579421     -0.0121151115     0.999579421     -0.0121151115     0.000470721494   26.6803198      
 3.40039192       0.000471944955   26.8930358       0.999579117     -0.0122362589     0.999579117     -0.0122362589     0.000471944955   26.8930358      
 3.43439584       0.000473185876   27.1068424       0.999578813     -0.0123586177     0.999578813     -0.0123586177     0.000473185876   27.1068424      
 3.4687398        0.000474444513   27.3217325       0.999578507     -0.0124822001     0.999578507     -0.0124822001     0.000474444513   27.3217325      
 3.50342719       0.000475721122   27.5376989       0.999578199     -0.0126070182     0.999578199     -0.0126070182     0.000475721122   27.5376989      
