# MHz           S          MA           R         50
!Freq             MagS11           AngS11           MagS21           AngS21           MagS12           AngS12           MagS22           AngS22
 1                0.000765665449   20.6317358       0.999283477     -0.0154689085     0.999283477     -0.0154689085     0.000765665449   20.6317358      
 1.01             0.000767119633   20.8062335       0.999282944     -0.0156235893     0.999282944     -0.0156235893     0.000767119633   20.8062335      
 1.0201           0.000768593071   20.981875        0.999282407     -0.0157798167     0.999282407     -0.0157798167     0.000768593071   20.981875       
 1.030301         0.000770086055   21.1586604       0.999281868     -0.0159376063     0.999281868     -0.0159376063     0.000770086055   21.1586604      
 1.04060401       0.00077159888    21.3365897       0.999281327     -0.0160969736     0.999281327     -0.0160969736     0.00077159888    21.3365897      
 1.05101005       0.000773131848   21.5156627       0.999280782     -0.0162579345     0.999280782     -0.0162579345     0.000773131848   21.5156627      
 1.06152015       0.000774685261   21.695879        0.999280235     -0.0164205049     0.999280235     -0.0164205049     0.000774685261   21.695879       
 1.07213535       0.000776259429   21.8772381       0.999279685     -0.0165847008     0.999279685     -0.0165847008     0.000776259429   21.8772381      
 1.08285671       0.000777854663   22.0597392       0.999279133     -0.0167505385     0.999279133     -0.0167505385     0.000777854663   22.0597392      
 1.09368527       0.00077947128    22.2433814       0.999278577     -0.0169180345     0.999278577     -0.0169180345     0.00077947128    22.2433814      
 1.10462213       0.000781109602   22.4281635       0.999278019     -0.0170872053     0.999278019     -0.0170872053     0.000781109602   22.4281635      
 1.11566835       0.000782769953   22.6140841       0.999277458     -0.0172580677     0.999277458     -0.0172580677     0.000782769953   22.6140841      
 1.12682503       0.000784452666   22.8011417       0.999276894     -0.0174306386     0.999276894     -0.0174306386     0.000784452666   22.8011417      
 1.13809328       0.000786158072   22.9893345       0.999276328     -0.017604935      0.999276328     -0.017604935      0.000786158072   22.9893345      
 1.14947421       0.000787886513   23.1786604       0.999275758     -0.0177809742     0.999275758     -0.0177809742     0.000787886513   23.1786604      
 1.16096896       0.000789638331   23.3691174       0.999275186     -0.0179587737     0.999275186     -0.0179587737     0.000789638331   23.3691174      
 1.17257864       0.000791413874   23.5607029       0.999274611     -0.018138351      0.999274611     -0.018138351      0.000791413874   23.5607029      
 1.18430443       0.000793213495   23.7534143       0.999274033     -0.0183197239     0.999274033     -0.0183197239     0.000793213495   23.7534143      
 1.19614748       0.000795037552   23.9472487       0.999273452     -0.0185029104     0.999273452     -0.0185029104     0.000795037552   23.9472487      
 1.20810895       0.000796886406   24.142203        0.999272868     -0.0186879286     0.999272868     -0.0186879286     0.000796886406   24.142203       
 1.22019004       0.000798760425   24.3382739       0.999272281     -0.0188747968     0.999272281     -0.0188747968     0.000798760425   24.3382739      
 1.23239194       0.00080065998    24.5354577       0.999271691     -0.0190635335     0.999271691     -0.0190635335     0.00080065998    24.5354577      
 1.24471586       0.000802585447   24.7337506       0.999271099     -0.0192541574     0.999271099     -0.0192541575     0.000802585447   24.7337506      
 1.25716302       0.000804537208   24.9331486       0.999270503     -0.0194466875     0.999270503     -0.0194466875     0.000804537208   24.9331486      
 1.26973465       0.000806515648   25.1336475       0.999269904     -0.0196411426     0.999269904     -0.0196411426     0.000806515648   25.1336475      
 1.282432         0.00080852116    25.3352425       0.999269303     -0.0198375421     0.999269303     -0.0198375421     0.00080852116    25.3352425      
 1.29525631       0.000810554138   25.537929        0.999268698     -0.0200359054     0.999268698     -0.0200359054     0.000810554138   25.537929       
 1.30820888       0.000812614984   25.7417018       0.99926809      -0.0202362521     0.99926809      -0.0202362521     0.000812614984   25.7417018      
 1.32129097       0.000814704104   25.9465558       0.99926748      -0.0204386022     0.99926748      -0.0204386022     0.000814704104   25.9465558      
 1.33450388       0.000816821909   26.1524852       0.999266866     -0.0206429755     0.999266866     -0.0206429755     0.000816821909   26.1524852      
 1.34784892       0.000818968815   26.3594844       0.999266249     -0.0208493924     0.999266249     -0.0208493924     0.000818968815   26.3594844      
 1.3613274        0.000821145244   26.5675471       0.999265629     -0.0210578733     0.999265629     -0.0210578733     0.000821145244   26.5675471      
 1.37494068       0.000823351621   26.7766672       0.999265006     -0.0212684388     0.999265006     -0.0212684388     0.000823351621   26.7766672      
 1.38869009       0.000825588379   26.9868379       0.99926438      -0.0214811097     0.99926438      -0.0214811097     0.000825588379   26.9868379      
 1.40257699       0.000827855954   27.1980525       0.99926375      -0.0216959072     0.99926375      -0.0216959072     0.000827855954   27.1980525      
 1.41660276       0.000830154789   27.4103038       0.999263118     -0.0219128524     0.999263118     -0.0219128524     0.000830154789   27.4103038      
 1.43076878       0.00083248533    27.6235843       0.999262482     -0.0221319669     0.999262482     -0.0221319669     0.00083248533    27.6235843      
 1.44507647       0.000834848031   27.8378865       0.999261843     -0.0223532722     0.999261843     -0.0223532722     0.000834848031   27.8378865      
 1.45952724       0.00083724335    28.0532024       0.999261201     -0.0225767905     0.999261201     -0.0225767905     0.00083724335    28.0532024      
 1.47412251       0.000839671749   28.2695237       0.999260556     -0.0228025437     0.999260556     -0.0228025437     0.000839671749   28.2695237      
 1.48886373       0.000842133698   28.486842        0.999259907     -0.0230305542     0.999259907     -0.0230305542     0.000842133699   28.486842       
 1.50375237       0.000844629672   28.7051486       0.999259255     -0.0232608446     0.999259255     -0.0232608446     0.000844629672   28.7051486      
 1.51878989       0.000847160149   28.9244343       0.9992586       -0.0234934376     0.9992586       -0.0234934376     0.000847160149   28.9244343      
 1.53397779       0.000849725615   29.14469         0.999257942     -0.0237283564     0.999257942     -0.0237283564     0.000849725615   29.14469        
 1.54931757       0.000852326561   29.3659059       0.99925728      -0.0239656241     0.99925728      -0.0239656241     0.000852326561   29.3659059      
 1.56481075       0.000854963482   29.5880724       0.999256615     -0.0242052643     0.999256615     -0.0242052643     0.000854963482   29.5880724      
 1.58045885       0.000857636881   29.8111792       0.999255946     -0.0244473006     0.999255946     -0.0244473006     0.000857636881   29.8111792      
 1.59626344       0.000860347266   30.0352159       0.999255275     -0.024691757      0.999255275     -0.024691757      0.000860347266   30.0352159      
 1.61222608       0.000863095148   30.2601718       0.9992546       -0.0249386578     0.9992546       -0.0249386578     0.000863095148   30.2601718      
 1.62834834       0.000865881047   30.4860361       0.999253921     -0.0251880273     0.999253921     -0.0251880273     0.000865881046   30.4860361      
 1.64463182       0.000868705486   30.7127975       0.999253239     -0.0254398902     0.999253239     -0.0254398902     0.000868705486   30.7127974      
 1.66107814       0.000871568997   30.9404444       0.999252554     -0.0256942715     0.999252554     -0.0256942715     0.000871568997   30.9404444      
 1.67768892       0.000874472114   31.1689651       0.999251865     -0.0259511964     0.999251865     -0.0259511964     0.000874472114   31.1689651      
 1.69446581       0.00087741538    31.3983477       0.999251173     -0.0262106902     0.999251173     -0.0262106902     0.00087741538    31.3983477      
 1.71141047       0.000880399341   31.6285797       0.999250477     -0.0264727787     0.999250477     -0.0264727787     0.000880399341   31.6285797      
 1.72852457       0.000883424549   31.8596486       0.999249778     -0.0267374878     0.999249778     -0.0267374878     0.000883424549   31.8596486      
 1.74580982       0.000886491565   32.0915416       0.999249075     -0.0270048437     0.999249075     -0.0270048437     0.000886491565   32.0915416      
 1.76326792       0.000889600952   32.3242456       0.999248369     -0.0272748729     0.999248369     -0.0272748729     0.000889600952   32.3242456      
 1.7809006        0.000892753281   32.5577471       0.999247659     -0.0275476021     0.999247659     -0.0275476021     0.000892753281   32.5577471      
 1.7987096        0.000895949128   32.7920327       0.999246945     -0.0278230583     0.999246945     -0.0278230583     0.000895949128   32.7920327      
 1.8166967        0.000899189075   33.0270883       0.999246228     -0.0281012687     0.999246228     -0.0281012687     0.000899189075   33.0270883      
 1.83486367       0.00090247371    33.2628999       0.999245508     -0.028382261      0.999245508     -0.028382261      0.00090247371    33.2628999      
 1.8532123        0.000905803626   33.499453        0.999244783     -0.0286660629     0.999244783     -0.0286660629     0.000905803626   33.499453       
 1.87174443       0.000909179425   33.7367331       0.999244056     -0.0289527025     0.999244056     -0.0289527025     0.000909179425   33.7367331      
 1.89046187       0.000912601711   33.9747253       0.999243324     -0.0292422081     0.999243324     -0.0292422081     0.000912601711   33.9747253      
 1.90936649       0.000916071096   34.2134145       0.999242589     -0.0295346085     0.999242589     -0.0295346085     0.000916071096   34.2134145      
 1.92846015       0.000919588197   34.4527852       0.99924185      -0.0298299326     0.99924185      -0.0298299326     0.000919588197   34.4527852      
 1.94774475       0.00092315364    34.6928219       0.999241107     -0.0301282095     0.999241107     -0.0301282095     0.00092315364    34.6928219      
 1.9672222        0.000926768052   34.9335089       0.999240361     -0.0304294689     0.999240361     -0.0304294689     0.000926768052   34.9335089      
 1.98689442       0.00093043207    35.1748299       0.99923961      -0.0307337406     0.99923961      -0.0307337406     0.00093043207    35.1748299      
 2.00676337       0.000934146336   35.4167689       0.999238856     -0.0310410546     0.999238856     -0.0310410546     0.000934146336   35.4167689      
 2.026831         0.000937911497   35.6593092       0.999238099     -0.0313514415     0.999238099     -0.0313514415     0.000937911497   35.6593092      
 2.04709931       0.000941728208   35.9024342       0.999237337     -0.0316649318     0.999237337     -0.0316649318     0.000941728208   35.9024342      
 2.06757031       0.000945597127   36.1461271       0.999236572     -0.0319815567     0.999236572     -0.0319815567     0.000945597127   36.1461271      
 2.08824601       0.000949518922   36.3903706       0.999235802     -0.0323013474     0.999235802     -0.0323013474     0.000949518922   36.3903706      
 2.10912847       0.000953494264   36.6351474       0.999235029     -0.0326243357     0.999235029     -0.0326243357     0.000953494264   36.6351474      
 2.13021975       0.000957523832   36.8804402       0.999234252     -0.0329505535     0.999234252     -0.0329505535     0.000957523832   36.8804402      
 2.15152195       0.00096160831    37.1262312       0.999233471     -0.0332800331     0.999233471     -0.0332800331     0.00096160831    37.1262312      
 2.17303717       0.000965748388   37.3725025       0.999232686     -0.0336128071     0.999232686     -0.0336128071     0.000965748388   37.3725025      
 2.19476754       0.000969944764   37.6192361       0.999231897     -0.0339489084     0.999231897     -0.0339489084     0.000969944764   37.6192361      
 2.21671522       0.00097419814    37.8664139       0.999231104     -0.0342883703     0.999231104     -0.0342883703     0.00097419814    37.8664139      
 2.23888237       0.000978509226   38.1140174       0.999230307     -0.0346312265     0.999230307     -0.0346312265     0.000978509226   38.1140174      
 2.26127119       0.000982878737   38.3620281       0.999229506     -0.0349775108     0.999229506     -0.0349775108     0.000982878737   38.3620281      
 2.2838839        0.000987307395   38.6104274       0.999228701     -0.0353272575     0.999228701     -0.0353272575     0.000987307395   38.6104274      
 2.30672274       0.000991795927   38.8591964       0.999227892     -0.0356805012     0.999227892     -0.0356805012     0.000991795927   38.8591964      
 2.32978997       0.000996345068   39.1083163       0.999227079     -0.036037277      0.999227079     -0.036037277      0.000996345068   39.1083163      
 2.35308787       0.00100095556    39.3577678       0.999226262     -0.0363976201     0.999226262     -0.0363976201     0.00100095556    39.3577678      
 2.37661875       0.00100562814    39.6075319       0.99922544      -0.0367615661     0.99922544      -0.0367615661     0.00100562814    39.6075319      
 2.40038494       0.00101036358    39.8575892       0.999224615     -0.0371291512     0.999224615     -0.0371291512     0.00101036358    39.8575892      
 2.42438879       0.00101516262    40.1079203       0.999223785     -0.0375004117     0.999223785     -0.0375004117     0.00101516262    40.1079203      
 2.44863267       0.00102002604    40.3585057       0.999222951     -0.0378753842     0.999222951     -0.0378753843     0.00102002604    40.3585057      
 2.473119         0.00102495461    40.6093258       0.999222113     -0.0382541061     0.999222113     -0.0382541061     0.00102495461    40.6093258      
 2.49785019       0.0010299491     40.8603608       0.99922127      -0.0386366147     0.99922127      -0.0386366147     0.0010299491     40.8603608      
 2.52282869       0.0010350103     41.111591        0.999220424     -0.0390229479     0.999220424     -0.0390229479     0.0010350103     41.111591       
 2.54805698       0.001040139      41.3629965       0.999219573     -0.0394131439     0.999219573     -0.0394131439     0.001040139      41.3629965      
 2.57353755       0.001045336      41.6145575       0.999218717     -0.0398072413     0.999218717     -0.0398072413     0.001045336      41.6145575      
 2.59927293       0.00105060211    41.866254        0.999217858     -0.0402052793     0.999217858     -0.0402052793     0.00105060211    41.866254       
 2.62526565       0.00105593813    42.118066        0.999216994     -0.040607297      0.999216994     -0.040607297      0.00105593813    42.118066       
 2.65151831       0.00106134488    42.3699733       0.999216125     -0.0410133345     0.999216125     -0.0410133345     0.00106134488    42.3699733      
 2.67803349       0.00106682319    42.6219561       0.999215252     -0.0414234318     0.999215252     -0.0414234318     0.00106682319    42.6219561      
 2.70481383       0.00107237389    42.873994        0.999214375     -0.0418376295     0.999214375     -0.0418376295     0.00107237389    42.873994       
 2.73186197       0.00107799781    43.1260671       0.999213494     -0.0422559686     0.999213494     -0.0422559686     0.00107799781    43.1260671      
 2.75918059       0.00108369581    43.3781552       0.999212607     -0.0426784906     0.999212607     -0.0426784906     0.00108369581    43.3781552      
 2.78677239       0.00108946872    43.6302382       0.999211717     -0.0431052372     0.999211717     -0.0431052372     0.00108946872    43.6302382      
 2.81464012       0.00109531741    43.882296        0.999210822     -0.0435362507     0.999210822     -0.0435362507     0.00109531741    43.882296       
 2.84278652       0.00110124273    44.1343084       0.999209922     -0.0439715737     0.999209922     -0.0439715737     0.00110124273    44.1343084      
 2.87121438       0.00110724558    44.3862554       0.999209018     -0.0444112494     0.999209018     -0.0444112494     0.00110724558    44.3862554      
 2.89992653       0.00111332681    44.6381171       0.999208109     -0.0448553212     0.999208109     -0.0448553213     0.00111332681    44.6381171      
 2.92892579       0.00111948731    44.8898732       0.999207195     -0.0453038332     0.999207195     -0.0453038332     0.00111948731    44.8898732      
 2.95821505       0.00112572798    45.1415041       0.999206277     -0.0457568296     0.999206277     -0.0457568296     0.00112572798    45.1415041      
 2.9877972        0.00113204972    45.3929896       0.999205354     -0.0462143554     0.999205354     -0.0462143554     0.00113204972    45.3929896      
 3.01767517       0.00113845342    45.64431         0.999204427     -0.0466764558     0.999204427     -0.0466764558     0.00113845342    45.64431        
 3.04785192       0.00114494001    45.8954456       0.999203494     -0.0471431765     0.999203494     -0.0471431765     0.00114494001    45.8954456      
 3.07833044       0.00115151039    46.1463766       0.999202557     -0.0476145638     0.999202557     -0.0476145638     0.00115151039    46.1463766      
 3.10911375       0.00115816551    46.3970836       0.999201616     -0.0480906643     0.999201616     -0.0480906643     0.00115816551    46.3970836      
 3.14020489       0.00116490629    46.6475469       0.999200669     -0.0485715251     0.999200669     -0.0485715251     0.00116490629    46.6475469      
 3.17160693       0.00117173367    46.8977472       0.999199718     -0.0490571939     0.999199718     -0.0490571939     0.00117173367    46.8977472      
 3.203323         0.0011786486     47.1476652       0.999198761     -0.0495477186     0.999198761     -0.0495477186     0.0011786486     47.1476652      
 3.23535623       0.00118565203    47.3972817       0.9991978       -0.0500431478     0.9991978       -0.0500431478     0.00118565203    47.3972817      
 3.2677098        0.00119274494    47.6465777       0.999196834     -0.0505435307     0.999196834     -0.0505435307     0.00119274494    47.6465777      
 3.30038689       0.00119992828    47.8955342       0.999195863     -0.0510489166     0.999195863     -0.0510489166     0.00119992828    47.8955342      
 3.33339076       0.00120720305    48.1441326       0.999194887     -0.0515593556     0.999194887     -0.0515593556     0.00120720305    48.1441326      
 3.36672467       0.00121457021    48.3923541       0.999193907     -0.0520748983     0.999193907     -0.0520748983     0.00121457021    48.3923541      
 3.40039192       0.00122203077    48.6401803       0.999192921     -0.0525955956     0.999192921     -0.0525955956     0.00122203077    48.6401803      
 3.43439584       0.00122958572    48.8875927       0.99919193      -0.0531214991     0.99919193      -0.0531214991     0.00122958572    48.8875927      
 3.4687398        0.00123723608    49.1345734       0.999190934     -0.0536526608     0.999190934     -0.0536526608     0.00123723608    49.1345734      
 3.50342719       0.00124498286    49.3811043       0.999189932     -0.0541891334     0.999189932     -0.0541891334     0.00124498286    49.3811043      
