# MHz           S          MA           R         50
!Freq             MagS11           AngS11           MagS21           AngS21           MagS12           AngS12           MagS22           AngS22
 1                0.000359077744   20.4706171       0.999663605     -0.00719757798    0.999663605     -0.00719757798    0.000359077744   20.470617       
 1.01             0.000359829278   20.6394627       0.999663274     -0.00726955135    0.999663274     -0.00726955135    0.000359829278   20.6394627      
 1.0201           0.000360589935   20.8093743       0.99966294      -0.00734224443    0.99966294      -0.00734224443    0.000360589935   20.8093743      
 1.030301         0.000361359847   20.9803519       0.999662606     -0.00741566441    0.999662606     -0.00741566441    0.000361359847   20.9803518      
 1.04060401       0.000362139147   21.1523952       0.999662269     -0.00748981852    0.999662269     -0.00748981852    0.000362139147   21.1523952      
 1.05101005       0.000362927973   21.3255039       0.999661931     -0.00756471413    0.999661931     -0.00756471413    0.000362927973   21.3255039      
 1.06152015       0.00036372646    21.4996774       0.999661591     -0.00764035865    0.999661591     -0.00764035865    0.00036372646    21.4996774      
 1.07213535       0.000364534749   21.6749149       0.999661249     -0.00771675963    0.999661249     -0.00771675963    0.000364534749   21.6749149      
 1.08285671       0.000365352981   21.8512155       0.999660906     -0.00779392456    0.999660906     -0.00779392456    0.000365352981   21.8512155      
 1.09368527       0.000366181298   22.0285783       0.999660561     -0.0078718611     0.999660561     -0.0078718611     0.000366181298   22.0285783      
 1.10462213       0.000367019846   22.207002        0.999660214     -0.00795057694    0.999660214     -0.00795057694    0.000367019846   22.207002       
 1.11566835       0.000367868772   22.3864851       0.999659865     -0.00803007993    0.999659865     -0.00803007993    0.000367868772   22.3864851      
 1.12682503       0.000368728226   22.5670262       0.999659515     -0.00811037785    0.999659515     -0.00811037785    0.000368728226   22.5670262      
 1.13809328       0.000369598357   22.7486231       0.999659163     -0.00819147878    0.999659163     -0.00819147878    0.000369598357   22.7486231      
 1.14947421       0.000370479319   22.9312743       0.999658809     -0.00827339062    0.999658809     -0.00827339062    0.000370479319   22.9312743      
 1.16096896       0.000371371267   23.1149774       0.999658453     -0.00835612154    0.999658453     -0.00835612154    0.000371371267   23.1149774      
 1.17257864       0.000372274358   23.2997299       0.999658096     -0.00843967977    0.999658096     -0.00843967977    0.000372274358   23.2997299      
 1.18430443       0.000373188751   23.4855295       0.999657737     -0.00852407352    0.999657737     -0.00852407352    0.00037318875    23.4855295      
 1.19614748       0.000374114607   23.6723734       0.999657376     -0.00860931112    0.999657376     -0.00860931112    0.000374114607   23.6723734      
 1.20810895       0.00037505209    23.8602585       0.999657013     -0.00869540108    0.999657013     -0.00869540108    0.00037505209    23.8602585      
 1.22019004       0.000376001365   24.0491818       0.999656649     -0.00878235191    0.999656649     -0.00878235191    0.000376001365   24.0491818      
 1.23239194       0.000376962599   24.2391399       0.999656282     -0.00887017214    0.999656282     -0.00887017214    0.000376962599   24.2391399      
 1.24471586       0.000377935963   24.430129        0.999655914     -0.00895887059    0.999655914     -0.00895887059    0.000377935963   24.430129       
 1.25716302       0.000378921627   24.6221457       0.999655544     -0.00904845595    0.999655544     -0.00904845595    0.000378921627   24.6221457      
 1.26973465       0.000379919768   24.8151857       0.999655172     -0.0091389371     0.999655172     -0.00913893711    0.000379919768   24.8151857      
 1.282432         0.000380930559   25.0092451       0.999654799     -0.00923032302    0.999654799     -0.00923032303    0.000380930559   25.0092451      
 1.29525631       0.000381954179   25.2043191       0.999654423     -0.00932262277    0.999654423     -0.00932262277    0.000381954179   25.2043191      
 1.30820888       0.000382990811   25.4004034       0.999654046     -0.00941584542    0.999654046     -0.00941584542    0.000382990811   25.4004034      
 1.32129097       0.000384040636   25.5974929       0.999653666     -0.00951000029    0.999653666     -0.00951000029    0.000384040636   25.5974929      
 1.33450388       0.000385103839   25.7955828       0.999653285     -0.00960509662    0.999653285     -0.00960509662    0.000385103839   25.7955828      
 1.34784892       0.000386180608   25.9946675       0.999652902     -0.00970114387    0.999652902     -0.00970114387    0.000386180608   25.9946675      
 1.3613274        0.000387271133   26.1947417       0.999652517     -0.00979815152    0.999652517     -0.00979815152    0.000387271133   26.1947417      
 1.37494068       0.000388375606   26.3957994       0.99965213      -0.00989612924    0.99965213      -0.00989612923    0.000388375606   26.3957994      
 1.38869009       0.000389494222   26.5978349       0.999651741     -0.00999508661    0.999651741     -0.00999508661    0.000389494222   26.5978349      
 1.40257699       0.000390627176   26.8008418       0.99965135      -0.0100950336     0.99965135      -0.0100950336     0.000390627176   26.8008418      
 1.41660276       0.000391774669   27.0048138       0.999650957     -0.0101959799     0.999650957     -0.0101959799     0.000391774669   27.0048138      
 1.43076878       0.000392936901   27.2097441       0.999650562     -0.0102979356     0.999650562     -0.0102979356     0.000392936901   27.2097441      
 1.44507647       0.000394114077   27.4156259       0.999650165     -0.0104009108     0.999650165     -0.0104009108     0.000394114077   27.4156259      
 1.45952724       0.000395306403   27.622452        0.999649767     -0.0105049158     0.999649767     -0.0105049158     0.000395306403   27.622452       
 1.47412251       0.000396514088   27.8302151       0.999649366     -0.0106099607     0.999649366     -0.0106099607     0.000396514088   27.8302151      
 1.48886373       0.000397737343   28.0389075       0.999648963     -0.010716056      0.999648963     -0.010716056      0.000397737343   28.0389075      
 1.50375237       0.00039897638    28.2485216       0.999648558     -0.0108232121     0.999648558     -0.0108232121     0.00039897638    28.2485216      
 1.51878989       0.000400231419   28.4590489       0.999648152     -0.0109314398     0.999648152     -0.0109314398     0.000400231419   28.4590489      
 1.53397779       0.000401502675   28.6704816       0.999647743     -0.0110407497     0.999647743     -0.0110407497     0.000401502675   28.6704816      
 1.54931757       0.000402790371   28.8828107       0.999647332     -0.0111511526     0.999647332     -0.0111511526     0.000402790371   28.8828107      
 1.56481075       0.000404094729   29.0960277       0.999646919     -0.0112626595     0.999646919     -0.0112626595     0.00040409473    29.0960277      
 1.58045885       0.000405415977   29.3101235       0.999646504     -0.0113752814     0.999646504     -0.0113752814     0.000405415977   29.3101235      
 1.59626344       0.000406754342   29.5250889       0.999646087     -0.0114890294     0.999646087     -0.0114890294     0.000406754342   29.5250889      
 1.61222608       0.000408110058   29.7409143       0.999645668     -0.0116039148     0.999645668     -0.0116039148     0.000408110058   29.7409143      
 1.62834834       0.000409483355   29.9575901       0.999645246     -0.011719949      0.999645246     -0.011719949      0.000409483355   29.9575901      
 1.64463182       0.000410874472   30.1751062       0.999644823     -0.0118371435     0.999644823     -0.0118371435     0.000410874472   30.1751062      
 1.66107814       0.000412283646   30.3934526       0.999644398     -0.0119555099     0.999644398     -0.0119555099     0.000412283646   30.3934526      
 1.67768892       0.000413711122   30.6126188       0.99964397      -0.0120750598     0.99964397      -0.0120750598     0.000413711122   30.6126187      
 1.69446581       0.000415157141   30.832594        0.99964354      -0.0121958052     0.99964354      -0.0121958052     0.00041515714    30.832594       
 1.71141047       0.00041662195    31.0533674       0.999643108     -0.0123177579     0.999643108     -0.0123177579     0.00041662195    31.0533674      
 1.72852457       0.000418105801   31.2749279       0.999642674     -0.0124409301     0.999642674     -0.0124409301     0.000418105801   31.2749279      
 1.74580982       0.000419608944   31.4972641       0.999642238     -0.0125653339     0.999642238     -0.0125653339     0.000419608944   31.4972641      
 1.76326792       0.000421131634   31.7203647       0.9996418       -0.0126909817     0.9996418       -0.0126909817     0.000421131634   31.7203647      
 1.7809006        0.00042267413    31.9442174       0.999641359     -0.0128178858     0.999641359     -0.0128178858     0.00042267413    31.9442174      
 1.7987096        0.00042423669    32.1688107       0.999640916     -0.012946059      0.999640916     -0.012946059      0.00042423669    32.1688106      
 1.8166967        0.000425819578   32.3941319       0.999640471     -0.0130755138     0.999640471     -0.0130755138     0.000425819578   32.3941319      
 1.83486367       0.00042742306    32.6201688       0.999640024     -0.013206263      0.999640024     -0.013206263      0.00042742306    32.6201688      
 1.8532123        0.000429047405   32.8469087       0.999639575     -0.0133383196     0.999639575     -0.0133383196     0.000429047405   32.8469087      
 1.87174443       0.000430692883   33.0743386       0.999639123     -0.0134716967     0.999639123     -0.0134716967     0.000430692883   33.0743386      
 1.89046187       0.000432359768   33.3024453       0.999638669     -0.0136064075     0.999638669     -0.0136064075     0.000432359768   33.3024454      
 1.90936649       0.000434048336   33.5312159       0.999638213     -0.0137424653     0.999638213     -0.0137424653     0.000434048336   33.5312159      
 1.92846015       0.000435758868   33.7606364       0.999637754     -0.0138798836     0.999637754     -0.0138798836     0.000435758868   33.7606364      
 1.94774475       0.000437491646   33.9906933       0.999637293     -0.014018676      0.999637293     -0.014018676      0.000437491646   33.9906933      
 1.9672222        0.000439246953   34.2213728       0.99963683      -0.0141588562     0.99963683      -0.0141588562     0.000439246953   34.2213728      
 1.98689442       0.000441025079   34.4526605       0.999636365     -0.0143004381     0.999636365     -0.0143004381     0.000441025079   34.4526605      
 2.00676337       0.000442826313   34.6845422       0.999635897     -0.0144434358     0.999635897     -0.0144434358     0.000442826313   34.6845422      
 2.026831         0.000444650951   34.9170033       0.999635427     -0.0145878633     0.999635427     -0.0145878633     0.000444650951   34.9170033      
 2.04709931       0.000446499286   35.1500293       0.999634954     -0.0147337349     0.999634954     -0.0147337349     0.000446499286   35.1500293      
 2.06757031       0.00044837162    35.3836052       0.999634479     -0.0148810652     0.999634479     -0.0148810652     0.00044837162    35.3836052      
 2.08824601       0.000450268254   35.6177159       0.999634002     -0.0150298687     0.999634002     -0.0150298687     0.000450268254   35.6177159      
 2.10912847       0.000452189492   35.8523463       0.999633522     -0.0151801601     0.999633522     -0.0151801601     0.000452189492   35.8523463      
 2.13021975       0.000454135643   36.087481        0.99963304      -0.0153319543     0.99963304      -0.0153319543     0.000454135643   36.087481       
 2.15152195       0.000456107018   36.3231042       0.999632556     -0.0154852664     0.999632556     -0.0154852664     0.000456107018   36.3231042      
 2.17303717       0.000458103929   36.5592005       0.999632069     -0.0156401114     0.999632069     -0.0156401114     0.000458103929   36.5592005      
 2.19476754       0.000460126694   36.7957538       0.99963158      -0.0157965049     0.99963158      -0.0157965049     0.000460126694   36.7957538      
 2.21671522       0.000462175632   37.0327482       0.999631088     -0.015954462      0.999631088     -0.015954462      0.000462175632   37.0327482      
 2.23888237       0.000464251065   37.2701674       0.999630594     -0.0161139987     0.999630594     -0.0161139987     0.000464251065   37.2701675      
 2.26127119       0.000466353319   37.5079952       0.999630097     -0.0162751306     0.999630097     -0.0162751306     0.00046635332    37.5079952      
 2.2838839        0.000468482723   37.7462151       0.999629598     -0.0164378737     0.999629598     -0.0164378737     0.000468482723   37.7462151      
 2.30672274       0.000470639607   37.9848105       0.999629096     -0.0166022441     0.999629096     -0.0166022441     0.000470639607   37.9848105      
 2.32978997       0.000472824306   38.2237648       0.999628592     -0.0167682581     0.999628592     -0.0167682581     0.000472824306   38.2237648      
 2.35308787       0.000475037156   38.463061        0.999628085     -0.0169359321     0.999628085     -0.0169359321     0.000475037156   38.463061       
 2.37661875       0.000477278499   38.7026823       0.999627576     -0.0171052828     0.999627576     -0.0171052828     0.000477278499   38.7026823      
 2.40038494       0.000479548679   38.9426116       0.999627064     -0.0172763268     0.999627064     -0.0172763268     0.000479548679   38.9426116      
 2.42438879       0.00048184804    39.1828318       0.99962655      -0.017449081      0.99962655      -0.017449081      0.00048184804    39.1828318      
 2.44863267       0.000484176932   39.4233256       0.999626033     -0.0176235628     0.999626033     -0.0176235628     0.000484176932   39.4233256      
 2.473119         0.000486535709   39.6640758       0.999625513     -0.0177997891     0.999625513     -0.0177997891     0.000486535709   39.6640758      
 2.49785019       0.000488924725   39.9050648       0.999624991     -0.0179777777     0.999624991     -0.0179777777     0.000488924725   39.9050648      
 2.52282869       0.00049134434    40.1462752       0.999624466     -0.0181575459     0.999624466     -0.0181575459     0.00049134434    40.1462752      
 2.54805698       0.000493794915   40.3876894       0.999623939     -0.0183391117     0.999623939     -0.0183391117     0.000493794915   40.3876894      
 2.57353755       0.000496276814   40.6292899       0.999623409     -0.018522493      0.999623409     -0.018522493      0.000496276814   40.6292899      
 2.59927293       0.000498790407   40.8710588       0.999622876     -0.018707708      0.999622876     -0.018707708      0.000498790407   40.8710588      
 2.62526565       0.000501336064   41.1129785       0.999622341     -0.018894775      0.999622341     -0.018894775      0.000501336064   41.1129785      
 2.65151831       0.000503914159   41.3550313       0.999621802     -0.0190837125     0.999621802     -0.0190837125     0.000503914159   41.3550313      
 2.67803349       0.00050652507    41.5971992       0.999621262     -0.0192745392     0.999621262     -0.0192745392     0.000506525071   41.5971992      
 2.70481383       0.000509169178   41.8394643       0.999620718     -0.019467274      0.999620718     -0.019467274      0.000509169178   41.8394643      
 2.73186197       0.000511846867   42.081809        0.999620172     -0.019661936      0.999620172     -0.019661936      0.000511846867   42.081809       
 2.75918059       0.000514558523   42.3242151       0.999619623     -0.0198585445     0.999619623     -0.0198585445     0.000514558523   42.3242151      
 2.78677239       0.000517304537   42.5666649       0.999619071     -0.0200571189     0.999619071     -0.0200571189     0.000517304537   42.5666649      
 2.81464012       0.000520085303   42.8091404       0.999618517     -0.0202576789     0.999618517     -0.0202576789     0.000520085303   42.8091404      
 2.84278652       0.000522901218   43.0516236       0.999617959     -0.0204602443     0.999617959     -0.0204602443     0.000522901218   43.0516236      
 2.87121438       0.00052575268    43.2940967       0.999617399     -0.0206648351     0.999617399     -0.0206648351     0.00052575268    43.2940967      
 2.89992653       0.000528640095   43.5365418       0.999616837     -0.0208714718     0.999616837     -0.0208714718     0.000528640095   43.5365418      
 2.92892579       0.000531563869   43.7789409       0.999616271     -0.0210801746     0.999616271     -0.0210801746     0.000531563869   43.7789409      
 2.95821505       0.000534524413   44.0212762       0.999615702     -0.0212909642     0.999615702     -0.0212909642     0.000534524413   44.0212762      
 2.9877972        0.000537522139   44.26353         0.999615131     -0.0215038616     0.999615131     -0.0215038616     0.000537522139   44.26353        
 3.01767517       0.000540557465   44.5056843       0.999614557     -0.0217188878     0.999614557     -0.0217188878     0.000540557465   44.5056844      
 3.04785192       0.00054363081    44.7477216       0.999613979     -0.021936064      0.999613979     -0.021936064      0.00054363081    44.7477216      
 3.07833044       0.0005467426     44.989624        0.999613399     -0.0221554118     0.999613399     -0.0221554118     0.0005467426     44.989624       
 3.10911375       0.00054989326    45.231374        0.999612816     -0.0223769529     0.999612816     -0.0223769529     0.00054989326    45.231374       
 3.14020489       0.000553083222   45.472954        0.99961223      -0.0226007092     0.99961223      -0.0226007092     0.000553083222   45.472954       
 3.17160693       0.00055631292    45.7143465       0.999611642     -0.0228267029     0.999611642     -0.0228267029     0.00055631292    45.7143465      
 3.203323         0.000559582792   45.9555341       0.99961105      -0.0230549563     0.99961105      -0.0230549563     0.000559582792   45.9555341      
 3.23535623       0.000562893279   46.1964996       0.999610455     -0.023285492      0.999610455     -0.023285492      0.000562893279   46.1964996      
 3.2677098        0.000566244826   46.4372255       0.999609857     -0.0235183329     0.999609857     -0.0235183329     0.000566244826   46.4372255      
 3.30038689       0.000569637881   46.6776949       0.999609256     -0.023753502      0.999609256     -0.023753502      0.000569637881   46.6776949      
 3.33339076       0.000573072896   46.9178906       0.999608653     -0.0239910226     0.999608653     -0.0239910226     0.000573072896   46.9178906      
 3.36672467       0.000576550328   47.1577957       0.999608046     -0.0242309181     0.999608046     -0.0242309181     0.000576550328   47.1577957      
 3.40039192       0.000580070636   47.3973935       0.999607436     -0.0244732124     0.999607436     -0.0244732124     0.000580070636   47.3973935      
 3.43439584       0.000583634282   47.6366671       0.999606823     -0.0247179294     0.999606823     -0.0247179294     0.000583634282   47.6366671      
 3.4687398        0.000587241734   47.8756001       0.999606207     -0.0249650933     0.999606207     -0.0249650933     0.000587241734   47.8756001      
 3.50342719       0.000590893463   48.1141759       0.999605588     -0.0252147287     0.999605588     -0.0252147287     0.000590893463   48.1141759      
