# MHz           S          MA           R         50
!Freq             MagS11           AngS11           MagS21           AngS21           MagS12           AngS12           MagS22           AngS22
 1                0.0054800798     29.2299453       0.995221313     -0.154060451      0.995221313     -0.154060451      0.0054800798     29.2299453      
 1.01             0.00549880277    29.4400997       0.995214927     -0.155600061      0.995214927     -0.155600061      0.00549880277    29.4400997      
 1.0201           0.00551776097    29.6510557       0.995208509     -0.157155052      0.995208509     -0.157155052      0.00551776097    29.6510557      
 1.030301         0.00553695753    29.862804        0.995202058     -0.158725578      0.995202058     -0.158725578      0.00553695753    29.862804       
 1.04060401       0.0055563956     30.0753345       0.995195573     -0.160311794      0.995195573     -0.160311794      0.0055563956     30.0753345      
 1.05101005       0.00557607835    30.2886374       0.995189055     -0.161913855      0.995189055     -0.161913855      0.00557607835    30.2886374      
 1.06152015       0.00559600901    30.5027022       0.995182503     -0.163531922      0.995182503     -0.163531922      0.00559600901    30.5027022      
 1.07213535       0.00561619083    30.7175187       0.995175917     -0.165166153      0.995175917     -0.165166153      0.00561619083    30.7175187      
 1.08285671       0.0056366271     30.933076        0.995169298     -0.16681671       0.995169298     -0.16681671       0.0056366271     30.933076       
 1.09368527       0.00565732113    31.1493632       0.995162644     -0.168483755      0.995162644     -0.168483755      0.00565732113    31.1493632      
 1.10462213       0.0056782763     31.3663693       0.995155956     -0.170167454      0.995155956     -0.170167454      0.0056782763     31.3663693      
 1.11566835       0.00569949599    31.5840829       0.995149233     -0.171867973      0.995149233     -0.171867973      0.00569949599    31.5840829      
 1.12682503       0.00572098363    31.8024925       0.995142476     -0.173585479      0.995142476     -0.173585479      0.00572098363    31.8024925      
 1.13809328       0.00574274269    32.0215864       0.995135684     -0.175320143      0.995135684     -0.175320143      0.00574274269    32.0215864      
 1.14947421       0.00576477666    32.2413527       0.995128856     -0.177072135      0.995128856     -0.177072135      0.00576477666    32.2413527      
 1.16096896       0.0057870891     32.4617791       0.995121993     -0.178841629      0.995121993     -0.178841629      0.0057870891     32.4617791      
 1.17257864       0.00580968357    32.6828533       0.995115095     -0.1806288        0.995115095     -0.1806288        0.00580968357    32.6828533      
 1.18430443       0.00583256367    32.9045629       0.99510816      -0.182433823      0.99510816      -0.182433823      0.00583256367    32.9045629      
 1.19614748       0.00585573307    33.1268951       0.99510119      -0.184256877      0.99510119      -0.184256877      0.00585573307    33.1268951      
 1.20810895       0.00587919544    33.3498369       0.995094184     -0.186098142      0.995094184     -0.186098142      0.00587919544    33.3498369      
 1.22019004       0.00590295451    33.5733753       0.995087141     -0.1879578        0.995087141     -0.1879578        0.00590295451    33.5733753      
 1.23239194       0.00592701403    33.797497        0.995080061     -0.189836034      0.995080061     -0.189836034      0.00592701403    33.797497       
 1.24471586       0.0059513778     34.0221884       0.995072945     -0.191733031      0.995072945     -0.191733031      0.0059513778     34.0221884      
 1.25716302       0.00597604965    34.247436        0.995065791     -0.193648977      0.995065791     -0.193648977      0.00597604965    34.247436       
 1.26973465       0.00600103346    34.4732258       0.995058601     -0.195584061      0.995058601     -0.195584061      0.00600103346    34.4732258      
 1.282432         0.00602633314    34.6995439       0.995051373     -0.197538474      0.995051373     -0.197538474      0.00602633314    34.6995439      
 1.29525631       0.00605195262    34.9263761       0.995044107     -0.199512411      0.995044107     -0.199512411      0.00605195262    34.9263761      
 1.30820888       0.0060778959     35.153708        0.995036803     -0.201506064      0.995036803     -0.201506064      0.0060778959     35.153708       
 1.32129097       0.006104167      35.3815252       0.995029461     -0.203519632      0.995029461     -0.203519632      0.006104167      35.3815252      
 1.33450388       0.00613076998    35.6098129       0.995022081     -0.205553313      0.995022081     -0.205553313      0.00613076998    35.6098129      
 1.34784892       0.00615770895    35.8385564       0.995014662     -0.207607307      0.995014662     -0.207607307      0.00615770895    35.8385564      
 1.3613274        0.00618498805    36.0677407       0.995007204     -0.209681818      0.995007204     -0.209681818      0.00618498805    36.0677407      
 1.37494068       0.00621261144    36.2973506       0.994999707     -0.211777051      0.994999707     -0.211777051      0.00621261144    36.2973506      
 1.38869009       0.00624058336    36.5273709       0.994992171     -0.213893211      0.994992171     -0.213893211      0.00624058336    36.5273709      
 1.40257699       0.00626890806    36.7577863       0.994984596     -0.216030509      0.994984596     -0.216030509      0.00626890806    36.7577863      
 1.41660276       0.00629758983    36.9885811       0.99497698      -0.218189155      0.99497698      -0.218189155      0.00629758983    36.9885811      
 1.43076878       0.00632663302    37.2197397       0.994969325     -0.220369362      0.994969325     -0.220369362      0.00632663302    37.2197397      
 1.44507647       0.006356042      37.4512464       0.994961629     -0.222571346      0.994961629     -0.222571346      0.006356042      37.4512464      
 1.45952724       0.00638582118    37.6830852       0.994953893     -0.224795323      0.994953893     -0.224795323      0.00638582118    37.6830852      
 1.47412251       0.00641597503    37.9152401       0.994946116     -0.227041514      0.994946116     -0.227041514      0.00641597503    37.9152401      
 1.48886373       0.00644650804    38.147695        0.994938298     -0.22931014       0.994938298     -0.22931014       0.00644650804    38.147695       
 1.50375237       0.00647742476    38.3804338       0.994930439     -0.231601424      0.994930439     -0.231601424      0.00647742476    38.3804338      
 1.51878989       0.00650872975    38.61344         0.994922539     -0.233915594      0.994922539     -0.233915594      0.00650872975    38.61344        
 1.53397779       0.00654042765    38.8466973       0.994914596     -0.236252878      0.994914596     -0.236252878      0.00654042765    38.8466973      
 1.54931757       0.0065725231     39.0801891       0.994906612     -0.238613506      0.994906612     -0.238613506      0.0065725231     39.0801891      
 1.56481075       0.00660502083    39.3138989       0.994898585     -0.240997711      0.994898585     -0.240997711      0.00660502083    39.3138989      
 1.58045885       0.00663792555    39.5478101       0.994890516     -0.243405729      0.994890516     -0.243405729      0.00663792555    39.5478101      
 1.59626344       0.00667124208    39.7819059       0.994882404     -0.245837798      0.994882404     -0.245837798      0.00667124208    39.7819059      
 1.61222608       0.00670497523    40.0161695       0.994874249     -0.248294156      0.994874249     -0.248294156      0.00670497523    40.0161695      
 1.62834834       0.00673912987    40.250584        0.994866051     -0.250775048      0.994866051     -0.250775048      0.00673912987    40.250584       
 1.64463182       0.00677371091    40.4851326       0.994857809     -0.253280717      0.994857809     -0.253280717      0.00677371091    40.4851326      
 1.66107814       0.00680872332    40.7197983       0.994849523     -0.255811411      0.994849523     -0.255811411      0.00680872332    40.7197983      
 1.67768892       0.00684417208    40.9545642       0.994841193     -0.25836738       0.994841193     -0.25836738       0.00684417208    40.9545642      
 1.69446581       0.00688006225    41.1894131       0.994832819     -0.260948875      0.994832819     -0.260948875      0.00688006225    41.1894131      
 1.71141047       0.0069163989     41.4243281       0.9948244       -0.263556153      0.9948244       -0.263556153      0.0069163989     41.4243281      
 1.72852457       0.00695318716    41.6592921       0.994815936     -0.266189469      0.994815936     -0.266189469      0.00695318716    41.6592921      
 1.74580982       0.00699043221    41.8942879       0.994807427     -0.268849084      0.994807427     -0.268849084      0.00699043221    41.8942879      
 1.76326792       0.00702813925    42.1292985       0.994798872     -0.271535261      0.994798872     -0.271535261      0.00702813925    42.1292985      
 1.7809006        0.00706631356    42.3643067       0.994790271     -0.274248264      0.994790271     -0.274248264      0.00706631356    42.3643067      
 1.7987096        0.00710496042    42.5992954       0.994781625     -0.276988361      0.994781625     -0.276988361      0.00710496042    42.5992954      
 1.8166967        0.0071440852     42.8342475       0.994772932     -0.279755823      0.994772932     -0.279755823      0.0071440852     42.8342475      
 1.83486367       0.00718369329    43.0691459       0.994764192     -0.282550922      0.994764192     -0.282550922      0.00718369329    43.0691459      
 1.8532123        0.00722379013    43.3039736       0.994755405     -0.285373934      0.994755405     -0.285373934      0.00722379013    43.3039736      
 1.87174443       0.00726438119    43.5387134       0.99474657      -0.288225139      0.99474657      -0.288225139      0.00726438119    43.5387134      
 1.89046187       0.00730547202    43.7733483       0.994737688     -0.291104817      0.994737688     -0.291104817      0.00730547202    43.7733483      
 1.90936649       0.00734706819    44.0078614       0.994728758     -0.294013252      0.994728758     -0.294013252      0.00734706819    44.0078614      
 1.92846015       0.00738917532    44.2422357       0.99471978      -0.296950732      0.99471978      -0.296950732      0.00738917532    44.2422357      
 1.94774475       0.00743179908    44.4764543       0.994710754     -0.299917545      0.994710754     -0.299917545      0.00743179908    44.4764543      
 1.9672222        0.0074749452     44.7105003       0.994701678     -0.302913986      0.994701678     -0.302913986      0.0074749452     44.7105003      
 1.98689442       0.00751861943    44.944357        0.994692553     -0.305940349      0.994692553     -0.305940349      0.00751861943    44.944357       
 2.00676337       0.00756282759    45.1780075       0.994683378     -0.308996933      0.994683378     -0.308996933      0.00756282759    45.1780075      
 2.026831         0.00760757553    45.4114353       0.994674154     -0.31208404       0.994674154     -0.31208404       0.00760757553    45.4114353      
 2.04709931       0.00765286918    45.6446237       0.99466488      -0.315201974      0.99466488      -0.315201974      0.00765286918    45.6446237      
 2.06757031       0.00769871448    45.8775563       0.994655554     -0.318351043      0.994655554     -0.318351043      0.00769871448    45.8775563      
 2.08824601       0.00774511744    46.1102166       0.994646178     -0.321531557      0.994646178     -0.321531557      0.00774511744    46.1102166      
 2.10912847       0.00779208412    46.3425883       0.994636751     -0.32474383       0.994636751     -0.32474383       0.00779208412    46.3425883      
 2.13021975       0.00783962063    46.5746552       0.994627272     -0.327988179      0.994627272     -0.327988179      0.00783962063    46.5746552      
 2.15152195       0.00788773311    46.8064011       0.994617741     -0.331264924      0.994617741     -0.331264924      0.00788773311    46.8064011      
 2.17303717       0.00793642779    47.03781         0.994608158     -0.334574389      0.994608158     -0.334574389      0.00793642779    47.03781        
 2.19476754       0.00798571091    47.268866        0.994598522     -0.337916899      0.994598522     -0.337916899      0.00798571091    47.268866       
 2.21671522       0.00803558879    47.4995532       0.994588834     -0.341292785      0.994588834     -0.341292785      0.00803558879    47.4995532      
 2.23888237       0.00808606779    47.7298561       0.994579092     -0.344702379      0.994579092     -0.344702379      0.00808606779    47.7298561      
 2.26127119       0.00813715433    47.959759        0.994569296     -0.348146018      0.994569296     -0.348146018      0.00813715433    47.959759       
 2.2838839        0.00818885486    48.1892466       0.994559446     -0.351624041      0.994559446     -0.351624041      0.00818885486    48.1892466      
 2.30672274       0.00824117592    48.4183035       0.994549541     -0.355136791      0.994549541     -0.355136791      0.00824117592    48.4183035      
 2.32978997       0.00829412407    48.6469145       0.994539582     -0.358684615      0.994539582     -0.358684615      0.00829412407    48.6469145      
 2.35308787       0.00834770594    48.8750648       0.994529567     -0.362267863      0.994529567     -0.362267863      0.00834770594    48.8750648      
 2.37661875       0.00840192821    49.1027394       0.994519497     -0.365886887      0.994519497     -0.365886887      0.00840192821    49.1027394      
 2.40038494       0.00845679764    49.3299236       0.99450937      -0.369542046      0.99450937      -0.369542046      0.00845679764    49.3299236      
 2.42438879       0.00851232099    49.5566028       0.994499187     -0.373233699      0.994499187     -0.373233699      0.00851232099    49.5566028      
 2.44863267       0.00856850514    49.7827627       0.994488948     -0.37696221       0.994488948     -0.37696221       0.00856850514    49.7827627      
 2.473119         0.00862535698    50.0083891       0.994478651     -0.380727948      0.994478651     -0.380727948      0.00862535698    50.0083891      
 2.49785019       0.00868288348    50.2334678       0.994468296     -0.384531283      0.994468296     -0.384531283      0.00868288348    50.2334678      
 2.52282869       0.00874109165    50.4579849       0.994457883     -0.38837259       0.994457883     -0.38837259       0.00874109165    50.4579849      
 2.54805698       0.00879998859    50.6819268       0.994447412     -0.392252248      0.994447412     -0.392252248      0.00879998859    50.6819268      
 2.57353755       0.00885958143    50.9052799       0.994436882     -0.396170641      0.994436882     -0.396170641      0.00885958143    50.9052799      
 2.59927293       0.00891987736    51.1280308       0.994426292     -0.400128153      0.994426292     -0.400128153      0.00891987736    51.1280308      
 2.62526565       0.00898088365    51.3501663       0.994415643     -0.404125175      0.994415643     -0.404125175      0.00898088365    51.3501663      
 2.65151831       0.00904260761    51.5716735       0.994404933     -0.408162102      0.994404933     -0.408162102      0.00904260761    51.5716735      
 2.67803349       0.00910505663    51.7925394       0.994394163     -0.412239331      0.994394163     -0.412239331      0.00910505663    51.7925394      
 2.70481383       0.00916823815    52.0127515       0.994383332     -0.416357264      0.994383332     -0.416357264      0.00916823815    52.0127515      
 2.73186197       0.00923215967    52.2322973       0.994372439     -0.420516308      0.994372439     -0.420516308      0.00923215967    52.2322973      
 2.75918059       0.00929682876    52.4511645       0.994361484     -0.424716871      0.994361484     -0.424716871      0.00929682876    52.4511645      
 2.78677239       0.00936225306    52.6693412       0.994350466     -0.428959369      0.994350466     -0.428959369      0.00936225306    52.6693412      
 2.81464012       0.00942844026    52.8868155       0.994339386     -0.43324422       0.994339386     -0.43324422       0.00942844026    52.8868155      
 2.84278652       0.00949539812    53.1035756       0.994328242     -0.437571845      0.994328242     -0.437571845      0.00949539812    53.1035756      
 2.87121438       0.00956313447    53.3196103       0.994317034     -0.441942672      0.994317034     -0.441942672      0.00956313447    53.3196103      
 2.89992653       0.0096316572     53.5349081       0.994305761     -0.446357131      0.994305761     -0.446357131      0.0096316572     53.5349081      
 2.92892579       0.00970097428    53.749458        0.994294424     -0.450815657      0.994294424     -0.450815657      0.00970097428    53.749458       
 2.95821505       0.00977109373    53.9632493       0.994283021     -0.45531869       0.994283021     -0.45531869       0.00977109373    53.9632493      
 2.9877972        0.00984202366    54.1762712       0.994271552     -0.459866674      0.994271552     -0.459866674      0.00984202366    54.1762712      
 3.01767517       0.00991377223    54.3885133       0.994260017     -0.464460056      0.994260017     -0.464460056      0.00991377223    54.3885133      
 3.04785192       0.00998634768    54.5999655       0.994248415     -0.46909929       0.994248415     -0.46909929       0.00998634768    54.5999655      
 3.07833044       0.0100597583     54.8106176       0.994236745     -0.473784833      0.994236745     -0.473784833      0.0100597583     54.8106176      
 3.10911375       0.0101340125     55.0204599       0.994225008     -0.478517146      0.994225008     -0.478517146      0.0101340125     55.0204599      
 3.14020489       0.0102091188     55.2294828       0.994213201     -0.483296696      0.994213201     -0.483296696      0.0102091188     55.2294828      
 3.17160693       0.0102850855     55.4376769       0.994201326     -0.488123954      0.994201326     -0.488123954      0.0102850855     55.4376769      
 3.203323         0.0103619215     55.645033        0.994189381     -0.492999395      0.994189381     -0.492999395      0.0103619215     55.645033       
 3.23535623       0.0104396352     55.8515421       0.994177366     -0.4979235        0.994177366     -0.4979235        0.0104396352     55.8515421      
 3.2677098        0.0105182356     56.0571955       0.99416528      -0.502896753      0.99416528      -0.502896753      0.0105182356     56.0571955      
 3.30038689       0.0105977313     56.2619847       0.994153122     -0.507919646      0.994153122     -0.507919646      0.0105977313     56.2619847      
 3.33339076       0.0106781314     56.4659012       0.994140893     -0.512992672      0.994140893     -0.512992672      0.0106781314     56.4659012      
 3.36672467       0.0107594447     56.6689371       0.994128591     -0.518116333      0.994128591     -0.518116333      0.0107594447     56.6689371      
 3.40039192       0.0108416804     56.8710843       0.994116216     -0.523291131      0.994116216     -0.523291131      0.0108416804     56.8710843      
 3.43439584       0.0109248477     57.0723351       0.994103767     -0.528517578      0.994103767     -0.528517578      0.0109248477     57.0723351      
 3.4687398        0.0110089556     57.272682        0.994091244     -0.533796187      0.994091244     -0.533796187      0.0110089556     57.272682       
 3.50342719       0.0110940136     57.4721178       0.994078646     -0.53912748       0.994078646     -0.53912748       0.0110940136     57.4721178      
