# MHz           S          MA           R         50
!Freq             MagS11           AngS11           MagS21           AngS21           MagS12           AngS12           MagS22           AngS22
 1                0.000958356407   32.4620073       0.999191522     -0.0294961353     0.999191522     -0.0294961353     0.000958356407   32.4620073      
 1.01             0.000962006762   32.6870068       0.999190478     -0.0297910656     0.999190478     -0.0297910656     0.000962006762   32.6870068      
 1.0201           0.000965704221   32.912692        0.99918943      -0.0300889447     0.99918943      -0.0300889447     0.000965704221   32.912692       
 1.030301         0.000969449392   33.1390499       0.999188376     -0.0303898021     0.999188376     -0.0303898021     0.000969449392   33.1390499      
 1.04060401       0.000973242889   33.3660675       0.999187316     -0.0306936677     0.999187316     -0.0306936677     0.000973242889   33.3660675      
 1.05101005       0.000977085335   33.5937315       0.999186252     -0.0310005714     0.999186252     -0.0310005714     0.000977085335   33.5937315      
 1.06152015       0.000980977357   33.8220285       0.999185182     -0.0313105436     0.999185182     -0.0313105436     0.000980977357   33.8220285      
 1.07213535       0.000984919588   34.0509449       0.999184107     -0.031623615      0.999184107     -0.031623615      0.000984919588   34.0509449      
 1.08285671       0.00098891267    34.2804669       0.999183026     -0.0319398167     0.999183026     -0.0319398167     0.00098891267    34.2804669      
 1.09368527       0.000992957249   34.5105803       0.99918194      -0.0322591798     0.99918194      -0.0322591798     0.000992957249   34.5105803      
 1.10462213       0.000997053976   34.741271        0.999180849     -0.0325817361     0.999180849     -0.0325817361     0.000997053976   34.741271       
 1.11566835       0.00100120351    34.9725245       0.999179752     -0.0329075173     0.999179752     -0.0329075173     0.00100120351    34.9725245      
 1.12682503       0.00100540652    35.2043263       0.999178649     -0.0332365559     0.999178649     -0.0332365559     0.00100540652    35.2043263      
 1.13809328       0.00100966368    35.4366617       0.999177541     -0.0335688843     0.999177541     -0.0335688843     0.00100966368    35.4366617      
 1.14947421       0.00101397566    35.6695157       0.999176427     -0.0339045354     0.999176427     -0.0339045354     0.00101397566    35.6695157      
 1.16096896       0.00101834315    35.9028732       0.999175308     -0.0342435424     0.999175308     -0.0342435424     0.00101834315    35.9028732      
 1.17257864       0.00102276684    36.1367189       0.999174183     -0.034585939      0.999174183     -0.034585939      0.00102276684    36.1367189      
 1.18430443       0.00102724744    36.3710375       0.999173053     -0.0349317589     0.999173053     -0.0349317589     0.00102724744    36.3710375      
 1.19614748       0.00103178563    36.6058134       0.999171916     -0.0352810364     0.999171916     -0.0352810364     0.00103178563    36.6058134      
 1.20810895       0.00103638214    36.8410308       0.999170774     -0.0356338061     0.999170774     -0.0356338061     0.00103638214    36.8410308      
 1.22019004       0.00104103768    37.0766739       0.999169627     -0.0359901029     0.999169627     -0.0359901029     0.00104103768    37.0766739      
 1.23239194       0.00104575298    37.3127267       0.999168473     -0.036349962      0.999168473     -0.036349962      0.00104575298    37.3127267      
 1.24471586       0.00105052876    37.5491731       0.999167314     -0.0367134191     0.999167314     -0.0367134191     0.00105052876    37.5491731      
 1.25716302       0.00105536577    37.7859967       0.999166149     -0.0370805101     0.999166149     -0.0370805101     0.00105536577    37.7859967      
 1.26973465       0.00106026474    38.0231812       0.999164978     -0.0374512714     0.999164978     -0.0374512714     0.00106026474    38.0231812      
 1.282432         0.00106522644    38.2607101       0.999163801     -0.0378257396     0.999163801     -0.0378257396     0.00106522644    38.2607101      
 1.29525631       0.00107025162    38.4985667       0.999162618     -0.0382039518     0.999162618     -0.0382039518     0.00107025162    38.4985667      
 1.30820888       0.00107534103    38.7367344       0.999161429     -0.0385859455     0.999161429     -0.0385859455     0.00107534103    38.7367344      
 1.32129097       0.00108049546    38.9751963       0.999160234     -0.0389717584     0.999160234     -0.0389717584     0.00108049546    38.9751963      
 1.33450388       0.00108571569    39.2139354       0.999159033     -0.0393614288     0.999159033     -0.0393614288     0.00108571569    39.2139354      
 1.34784892       0.00109100248    39.4529348       0.999157826     -0.0397549951     0.999157826     -0.0397549951     0.00109100248    39.4529348      
 1.3613274        0.00109635665    39.6921773       0.999156613     -0.0401524964     0.999156613     -0.0401524964     0.00109635665    39.6921773      
 1.37494068       0.00110177899    39.9316457       0.999155394     -0.040553972      0.999155394     -0.040553972      0.00110177899    39.9316457      
 1.38869009       0.00110727029    40.1713229       0.999154169     -0.0409594616     0.999154169     -0.0409594616     0.00110727029    40.1713229      
 1.40257699       0.00111283139    40.4111914       0.999152938     -0.0413690053     0.999152938     -0.0413690053     0.00111283139    40.4111914      
 1.41660276       0.00111846309    40.6512339       0.9991517       -0.0417826437     0.9991517       -0.0417826437     0.00111846309    40.6512339      
 1.43076878       0.00112416622    40.891433        0.999150456     -0.0422004177     0.999150456     -0.0422004177     0.00112416622    40.891433       
 1.44507647       0.00112994162    41.1317711       0.999149206     -0.0426223686     0.999149206     -0.0426223686     0.00112994162    41.1317711      
 1.45952724       0.00113579013    41.3722308       0.999147949     -0.0430485383     0.999147949     -0.0430485383     0.00113579013    41.3722308      
 1.47412251       0.00114171259    41.6127945       0.999146686     -0.0434789688     0.999146686     -0.0434789688     0.00114171259    41.6127945      
 1.48886373       0.00114770987    41.8534445       0.999145417     -0.0439137028     0.999145417     -0.0439137028     0.00114770987    41.8534445      
 1.50375237       0.00115378282    42.0941633       0.999144142     -0.0443527833     0.999144142     -0.0443527833     0.00115378282    42.0941633      
 1.51878989       0.00115993232    42.3349332       0.999142859     -0.0447962538     0.999142859     -0.0447962538     0.00115993232    42.3349332      
 1.53397779       0.00116615923    42.5757367       0.999141571     -0.0452441581     0.999141571     -0.0452441581     0.00116615923    42.5757367      
 1.54931757       0.00117246446    42.816556        0.999140276     -0.0456965406     0.999140276     -0.0456965406     0.00117246446    42.816556       
 1.56481075       0.00117884888    43.0573735       0.999138974     -0.046153446      0.999138974     -0.046153446      0.00117884888    43.0573735      
 1.58045885       0.0011853134     43.2981716       0.999137666     -0.0466149195     0.999137666     -0.0466149195     0.0011853134     43.2981716      
 1.59626344       0.00119185893    43.5389326       0.999136351     -0.0470810069     0.999136351     -0.0470810069     0.00119185893    43.5389326      
 1.61222608       0.00119848637    43.779639        0.99913503      -0.0475517542     0.99913503      -0.0475517542     0.00119848637    43.779639       
 1.62834834       0.00120519666    44.0202732       0.999133701     -0.048027208      0.999133701     -0.048027208      0.00120519666    44.0202732      
 1.64463182       0.00121199072    44.2608177       0.999132366     -0.0485074154     0.999132366     -0.0485074154     0.00121199072    44.2608177      
 1.66107814       0.00121886949    44.501255        0.999131025     -0.048992424      0.999131025     -0.048992424      0.00121886949    44.501255       
 1.67768892       0.00122583391    44.7415676       0.999129676     -0.0494822816     0.999129676     -0.0494822816     0.00122583391    44.7415676      
 1.69446581       0.00123288494    44.9817381       0.999128321     -0.0499770367     0.999128321     -0.0499770367     0.00123288494    44.9817381      
 1.71141047       0.00124002354    45.2217493       0.999126959     -0.0504767385     0.999126959     -0.0504767385     0.00124002354    45.2217493      
 1.72852457       0.00124725067    45.4615838       0.99912559      -0.0509814362     0.99912559      -0.0509814361     0.00124725067    45.4615838      
 1.74580982       0.00125456732    45.7012245       0.999124214     -0.0514911798     0.999124214     -0.0514911798     0.00125456732    45.7012245      
 1.76326792       0.00126197446    45.9406542       0.999122831     -0.0520060198     0.999122831     -0.0520060198     0.00126197446    45.9406542      
 1.7809006        0.0012694731     46.1798559       0.999121441     -0.0525260071     0.999121441     -0.0525260071     0.0012694731     46.1798559      
 1.7987096        0.00127706422    46.4188128       0.999120044     -0.0530511931     0.999120044     -0.0530511931     0.00127706422    46.4188128      
 1.8166967        0.00128474884    46.6575078       0.999118639     -0.05358163       0.999118639     -0.05358163       0.00128474884    46.6575078      
 1.83486367       0.00129252798    46.8959243       0.999117228     -0.05411737       0.999117228     -0.05411737       0.00129252798    46.8959243      
 1.8532123        0.00130040266    47.1340457       0.99911581      -0.0546584663     0.99911581      -0.0546584663     0.00130040266    47.1340457      
 1.87174443       0.00130837391    47.3718554       0.999114384     -0.0552049724     0.999114384     -0.0552049724     0.00130837391    47.3718554      
 1.89046187       0.00131644278    47.609337        0.999112951     -0.0557569424     0.999112951     -0.0557569424     0.00131644278    47.609337       
 1.90936649       0.00132461032    47.8464742       0.999111511     -0.0563144309     0.999111511     -0.0563144309     0.00132461032    47.8464742      
 1.92846015       0.00133287758    48.0832509       0.999110063     -0.056877493      0.999110063     -0.056877493      0.00133287758    48.0832509      
 1.94774475       0.00134124564    48.3196511       0.999108608     -0.0574461845     0.999108608     -0.0574461845     0.00134124564    48.3196511      
 1.9672222        0.00134971557    48.5556588       0.999107146     -0.0580205617     0.999107146     -0.0580205617     0.00134971557    48.5556588      
 1.98689442       0.00135828845    48.7912583       0.999105676     -0.0586006814     0.999105676     -0.0586006814     0.00135828845    48.7912583      
 2.00676337       0.00136696538    49.026434        0.999104199     -0.059186601      0.999104199     -0.059186601      0.00136696538    49.026434       
 2.026831         0.00137574747    49.2611705       0.999102714     -0.0597783784     0.999102714     -0.0597783784     0.00137574747    49.2611705      
 2.04709931       0.00138463582    49.4954525       0.999101222     -0.0603760723     0.999101222     -0.0603760723     0.00138463582    49.4954525      
 2.06757031       0.00139363155    49.7292648       0.999099722     -0.0609797417     0.999099722     -0.0609797417     0.00139363155    49.7292648      
 2.08824601       0.0014027358     49.9625926       0.999098215     -0.0615894465     0.999098215     -0.0615894465     0.0014027358     49.9625926      
 2.10912847       0.0014119497     50.195421        0.999096699     -0.062205247      0.999096699     -0.062205247      0.0014119497     50.195421       
 2.13021975       0.00142127441    50.4277354       0.999095176     -0.062827204      0.999095176     -0.062827204      0.00142127441    50.4277354      
 2.15152195       0.00143071108    50.6595213       0.999093646     -0.0634553791     0.999093646     -0.0634553791     0.00143071108    50.6595213      
 2.17303717       0.00144026087    50.8907645       0.999092107     -0.0640898345     0.999092107     -0.0640898345     0.00144026087    50.8907645      
 2.19476754       0.00144992498    51.121451        0.999090561     -0.064730633      0.999090561     -0.064730633      0.00144992498    51.121451       
 2.21671522       0.00145970458    51.3515668       0.999089007     -0.065377838      0.999089007     -0.065377838      0.00145970458    51.3515668      
 2.23888237       0.00146960086    51.5810982       0.999087444     -0.0660315135     0.999087444     -0.0660315135     0.00146960086    51.5810982      
 2.26127119       0.00147961505    51.8100318       0.999085874     -0.0666917242     0.999085874     -0.0666917242     0.00147961505    51.8100318      
 2.2838839        0.00148974835    52.0383542       0.999084296     -0.0673585354     0.999084296     -0.0673585354     0.00148974835    52.0383542      
 2.30672274       0.00150000199    52.2660524       0.999082709     -0.0680320132     0.999082709     -0.0680320132     0.00150000199    52.2660524      
 2.32978997       0.00151037721    52.4931134       0.999081115     -0.0687122241     0.999081115     -0.0687122241     0.00151037721    52.4931134      
 2.35308787       0.00152087525    52.7195246       0.999079512     -0.0693992354     0.999079512     -0.0693992354     0.00152087525    52.7195246      
 2.37661875       0.00153149738    52.9452734       0.999077902     -0.0700931152     0.999077902     -0.0700931152     0.00153149738    52.9452734      
 2.40038494       0.00154224486    53.1703476       0.999076283     -0.0707939321     0.999076283     -0.0707939321     0.00154224486    53.1703476      
 2.42438879       0.00155311897    53.3947352       0.999074655     -0.0715017554     0.999074655     -0.0715017554     0.00155311897    53.3947352      
 2.44863267       0.001564121      53.6184242       0.99907302      -0.0722166552     0.99907302      -0.0722166552     0.001564121      53.6184242      
 2.473119         0.00157525225    53.8414031       0.999071375     -0.0729387022     0.999071375     -0.0729387022     0.00157525225    53.8414031      
 2.49785019       0.00158651403    54.0636603       0.999069723     -0.0736679679     0.999069723     -0.0736679679     0.00158651403    54.0636603      
 2.52282869       0.00159790767    54.2851849       0.999068062     -0.0744045244     0.999068062     -0.0744045244     0.00159790767    54.2851849      
 2.54805698       0.0016094345     54.5059656       0.999066392     -0.0751484446     0.999066392     -0.0751484446     0.0016094345     54.5059656      
 2.57353755       0.00162109586    54.7259919       0.999064714     -0.0758998021     0.999064714     -0.0758998021     0.00162109586    54.7259919      
 2.59927293       0.00163289311    54.9452531       0.999063028     -0.0766586713     0.999063028     -0.0766586713     0.00163289311    54.9452531      
 2.62526565       0.00164482762    55.163739        0.999061332     -0.0774251272     0.999061332     -0.0774251272     0.00164482762    55.163739       
 2.65151831       0.00165690078    55.3814395       0.999059628     -0.0781992457     0.999059628     -0.0781992457     0.00165690078    55.3814395      
 2.67803349       0.00166911396    55.5983447       0.999057915     -0.0789811033     0.999057915     -0.0789811033     0.00166911396    55.5983447      
 2.70481383       0.00168146859    55.814445        0.999056193     -0.0797707775     0.999056193     -0.0797707775     0.00168146859    55.814445       
 2.73186197       0.00169396606    56.029731        0.999054463     -0.0805683464     0.999054463     -0.0805683464     0.00169396606    56.029731       
 2.75918059       0.00170660782    56.2441935       0.999052723     -0.0813738889     0.999052723     -0.0813738889     0.00170660782    56.2441935      
 2.78677239       0.0017193953     56.4578236       0.999050975     -0.0821874846     0.999050975     -0.0821874846     0.0017193953     56.4578236      
 2.81464012       0.00173232995    56.6706125       0.999049217     -0.0830092142     0.999049217     -0.0830092142     0.00173232995    56.6706125      
 2.84278652       0.00174541324    56.8825518       0.999047451     -0.0838391588     0.999047451     -0.0838391588     0.00174541324    56.8825518      
 2.87121438       0.00175864666    57.0936332       0.999045675     -0.0846774007     0.999045675     -0.0846774007     0.00175864666    57.0936332      
 2.89992653       0.00177203169    57.3038485       0.99904389      -0.0855240227     0.99904389      -0.0855240227     0.00177203169    57.3038485      
 2.92892579       0.00178556983    57.5131902       0.999042096     -0.0863791086     0.999042096     -0.0863791086     0.00178556983    57.5131902      
 2.95821505       0.00179926261    57.7216504       0.999040293     -0.0872427431     0.999040293     -0.0872427431     0.00179926261    57.7216504      
 2.9877972        0.00181311156    57.9292219       0.99903848      -0.0881150115     0.99903848      -0.0881150115     0.00181311156    57.9292219      
 3.01767517       0.00182711823    58.1358975       0.999036658     -0.0889960002     0.999036658     -0.0889960002     0.00182711823    58.1358975      
 3.04785192       0.00184128416    58.3416704       0.999034826     -0.0898857963     0.999034826     -0.0898857963     0.00184128416    58.3416704      
 3.07833044       0.00185561095    58.5465337       0.999032985     -0.090784488      0.999032985     -0.090784488      0.00185561095    58.5465337      
 3.10911375       0.00187010016    58.7504811       0.999031135     -0.091692164      0.999031135     -0.091692164      0.00187010016    58.7504811      
 3.14020489       0.00188475341    58.9535062       0.999029275     -0.0926089142     0.999029275     -0.0926089142     0.00188475341    58.9535062      
 3.17160693       0.00189957231    59.1556031       0.999027405     -0.0935348293     0.999027405     -0.0935348293     0.00189957231    59.1556031      
 3.203323         0.0019145585     59.3567659       0.999025525     -0.0944700009     0.999025525     -0.0944700009     0.0019145585     59.3567659      
 3.23535623       0.0019297136     59.5569891       0.999023636     -0.0954145216     0.999023636     -0.0954145216     0.0019297136     59.5569891      
 3.2677098        0.0019450393     59.7562671       0.999021737     -0.0963684848     0.999021737     -0.0963684848     0.0019450393     59.7562671      
 3.30038689       0.00196053726    59.954595        0.999019828     -0.0973319848     0.999019828     -0.0973319848     0.00196053726    59.954595       
 3.33339076       0.00197620917    60.1519676       0.999017909     -0.098305117      0.999017909     -0.098305117      0.00197620917    60.1519676      
 3.36672467       0.00199205673    60.3483803       0.99901598      -0.0992879777     0.99901598      -0.0992879777     0.00199205673    60.3483803      
 3.40039192       0.00200808168    60.5438284       0.999014041     -0.100280664      0.999014041     -0.100280664      0.00200808168    60.5438284      
 3.43439584       0.00202428574    60.7383077       0.999012091     -0.101283275      0.999012091     -0.101283275      0.00202428574    60.7383077      
 3.4687398        0.00204067068    60.9318141       0.999010132     -0.102295908      0.999010132     -0.102295908      0.00204067068    60.9318141      
 3.50342719       0.00205723825    61.1243435       0.999008163     -0.103318665      0.999008163     -0.103318665      0.00205723825    61.1243435      
