# MHz           S          MA           R         50
!Freq             MagS11           AngS11           MagS21           AngS21           MagS12           AngS12           MagS22           AngS22
 1                0.00333975606    30.3337766       0.99711889      -0.0969200044     0.99711889      -0.0969200044     0.00333975606    30.3337766      
 1.01             0.00335145757    30.5508077       0.997115251     -0.0978888482     0.997115251     -0.0978888482     0.00335145757    30.5508077      
 1.0201           0.00336330939    30.7686231       0.997111594     -0.0988673751     0.997111594     -0.0988673751     0.00336330939    30.7686231      
 1.030301         0.00337531351    30.9872121       0.997107918     -0.0998556818     0.997107918     -0.0998556818     0.00337531351    30.9872121      
 1.04060401       0.00338747195    31.2065636       0.997104223     -0.100853866      0.997104223     -0.100853866      0.00338747195    31.2065636      
 1.05101005       0.00339978673    31.4266661       0.99710051      -0.101862026      0.99710051      -0.101862026      0.00339978673    31.4266661      
 1.06152015       0.0034122599     31.6475084       0.997096777     -0.102880263      0.997096777     -0.102880263      0.0034122599     31.6475084      
 1.07213535       0.00342489355    31.8690785       0.997093026     -0.103908676      0.997093026     -0.103908676      0.00342489355    31.8690785      
 1.08285671       0.00343768976    32.0913645       0.997089255     -0.104947367      0.997089255     -0.104947367      0.00343768976    32.0913645      
 1.09368527       0.00345065065    32.3143543       0.997085465     -0.105996439      0.997085465     -0.105996439      0.00345065065    32.3143543      
 1.10462213       0.00346377837    32.5380354       0.997081656     -0.107055995      0.997081656     -0.107055995      0.00346377837    32.5380354      
 1.11566835       0.00347707507    32.7623953       0.997077827     -0.108126141      0.997077827     -0.108126141      0.00347707507    32.7623953      
 1.12682503       0.00349054294    32.9874212       0.997073978     -0.109206983      0.997073978     -0.109206983      0.00349054294    32.9874212      
 1.13809328       0.00350418418    33.2131          0.99707011      -0.110298626      0.99707011      -0.110298626      0.00350418418    33.2131         
 1.14947421       0.00351800102    33.4394185       0.997066222     -0.111401179      0.997066222     -0.111401179      0.00351800102    33.4394185      
 1.16096896       0.00353199572    33.6663634       0.997062314     -0.112514752      0.997062314     -0.112514752      0.00353199572    33.6663634      
 1.17257864       0.00354617053    33.893921        0.997058386     -0.113639453      0.997058386     -0.113639453      0.00354617053    33.893921       
 1.18430443       0.00356052777    34.1220774       0.997054438     -0.114775395      0.997054438     -0.114775395      0.00356052777    34.1220774      
 1.19614748       0.00357506975    34.3508188       0.99705047      -0.115922689      0.99705047      -0.115922689      0.00357506975    34.3508188      
 1.20810895       0.0035897988     34.5801309       0.997046481     -0.117081449      0.997046481     -0.117081449      0.0035897988     34.5801309      
 1.22019004       0.0036047173     34.8099993       0.997042472     -0.11825179       0.997042472     -0.11825179       0.0036047173     34.8099993      
 1.23239194       0.00361982763    35.0404095       0.997038442     -0.119433827      0.997038442     -0.119433827      0.00361982763    35.0404095      
 1.24471586       0.00363513219    35.2713468       0.997034392     -0.120627677      0.997034392     -0.120627677      0.00363513219    35.2713468      
 1.25716302       0.00365063343    35.5027963       0.99703032      -0.121833458      0.99703032      -0.121833458      0.00365063343    35.5027963      
 1.26973465       0.0036663338     35.7347428       0.997026228     -0.123051289      0.997026228     -0.123051289      0.0036663338     35.7347428      
 1.282432         0.00368223577    35.9671713       0.997022115     -0.124281292      0.997022115     -0.124281292      0.00368223577    35.9671713      
 1.29525631       0.00369834185    36.2000663       0.99701798      -0.125523586      0.99701798      -0.125523586      0.00369834185    36.2000663      
 1.30820888       0.00371465456    36.4334122       0.997013824     -0.126778296      0.997013824     -0.126778296      0.00371465456    36.4334122      
 1.32129097       0.00373117647    36.6671933       0.997009647     -0.128045544      0.997009647     -0.128045544      0.00373117647    36.6671933      
 1.33450388       0.00374791013    36.9013939       0.997005448     -0.129325457      0.997005448     -0.129325457      0.00374791013    36.9013939      
 1.34784892       0.00376485814    37.135998        0.997001228     -0.130618161      0.997001228     -0.130618161      0.00376485814    37.135998       
 1.3613274        0.00378202313    37.3709893       0.996996986     -0.131923784      0.996996986     -0.131923784      0.00378202313    37.3709893      
 1.37494068       0.00379940775    37.6063517       0.996992721     -0.133242454      0.996992721     -0.133242454      0.00379940775    37.6063517      
 1.38869009       0.00381701465    37.8420689       0.996988435     -0.134574303      0.996988435     -0.134574303      0.00381701465    37.8420689      
 1.40257699       0.00383484654    38.0781242       0.996984127     -0.135919461      0.996984127     -0.135919461      0.00383484654    38.0781242      
 1.41660276       0.00385290613    38.3145011       0.996979796     -0.137278062      0.996979796     -0.137278062      0.00385290613    38.3145011      
 1.43076878       0.00387119617    38.551183        0.996975443     -0.13865024       0.996975443     -0.13865024       0.00387119617    38.551183       
 1.44507647       0.00388971941    38.7881529       0.996971068     -0.140036131      0.996971068     -0.140036131      0.00388971941    38.7881529      
 1.45952724       0.00390847865    39.0253939       0.99696667      -0.141435871      0.99696667      -0.141435871      0.00390847865    39.0253939      
 1.47412251       0.00392747671    39.2628891       0.996962249     -0.1428496        0.996962249     -0.1428496        0.00392747671    39.2628891      
 1.48886373       0.00394671643    39.5006213       0.996957805     -0.144277456      0.996957805     -0.144277456      0.00394671643    39.5006213      
 1.50375237       0.00396620066    39.7385734       0.996953338     -0.145719581      0.996953338     -0.145719581      0.00396620066    39.7385734      
 1.51878989       0.00398593231    39.976728        0.996948847     -0.147176117      0.996948847     -0.147176117      0.00398593231    39.976728       
 1.53397779       0.00400591429    40.215068        0.996944334     -0.148647209      0.996944334     -0.148647209      0.00400591429    40.215068       
 1.54931757       0.00402614953    40.4535758       0.996939797     -0.150133001      0.996939797     -0.150133001      0.00402614953    40.4535758      
 1.56481075       0.00404664101    40.6922341       0.996935236     -0.151633641      0.996935236     -0.151633641      0.00404664101    40.6922341      
 1.58045885       0.00406739171    40.9310254       0.996930652     -0.153149277      0.996930652     -0.153149277      0.00406739171    40.9310254      
 1.59626344       0.00408840465    41.1699321       0.996926043     -0.154680059      0.996926043     -0.154680059      0.00408840465    41.1699321      
 1.61222608       0.00410968288    41.4089366       0.996921411     -0.156226137      0.996921411     -0.156226137      0.00410968288    41.4089366      
 1.62834834       0.00413122946    41.6480214       0.996916755     -0.157787666      0.996916755     -0.157787666      0.00413122946    41.6480214      
 1.64463182       0.00415304749    41.8871687       0.996912074     -0.159364798      0.996912074     -0.159364798      0.00415304749    41.8871687      
 1.66107814       0.00417514008    42.1263611       0.996907369     -0.160957691      0.996907369     -0.160957691      0.00417514008    42.1263611      
 1.67768892       0.00419751039    42.3655807       0.996902639     -0.162566501      0.996902639     -0.162566501      0.00419751039    42.3655807      
 1.69446581       0.00422016159    42.6048099       0.996897884     -0.164191388      0.996897884     -0.164191388      0.00422016159    42.6048099      
 1.71141047       0.00424309687    42.8440311       0.996893105     -0.165832511      0.996893105     -0.165832511      0.00424309687    42.8440311      
 1.72852457       0.00426631947    43.0832266       0.996888301     -0.167490034      0.996888301     -0.167490034      0.00426631947    43.0832266      
 1.74580982       0.00428983264    43.3223787       0.996883471     -0.16916412       0.996883471     -0.16916412       0.00428983264    43.3223787      
 1.76326792       0.00431363966    43.5614698       0.996878616     -0.170854935      0.996878616     -0.170854935      0.00431363966    43.5614698      
 1.7809006        0.00433774383    43.8004823       0.996873736     -0.172562645      0.996873736     -0.172562645      0.00433774383    43.8004823      
 1.7987096        0.00436214849    44.0393986       0.996868829     -0.174287419      0.996868829     -0.174287419      0.00436214849    44.0393986      
 1.8166967        0.004386857      44.2782012       0.996863898     -0.176029428      0.996863898     -0.176029428      0.004386857      44.2782012      
 1.83486367       0.00441187276    44.5168726       0.99685894      -0.177788844      0.99685894      -0.177788844      0.00441187276    44.5168726      
 1.8532123        0.00443719918    44.7553952       0.996853956     -0.179565841      0.996853956     -0.179565841      0.00443719918    44.7553952      
 1.87174443       0.0044628397     44.9937519       0.996848946     -0.181360594      0.996848946     -0.181360594      0.0044628397     44.9937519      
 1.89046187       0.00448879781    45.2319251       0.996843909     -0.183173281      0.996843909     -0.183173281      0.00448879781    45.2319251      
 1.90936649       0.004515077      45.4698978       0.996838846     -0.18500408       0.996838846     -0.18500408       0.004515077      45.4698978      
 1.92846015       0.0045416808     45.7076526       0.996833756     -0.186853174      0.996833756     -0.186853174      0.0045416808     45.7076526      
 1.94774475       0.00456861278    45.9451724       0.996828639     -0.188720744      0.996828639     -0.188720744      0.00456861278    45.9451724      
 1.9672222        0.00459587652    46.1824403       0.996823495     -0.190606975      0.996823495     -0.190606975      0.00459587652    46.1824403      
 1.98689442       0.00462347565    46.4194394       0.996818324     -0.192512054      0.996818324     -0.192512054      0.00462347565    46.4194394      
 2.00676337       0.00465141381    46.6561527       0.996813125     -0.194436168      0.996813125     -0.194436168      0.00465141381    46.6561527      
 2.026831         0.00467969467    46.8925636       0.996807899     -0.196379508      0.996807899     -0.196379508      0.00467969467    46.8925636      
 2.04709931       0.00470832195    47.1286555       0.996802645     -0.198342266      0.996802645     -0.198342266      0.00470832195    47.1286555      
 2.06757031       0.00473729939    47.3644118       0.996797363     -0.200324636      0.996797363     -0.200324636      0.00473729939    47.3644118      
 2.08824601       0.00476663074    47.5998161       0.996792053     -0.202326813      0.996792053     -0.202326813      0.00476663074    47.5998161      
 2.10912847       0.00479631981    47.8348523       0.996786715     -0.204348996      0.996786715     -0.204348996      0.00479631981    47.8348523      
 2.13021975       0.00482637044    48.0695041       0.996781348     -0.206391384      0.996781348     -0.206391384      0.00482637044    48.0695041      
 2.15152195       0.00485678647    48.3037555       0.996775953     -0.208454179      0.996775953     -0.208454179      0.00485678647    48.3037555      
 2.17303717       0.00488757181    48.5375908       0.996770529     -0.210537585      0.996770529     -0.210537585      0.00488757181    48.5375908      
 2.19476754       0.00491873038    48.7709942       0.996765076     -0.212641807      0.996765076     -0.212641807      0.00491873038    48.7709942      
 2.21671522       0.00495026613    49.0039501       0.996759593     -0.214767054      0.996759593     -0.214767054      0.00495026613    49.0039501      
 2.23888237       0.00498218304    49.2364431       0.996754082     -0.216913536      0.996754082     -0.216913536      0.00498218304    49.2364431      
 2.26127119       0.00501448515    49.4684579       0.99674854      -0.219081465      0.99674854      -0.219081465      0.00501448515    49.4684579      
 2.2838839        0.00504717651    49.6999795       0.996742969     -0.221271054      0.996742969     -0.221271054      0.00504717651    49.6999795      
 2.30672274       0.0050802612     49.9309929       0.996737368     -0.223482521      0.996737368     -0.223482521      0.0050802612     49.9309929      
 2.32978997       0.00511374334    50.1614834       0.996731737     -0.225716083      0.996731737     -0.225716083      0.00511374334    50.1614834      
 2.35308787       0.00514762709    50.3914364       0.996726076     -0.227971961      0.996726076     -0.227971961      0.00514762709    50.3914364      
 2.37661875       0.00518191663    50.6208374       0.996720384     -0.230250379      0.996720384     -0.230250379      0.00518191663    50.6208374      
 2.40038494       0.00521661619    50.8496722       0.996714661     -0.232551561      0.996714661     -0.232551561      0.00521661619    50.8496722      
 2.42438879       0.00525173002    51.0779268       0.996708908     -0.234875734      0.996708908     -0.234875734      0.00525173002    51.0779268      
 2.44863267       0.00528726243    51.3055874       0.996703123     -0.237223129      0.996703123     -0.237223129      0.00528726243    51.3055874      
 2.473119         0.00532321773    51.5326402       0.996697307     -0.239593976      0.996697307     -0.239593976      0.00532321773    51.5326402      
 2.49785019       0.00535960028    51.7590718       0.99669146      -0.241988511      0.99669146      -0.241988511      0.00535960028    51.7590718      
 2.52282869       0.0053964145     51.9848689       0.996685581     -0.24440697       0.996685581     -0.24440697       0.0053964145     51.9848689      
 2.54805698       0.00543366481    52.2100184       0.996679669     -0.246849592      0.996679669     -0.246849592      0.00543366481    52.2100184      
 2.57353755       0.00547135569    52.4345074       0.996673726     -0.249316617      0.996673726     -0.249316617      0.00547135569    52.4345074      
 2.59927293       0.00550949166    52.6583233       0.99666775      -0.25180829       0.99666775      -0.25180829       0.00550949166    52.6583233      
 2.62526565       0.00554807725    52.8814536       0.996661742     -0.254324857      0.996661742     -0.254324857      0.00554807725    52.8814536      
 2.65151831       0.00558711706    53.1038861       0.996655701     -0.256866567      0.996655701     -0.256866567      0.00558711706    53.1038861      
 2.67803349       0.0056266157     53.3256086       0.996649627     -0.25943367       0.996649627     -0.25943367       0.0056266157     53.3256086      
 2.70481383       0.00566657786    53.5466094       0.996643519     -0.26202642       0.996643519     -0.26202642       0.00566657786    53.5466094      
 2.73186197       0.00570700822    53.7668768       0.996637378     -0.264645073      0.996637378     -0.264645073      0.00570700822    53.7668768      
 2.75918059       0.00574791153    53.9863994       0.996631203     -0.267289888      0.996631203     -0.267289888      0.00574791153    53.9863994      
 2.78677239       0.00578929258    54.2051661       0.996624995     -0.269961126      0.996624995     -0.269961126      0.00578929258    54.2051661      
 2.81464012       0.00583115618    54.4231658       0.996618752     -0.27265905       0.996618752     -0.27265905       0.00583115618    54.4231658      
 2.84278652       0.00587350721    54.6403878       0.996612475     -0.275383928      0.996612475     -0.275383928      0.00587350721    54.6403878      
 2.87121438       0.00591635058    54.8568216       0.996606163     -0.278136029      0.996606163     -0.278136029      0.00591635058    54.8568216      
 2.89992653       0.00595969122    55.0724568       0.996599816     -0.280915623      0.996599816     -0.280915623      0.00595969122    55.0724568      
 2.92892579       0.00600353413    55.2872834       0.996593434     -0.283722987      0.996593434     -0.283722987      0.00600353413    55.2872834      
 2.95821505       0.00604788435    55.5012914       0.996587017     -0.286558396      0.996587017     -0.286558396      0.00604788435    55.5012914      
 2.9877972        0.00609274694    55.7144713       0.996580564     -0.289422132      0.996580564     -0.289422132      0.00609274694    55.7144713      
 3.01767517       0.00613812705    55.9268137       0.996574075     -0.292314476      0.996574075     -0.292314476      0.00613812705    55.9268137      
 3.04785192       0.00618402982    56.1383092       0.996567551     -0.295235715      0.996567551     -0.295235715      0.00618402982    56.1383092      
 3.07833044       0.00623046047    56.348949        0.996560989     -0.298186137      0.996560989     -0.298186137      0.00623046047    56.348949       
 3.10911375       0.00627742426    56.5587243       0.996554391     -0.301166033      0.996554391     -0.301166033      0.00627742426    56.5587243      
 3.14020489       0.00632492648    56.7676265       0.996547756     -0.304175698      0.996547756     -0.304175698      0.00632492648    56.7676265      
 3.17160693       0.0063729725     56.9756474       0.996541084     -0.307215429      0.996541084     -0.307215429      0.0063729725     56.9756474      
 3.203323         0.00642156769    57.1827789       0.996534375     -0.310285525      0.996534375     -0.310285525      0.00642156769    57.1827789      
 3.23535623       0.00647071751    57.3890131       0.996527628     -0.313386291      0.996527628     -0.313386291      0.00647071751    57.3890131      
 3.2677098        0.00652042745    57.5943423       0.996520842     -0.316518032      0.996520842     -0.316518032      0.00652042745    57.5943423      
 3.30038689       0.00657070304    57.7987592       0.996514019     -0.319681058      0.996514019     -0.319681058      0.00657070304    57.7987592      
 3.33339076       0.00662154988    58.0022566       0.996507157     -0.322875681      0.996507157     -0.322875681      0.00662154988    58.0022566      
 3.36672467       0.0066729736     58.2048274       0.996500256     -0.326102216      0.996500256     -0.326102216      0.0066729736     58.2048274      
 3.40039192       0.00672497989    58.4064649       0.996493316     -0.329360982      0.996493316     -0.329360982      0.00672497989    58.4064649      
 3.43439584       0.00677757449    58.6071626       0.996486336     -0.3326523        0.996486336     -0.3326523        0.00677757449    58.6071626      
 3.4687398        0.0068307632     58.8069141       0.996479317     -0.335976497      0.996479317     -0.335976497      0.0068307632     58.8069141      
 3.50342719       0.00688455185    59.0057134       0.996472258     -0.339333899      0.996472258     -0.339333899      0.00688455185    59.0057134      
