# MHz           S          MA           R         50
!Freq             MagS11           AngS11           MagS21           AngS21           MagS12           AngS12           MagS22           AngS22
 1                0.00111458909    15.330123        0.998925113     -0.0169018133     0.998925113     -0.0169018133     0.00111458909    15.330123       
 1.01             0.00111592975    15.4681591       0.998924535     -0.0170708215     0.998924535     -0.0170708215     0.00111592975    15.4681591      
 1.0201           0.00111728762    15.607278        0.998923954     -0.0172415197     0.998923954     -0.0172415197     0.00111728762    15.607278       
 1.030301         0.00111866294    15.7474842       0.99892337      -0.0174139247     0.99892337      -0.0174139247     0.00111866294    15.7474842      
 1.04060401       0.00112005601    15.8887827       0.998922783     -0.0175880537     0.998922783     -0.0175880537     0.00112005601    15.8887827      
 1.05101005       0.00112146709    16.0311778       0.998922193     -0.0177639237     0.998922193     -0.0177639237     0.00112146709    16.0311778      
 1.06152015       0.00112289648    16.1746741       0.9989216       -0.0179415523     0.9989216       -0.0179415523     0.00112289648    16.1746741      
 1.07213535       0.00112434447    16.3192761       0.998921004     -0.018120957      0.998921004     -0.018120957      0.00112434447    16.3192761      
 1.08285671       0.00112581134    16.464988        0.998920406     -0.0183021557     0.998920406     -0.0183021557     0.00112581134    16.464988       
 1.09368527       0.0011272974     16.6118142       0.998919804     -0.0184851661     0.998919804     -0.0184851661     0.0011272974     16.6118142      
 1.10462213       0.00112880295    16.7597587       0.998919199     -0.0186700064     0.998919199     -0.0186700064     0.00112880295    16.7597587      
 1.11566835       0.0011303283     16.9088257       0.998918591     -0.018856695      0.998918591     -0.018856695      0.0011303283     16.9088257      
 1.12682503       0.00113187375    17.059019        0.99891798      -0.0190452503     0.99891798      -0.0190452503     0.00113187375    17.059019       
 1.13809328       0.00113343963    17.2103426       0.998917366     -0.019235691      0.998917366     -0.019235691      0.00113343963    17.2103426      
 1.14947421       0.00113502626    17.3628002       0.998916749     -0.019428036      0.998916749     -0.019428036      0.00113502626    17.3628002      
 1.16096896       0.00113663397    17.5163954       0.998916129     -0.0196223042     0.998916129     -0.0196223042     0.00113663397    17.5163954      
 1.17257864       0.00113826308    17.6711318       0.998915506     -0.0198185148     0.998915506     -0.0198185148     0.00113826308    17.6711318      
 1.18430443       0.00113991394    17.8270127       0.99891488      -0.0200166875     0.99891488      -0.0200166875     0.00113991394    17.8270127      
 1.19614748       0.00114158689    17.9840416       0.99891425      -0.0202168416     0.99891425      -0.0202168416     0.00114158689    17.9840416      
 1.20810895       0.00114328227    18.1422215       0.998913618     -0.0204189971     0.998913618     -0.0204189971     0.00114328227    18.1422215      
 1.22019004       0.00114500045    18.3015556       0.998912982     -0.020623174      0.998912982     -0.020623174      0.00114500045    18.3015556      
 1.23239194       0.00114674176    18.4620467       0.998912343     -0.0208293924     0.998912343     -0.0208293924     0.00114674176    18.4620467      
 1.24471586       0.0011485066     18.6236976       0.998911701     -0.0210376728     0.998911701     -0.0210376728     0.0011485066     18.6236976      
 1.25716302       0.00115029531    18.786511        0.998911055     -0.0212480358     0.998911055     -0.0212480358     0.00115029531    18.786511       
 1.26973465       0.00115210827    18.9504894       0.998910407     -0.0214605022     0.998910407     -0.0214605022     0.00115210827    18.9504894      
 1.282432         0.00115394587    19.1156352       0.998909755     -0.0216750931     0.998909755     -0.0216750931     0.00115394587    19.1156352      
 1.29525631       0.0011558085     19.2819506       0.998909099     -0.0218918297     0.998909099     -0.0218918297     0.0011558085     19.2819506      
 1.30820888       0.00115769654    19.4494377       0.998908441     -0.0221107335     0.998908441     -0.0221107335     0.00115769654    19.4494377      
 1.32129097       0.00115961038    19.6180984       0.998907779     -0.022331826      0.998907779     -0.022331826      0.00115961038    19.6180984      
 1.33450388       0.00116155045    19.7879345       0.998907114     -0.0225551293     0.998907114     -0.0225551293     0.00116155045    19.7879345      
 1.34784892       0.00116351714    19.9589475       0.998906446     -0.0227806654     0.998906446     -0.0227806654     0.00116351714    19.9589475      
 1.3613274        0.00116551086    20.131139        0.998905774     -0.0230084565     0.998905774     -0.0230084565     0.00116551086    20.131139       
 1.37494068       0.00116753205    20.3045103       0.998905099     -0.0232385254     0.998905099     -0.0232385254     0.00116753205    20.3045103      
 1.38869009       0.00116958113    20.4790622       0.99890442      -0.0234708948     0.99890442      -0.0234708948     0.00116958113    20.4790623      
 1.40257699       0.00117165854    20.654796        0.998903738     -0.0237055875     0.998903738     -0.0237055875     0.00117165854    20.654796       
 1.41660276       0.0011737647     20.8317122       0.998903053     -0.023942627      0.998903053     -0.023942627      0.0011737647     20.8317122      
 1.43076878       0.00117590007    21.0098115       0.998902364     -0.0241820366     0.998902364     -0.0241820366     0.00117590007    21.0098115      
 1.44507647       0.00117806511    21.1890942       0.998901672     -0.0244238401     0.998901672     -0.0244238401     0.00117806511    21.1890942      
 1.45952724       0.00118026027    21.3695605       0.998900976     -0.0246680613     0.998900976     -0.0246680613     0.00118026027    21.3695605      
 1.47412251       0.00118248601    21.5512103       0.998900276     -0.0249147245     0.998900276     -0.0249147245     0.00118248601    21.5512103      
 1.48886373       0.00118474282    21.7340436       0.998899574     -0.0251638541     0.998899574     -0.0251638541     0.00118474282    21.7340436      
 1.50375237       0.00118703116    21.9180598       0.998898867     -0.0254154747     0.998898867     -0.0254154747     0.00118703116    21.9180598      
 1.51878989       0.00118935153    22.1032584       0.998898157     -0.0256696112     0.998898157     -0.0256696112     0.00118935153    22.1032584      
 1.53397779       0.00119170441    22.2896386       0.998897444     -0.0259262888     0.998897444     -0.0259262888     0.00119170441    22.2896386      
 1.54931757       0.00119409031    22.4771992       0.998896727     -0.0261855329     0.998896727     -0.0261855329     0.00119409031    22.4771992      
 1.56481075       0.00119650974    22.6659391       0.998896006     -0.0264473692     0.998896006     -0.0264473692     0.00119650974    22.6659391      
 1.58045885       0.00119896319    22.8558567       0.998895282     -0.0267118236     0.998895282     -0.0267118236     0.00119896319    22.8558567      
 1.59626344       0.00120145121    23.0469505       0.998894554     -0.0269789222     0.998894554     -0.0269789222     0.00120145121    23.0469505      
 1.61222608       0.0012039743     23.2392183       0.998893823     -0.0272486915     0.998893823     -0.0272486915     0.0012039743     23.2392183      
 1.62834834       0.00120653301    23.4326582       0.998893087     -0.0275211581     0.998893087     -0.0275211581     0.00120653301    23.4326582      
 1.64463182       0.00120912788    23.6272677       0.998892348     -0.0277963492     0.998892348     -0.0277963492     0.00120912788    23.6272677      
 1.66107814       0.00121175946    23.8230441       0.998891606     -0.0280742918     0.998891606     -0.0280742918     0.00121175946    23.8230441      
 1.67768892       0.00121442829    24.0199846       0.998890859     -0.0283550136     0.998890859     -0.0283550136     0.00121442829    24.0199846      
 1.69446581       0.00121713496    24.2180862       0.998890109     -0.0286385423     0.998890109     -0.0286385423     0.00121713496    24.2180862      
 1.71141047       0.00121988002    24.4173453       0.998889355     -0.0289249059     0.998889355     -0.0289249059     0.00121988002    24.4173453      
 1.72852457       0.00122266405    24.6177585       0.998888597     -0.0292141328     0.998888597     -0.0292141328     0.00122266405    24.6177585      
 1.74580982       0.00122548765    24.8193219       0.998887836     -0.0295062517     0.998887836     -0.0295062517     0.00122548765    24.8193219      
 1.76326792       0.0012283514     25.0220312       0.99888707      -0.0298012914     0.99888707      -0.0298012914     0.0012283514     25.0220312      
 1.7809006        0.00123125591    25.2258822       0.998886301     -0.0300992812     0.998886301     -0.0300992812     0.00123125591    25.2258822      
 1.7987096        0.00123420177    25.4308702       0.998885528     -0.0304002505     0.998885528     -0.0304002505     0.00123420177    25.4308702      
 1.8166967        0.00123718962    25.6369903       0.998884751     -0.0307042292     0.998884751     -0.0307042292     0.00123718962    25.6369903      
 1.83486367       0.00124022008    25.8442373       0.99888397      -0.0310112473     0.99888397      -0.0310112473     0.00124022008    25.8442373      
 1.8532123        0.00124329377    26.0526058       0.998883185     -0.0313213352     0.998883185     -0.0313213352     0.00124329377    26.0526058      
 1.87174443       0.00124641133    26.26209         0.998882396     -0.0316345236     0.998882396     -0.0316345236     0.00124641133    26.26209        
 1.89046187       0.00124957343    26.472684        0.998881603     -0.0319508435     0.998881603     -0.0319508435     0.00124957343    26.472684       
 1.90936649       0.0012527807     26.6843814       0.998880807     -0.0322703263     0.998880807     -0.0322703263     0.0012527807     26.6843814      
 1.92846015       0.00125603381    26.8971757       0.998880006     -0.0325930034     0.998880006     -0.0325930034     0.00125603381    26.8971757      
 1.94774475       0.00125933344    27.1110601       0.998879201     -0.032918907      0.998879201     -0.032918907      0.00125933344    27.1110601      
 1.9672222        0.00126268027    27.3260275       0.998878392     -0.0332480692     0.998878392     -0.0332480692     0.00126268027    27.3260275      
 1.98689442       0.00126607499    27.5420704       0.998877579     -0.0335805226     0.998877579     -0.0335805226     0.00126607499    27.5420704      
 2.00676337       0.00126951828    27.7591811       0.998876762     -0.0339163002     0.998876762     -0.0339163002     0.00126951828    27.7591811      
 2.026831         0.00127301087    27.9773517       0.99887594      -0.0342554351     0.99887594      -0.0342554351     0.00127301087    27.9773517      
 2.04709931       0.00127655345    28.1965739       0.998875115     -0.0345979609     0.998875115     -0.0345979609     0.00127655345    28.1965739      
 2.06757031       0.00128014675    28.4168391       0.998874286     -0.0349439115     0.998874286     -0.0349439115     0.00128014675    28.4168391      
 2.08824601       0.00128379151    28.6381385       0.998873452     -0.0352933213     0.998873452     -0.0352933213     0.00128379151    28.6381385      
 2.10912847       0.00128748846    28.8604629       0.998872614     -0.0356462246     0.998872614     -0.0356462246     0.00128748846    28.8604629      
 2.13021975       0.00129123834    29.0838028       0.998871772     -0.0360026566     0.998871772     -0.0360026566     0.00129123834    29.0838028      
 2.15152195       0.00129504192    29.3081486       0.998870925     -0.0363626524     0.998870925     -0.0363626524     0.00129504192    29.3081486      
 2.17303717       0.00129889995    29.5334902       0.998870074     -0.0367262477     0.998870074     -0.0367262477     0.00129889995    29.5334902      
 2.19476754       0.00130281322    29.7598172       0.998869219     -0.0370934785     0.998869219     -0.0370934785     0.00130281322    29.7598172      
 2.21671522       0.00130678249    29.987119        0.99886836      -0.0374643811     0.99886836      -0.0374643811     0.00130678249    29.987119       
 2.23888237       0.00131080857    30.2153847       0.998867496     -0.0378389923     0.998867496     -0.0378389923     0.00131080857    30.2153847      
 2.26127119       0.00131489224    30.4446031       0.998866628     -0.0382173491     0.998866628     -0.0382173491     0.00131489224    30.4446031      
 2.2838839        0.00131903433    30.6747626       0.998865755     -0.038599489      0.998865755     -0.038599489      0.00131903433    30.6747627      
 2.30672274       0.00132323564    30.9058516       0.998864879     -0.0389854497     0.998864879     -0.0389854497     0.00132323564    30.9058516      
 2.32978997       0.00132749699    31.1378578       0.998863997     -0.0393752696     0.998863997     -0.0393752696     0.00132749699    31.1378578      
 2.35308787       0.00133181923    31.3707688       0.998863111     -0.0397689871     0.998863111     -0.0397689871     0.00133181923    31.3707688      
 2.37661875       0.00133620319    31.604572        0.998862221     -0.0401666412     0.998862221     -0.0401666412     0.00133620319    31.604572       
 2.40038494       0.00134064973    31.8392545       0.998861326     -0.0405682714     0.998861326     -0.0405682714     0.00134064973    31.8392545      
 2.42438879       0.00134515971    32.0748028       0.998860427     -0.0409739173     0.998860427     -0.0409739173     0.00134515971    32.0748028      
 2.44863267       0.00134973399    32.3112036       0.998859523     -0.0413836192     0.998859523     -0.0413836192     0.00134973399    32.3112036      
 2.473119         0.00135437346    32.5484429       0.998858614     -0.0417974175     0.998858614     -0.0417974175     0.00135437346    32.5484429      
 2.49785019       0.00135907901    32.7865067       0.998857701     -0.0422153532     0.998857701     -0.0422153532     0.00135907901    32.7865067      
 2.52282869       0.00136385152    33.0253805       0.998856784     -0.0426374676     0.998856784     -0.0426374676     0.00136385152    33.0253805      
 2.54805698       0.0013686919     33.2650498       0.998855861     -0.0430638027     0.998855861     -0.0430638027     0.0013686919     33.2650498      
 2.57353755       0.00137360108    33.5054994       0.998854934     -0.0434944004     0.998854934     -0.0434944004     0.00137360108    33.5054994      
 2.59927293       0.00137857997    33.7467143       0.998854002     -0.0439293036     0.998854002     -0.0439293036     0.00137857997    33.7467143      
 2.62526565       0.0013836295     33.988679        0.998853066     -0.0443685551     0.998853066     -0.0443685551     0.0013836295     33.988679       
 2.65151831       0.00138875063    34.2313777       0.998852124     -0.0448121986     0.998852124     -0.0448121986     0.00138875063    34.2313777      
 2.67803349       0.00139394429    34.4747943       0.998851178     -0.0452602779     0.998851178     -0.0452602779     0.00139394429    34.4747943      
 2.70481383       0.00139921145    34.7189127       0.998850228     -0.0457128373     0.998850228     -0.0457128373     0.00139921145    34.7189127      
 2.73186197       0.00140455308    34.9637164       0.998849272     -0.0461699216     0.998849272     -0.0461699216     0.00140455308    34.9637164      
 2.75918059       0.00140997015    35.2091885       0.998848311     -0.0466315761     0.998848311     -0.0466315761     0.00140997015    35.2091885      
 2.78677239       0.00141546366    35.455312        0.998847346     -0.0470978465     0.998847346     -0.0470978465     0.00141546366    35.455312       
 2.81464012       0.0014210346     35.7020698       0.998846375     -0.0475687789     0.998846375     -0.0475687789     0.0014210346     35.7020698      
 2.84278652       0.00142668398    35.9494444       0.9988454       -0.04804442       0.9988454       -0.04804442       0.00142668398    35.9494444      
 2.87121438       0.00143241282    36.197418        0.99884442      -0.0485248167     0.99884442      -0.0485248167     0.00143241282    36.197418       
 2.89992653       0.00143822213    36.4459728       0.998843435     -0.0490100167     0.998843435     -0.0490100167     0.00143822213    36.4459728      
 2.92892579       0.00144411296    36.6950905       0.998842444     -0.049500068      0.998842444     -0.049500068      0.00144411296    36.6950905      
 2.95821505       0.00145008634    36.9447529       0.998841449     -0.049995019      0.998841449     -0.049995019      0.00145008634    36.9447529      
 2.9877972        0.00145614333    37.1949413       0.998840448     -0.0504949188     0.998840448     -0.0504949188     0.00145614333    37.1949413      
 3.01767517       0.00146228499    37.4456371       0.998839443     -0.0509998169     0.998839443     -0.0509998169     0.00146228499    37.4456371      
 3.04785192       0.0014685124     37.6968213       0.998838432     -0.0515097631     0.998838432     -0.0515097631     0.0014685124     37.6968213      
 3.07833044       0.00147482663    37.9484747       0.998837416     -0.0520248081     0.998837416     -0.0520248081     0.00147482663    37.9484747      
 3.10911375       0.00148122877    38.2005781       0.998836395     -0.0525450026     0.998836395     -0.0525450026     0.00148122877    38.2005781      
 3.14020489       0.00148771993    38.4531119       0.998835369     -0.0530703984     0.998835369     -0.0530703984     0.00148771993    38.4531119      
 3.17160693       0.00149430121    38.7060565       0.998834338     -0.0536010472     0.998834338     -0.0536010472     0.00149430121    38.7060565      
 3.203323         0.00150097373    38.9593921       0.998833301     -0.0541370017     0.998833301     -0.0541370017     0.00150097373    38.9593921      
 3.23535623       0.00150773863    39.2130987       0.998832259     -0.054678315      0.998832259     -0.054678315      0.00150773863    39.2130987      
 3.2677098        0.00151459703    39.4671563       0.998831212     -0.0552250404     0.998831212     -0.0552250404     0.00151459703    39.4671563      
 3.30038689       0.00152155009    39.7215445       0.998830159     -0.0557772323     0.998830159     -0.0557772323     0.00152155009    39.7215445      
 3.33339076       0.00152859896    39.9762431       0.998829101     -0.0563349452     0.998829101     -0.0563349452     0.00152859896    39.9762431      
 3.36672467       0.00153574481    40.2312314       0.998828037     -0.0568982344     0.998828037     -0.0568982344     0.00153574481    40.2312314      
 3.40039192       0.00154298881    40.486489        0.998826968     -0.0574671555     0.998826968     -0.0574671555     0.00154298881    40.486489       
 3.43439584       0.00155033215    40.7419952       0.998825894     -0.0580417649     0.998825894     -0.0580417649     0.00155033215    40.7419952      
 3.4687398        0.00155777603    40.997729        0.998824814     -0.0586221195     0.998824814     -0.0586221195     0.00155777603    40.997729       
 3.50342719       0.00156532165    41.2536697       0.998823728     -0.0592082766     0.998823728     -0.0592082766     0.00156532165    41.2536697      
