# MHz           S          MA           R         50
!Freq             MagS11           AngS11           MagS21           AngS21           MagS12           AngS12           MagS22           AngS22
 1                0.00233823372    28.7969799       0.997951566     -0.0646672766     0.997951566     -0.0646672766     0.00233823372    28.7969799      
 1.01             0.00234566321    29.0112524       0.997949309     -0.0653138019     0.997949309     -0.0653138019     0.00234566321    29.0112524      
 1.0201           0.00235319044    29.2264204       0.997947039     -0.0659667903     0.997947039     -0.0659667903     0.00235319044    29.2264204      
 1.030301         0.00236081675    29.4424746       0.997944758     -0.0666263062     0.997944758     -0.0666263062     0.00236081675    29.4424746      
 1.04060401       0.00236854348    29.6594052       0.997942466     -0.067292415      0.997942466     -0.067292415      0.00236854348    29.6594052      
 1.05101005       0.002376372      29.8772023       0.997940162     -0.0679651826     0.997940162     -0.0679651826     0.002376372      29.8772023      
 1.06152015       0.00238430368    30.0958559       0.997937846     -0.0686446755     0.997937846     -0.0686446755     0.00238430368    30.0958559      
 1.07213535       0.00239233994    30.3153556       0.997935519     -0.0693309609     0.997935519     -0.0693309609     0.00239233994    30.3153556      
 1.08285671       0.00240048216    30.5356906       0.997933179     -0.0700241068     0.997933179     -0.0700241068     0.00240048216    30.5356906      
 1.09368527       0.00240873178    30.7568502       0.997930828     -0.0707241816     0.997930828     -0.0707241816     0.00240873178    30.7568502      
 1.10462213       0.00241709024    30.9788232       0.997928465     -0.0714312547     0.997928465     -0.0714312547     0.00241709024    30.9788232      
 1.11566835       0.002425559      31.2015983       0.99792609      -0.0721453959     0.99792609      -0.0721453959     0.002425559      31.2015983      
 1.12682503       0.00243413953    31.4251639       0.997923702     -0.072866676      0.997923702     -0.072866676      0.00243413953    31.4251639      
 1.13809328       0.0024428333     31.6495081       0.997921303     -0.0735951663     0.997921303     -0.0735951663     0.0024428333     31.6495081      
 1.14947421       0.00245164184    31.874619        0.997918892     -0.0743309388     0.997918892     -0.0743309388     0.00245164184    31.874619       
 1.16096896       0.00246056665    32.1004841       0.997916468     -0.0750740663     0.997916468     -0.0750740663     0.00246056665    32.1004841      
 1.17257864       0.00246960928    32.3270909       0.997914032     -0.0758246223     0.997914032     -0.0758246223     0.00246960928    32.3270909      
 1.18430443       0.00247877126    32.5544268       0.997911583     -0.0765826811     0.997911583     -0.0765826811     0.00247877126    32.5544268      
 1.19614748       0.00248805417    32.7824787       0.997909122     -0.0773483177     0.997909122     -0.0773483177     0.00248805417    32.7824787      
 1.20810895       0.00249745959    33.0112334       0.997906648     -0.0781216078     0.997906648     -0.0781216078     0.00249745959    33.0112334      
 1.22019004       0.00250698911    33.2406774       0.997904162     -0.0789026278     0.997904162     -0.0789026278     0.00250698911    33.2406774      
 1.23239194       0.00251664436    33.4707972       0.997901663     -0.0796914551     0.997901663     -0.0796914551     0.00251664436    33.4707972      
 1.24471586       0.00252642696    33.7015788       0.997899152     -0.0804881677     0.997899152     -0.0804881677     0.00252642696    33.7015788      
 1.25716302       0.00253633856    33.9330081       0.997896628     -0.0812928443     0.997896628     -0.0812928443     0.00253633856    33.9330081      
 1.26973465       0.00254638082    34.1650708       0.99789409      -0.0821055646     0.99789409      -0.0821055646     0.00254638082    34.1650708      
 1.282432         0.00255655543    34.3977526       0.99789154      -0.0829264089     0.99789154      -0.0829264089     0.00255655543    34.3977526      
 1.29525631       0.00256686406    34.6310385       0.997888977     -0.0837554586     0.997888977     -0.0837554586     0.00256686406    34.6310385      
 1.30820888       0.00257730845    34.8649138       0.997886401     -0.0845927954     0.997886401     -0.0845927954     0.00257730845    34.8649138      
 1.32129097       0.00258789032    35.0993633       0.997883811     -0.0854385024     0.997883811     -0.0854385024     0.00258789032    35.0993633      
 1.33450388       0.00259861141    35.3343717       0.997881209     -0.086292663      0.997881209     -0.086292663      0.00259861141    35.3343717      
 1.34784892       0.00260947349    35.5699236       0.997878593     -0.0871553619     0.997878593     -0.0871553619     0.00260947349    35.5699236      
 1.3613274        0.00262047833    35.8060033       0.997875963     -0.0880266843     0.997875963     -0.0880266843     0.00262047833    35.8060033      
 1.37494068       0.00263162773    36.0425949       0.99787332      -0.0889067165     0.99787332      -0.0889067165     0.00263162773    36.0425949      
 1.38869009       0.0026429235     36.2796825       0.997870664     -0.0897955454     0.997870664     -0.0897955454     0.0026429235     36.2796825      
 1.40257699       0.00265436747    36.5172497       0.997867994     -0.0906932591     0.997867994     -0.0906932591     0.00265436747    36.5172497      
 1.41660276       0.00266596149    36.7552804       0.99786531      -0.0915999462     0.99786531      -0.0915999462     0.00266596149    36.7552804      
 1.43076878       0.00267770742    36.993758        0.997862613     -0.0925156964     0.997862613     -0.0925156964     0.00267770742    36.993758       
 1.44507647       0.00268960714    37.2326657       0.997859902     -0.0934406004     0.997859902     -0.0934406004     0.00268960714    37.2326657      
 1.45952724       0.00270166255    37.4719869       0.997857177     -0.0943747496     0.997857177     -0.0943747496     0.00270166255    37.4719869      
 1.47412251       0.00271387556    37.7117045       0.997854438     -0.0953182365     0.997854438     -0.0953182365     0.00271387556    37.7117045      
 1.48886373       0.0027262481     37.9518015       0.997851685     -0.0962711542     0.997851685     -0.0962711542     0.0027262481     37.9518015      
 1.50375237       0.00273878212    38.1922605       0.997848917     -0.0972335971     0.997848917     -0.0972335971     0.00273878212    38.1922605      
 1.51878989       0.0027514796     38.4330644       0.997846136     -0.0982056604     0.997846136     -0.0982056604     0.0027514796     38.4330644      
 1.53397779       0.0027643425     38.6741955       0.99784334      -0.0991874402     0.99784334      -0.0991874402     0.0027643425     38.6741955      
 1.54931757       0.00277737284    38.9156363       0.99784053      -0.100179034      0.99784053      -0.100179034      0.00277737284    38.9156363      
 1.56481075       0.00279057263    39.1573692       0.997837705     -0.101180539      0.997837705     -0.101180539      0.00279057263    39.1573692      
 1.58045885       0.00280394391    39.3993762       0.997834866     -0.102192054      0.997834866     -0.102192054      0.00280394391    39.3993762      
 1.59626344       0.00281748873    39.6416396       0.997832012     -0.103213681      0.997832012     -0.103213681      0.00281748873    39.6416396      
 1.61222608       0.00283120917    39.8841413       0.997829144     -0.104245519      0.997829144     -0.104245519      0.00283120917    39.8841413      
 1.62834834       0.00284510731    40.1268633       0.997826261     -0.105287672      0.997826261     -0.105287672      0.00284510731    40.1268633      
 1.64463182       0.00285918526    40.3697874       0.997823363     -0.106340241      0.997823363     -0.106340241      0.00285918526    40.3697874      
 1.66107814       0.00287344515    40.6128954       0.99782045      -0.107403331      0.99782045      -0.107403331      0.00287344515    40.6128954      
 1.67768892       0.00288788911    40.856169        0.997817522     -0.108477048      0.997817522     -0.108477048      0.00288788911    40.856169       
 1.69446581       0.00290251932    41.09959         0.997814578     -0.109561496      0.997814578     -0.109561496      0.00290251932    41.09959        
 1.71141047       0.00291733795    41.3431398       0.99781162      -0.110656785      0.99781162      -0.110656785      0.00291733795    41.3431398      
 1.72852457       0.0029323472     41.5868001       0.997808646     -0.111763021      0.997808646     -0.111763021      0.0029323472     41.5868001      
 1.74580982       0.00294754929    41.8305525       0.997805657     -0.112880315      0.997805657     -0.112880315      0.00294754929    41.8305525      
 1.76326792       0.00296294644    42.0743783       0.997802653     -0.114008776      0.997802653     -0.114008776      0.00296294644    42.0743783      
 1.7809006        0.00297854093    42.3182592       0.997799633     -0.115148517      0.997799633     -0.115148517      0.00297854093    42.3182592      
 1.7987096        0.002994335      42.5621766       0.997796597     -0.11629965       0.997796597     -0.11629965       0.002994335      42.5621766      
 1.8166967        0.00301033097    42.8061119       0.997793545     -0.117462289      0.997793545     -0.117462289      0.00301033097    42.8061119      
 1.83486367       0.00302653113    43.0500466       0.997790478     -0.118636549      0.997790478     -0.118636549      0.00302653113    43.0500466      
 1.8532123        0.00304293782    43.2939621       0.997787395     -0.119822547      0.997787395     -0.119822547      0.00304293782    43.2939621      
 1.87174443       0.00305955338    43.53784         0.997784296     -0.121020398      0.997784296     -0.121020398      0.00305955338    43.53784        
 1.89046187       0.00307638018    43.7816617       0.99778118      -0.122230222      0.99778118      -0.122230222      0.00307638018    43.7816617      
 1.90936649       0.00309342061    44.0254088       0.997778049     -0.123452139      0.997778049     -0.123452139      0.00309342061    44.0254088      
 1.92846015       0.00311067706    44.2690627       0.997774901     -0.12468627       0.997774901     -0.12468627       0.00311067706    44.2690627      
 1.94774475       0.00312815198    44.5126052       0.997771737     -0.125932735      0.997771737     -0.125932735      0.00312815198    44.5126052      
 1.9672222        0.00314584779    44.7560178       0.997768556     -0.127191659      0.997768556     -0.127191659      0.00314584779    44.7560178      
 1.98689442       0.00316376697    44.9992821       0.997765359     -0.128463167      0.997765359     -0.128463167      0.00316376697    44.9992821      
 2.00676337       0.003181912      45.2423801       0.997762145     -0.129747383      0.997762145     -0.129747383      0.003181912      45.2423801      
 2.026831         0.00320028538    45.4852934       0.997758914     -0.131044435      0.997758914     -0.131044435      0.00320028538    45.4852934      
 2.04709931       0.00321888963    45.728004        0.997755667     -0.132354451      0.997755667     -0.132354451      0.00321888963    45.728004       
 2.06757031       0.00323772731    45.9704938       0.997752402     -0.133677561      0.997752402     -0.133677561      0.00323772731    45.9704938      
 2.08824601       0.00325680097    46.2127449       0.997749121     -0.135013895      0.997749121     -0.135013895      0.00325680097    46.2127449      
 2.10912847       0.0032761132     46.4547394       0.997745822     -0.136363586      0.997745822     -0.136363586      0.0032761132     46.4547394      
 2.13021975       0.00329566661    46.6964596       0.997742506     -0.137726767      0.997742506     -0.137726767      0.00329566661    46.6964596      
 2.15152195       0.00331546382    46.9378878       0.997739172     -0.139103573      0.997739172     -0.139103573      0.00331546382    46.9378878      
 2.17303717       0.00333550749    47.1790065       0.997735821     -0.14049414       0.997735821     -0.14049414       0.00333550749    47.1790065      
 2.19476754       0.00335580027    47.4197982       0.997732453     -0.141898605      0.997732453     -0.141898605      0.00335580027    47.4197982      
 2.21671522       0.00337634486    47.6602456       0.997729067     -0.143317108      0.997729067     -0.143317108      0.00337634486    47.6602456      
 2.23888237       0.00339714397    47.9003316       0.997725663     -0.144749789      0.997725663     -0.144749789      0.00339714397    47.9003316      
 2.26127119       0.00341820033    48.1400392       0.997722241     -0.146196789      0.997722241     -0.146196789      0.00341820033    48.1400392      
 2.2838839        0.0034395167     48.3793513       0.997718801     -0.147658251      0.997718801     -0.147658251      0.0034395167     48.3793513      
 2.30672274       0.00346109586    48.6182513       0.997715343     -0.149134321      0.997715343     -0.149134321      0.00346109586    48.6182513      
 2.32978997       0.00348294061    48.8567225       0.997711867     -0.150625143      0.997711867     -0.150625143      0.00348294061    48.8567225      
 2.35308787       0.00350505376    49.0947486       0.997708372     -0.152130866      0.997708372     -0.152130866      0.00350505376    49.0947486      
 2.37661875       0.00352743816    49.3323131       0.997704859     -0.153651637      0.997704859     -0.153651637      0.00352743816    49.3323131      
 2.40038494       0.00355009667    49.5693999       0.997701328     -0.155187608      0.997701328     -0.155187608      0.00355009667    49.5693999      
 2.42438879       0.0035730322     49.8059932       0.997697778     -0.156738931      0.997697778     -0.156738931      0.0035730322     49.8059932      
 2.44863267       0.00359624765    50.0420771       0.997694209     -0.158305759      0.997694209     -0.158305759      0.00359624765    50.0420771      
 2.473119         0.00361974595    50.277636        0.997690621     -0.159888246      0.997690621     -0.159888246      0.00361974595    50.277636       
 2.49785019       0.00364353007    50.5126545       0.997687014     -0.161486549      0.997687014     -0.161486549      0.00364353007    50.5126545      
 2.52282869       0.00366760299    50.7471173       0.997683387     -0.163100827      0.997683387     -0.163100827      0.00366760299    50.7471173      
 2.54805698       0.00369196772    50.9810094       0.997679742     -0.164731238      0.997679742     -0.164731238      0.00369196772    50.9810094      
 2.57353755       0.0037166273     51.214316        0.997676077     -0.166377944      0.997676077     -0.166377944      0.0037166273     51.214316       
 2.59927293       0.00374158477    51.4470224       0.997672393     -0.168041108      0.997672393     -0.168041108      0.00374158477    51.4470224      
 2.62526565       0.00376684322    51.6791141       0.997668689     -0.169720895      0.997668689     -0.169720895      0.00376684322    51.6791141      
 2.65151831       0.00379240576    51.9105768       0.997664966     -0.17141747       0.997664966     -0.17141747       0.00379240576    51.9105768      
 2.67803349       0.00381827552    52.1413967       0.997661222     -0.173131001      0.997661222     -0.173131001      0.00381827552    52.1413967      
 2.70481383       0.00384445566    52.3715598       0.997657459     -0.174861657      0.997657459     -0.174861657      0.00384445566    52.3715598      
 2.73186197       0.00387094936    52.6010525       0.997653675     -0.17660961       0.997653675     -0.17660961       0.00387094936    52.6010525      
 2.75918059       0.00389775983    52.8298614       0.997649871     -0.178375032      0.997649871     -0.178375032      0.00389775983    52.8298614      
 2.78677239       0.00392489031    53.0579734       0.997646047     -0.180158098      0.997646047     -0.180158098      0.00392489031    53.0579734      
 2.81464012       0.00395234406    53.2853755       0.997642202     -0.181958985      0.997642202     -0.181958985      0.00395234406    53.2853755      
 2.84278652       0.00398012438    53.512055        0.997638337     -0.18377787       0.997638337     -0.18377787       0.00398012438    53.512055       
 2.87121438       0.00400823456    53.7379993       0.99763445      -0.185614932      0.99763445      -0.185614932      0.00400823456    53.7379993      
 2.89992653       0.00403667798    53.9631963       0.997630543     -0.187470355      0.997630543     -0.187470355      0.00403667798    53.9631963      
 2.92892579       0.00406545798    54.1876338       0.997626615     -0.189344321      0.997626615     -0.189344321      0.00406545798    54.1876338      
 2.95821505       0.00409457799    54.4113002       0.997622666     -0.191237015      0.997622666     -0.191237015      0.00409457799    54.4113002      
 2.9877972        0.00412404141    54.6341837       0.997618695     -0.193148624      0.997618695     -0.193148624      0.00412404141    54.6341837      
 3.01767517       0.00415385172    54.8562731       0.997614703     -0.195079338      0.997614703     -0.195079338      0.00415385172    54.8562731      
 3.04785192       0.00418401241    55.0775572       0.997610689     -0.197029347      0.997610689     -0.197029347      0.00418401241    55.0775572      
 3.07833044       0.00421452697    55.2980252       0.997606654     -0.198998844      0.997606654     -0.198998844      0.00421452697    55.2980252      
 3.10911375       0.00424539898    55.5176665       0.997602596     -0.200988025      0.997602596     -0.200988025      0.00424539898    55.5176665      
 3.14020489       0.00427663199    55.7364707       0.997598517     -0.202997084      0.997598517     -0.202997084      0.00427663199    55.7364707      
 3.17160693       0.00430822962    55.9544276       0.997594415     -0.205026222      0.997594415     -0.205026222      0.00430822962    55.9544276      
 3.203323         0.0043401955     56.1715273       0.997590292     -0.207075638      0.997590292     -0.207075638      0.0043401955     56.1715273      
 3.23535623       0.00437253331    56.3877602       0.997586145     -0.209145535      0.997586145     -0.209145535      0.00437253331    56.3877602      
 3.2677098        0.00440524674    56.6031168       0.997581976     -0.211236118      0.997581976     -0.211236118      0.00440524674    56.6031168      
 3.30038689       0.00443833953    56.817588        0.997577785     -0.213347594      0.997577785     -0.213347594      0.00443833953    56.817588       
 3.33339076       0.00447181544    57.0311648       0.99757357      -0.21548017       0.99757357      -0.21548017       0.00447181544    57.0311648      
 3.36672467       0.00450567827    57.2438384       0.997569332     -0.217634059      0.997569332     -0.217634059      0.00450567827    57.2438384      
 3.40039192       0.00453993185    57.4556005       0.997565071     -0.219809473      0.997565071     -0.219809473      0.00453993185    57.4556005      
 3.43439584       0.00457458004    57.6664428       0.997560787     -0.222006626      0.997560787     -0.222006626      0.00457458004    57.6664428      
 3.4687398        0.00460962675    57.8763573       0.997556479     -0.224225737      0.997556479     -0.224225737      0.00460962675    57.8763573      
 3.50342719       0.00464507589    58.0853362       0.997552147     -0.226467024      0.997552147     -0.226467024      0.00464507589    58.0853362      
