# MHz           S          MA           R         50
!Freq             MagS11           AngS11           MagS21           AngS21           MagS12           AngS12           MagS22           AngS22
 1                0.00061218948    31.5263493       0.999478221     -0.0183504206     0.999478221     -0.0183504206     0.00061218948    31.5263493      
 1.01             0.0006143877     31.751038        0.999477612     -0.0185339135     0.999477612     -0.0185339135     0.0006143877     31.751038       
 1.0201           0.000616614852   31.9764924       0.999477        -0.0187192412     0.999477        -0.0187192412     0.000616614852   31.9764924      
 1.030301         0.00061887132    32.2027003       0.999476385     -0.0189064219     0.999476385     -0.0189064219     0.00061887132    32.2027003      
 1.04060401       0.00062115749    32.4296491       0.999475767     -0.0190954744     0.999475767     -0.0190954744     0.00062115749    32.4296491      
 1.05101005       0.000623473752   32.6573263       0.999475146     -0.0192864171     0.999475146     -0.0192864171     0.000623473752   32.6573263      
 1.06152015       0.0006258205     32.8857189       0.999474522     -0.0194792691     0.999474522     -0.0194792691     0.0006258205     32.8857189      
 1.07213535       0.000628198132   33.1148136       0.999473894     -0.0196740495     0.999473894     -0.0196740495     0.000628198132   33.1148136      
 1.08285671       0.000630607051   33.3445972       0.999473264     -0.0198707775     0.999473264     -0.0198707775     0.000630607051   33.3445972      
 1.09368527       0.000633047663   33.5750561       0.99947263      -0.0200694725     0.99947263      -0.0200694725     0.000633047663   33.5750561      
 1.10462213       0.000635520378   33.8061764       0.999471993     -0.0202701543     0.999471993     -0.0202701543     0.000635520378   33.8061764      
 1.11566835       0.000638025611   34.0379441       0.999471353     -0.0204728428     0.999471353     -0.0204728428     0.000638025611   34.0379441      
 1.12682503       0.000640563779   34.2703451       0.99947071      -0.0206775579     0.99947071      -0.0206775579     0.000640563779   34.2703451      
 1.13809328       0.000643135307   34.5033648       0.999470063     -0.02088432       0.999470063     -0.02088432       0.000643135307   34.5033648      
 1.14947421       0.00064574062    34.7369888       0.999469413     -0.0210931495     0.999469413     -0.0210931495     0.00064574062    34.7369888      
 1.16096896       0.00064838015    34.9712021       0.99946876      -0.0213040671     0.99946876      -0.0213040671     0.00064838015    34.9712021      
 1.17257864       0.000651054331   35.2059897       0.999468104     -0.0215170936     0.999468104     -0.0215170936     0.000651054331   35.2059897      
 1.18430443       0.000653763603   35.4413365       0.999467444     -0.0217322502     0.999467444     -0.0217322502     0.000653763603   35.4413365      
 1.19614748       0.00065650841    35.677227        0.999466781     -0.0219495582     0.999466781     -0.0219495582     0.00065650841    35.677227       
 1.20810895       0.000659289198   35.9136457       0.999466115     -0.022169039      0.999466115     -0.022169039      0.000659289198   35.9136457      
 1.22019004       0.000662106421   36.1505768       0.999465446     -0.0223907144     0.999465446     -0.0223907144     0.000662106421   36.1505768      
 1.23239194       0.000664960533   36.3880045       0.999464773     -0.0226146064     0.999464773     -0.0226146064     0.000664960533   36.3880045      
 1.24471586       0.000667851996   36.6259126       0.999464096     -0.022840737      0.999464096     -0.022840737      0.000667851996   36.6259126      
 1.25716302       0.000670781274   36.8642849       0.999463417     -0.0230691287     0.999463417     -0.0230691287     0.000670781274   36.8642849      
 1.26973465       0.000673748835   37.1031051       0.999462733     -0.0232998041     0.999462733     -0.0232998041     0.000673748835   37.1031051      
 1.282432         0.000676755153   37.3423565       0.999462047     -0.0235327859     0.999462047     -0.0235327859     0.000676755153   37.3423565      
 1.29525631       0.000679800706   37.5820225       0.999461357     -0.0237680974     0.999461357     -0.0237680974     0.000679800706   37.5820225      
 1.30820888       0.000682885975   37.8220863       0.999460663     -0.0240057617     0.999460663     -0.0240057617     0.000682885975   37.8220863      
 1.32129097       0.000686011447   38.0625308       0.999459966     -0.0242458025     0.999459966     -0.0242458025     0.000686011447   38.0625308      
 1.33450388       0.000689177612   38.303339        0.999459266     -0.0244882434     0.999459266     -0.0244882434     0.000689177612   38.303339       
 1.34784892       0.000692384965   38.5444937       0.999458562     -0.0247331084     0.999458562     -0.0247331084     0.000692384965   38.5444937      
 1.3613274        0.000695634005   38.7859775       0.999457854     -0.0249804218     0.999457854     -0.0249804218     0.000695634005   38.7859775      
 1.37494068       0.000698925236   39.0277731       0.999457143     -0.0252302081     0.999457143     -0.0252302081     0.000698925236   39.0277731      
 1.38869009       0.000702259166   39.2698627       0.999456429     -0.025482492      0.999456429     -0.025482492      0.000702259166   39.2698627      
 1.40257699       0.000705636308   39.5122288       0.99945571      -0.0257372984     0.99945571      -0.0257372984     0.000705636308   39.5122288      
 1.41660276       0.000709057178   39.7548536       0.999454988     -0.0259946527     0.999454988     -0.0259946527     0.000709057178   39.7548536      
 1.43076878       0.000712522299   39.9977194       0.999454263     -0.0262545801     0.999454263     -0.0262545802     0.000712522299   39.9977194      
 1.44507647       0.000716032196   40.2408081       0.999453534     -0.0265171066     0.999453534     -0.0265171066     0.000716032196   40.2408081      
 1.45952724       0.000719587399   40.4841019       0.999452801     -0.0267822581     0.999452801     -0.0267822581     0.000719587399   40.4841019      
 1.47412251       0.000723188445   40.7275825       0.999452064     -0.0270500608     0.999452064     -0.0270500608     0.000723188445   40.7275826      
 1.48886373       0.000726835871   40.9712321       0.999451324     -0.0273205412     0.999451324     -0.0273205412     0.000726835871   40.9712321      
 1.50375237       0.000730530223   41.2150323       0.99945058      -0.0275937261     0.99945058      -0.0275937261     0.000730530223   41.2150323      
 1.51878989       0.00073427205    41.458965        0.999449833     -0.0278696425     0.999449833     -0.0278696425     0.00073427205    41.458965       
 1.53397779       0.000738061903   41.7030118       0.999449081     -0.0281483178     0.999449081     -0.0281483178     0.000738061903   41.7030118      
 1.54931757       0.000741900343   41.9471546       0.999448326     -0.0284297795     0.999448326     -0.0284297795     0.000741900343   41.9471546      
 1.56481075       0.000745787931   42.191375        0.999447567     -0.0287140555     0.999447567     -0.0287140555     0.000745787931   42.191375       
 1.58045885       0.000749725234   42.4356547       0.999446804     -0.029001174      0.999446804     -0.029001174      0.000749725234   42.4356547      
 1.59626344       0.000753712825   42.6799753       0.999446037     -0.0292911633     0.999446037     -0.0292911633     0.000753712825   42.6799753      
 1.61222608       0.000757751281   42.9243184       0.999445267     -0.0295840522     0.999445267     -0.0295840522     0.000757751281   42.9243184      
 1.62834834       0.000761841183   43.1686658       0.999444492     -0.0298798696     0.999444492     -0.0298798696     0.000761841183   43.1686658      
 1.64463182       0.000765983117   43.412999        0.999443714     -0.0301786448     0.999443714     -0.0301786448     0.000765983117   43.412999       
 1.66107814       0.000770177674   43.6572998       0.999442932     -0.0304804074     0.999442932     -0.0304804074     0.000770177674   43.6572998      
 1.67768892       0.000774425451   43.9015498       0.999442146     -0.0307851873     0.999442146     -0.0307851873     0.000774425451   43.9015498      
 1.69446581       0.000778727048   44.1457307       0.999441356     -0.0310930146     0.999441356     -0.0310930146     0.000778727048   44.1457307      
 1.71141047       0.000783083071   44.3898243       0.999440561     -0.0314039199     0.999440561     -0.0314039199     0.000783083071   44.3898243      
 1.72852457       0.000787494131   44.6338123       0.999439763     -0.0317179338     0.999439763     -0.0317179338     0.000787494131   44.6338124      
 1.74580982       0.000791960842   44.8776767       0.999438961     -0.0320350875     0.999438961     -0.0320350875     0.000791960842   44.8776767      
 1.76326792       0.000796483826   45.1213994       0.999438155     -0.0323554123     0.999438155     -0.0323554123     0.000796483826   45.1213994      
 1.7809006        0.000801063709   45.3649621       0.999437345     -0.0326789399     0.999437345     -0.0326789399     0.000801063709   45.3649621      
 1.7987096        0.00080570112    45.6083471       0.99943653      -0.0330057025     0.99943653      -0.0330057025     0.00080570112    45.6083471      
 1.8166967        0.000810396696   45.8515364       0.999435712     -0.0333357323     0.999435712     -0.0333357323     0.000810396696   45.8515364      
 1.83486367       0.000815151076   46.0945122       0.999434889     -0.0336690619     0.999434889     -0.0336690619     0.000815151076   46.0945122      
 1.8532123        0.000819964909   46.3372566       0.999434062     -0.0340057245     0.999434062     -0.0340057245     0.000819964909   46.3372566      
 1.87174443       0.000824838843   46.5797522       0.999433231     -0.0343457532     0.999433231     -0.0343457532     0.000824838843   46.5797522      
 1.89046187       0.000829773536   46.8219814       0.999432396     -0.0346891818     0.999432396     -0.0346891818     0.000829773536   46.8219814      
 1.90936649       0.00083476965    47.0639266       0.999431557     -0.0350360443     0.999431557     -0.0350360443     0.00083476965    47.0639266      
 1.92846015       0.000839827851   47.3055707       0.999430713     -0.0353863749     0.999430713     -0.0353863749     0.000839827851   47.3055707      
 1.94774475       0.000844948811   47.5468964       0.999429865     -0.0357402084     0.999429865     -0.0357402084     0.000844948811   47.5468964      
 1.9672222        0.000850133209   47.7878866       0.999429013     -0.0360975798     0.999429013     -0.0360975798     0.000850133209   47.7878866      
 1.98689442       0.000855381727   48.0285243       0.999428157     -0.0364585244     0.999428157     -0.0364585244     0.000855381727   48.0285243      
 2.00676337       0.000860695053   48.2687928       0.999427296     -0.036823078      0.999427296     -0.036823078      0.000860695053   48.2687928      
 2.026831         0.000866073883   48.5086754       0.999426431     -0.0371912766     0.999426431     -0.0371912766     0.000866073883   48.5086754      
 2.04709931       0.000871518915   48.7481555       0.999425561     -0.0375631568     0.999425561     -0.0375631568     0.000871518915   48.7481555      
 2.06757031       0.000877030855   48.9872168       0.999424687     -0.0379387553     0.999424687     -0.0379387553     0.000877030855   48.9872168      
 2.08824601       0.000882610414   49.2258429       0.999423809     -0.0383181092     0.999423809     -0.0383181092     0.000882610414   49.2258429      
 2.10912847       0.000888258308   49.464018        0.999422926     -0.0387012562     0.999422926     -0.0387012562     0.000888258308   49.464018       
 2.13021975       0.00089397526    49.701726        0.999422039     -0.0390882341     0.999422039     -0.0390882341     0.00089397526    49.701726       
 2.15152195       0.000899761998   49.9389512       0.999421147     -0.0394790813     0.999421147     -0.0394790813     0.000899761998   49.9389512      
 2.17303717       0.000905619256   50.1756781       0.999420251     -0.0398738365     0.999420251     -0.0398738365     0.000905619256   50.1756781      
 2.19476754       0.000911547774   50.4118914       0.99941935      -0.0402725386     0.99941935      -0.0402725386     0.000911547774   50.4118913      
 2.21671522       0.000917548298   50.6475757       0.999418445     -0.0406752273     0.999418445     -0.0406752272     0.000917548298   50.6475757      
 2.23888237       0.00092362158    50.8827161       0.999417535     -0.0410819422     0.999417535     -0.0410819422     0.00092362158    50.8827161      
 2.26127119       0.000929768378   51.1172979       0.99941662      -0.0414927238     0.99941662      -0.0414927238     0.000929768378   51.1172979      
 2.2838839        0.000935989457   51.3513063       0.999415701     -0.0419076126     0.999415701     -0.0419076126     0.000935989457   51.3513063      
 2.30672274       0.000942285587   51.584727        0.999414777     -0.0423266497     0.999414777     -0.0423266497     0.000942285587   51.584727       
 2.32978997       0.000948657545   51.8175457       0.999413849     -0.0427498765     0.999413849     -0.0427498765     0.000948657545   51.8175457      
 2.35308787       0.000955106114   52.0497484       0.999412915     -0.0431773351     0.999412915     -0.0431773351     0.000955106114   52.0497484      
 2.37661875       0.000961632083   52.2813214       0.999411977     -0.0436090676     0.999411977     -0.0436090676     0.000961632083   52.2813214      
 2.40038494       0.000968236249   52.5122511       0.999411035     -0.0440451169     0.999411035     -0.0440451169     0.000968236249   52.5122511      
 2.42438879       0.000974919413   52.742524        0.999410087     -0.044485526      0.999410087     -0.044485526      0.000974919413   52.742524       
 2.44863267       0.000981682386   52.972127        0.999409135     -0.0449303385     0.999409135     -0.0449303385     0.000981682386   52.972127       
 2.473119         0.000988525983   53.2010472       0.999408178     -0.0453795986     0.999408178     -0.0453795986     0.000988525984   53.2010472      
 2.49785019       0.000995451027   53.4292719       0.999407215     -0.0458333506     0.999407215     -0.0458333506     0.000995451027   53.4292719      
 2.52282869       0.00100245835    53.6567885       0.999406248     -0.0462916394     0.999406248     -0.0462916394     0.00100245835    53.6567885      
 2.54805698       0.00100954878    53.8835848       0.999405277     -0.0467545105     0.999405277     -0.0467545105     0.00100954878    53.8835848      
 2.57353755       0.00101672317    54.1096489       0.9994043       -0.0472220096     0.9994043       -0.0472220096     0.00101672317    54.1096489      
 2.59927293       0.00102398236    54.3349687       0.999403318     -0.047694183      0.999403318     -0.047694183      0.00102398236    54.3349687      
 2.62526565       0.00103132722    54.559533        0.999402331     -0.0481710774     0.999402331     -0.0481710774     0.00103132722    54.559533       
 2.65151831       0.0010387586     54.7833301       0.999401339     -0.04865274       0.999401339     -0.04865274       0.0010387586     54.7833301      
 2.67803349       0.00104627739    55.0063492       0.999400342     -0.0491392186     0.999400342     -0.0491392186     0.00104627739    55.0063492      
 2.70481383       0.00105388446    55.2285792       0.999399341     -0.0496305611     0.999399341     -0.0496305611     0.00105388446    55.2285792      
 2.73186197       0.00106158069    55.4500096       0.999398333     -0.0501268164     0.999398333     -0.0501268164     0.00106158069    55.4500096      
 2.75918059       0.00106936698    55.67063         0.999397321     -0.0506280335     0.999397321     -0.0506280335     0.00106936698    55.67063        
 2.78677239       0.00107724424    55.8904302       0.999396304     -0.0511342619     0.999396304     -0.0511342619     0.00107724424    55.8904302      
 2.81464012       0.00108521337    56.1094004       0.999395281     -0.0516455519     0.999395281     -0.0516455519     0.00108521337    56.1094004      
 2.84278652       0.00109327528    56.3275307       0.999394254     -0.052161954      0.999394254     -0.052161954      0.00109327528    56.3275307      
 2.87121438       0.00110143092    56.5448119       0.999393221     -0.0526835192     0.999393221     -0.0526835192     0.00110143092    56.5448119      
 2.89992653       0.0011096812     56.7612347       0.999392182     -0.0532102994     0.999392182     -0.0532102994     0.0011096812     56.7612347      
 2.92892579       0.00111802707    56.9767902       0.999391139     -0.0537423464     0.999391139     -0.0537423464     0.00111802707    56.9767902      
 2.95821505       0.00112646948    57.1914696       0.99939009      -0.0542797131     0.99939009      -0.0542797131     0.00112646948    57.1914696      
 2.9877972        0.00113500939    57.4052645       0.999389035     -0.0548224527     0.999389035     -0.0548224527     0.00113500939    57.4052645      
 3.01767517       0.00114364777    57.6181665       0.999387976     -0.0553706187     0.999387976     -0.0553706187     0.00114364777    57.6181665      
 3.04785192       0.00115238558    57.8301679       0.999386911     -0.0559242655     0.999386911     -0.0559242655     0.00115238558    57.8301679      
 3.07833044       0.00116122381    58.0412607       0.99938584      -0.0564834479     0.99938584      -0.0564834479     0.00116122381    58.0412607      
 3.10911375       0.00117016346    58.2514375       0.999384764     -0.0570482212     0.999384764     -0.0570482212     0.00117016346    58.2514375      
 3.14020489       0.00117920552    58.460691        0.999383682     -0.0576186413     0.999383682     -0.0576186413     0.00117920552    58.460691       
 3.17160693       0.00118835101    58.6690141       0.999382595     -0.0581947647     0.999382595     -0.0581947647     0.00118835101    58.6690141      
 3.203323         0.00119760093    58.8764001       0.999381503     -0.0587766484     0.999381503     -0.0587766484     0.00119760093    58.8764001      
 3.23535623       0.00120695633    59.0828423       0.999380404     -0.0593643499     0.999380404     -0.0593643499     0.00120695633    59.0828423      
 3.2677098        0.00121641824    59.2883343       0.999379301     -0.0599579274     0.999379301     -0.0599579274     0.00121641824    59.2883343      
 3.30038689       0.00122598769    59.4928701       0.999378191     -0.0605574398     0.999378191     -0.0605574398     0.00122598769    59.4928701      
 3.33339076       0.00123566576    59.6964439       0.999377076     -0.0611629462     0.999377076     -0.0611629462     0.00123566576    59.6964439      
 3.36672467       0.00124545349    59.8990498       0.999375955     -0.0617745067     0.999375955     -0.0617745067     0.00124545349    59.8990498      
 3.40039192       0.00125535198    60.1006826       0.999374828     -0.0623921818     0.999374828     -0.0623921818     0.00125535198    60.1006826      
 3.43439584       0.00126536229    60.3013369       0.999373695     -0.0630160325     0.999373695     -0.0630160325     0.00126536229    60.3013369      
 3.4687398        0.00127548554    60.5010078       0.999372557     -0.0636461207     0.999372557     -0.0636461207     0.00127548554    60.5010078      
 3.50342719       0.00128572281    60.6996905       0.999371413     -0.0642825086     0.999371413     -0.0642825086     0.00128572281    60.6996905      
