# MHz           S          MA           R         50
!Freq             MagS11           AngS11           MagS21           AngS21           MagS12           AngS12           MagS22           AngS22
 1                0.000435695231   25.6130928       0.999607137     -0.0107957572     0.999607137     -0.0107957572     0.00043569523    25.6130928      
 1.01             0.000436885653   25.8123207       0.999606723     -0.0109037102     0.999606723     -0.0109037102     0.000436885653   25.8123207      
 1.0201           0.000438091453   26.0125577       0.999606307     -0.0110127428     0.999606307     -0.0110127428     0.000438091453   26.0125577      
 1.030301         0.000439312849   26.2137981       0.999605888     -0.0111228655     0.999605888     -0.0111228655     0.000439312849   26.2137981      
 1.04060401       0.000440550059   26.4160363       0.999605468     -0.0112340895     0.999605468     -0.0112340895     0.000440550059   26.4160363      
 1.05101005       0.000441803305   26.6192662       0.999605046     -0.0113464256     0.999605046     -0.0113464256     0.000441803305   26.6192662      
 1.06152015       0.000443072811   26.8234815       0.999604621     -0.011459885      0.999604621     -0.011459885      0.000443072812   26.8234815      
 1.07213535       0.000444358806   27.0286757       0.999604195     -0.0115744789     0.999604195     -0.0115744789     0.000444358806   27.0286757      
 1.08285671       0.000445661518   27.2348421       0.999603766     -0.0116902186     0.999603766     -0.0116902186     0.000445661518   27.2348421      
 1.09368527       0.000446981181   27.4419736       0.999603335     -0.0118071157     0.999603335     -0.0118071157     0.000446981181   27.4419736      
 1.10462213       0.000448318029   27.6500632       0.999602902     -0.0119251817     0.999602902     -0.0119251817     0.000448318029   27.6500632      
 1.11566835       0.000449672301   27.8591032       0.999602467     -0.0120444283     0.999602467     -0.0120444283     0.000449672301   27.8591032      
 1.12682503       0.000451044239   28.0690861       0.99960203      -0.0121648673     0.99960203      -0.0121648673     0.000451044239   28.0690861      
 1.13809328       0.000452434085   28.280004        0.99960159      -0.0122865106     0.99960159      -0.0122865106     0.000452434085   28.280004       
 1.14947421       0.000453842087   28.4918484       0.999601148     -0.0124093702     0.999601148     -0.0124093702     0.000453842087   28.4918484      
 1.16096896       0.000455268494   28.7046112       0.999600705     -0.0125334583     0.999600705     -0.0125334583     0.000455268494   28.7046112      
 1.17257864       0.000456713557   28.9182837       0.999600258     -0.0126587872     0.999600258     -0.0126587872     0.000456713557   28.9182837      
 1.18430443       0.000458177534   29.1328568       0.99959981      -0.0127853694     0.99959981      -0.0127853694     0.000458177534   29.1328568      
 1.19614748       0.00045966068    29.3483216       0.999599359     -0.0129132173     0.999599359     -0.0129132173     0.00045966068    29.3483216      
 1.20810895       0.000461163259   29.5646684       0.999598906     -0.0130423436     0.999598906     -0.0130423436     0.000461163259   29.5646684      
 1.22019004       0.000462685532   29.781888        0.999598451     -0.013172761      0.999598451     -0.013172761      0.000462685532   29.781888       
 1.23239194       0.000464227768   29.9999701       0.999597994     -0.0133044825     0.999597994     -0.0133044825     0.000464227768   29.9999701      
 1.24471586       0.000465790236   30.2189048       0.999597534     -0.0134375212     0.999597534     -0.0134375211     0.000465790236   30.2189048      
 1.25716302       0.000467373208   30.4386817       0.999597072     -0.0135718901     0.999597072     -0.0135718901     0.000467373208   30.4386817      
 1.26973465       0.000468976961   30.6592902       0.999596608     -0.0137076026     0.999596608     -0.0137076026     0.000468976961   30.6592902      
 1.282432         0.000470601772   30.8807195       0.999596141     -0.0138446722     0.999596141     -0.0138446722     0.000470601772   30.8807195      
 1.29525631       0.000472247924   31.1029584       0.999595672     -0.0139831124     0.999595672     -0.0139831124     0.000472247924   31.1029584      
 1.30820888       0.000473915701   31.3259957       0.999595201     -0.0141229369     0.999595201     -0.0141229369     0.000473915702   31.3259957      
 1.32129097       0.000475605393   31.5498199       0.999594727     -0.0142641594     0.999594727     -0.0142641594     0.000475605393   31.5498199      
 1.33450388       0.000477317286   31.7744192       0.999594251     -0.0144067942     0.999594251     -0.0144067942     0.000477317286   31.7744192      
 1.34784892       0.000479051678   31.9997814       0.999593772     -0.0145508552     0.999593772     -0.0145508552     0.000479051678   31.9997814      
 1.3613274        0.000480808866   32.2258945       0.999593292     -0.0146963567     0.999593292     -0.0146963567     0.000480808866   32.2258945      
 1.37494068       0.000482589147   32.4527459       0.999592808     -0.0148433131     0.999592808     -0.0148433131     0.000482589147   32.4527459      
 1.38869009       0.000484392826   32.6803229       0.999592323     -0.0149917389     0.999592323     -0.0149917389     0.000484392826   32.6803229      
 1.40257699       0.000486220209   32.9086127       0.999591834     -0.0151416489     0.999591834     -0.0151416489     0.000486220209   32.9086127      
 1.41660276       0.000488071605   33.137602        0.999591344     -0.0152930579     0.999591344     -0.0152930579     0.000488071605   33.137602       
 1.43076878       0.000489947327   33.3672775       0.999590851     -0.0154459809     0.999590851     -0.0154459809     0.000489947327   33.3672775      
 1.44507647       0.00049184769    33.5976257       0.999590355     -0.0156004329     0.999590355     -0.0156004329     0.00049184769    33.5976257      
 1.45952724       0.000493773013   33.8286328       0.999589857     -0.0157564294     0.999589857     -0.0157564294     0.000493773013   33.8286328      
 1.47412251       0.000495723618   34.0602847       0.999589357     -0.0159139858     0.999589357     -0.0159139858     0.000495723618   34.0602847      
 1.48886373       0.00049769983    34.2925673       0.999588854     -0.0160731175     0.999588854     -0.0160731175     0.00049769983    34.2925673      
 1.50375237       0.000499701978   34.5254661       0.999588348     -0.0162338405     0.999588348     -0.0162338405     0.000499701978   34.5254661      
 1.51878989       0.000501730392   34.7589667       0.99958784      -0.0163961706     0.99958784      -0.0163961706     0.000501730392   34.7589667      
 1.53397779       0.000503785408   34.993054        0.99958733      -0.0165601239     0.99958733      -0.0165601239     0.000503785407   34.993054       
 1.54931757       0.000505867363   35.2277134       0.999586817     -0.0167257165     0.999586817     -0.0167257165     0.000505867363   35.2277134      
 1.56481075       0.0005079766     35.4629293       0.999586301     -0.016892965      0.999586301     -0.016892965      0.0005079766     35.4629293      
 1.58045885       0.000510113461   35.6986866       0.999585783     -0.0170618858     0.999585783     -0.0170618858     0.000510113461   35.6986866      
 1.59626344       0.000512278296   35.9349697       0.999585262     -0.0172324957     0.999585262     -0.0172324957     0.000512278296   35.9349697      
 1.61222608       0.000514471454   36.1717629       0.999584738     -0.0174048115     0.999584738     -0.0174048115     0.000514471454   36.1717629      
 1.62834834       0.000516693291   36.4090503       0.999584212     -0.0175788504     0.999584212     -0.0175788504     0.000516693291   36.4090503      
 1.64463182       0.000518944164   36.6468159       0.999583684     -0.0177546295     0.999583684     -0.0177546295     0.000518944164   36.6468159      
 1.66107814       0.000521224433   36.8850435       0.999583152     -0.0179321663     0.999583152     -0.0179321663     0.000521224433   36.8850435      
 1.67768892       0.000523534464   37.1237166       0.999582618     -0.0181114783     0.999582618     -0.0181114783     0.000523534464   37.1237166      
 1.69446581       0.000525874623   37.3628189       0.999582081     -0.0182925832     0.999582081     -0.0182925832     0.000525874623   37.3628189      
 1.71141047       0.000528245281   37.6023336       0.999581542     -0.0184754991     0.999581542     -0.0184754991     0.000528245281   37.6023336      
 1.72852457       0.000530646814   37.8422439       0.999581        -0.018660244      0.999581        -0.018660244      0.000530646814   37.8422439      
 1.74580982       0.000533079598   38.082533        0.999580455     -0.0188468362     0.999580455     -0.0188468362     0.000533079598   38.082533       
 1.76326792       0.000535544015   38.3231837       0.999579907     -0.0190352941     0.999579907     -0.0190352941     0.000535544015   38.3231837      
 1.7809006        0.000538040448   38.564179        0.999579357     -0.0192256365     0.999579357     -0.0192256365     0.000538040448   38.564179       
 1.7987096        0.000540569286   38.8055014       0.999578804     -0.0194178821     0.999578804     -0.0194178821     0.000540569286   38.8055014      
 1.8166967        0.00054313092    39.0471336       0.999578248     -0.01961205       0.999578248     -0.01961205       0.00054313092    39.0471336      
 1.83486367       0.000545725746   39.2890582       0.999577689     -0.0198081595     0.999577689     -0.0198081595     0.000545725745   39.2890582      
 1.8532123        0.00054835416    39.5312573       0.999577128     -0.0200062298     0.999577128     -0.0200062298     0.00054835416    39.5312573      
 1.87174443       0.000551016565   39.7737135       0.999576563     -0.0202062808     0.999576563     -0.0202062808     0.000551016565   39.7737135      
 1.89046187       0.000553713366   40.0164089       0.999575996     -0.020408332      0.999575996     -0.020408332      0.000553713366   40.0164089      
 1.90936649       0.00055644497    40.2593257       0.999575426     -0.0206124036     0.999575426     -0.0206124036     0.00055644497    40.2593257      
 1.92846015       0.000559211791   40.5024459       0.999574854     -0.0208185157     0.999574854     -0.0208185157     0.000559211791   40.5024459      
 1.94774475       0.000562014245   40.7457515       0.999574278     -0.0210266887     0.999574278     -0.0210266887     0.000562014245   40.7457515      
 1.9672222        0.00056485275    40.9892244       0.999573699     -0.0212369434     0.999573699     -0.0212369434     0.00056485275    40.9892244      
 1.98689442       0.000567727728   41.2328466       0.999573118     -0.0214493004     0.999573118     -0.0214493004     0.000567727728   41.2328466      
 2.00676337       0.000570639608   41.4765999       0.999572533     -0.0216637807     0.999572533     -0.0216637807     0.000570639608   41.4765999      
 2.026831         0.000573588817   41.7204661       0.999571946     -0.0218804057     0.999571946     -0.0218804057     0.000573588817   41.7204661      
 2.04709931       0.00057657579    41.9644269       0.999571356     -0.0220991967     0.999571356     -0.0220991967     0.00057657579    41.9644269      
 2.06757031       0.000579600964   42.2084642       0.999570762     -0.0223201754     0.999570762     -0.0223201754     0.000579600964   42.2084642      
 2.08824601       0.000582664779   42.4525596       0.999570166     -0.0225433637     0.999570166     -0.0225433637     0.000582664779   42.4525596      
 2.10912847       0.000585767681   42.6966948       0.999569567     -0.0227687837     0.999569567     -0.0227687838     0.000585767681   42.6966948      
 2.13021975       0.000588910116   42.9408516       0.999568965     -0.0229964578     0.999568965     -0.0229964578     0.000588910116   42.9408516      
 2.15152195       0.000592092538   43.1850116       0.999568359     -0.0232264083     0.999568359     -0.0232264083     0.000592092538   43.1850116      
 2.17303717       0.0005953154     43.4291566       0.999567751     -0.0234586581     0.999567751     -0.0234586581     0.0005953154     43.4291566      
 2.19476754       0.000598579163   43.6732683       0.999567139     -0.0236932302     0.999567139     -0.0236932302     0.000598579163   43.6732683      
 2.21671522       0.000601884291   43.9173285       0.999566525     -0.0239301479     0.999566525     -0.0239301478     0.000601884291   43.9173285      
 2.23888237       0.000605231248   44.1613189       0.999565907     -0.0241694344     0.999565907     -0.0241694344     0.000605231248   44.1613189      
 2.26127119       0.000608620506   44.4052214       0.999565287     -0.0244111136     0.999565287     -0.0244111136     0.000608620506   44.4052214      
 2.2838839        0.00061205254    44.6490178       0.999564663     -0.0246552094     0.999564663     -0.0246552094     0.00061205254    44.6490178      
 2.30672274       0.000615527828   44.89269         0.999564036     -0.0249017459     0.999564036     -0.0249017459     0.000615527828   44.89269        
 2.32978997       0.000619046851   45.1362199       0.999563406     -0.0251507475     0.999563406     -0.0251507475     0.000619046851   45.1362199      
 2.35308787       0.000622610097   45.3795897       0.999562773     -0.0254022389     0.999562773     -0.0254022389     0.000622610096   45.3795897      
 2.37661875       0.000626218054   45.6227814       0.999562136     -0.025656245      0.999562136     -0.025656245      0.000626218054   45.6227814      
 2.40038494       0.000629871216   45.8657771       0.999561497     -0.0259127909     0.999561497     -0.0259127909     0.000629871216   45.8657771      
 2.42438879       0.000633570082   46.1085592       0.999560854     -0.026171902      0.999560854     -0.026171902      0.000633570082   46.1085592      
 2.44863267       0.000637315154   46.3511099       0.999560208     -0.026433604      0.999560208     -0.026433604      0.000637315154   46.3511099      
 2.473119         0.000641106937   46.5934117       0.999559558     -0.0266979227     0.999559558     -0.0266979227     0.000641106937   46.5934117      
 2.49785019       0.000644945942   46.835447        0.999558906     -0.0269648844     0.999558906     -0.0269648844     0.000644945942   46.835447       
 2.52282869       0.000648832682   47.0771986       0.99955825      -0.0272345154     0.99955825      -0.0272345154     0.000648832682   47.0771986      
 2.54805698       0.000652767676   47.3186492       0.999557591     -0.0275068424     0.999557591     -0.0275068424     0.000652767676   47.3186492      
 2.57353755       0.000656751445   47.5597816       0.999556928     -0.0277818925     0.999556928     -0.0277818925     0.000656751445   47.5597816      
 2.59927293       0.000660784518   47.8005788       0.999556262     -0.0280596927     0.999556262     -0.0280596927     0.000660784518   47.8005788      
 2.62526565       0.000664867424   48.0410241       0.999555593     -0.0283402707     0.999555593     -0.0283402707     0.000664867424   48.0410241      
 2.65151831       0.000669000698   48.2811004       0.99955492      -0.0286236542     0.99955492      -0.0286236542     0.000669000698   48.2811004      
 2.67803349       0.00067318488    48.5207915       0.999554244     -0.0289098712     0.999554244     -0.0289098712     0.00067318488    48.5207915      
 2.70481383       0.000677420514   48.7600806       0.999553565     -0.0291989501     0.999553565     -0.0291989501     0.000677420514   48.7600806      
 2.73186197       0.000681708147   48.9989515       0.999552882     -0.0294909195     0.999552882     -0.0294909195     0.000681708147   48.9989515      
 2.75918059       0.000686048332   49.2373881       0.999552196     -0.0297858083     0.999552196     -0.0297858083     0.000686048332   49.2373881      
 2.78677239       0.000690441626   49.4753743       0.999551506     -0.0300836457     0.999551506     -0.0300836457     0.000690441626   49.4753743      
 2.81464012       0.00069488859    49.7128945       0.999550813     -0.0303844611     0.999550813     -0.0303844611     0.00069488859    49.7128945      
 2.84278652       0.000699389791   49.9499327       0.999550116     -0.0306882844     0.999550116     -0.0306882844     0.000699389791   49.9499327      
 2.87121438       0.000703945798   50.1864736       0.999549416     -0.0309951456     0.999549416     -0.0309951456     0.000703945798   50.1864736      
 2.89992653       0.000708557187   50.4225019       0.999548712     -0.031305075      0.999548712     -0.031305075      0.000708557187   50.4225019      
 2.92892579       0.000713224537   50.6580025       0.999548005     -0.0316181035     0.999548005     -0.0316181035     0.000713224537   50.6580025      
 2.95821505       0.000717948433   50.8929604       0.999547294     -0.0319342618     0.999547294     -0.0319342618     0.000717948433   50.8929604      
 2.9877972        0.000722729464   51.1273608       0.99954658      -0.0322535815     0.99954658      -0.0322535815     0.000722729464   51.1273608      
 3.01767517       0.000727568224   51.3611892       0.999545862     -0.0325760939     0.999545862     -0.0325760939     0.000727568224   51.3611892      
 3.04785192       0.000732465312   51.5944314       0.99954514      -0.0329018312     0.99954514      -0.0329018312     0.000732465312   51.5944314      
 3.07833044       0.000737421332   51.8270729       0.999544414     -0.0332308254     0.999544414     -0.0332308254     0.000737421332   51.8270729      
 3.10911375       0.000742436892   52.0591001       0.999543685     -0.0335631093     0.999543685     -0.0335631093     0.000742436892   52.0591001      
 3.14020489       0.000747512605   52.2904991       0.999542953     -0.0338987156     0.999542953     -0.0338987156     0.000747512605   52.2904991      
 3.17160693       0.000752649091   52.5212564       0.999542216     -0.0342376776     0.999542216     -0.0342376776     0.000752649091   52.5212564      
 3.203323         0.000757846973   52.7513587       0.999541476     -0.0345800288     0.999541476     -0.0345800288     0.000757846973   52.7513587      
 3.23535623       0.00076310688    52.9807929       0.999540732     -0.0349258032     0.999540732     -0.0349258032     0.00076310688    52.9807929      
 3.2677098        0.000768429447   53.2095461       0.999539985     -0.0352750349     0.999539985     -0.0352750349     0.000768429447   53.2095461      
 3.30038689       0.000773815312   53.4376057       0.999539233     -0.0356277585     0.999539233     -0.0356277585     0.000773815312   53.4376057      
 3.33339076       0.00077926512    53.6649592       0.999538478     -0.035984009      0.999538478     -0.035984009      0.00077926512    53.6649592      
 3.36672467       0.000784779522   53.8915944       0.999537719     -0.0363438216     0.999537719     -0.0363438216     0.000784779522   53.8915944      
 3.40039192       0.000790359172   54.1174994       0.999536956     -0.0367072318     0.999536956     -0.0367072319     0.000790359172   54.1174994      
 3.43439584       0.000796004732   54.3426623       0.999536189     -0.0370742758     0.999536189     -0.0370742758     0.000796004732   54.3426623      
 3.4687398        0.000801716869   54.5670718       0.999535418     -0.0374449898     0.999535418     -0.0374449898     0.000801716869   54.5670718      
 3.50342719       0.000807496253   54.7907165       0.999534644     -0.0378194105     0.999534644     -0.0378194105     0.000807496253   54.7907165      
