# MHz           S          MA           R         50
!Freq             MagS11           AngS11           MagS21           AngS21           MagS12           AngS12           MagS22           AngS22
 1                0.000876579607   4.92570704       0.999126661     -0.00431622716    0.999126661     -0.00431622716    0.000876579607   4.92570704      
 1.01             0.000876813805   4.97375374       0.999126491     -0.00435938871    0.999126491     -0.00435938871    0.000876813805   4.97375374      
 1.0201           0.000877050124   5.0222597        0.99912632      -0.00440298184    0.99912632      -0.00440298184    0.000877050124   5.0222597       
 1.030301         0.000877288594   5.07122903       0.999126148     -0.0044470109     0.999126148     -0.00444701091    0.000877288594   5.07122903      
 1.04060401       0.000877529243   5.12066599       0.999125976     -0.00449148024    0.999125976     -0.00449148024    0.000877529243   5.12066599      
 1.05101005       0.000877772102   5.17057481       0.999125803     -0.00453639427    0.999125803     -0.00453639427    0.000877772102   5.17057481      
 1.06152015       0.000878017202   5.22095978       0.999125629     -0.00458175742    0.999125629     -0.00458175742    0.000878017202   5.22095978      
 1.07213535       0.000878264575   5.27182524       0.999125454     -0.00462757416    0.999125454     -0.00462757416    0.000878264575   5.27182524      
 1.08285671       0.000878514251   5.32317549       0.999125278     -0.00467384908    0.999125278     -0.00467384908    0.000878514251   5.32317549      
 1.09368527       0.000878766264   5.37501489       0.999125101     -0.00472058675    0.999125101     -0.00472058675    0.000878766264   5.37501489      
 1.10462213       0.000879020647   5.42734794       0.999124924     -0.00476779176    0.999124924     -0.00476779176    0.000879020647   5.42734794      
 1.11566835       0.000879277432   5.48017902       0.999124745     -0.00481546882    0.999124745     -0.00481546882    0.000879277432   5.48017902      
 1.12682503       0.000879536656   5.53351262       0.999124566     -0.00486362265    0.999124566     -0.00486362265    0.000879536656   5.53351262      
 1.13809328       0.00087979835    5.58735328       0.999124385     -0.004912258      0.999124385     -0.004912258      0.00087979835    5.58735328      
 1.14947421       0.000880062552   5.64170559       0.999124204     -0.00496137963    0.999124204     -0.00496137963    0.000880062552   5.64170559      
 1.16096896       0.000880329298   5.69657404       0.999124022     -0.00501099252    0.999124022     -0.00501099252    0.000880329298   5.69657404      
 1.17257864       0.000880598624   5.75196319       0.999123839     -0.0050611016     0.999123839     -0.0050611016     0.000880598624   5.75196319      
 1.18430443       0.000880870568   5.807878         0.999123655     -0.00511171158    0.999123655     -0.00511171158    0.000880870568   5.807878        
 1.19614748       0.000881145165   5.86432283       0.99912347      -0.00516282776    0.99912347      -0.00516282776    0.000881145165   5.86432283      
 1.20810895       0.000881422458   5.9213025        0.999123284     -0.00521445509    0.999123284     -0.00521445509    0.000881422458   5.9213025       
 1.22019004       0.000881702483   5.97882183       0.999123098     -0.00526659865    0.999123098     -0.00526659865    0.000881702483   5.97882183      
 1.23239194       0.000881985281   6.03688557       0.99912291      -0.00531926362    0.99912291      -0.00531926362    0.000881985281   6.03688557      
 1.24471586       0.000882270893   6.09549851       0.999122722     -0.00537245526    0.999122722     -0.00537245526    0.000882270893   6.09549851      
 1.25716302       0.000882559361   6.15466552       0.999122532     -0.00542617882    0.999122532     -0.00542617882    0.00088255936    6.15466551      
 1.26973465       0.000882850724   6.21439157       0.999122342     -0.00548043954    0.999122342     -0.00548043954    0.000882850724   6.21439157      
 1.282432         0.000883145029   6.27468156       0.99912215      -0.00553524283    0.99912215      -0.00553524283    0.000883145029   6.27468156      
 1.29525631       0.000883442316   6.33554033       0.999121958     -0.00559059421    0.999121958     -0.00559059421    0.000883442316   6.33554033      
 1.30820888       0.000883742632   6.39697304       0.999121765     -0.00564649903    0.999121765     -0.00564649903    0.000883742632   6.39697304      
 1.32129097       0.000884046021   6.45898461       0.99912157      -0.00570296292    0.99912157      -0.00570296292    0.000884046021   6.45898461      
 1.33450388       0.000884352529   6.52158015       0.999121375     -0.00575999143    0.999121375     -0.00575999143    0.000884352529   6.52158015      
 1.34784892       0.000884662203   6.5847647        0.999121179     -0.00581759025    0.999121179     -0.00581759025    0.000884662203   6.5847647       
 1.3613274        0.000884975089   6.64854355       0.999120982     -0.00587576496    0.999120982     -0.00587576496    0.000884975089   6.64854355      
 1.37494068       0.000885291238   6.71292171       0.999120783     -0.00593452143    0.999120783     -0.00593452143    0.000885291238   6.71292171      
 1.38869009       0.000885610699   6.77790445       0.999120584     -0.00599386545    0.999120584     -0.00599386545    0.000885610699   6.77790445      
 1.40257699       0.000885933521   6.84349699       0.999120384     -0.0060538029     0.999120384     -0.0060538029     0.000885933521   6.84349699      
 1.41660276       0.000886259754   6.90970464       0.999120183     -0.00611433967    0.999120183     -0.00611433967    0.000886259754   6.90970464      
 1.43076878       0.000886589452   6.97653266       0.999119981     -0.00617548181    0.999119981     -0.00617548181    0.000886589452   6.97653266      
 1.44507647       0.000886922668   7.04398633       0.999119777     -0.0062372354     0.999119777     -0.0062372354     0.000886922668   7.04398633      
 1.45952724       0.000887259455   7.11207116       0.999119573     -0.00629960644    0.999119573     -0.00629960644    0.000887259455   7.11207116      
 1.47412251       0.000887599868   7.18079245       0.999119368     -0.00636260122    0.999119368     -0.00636260122    0.000887599868   7.18079245      
 1.48886373       0.000887943961   7.25015569       0.999119162     -0.00642622592    0.999119162     -0.00642622592    0.000887943961   7.25015569      
 1.50375237       0.000888291794   7.32016637       0.999118954     -0.00649048681    0.999118954     -0.00649048681    0.000888291794   7.32016637      
 1.51878989       0.000888643423   7.39082993       0.999118746     -0.00655539032    0.999118746     -0.00655539032    0.000888643422   7.39082993      
 1.53397779       0.000888998907   7.46215196       0.999118537     -0.00662094283    0.999118537     -0.00662094283    0.000888998907   7.46215196      
 1.54931757       0.000889358304   7.534138         0.999118326     -0.00668715086    0.999118326     -0.00668715086    0.000889358304   7.534138        
 1.56481075       0.000889721679   7.60679371       0.999118115     -0.00675402091    0.999118115     -0.00675402091    0.000889721679   7.60679371      
 1.58045885       0.00089008909    7.68012462       0.999117902     -0.00682155969    0.999117902     -0.00682155969    0.00089008909    7.68012462      
 1.59626344       0.000890460602   7.75413648       0.999117689     -0.00688977383    0.999117689     -0.00688977383    0.000890460602   7.75413648      
 1.61222608       0.000890836279   7.82883501       0.999117474     -0.00695867005    0.999117474     -0.00695867005    0.000890836279   7.828835        
 1.62834834       0.000891216186   7.90422587       0.999117258     -0.00702825524    0.999117258     -0.00702825524    0.000891216186   7.90422587      
 1.64463182       0.00089160039    7.98031487       0.999117042     -0.00709853624    0.999117042     -0.00709853624    0.00089160039    7.98031487      
 1.66107814       0.000891988958   8.05710774       0.999116824     -0.00716952007    0.999116824     -0.00716952007    0.000891988958   8.05710774      
 1.67768892       0.000892381959   8.13461042       0.999116605     -0.00724121366    0.999116605     -0.00724121366    0.000892381959   8.13461042      
 1.69446581       0.000892779464   8.21282866       0.999116385     -0.00731362419    0.999116385     -0.00731362419    0.000892779464   8.21282866      
 1.71141047       0.000893181544   8.29176834       0.999116164     -0.00738675883    0.999116164     -0.00738675883    0.000893181544   8.29176834      
 1.72852457       0.000893588271   8.37143547       0.999115941     -0.00746062475    0.999115941     -0.00746062475    0.000893588271   8.37143547      
 1.74580982       0.000893999718   8.45183596       0.999115718     -0.00753522928    0.999115718     -0.00753522928    0.000893999718   8.45183596      
 1.76326792       0.000894415963   8.53297566       0.999115493     -0.00761057991    0.999115493     -0.00761057991    0.000894415963   8.53297566      
 1.7809006        0.00089483708    8.61486074       0.999115268     -0.00768668396    0.999115268     -0.00768668396    0.00089483708    8.61486074      
 1.7987096        0.000895263148   8.69749715       0.999115041     -0.00776354902    0.999115041     -0.00776354902    0.000895263148   8.69749715      
 1.8166967        0.000895694247   8.7808909        0.999114813     -0.00784118274    0.999114813     -0.00784118274    0.000895694247   8.7808909       
 1.83486367       0.000896130457   8.86504814       0.999114584     -0.00791959275    0.999114584     -0.00791959275    0.000896130457   8.86504814      
 1.8532123        0.000896571859   8.94997495       0.999114354     -0.00799878684    0.999114354     -0.00799878684    0.000896571859   8.94997495      
 1.87174443       0.000897018538   9.0356775        0.999114123     -0.00807877281    0.999114123     -0.00807877281    0.000897018538   9.0356775       
 1.89046187       0.000897470579   9.12216184       0.99911389      -0.00815955867    0.99911389      -0.00815955867    0.000897470579   9.12216184      
 1.90936649       0.000897928068   9.20943426       0.999113657     -0.00824115232    0.999113657     -0.00824115232    0.000897928068   9.20943426      
 1.92846015       0.000898391094   9.29750092       0.999113422     -0.0083235619     0.999113422     -0.0083235619     0.000898391094   9.29750092      
 1.94774475       0.000898859747   9.38636805       0.999113186     -0.00840679553    0.999113186     -0.00840679553    0.000898859747   9.38636805      
 1.9672222        0.000899334115   9.47604194       0.999112949     -0.00849086145    0.999112949     -0.00849086145    0.000899334115   9.47604194      
 1.98689442       0.000899814295   9.56652882       0.99911271      -0.008575768      0.99911271      -0.008575768      0.000899814295   9.56652882      
 2.00676337       0.00090030038    9.65783496       0.999112471     -0.00866152362    0.999112471     -0.00866152362    0.00090030038    9.65783496      
 2.026831         0.000900792466   9.74996667       0.99911223      -0.00874813679    0.99911223      -0.00874813679    0.000900792466   9.74996667      
 2.04709931       0.000901290651   9.84293041       0.999111988     -0.00883561599    0.999111988     -0.00883561599    0.000901290651   9.84293041      
 2.06757031       0.000901795034   9.93673237       0.999111745     -0.00892397       0.999111745     -0.00892397       0.000901795034   9.93673237      
 2.08824601       0.000902305717   10.031379        0.999111501     -0.00901320748    0.999111501     -0.00901320748    0.000902305717   10.031379       
 2.10912847       0.000902822803   10.1268767       0.999111255     -0.00910333733    0.999111255     -0.00910333733    0.000902822803   10.1268767      
 2.13021975       0.000903346398   10.2232319       0.999111008     -0.00919436839    0.999111008     -0.00919436839    0.000903346398   10.2232319      
 2.15152195       0.000903876607   10.3204509       0.99911076      -0.00928630981    0.99911076      -0.00928630981    0.000903876607   10.3204509      
 2.17303717       0.000904413541   10.4185402       0.999110511     -0.00937917056    0.999110511     -0.00937917056    0.000904413541   10.4185402      
 2.19476754       0.000904957308   10.5175062       0.99911026      -0.00947295988    0.99911026      -0.00947295988    0.000904957308   10.5175062      
 2.21671522       0.000905508023   10.6173555       0.999110009     -0.00956768707    0.999110009     -0.00956768707    0.000905508023   10.6173555      
 2.23888237       0.000906065799   10.7180944       0.999109756     -0.00966336149    0.999109756     -0.00966336149    0.000906065799   10.7180944      
 2.26127119       0.000906630754   10.8197294       0.999109501     -0.00975999265    0.999109501     -0.00975999265    0.000906630754   10.8197294      
 2.2838839        0.000907203005   10.9222671       0.999109246     -0.00985759004    0.999109246     -0.00985759005    0.000907203005   10.9222671      
 2.30672274       0.000907782673   11.0257138       0.999108989     -0.00995616338    0.999108989     -0.00995616338    0.000907782673   11.0257138      
 2.32978997       0.000908369881   11.1300762       0.999108731     -0.0100557224     0.999108731     -0.0100557224     0.000908369882   11.1300762      
 2.35308787       0.000908964755   11.2353608       0.999108471     -0.010156277      0.999108471     -0.010156277      0.000908964755   11.2353608      
 2.37661875       0.000909567422   11.3415738       0.99910821      -0.0102578371     0.99910821      -0.0102578371     0.000909567422   11.3415738      
 2.40038494       0.000910178009   11.4487221       0.999107948     -0.0103604128     0.999107948     -0.0103604128     0.000910178009   11.4487221      
 2.42438879       0.000910796649   11.556812        0.999107685     -0.0104640141     0.999107685     -0.0104640141     0.000910796649   11.556812       
 2.44863267       0.000911423477   11.6658501       0.99910742      -0.0105686515     0.99910742      -0.0105686515     0.000911423477   11.6658501      
 2.473119         0.000912058629   11.7758428       0.999107154     -0.0106743352     0.999107154     -0.0106743352     0.000912058629   11.7758428      
 2.49785019       0.000912702241   11.8867967       0.999106887     -0.0107810756     0.999106887     -0.0107810756     0.000912702241   11.8867967      
 2.52282869       0.000913354457   11.9987182       0.999106618     -0.0108888835     0.999106618     -0.0108888835     0.000913354457   11.9987182      
 2.54805698       0.00091401542    12.1116139       0.999106348     -0.0109977693     0.999106348     -0.0109977693     0.00091401542    12.1116139      
 2.57353755       0.000914685273   12.2254902       0.999106077     -0.011107744      0.999106077     -0.011107744      0.000914685273   12.2254902      
 2.59927293       0.000915364168   12.3403536       0.999105804     -0.0112188184     0.999105804     -0.0112188184     0.000915364168   12.3403536      
 2.62526565       0.000916052254   12.4562106       0.99910553      -0.0113310035     0.99910553      -0.0113310035     0.000916052254   12.4562106      
 2.65151831       0.000916749685   12.5730676       0.999105255     -0.0114443103     0.999105255     -0.0114443103     0.000916749685   12.5730676      
 2.67803349       0.000917456618   12.6909311       0.999104978     -0.0115587502     0.999104978     -0.0115587502     0.000917456618   12.6909311      
 2.70481383       0.000918173211   12.8098074       0.9991047       -0.0116743345     0.9991047       -0.0116743345     0.000918173211   12.8098074      
 2.73186197       0.000918899626   12.9297029       0.99910442      -0.0117910745     0.99910442      -0.0117910745     0.000918899626   12.9297029      
 2.75918059       0.000919636026   13.0506241       0.999104139     -0.0119089819     0.999104139     -0.0119089819     0.000919636026   13.0506241      
 2.78677239       0.000920382581   13.1725773       0.999103856     -0.0120280684     0.999103856     -0.0120280684     0.000920382581   13.1725773      
 2.81464012       0.000921139459   13.2955687       0.999103573     -0.0121483456     0.999103573     -0.0121483456     0.000921139459   13.2955687      
 2.84278652       0.000921906833   13.4196048       0.999103287     -0.0122698256     0.999103287     -0.0122698256     0.000921906833   13.4196048      
 2.87121438       0.000922684879   13.5446918       0.999103001     -0.0123925203     0.999103001     -0.0123925203     0.000922684879   13.5446918      
 2.89992653       0.000923473777   13.6708358       0.999102712     -0.0125164419     0.999102712     -0.0125164419     0.000923473777   13.6708358      
 2.92892579       0.000924273708   13.7980432       0.999102423     -0.0126416026     0.999102423     -0.0126416026     0.000924273708   13.7980432      
 2.95821505       0.000925084856   13.92632         0.999102132     -0.0127680149     0.999102132     -0.0127680149     0.000925084856   13.92632        
 2.9877972        0.000925907412   14.0556724       0.999101839     -0.0128956913     0.999101839     -0.0128956913     0.000925907412   14.0556724      
 3.01767517       0.000926741563   14.1861065       0.999101545     -0.0130246444     0.999101545     -0.0130246444     0.000926741563   14.1861065      
 3.04785192       0.000927587507   14.3176284       0.99910125      -0.013154887      0.99910125      -0.013154887      0.000927587507   14.3176284      
 3.07833044       0.000928445441   14.4502439       0.999100953     -0.0132864319     0.999100953     -0.0132864319     0.000928445441   14.4502439      
 3.10911375       0.000929315565   14.5839591       0.999100655     -0.0134192922     0.999100655     -0.0134192922     0.000929315565   14.5839591      
 3.14020489       0.000930198084   14.7187799       0.999100355     -0.0135534811     0.999100355     -0.0135534811     0.000930198085   14.7187799      
 3.17160693       0.000931093207   14.8547121       0.999100053     -0.0136890118     0.999100053     -0.0136890118     0.000931093207   14.8547121      
 3.203323         0.000932001143   14.9917614       0.99909975      -0.0138258977     0.99909975      -0.0138258977     0.000932001143   14.9917614      
 3.23535623       0.000932922108   15.1299337       0.999099446     -0.0139641524     0.999099446     -0.0139641524     0.000932922108   15.1299337      
 3.2677098        0.00093385632    15.2692345       0.99909914      -0.0141037896     0.99909914      -0.0141037896     0.00093385632    15.2692345      
 3.30038689       0.000934804002   15.4096695       0.999098833     -0.0142448231     0.999098833     -0.0142448231     0.000934804002   15.4096695      
 3.33339076       0.000935765379   15.5512441       0.999098524     -0.0143872669     0.999098524     -0.0143872669     0.000935765379   15.5512441      
 3.36672467       0.000936740679   15.6939639       0.999098213     -0.0145311351     0.999098213     -0.0145311351     0.000936740679   15.6939639      
 3.40039192       0.000937730137   15.8378342       0.999097901     -0.0146764418     0.999097901     -0.0146764418     0.000937730137   15.8378342      
 3.43439584       0.000938733989   15.9828603       0.999097587     -0.0148232016     0.999097587     -0.0148232016     0.000938733989   15.9828603      
 3.4687398        0.000939752475   16.1290474       0.999097272     -0.0149714289     0.999097272     -0.0149714289     0.000939752475   16.1290474      
 3.50342719       0.000940785841   16.2764007       0.999096955     -0.0151211384     0.999096955     -0.0151211384     0.000940785841   16.2764007      
