# MHz           S          MA           R         50
!Freq             MagS11           AngS11           MagS21           AngS21           MagS12           AngS12           MagS22           AngS22
 1                0.00389869205    28.6974601       0.996581953     -0.107630917      0.996581953     -0.107630917      0.00389869205    28.6974601      
 1.01             0.00391118714    28.9098741       0.996578014     -0.108706798      0.996578014     -0.108706798      0.00391118714    28.9098741      
 1.0201           0.00392384478    29.1231675       0.996574055     -0.109793431      0.996574055     -0.109793431      0.00392384478    29.1231675      
 1.030301         0.00393666719    29.3373309       0.996570076     -0.110890924      0.996570076     -0.110890924      0.00393666719    29.3373309      
 1.04060401       0.0039496566     29.5523548       0.996566076     -0.111999386      0.996566076     -0.111999386      0.0039496566     29.5523548      
 1.05101005       0.00396281527    29.7682294       0.996562057     -0.113118925      0.996562057     -0.113118925      0.00396281527    29.7682294      
 1.06152015       0.00397614548    29.9849447       0.996558016     -0.114249652      0.996558016     -0.114249652      0.00397614548    29.9849447      
 1.07213535       0.00398964954    30.2024905       0.996553955     -0.11539168       0.996553955     -0.11539168       0.00398964954    30.2024905      
 1.08285671       0.00400332978    30.4208563       0.996549873     -0.116545121      0.996549873     -0.116545121      0.00400332978    30.4208563      
 1.09368527       0.00401718856    30.6400313       0.99654577      -0.11771009       0.99654577      -0.11771009       0.00401718856    30.6400313      
 1.10462213       0.00403122827    30.8600046       0.996541646     -0.1188867        0.996541646     -0.1188867        0.00403122827    30.8600046      
 1.11566835       0.00404545131    31.080765        0.9965375       -0.12007507       0.9965375       -0.12007507       0.00404545131    31.080765       
 1.12682503       0.00405986012    31.3023011       0.996533334     -0.121275315      0.996533334     -0.121275315      0.00405986012    31.3023011      
 1.13809328       0.00407445716    31.5246012       0.996529146     -0.122487556      0.996529146     -0.122487556      0.00407445716    31.5246012      
 1.14947421       0.00408924492    31.7476535       0.996524936     -0.12371191       0.996524936     -0.12371191       0.00408924492    31.7476535      
 1.16096896       0.00410422591    31.9714457       0.996520705     -0.124948501      0.996520705     -0.124948501      0.00410422591    31.9714457      
 1.17257864       0.00411940267    32.1959657       0.996516452     -0.12619745       0.996516452     -0.12619745       0.00411940267    32.1959657      
 1.18430443       0.00413477776    32.4212007       0.996512177     -0.12745888       0.996512177     -0.12745888       0.00413477776    32.4212007      
 1.19614748       0.00415035378    32.647138        0.996507881     -0.128732916      0.996507881     -0.128732916      0.00415035378    32.647138       
 1.20810895       0.00416613335    32.8737647       0.996503562     -0.130019684      0.996503562     -0.130019684      0.00416613335    32.8737647      
 1.22019004       0.00418211911    33.1010675       0.99649922      -0.131319311      0.99649922      -0.131319311      0.00418211911    33.1010675      
 1.23239194       0.00419831372    33.3290329       0.996494857     -0.132631925      0.996494857     -0.132631925      0.00419831372    33.3290329      
 1.24471586       0.0042147199     33.5576472       0.996490471     -0.133957658      0.996490471     -0.133957658      0.0042147199     33.5576472      
 1.25716302       0.00423134037    33.7868967       0.996486062     -0.135296638      0.996486062     -0.135296638      0.00423134037    33.7868967      
 1.26973465       0.00424817788    34.0167673       0.99648163      -0.136649         0.99648163      -0.136649         0.00424817788    34.0167673      
 1.282432         0.0042652352     34.2472447       0.996477176     -0.138014875      0.996477176     -0.138014875      0.0042652352     34.2472447      
 1.29525631       0.00428251515    34.4783144       0.996472698     -0.139394401      0.996472698     -0.139394401      0.00428251515    34.4783144      
 1.30820888       0.00430002056    34.7099618       0.996468198     -0.140787712      0.996468198     -0.140787712      0.00430002056    34.7099618      
 1.32129097       0.0043177543     34.9421719       0.996463674     -0.142194946      0.996463674     -0.142194946      0.0043177543     34.9421719      
 1.33450388       0.00433571924    35.1749299       0.996459126     -0.143616244      0.996459126     -0.143616244      0.00433571924    35.1749299      
 1.34784892       0.00435391831    35.4082204       0.996454555     -0.145051744      0.996454555     -0.145051744      0.00435391831    35.4082204      
 1.3613274        0.00437235446    35.642028        0.996449961     -0.146501589      0.996449961     -0.146501589      0.00437235446    35.642028       
 1.37494068       0.00439103065    35.8763373       0.996445342     -0.147965922      0.996445342     -0.147965922      0.00439103065    35.8763373      
 1.38869009       0.00440994989    36.1111323       0.9964407       -0.149444889      0.9964407       -0.149444889      0.00440994989    36.1111323      
 1.40257699       0.0044291152     36.3463972       0.996436033     -0.150938635      0.996436033     -0.150938635      0.0044291152     36.3463972      
 1.41660276       0.00444852965    36.582116        0.996431342     -0.152447307      0.996431342     -0.152447307      0.00444852965    36.582116       
 1.43076878       0.00446819632    36.8182723       0.996426627     -0.153971055      0.996426627     -0.153971055      0.00446819632    36.8182723      
 1.44507647       0.00448811831    37.0548499       0.996421887     -0.15551003       0.996421887     -0.15551003       0.00448811831    37.0548499      
 1.45952724       0.00450829878    37.2918322       0.996417122     -0.157064383      0.996417122     -0.157064383      0.00450829878    37.2918322      
 1.47412251       0.00452874089    37.5292024       0.996412333     -0.158634269      0.996412333     -0.158634269      0.00452874089    37.5292024      
 1.48886373       0.00454944784    37.7669439       0.996407519     -0.160219842      0.996407519     -0.160219842      0.00454944784    37.7669439      
 1.50375237       0.00457042287    38.0050397       0.996402679     -0.161821259      0.996402679     -0.161821259      0.00457042287    38.0050397      
 1.51878989       0.00459166922    38.2434726       0.996397814     -0.163438678      0.996397814     -0.163438678      0.00459166922    38.2434726      
 1.53397779       0.00461319019    38.4822256       0.996392924     -0.165072259      0.996392924     -0.165072259      0.00461319019    38.4822256      
 1.54931757       0.00463498909    38.7212814       0.996388009     -0.166722164      0.996388009     -0.166722164      0.00463498909    38.7212814      
 1.56481075       0.00465706926    38.9606225       0.996383067     -0.168388556      0.996383067     -0.168388556      0.00465706926    38.9606225      
 1.58045885       0.00467943407    39.2002314       0.9963781       -0.170071599      0.9963781       -0.170071599      0.00467943407    39.2002314      
 1.59626344       0.00470208694    39.4400906       0.996373106     -0.171771459      0.996373106     -0.171771459      0.00470208694    39.4400906      
 1.61222608       0.00472503129    39.6801824       0.996368087     -0.173488306      0.996368087     -0.173488306      0.00472503129    39.6801824      
 1.62834834       0.00474827059    39.920489        0.996363041     -0.175222307      0.996363041     -0.175222307      0.00474827059    39.920489       
 1.64463182       0.00477180833    40.1609925       0.996357969     -0.176973635      0.996357969     -0.176973635      0.00477180833    40.1609925      
 1.66107814       0.00479564803    40.4016751       0.99635287      -0.178742463      0.99635287      -0.178742463      0.00479564803    40.4016751      
 1.67768892       0.00481979324    40.6425187       0.996347744     -0.180528965      0.996347744     -0.180528965      0.00481979324    40.6425187      
 1.69446581       0.00484424754    40.8835054       0.996342591     -0.182333318      0.996342591     -0.182333318      0.00484424754    40.8835054      
 1.71141047       0.00486901456    41.124617        0.996337411     -0.1841557        0.996337411     -0.1841557        0.00486901456    41.124617       
 1.72852457       0.00489409793    41.3658355       0.996332203     -0.185996292      0.996332203     -0.185996292      0.00489409793    41.3658355      
 1.74580982       0.00491950133    41.6071426       0.996326969     -0.187855275      0.996326969     -0.187855275      0.00491950133    41.6071426      
 1.76326792       0.00494522846    41.8485202       0.996321706     -0.189732832      0.996321706     -0.189732832      0.00494522846    41.8485202      
 1.7809006        0.00497128306    42.08995         0.996316416     -0.191629151      0.996316416     -0.191629151      0.00497128306    42.08995        
 1.7987096        0.00499766889    42.3314138       0.996311098     -0.193544417      0.996311098     -0.193544417      0.00499766889    42.3314138      
 1.8166967        0.00502438976    42.5728933       0.996305751     -0.19547882       0.996305751     -0.19547882       0.00502438976    42.5728933      
 1.83486367       0.0050514495     42.8143704       0.996300377     -0.197432551      0.996300377     -0.197432551      0.0050514495     42.8143704      
 1.8532123        0.00507885196    43.0558267       0.996294973     -0.199405804      0.996294973     -0.199405804      0.00507885196    43.0558267      
 1.87174443       0.00510660104    43.297244        0.996289541     -0.201398772      0.996289541     -0.201398772      0.00510660104    43.297244       
 1.89046187       0.00513470066    43.5386041       0.996284081     -0.203411654      0.996284081     -0.203411654      0.00513470066    43.5386041      
 1.90936649       0.00516315479    43.7798887       0.996278591     -0.205444647      0.996278591     -0.205444647      0.00516315479    43.7798887      
 1.92846015       0.00519196741    44.0210797       0.996273072     -0.207497954      0.996273072     -0.207497954      0.00519196741    44.0210797      
 1.94774475       0.00522114254    44.262159        0.996267523     -0.209571776      0.996267523     -0.209571776      0.00522114254    44.262159       
 1.9672222        0.00525068425    44.5031084       0.996261945     -0.211666319      0.996261945     -0.211666319      0.00525068425    44.5031084      
 1.98689442       0.00528059661    44.74391         0.996256337     -0.213781789      0.996256337     -0.213781789      0.00528059661    44.74391        
 2.00676337       0.00531088375    44.9845456       0.996250699     -0.215918395      0.996250699     -0.215918395      0.00531088375    44.9845456      
 2.026831         0.00534154982    45.2249974       0.996245031     -0.21807635       0.996245031     -0.21807635       0.00534154982    45.2249974      
 2.04709931       0.00537259902    45.4652475       0.996239333     -0.220255865      0.996239333     -0.220255865      0.00537259902    45.4652475      
 2.06757031       0.00540403555    45.7052781       0.996233604     -0.222457156      0.996233604     -0.222457156      0.00540403555    45.7052781      
 2.08824601       0.00543586369    45.9450715       0.996227845     -0.22468044       0.996227845     -0.22468044       0.00543586369    45.9450715      
 2.10912847       0.00546808772    46.1846101       0.996222054     -0.226925938      0.996222054     -0.226925938      0.00546808772    46.1846101      
 2.13021975       0.00550071196    46.4238763       0.996216232     -0.229193871      0.996216232     -0.229193871      0.00550071196    46.4238763      
 2.15152195       0.00553374078    46.6628528       0.996210379     -0.231484463      0.996210379     -0.231484463      0.00553374078    46.6628528      
 2.17303717       0.00556717856    46.9015221       0.996204495     -0.23379794       0.996204495     -0.23379794       0.00556717856    46.9015221      
 2.19476754       0.00560102974    47.1398671       0.996198578     -0.236134531      0.996198578     -0.236134531      0.00560102974    47.1398671      
 2.21671522       0.00563529879    47.3778706       0.99619263      -0.238494466      0.99619263      -0.238494466      0.00563529879    47.3778706      
 2.23888237       0.00566999021    47.6155157       0.99618665      -0.24087798       0.99618665      -0.24087798       0.00566999021    47.6155157      
 2.26127119       0.00570510852    47.8527855       0.996180637     -0.243285306      0.996180637     -0.243285306      0.00570510852    47.8527855      
 2.2838839        0.00574065832    48.0896634       0.996174591     -0.245716684      0.996174591     -0.245716684      0.00574065832    48.0896634      
 2.30672274       0.0057766442     48.3261326       0.996168513     -0.248172353      0.996168513     -0.248172353      0.0057766442     48.3261326      
 2.32978997       0.00581307082    48.5621768       0.996162402     -0.250652555      0.996162402     -0.250652555      0.00581307082    48.5621768      
 2.35308787       0.00584994286    48.7977797       0.996156257     -0.253157536      0.996156257     -0.253157536      0.00584994286    48.7977797      
 2.37661875       0.00588726504    49.0329251       0.99615008      -0.255687544      0.99615008      -0.255687544      0.00588726504    49.0329251      
 2.40038494       0.00592504213    49.267597        0.996143868     -0.258242827      0.996143868     -0.258242827      0.00592504213    49.267597       
 2.42438879       0.00596327893    49.5017797       0.996137622     -0.260823639      0.996137622     -0.260823639      0.00596327893    49.5017797      
 2.44863267       0.00600198026    49.7354574       0.996131343     -0.263430234      0.996131343     -0.263430234      0.00600198026    49.7354574      
 2.473119         0.00604115102    49.9686147       0.996125029     -0.266062869      0.996125029     -0.266062869      0.00604115102    49.9686147      
 2.49785019       0.00608079612    50.2012363       0.99611868      -0.268721806      0.99611868      -0.268721806      0.00608079612    50.2012363      
 2.52282869       0.00612092051    50.4333071       0.996112296     -0.271407306      0.996112296     -0.271407306      0.00612092051    50.4333071      
 2.54805698       0.00616152918    50.664812        0.996105878     -0.274119634      0.996105878     -0.274119634      0.00616152918    50.664812       
 2.57353755       0.00620262719    50.8957364       0.996099424     -0.276859059      0.996099424     -0.276859059      0.00620262719    50.8957364      
 2.59927293       0.00624421961    51.1260657       0.996092934     -0.279625851      0.996092934     -0.279625851      0.00624421961    51.1260657      
 2.62526565       0.00628631155    51.3557854       0.996086409     -0.282420284      0.996086409     -0.282420284      0.00628631155    51.3557854      
 2.65151831       0.00632890817    51.5848814       0.996079848     -0.285242632      0.996079848     -0.285242632      0.00632890817    51.5848814      
 2.67803349       0.00637201469    51.8133398       0.99607325      -0.288093175      0.99607325      -0.288093175      0.00637201469    51.8133398      
 2.70481383       0.00641563635    52.0411468       0.996066616     -0.290972195      0.996066616     -0.290972195      0.00641563635    52.0411468      
 2.73186197       0.00645977844    52.2682887       0.996059945     -0.293879976      0.996059945     -0.293879976      0.00645977844    52.2682887      
 2.75918059       0.00650444628    52.4947523       0.996053237     -0.296816804      0.996053237     -0.296816804      0.00650444628    52.4947523      
 2.78677239       0.00654964527    52.7205244       0.996046491     -0.299782971      0.996046491     -0.299782971      0.00654964527    52.7205244      
 2.81464012       0.00659538081    52.945592        0.996039708     -0.302778768      0.996039708     -0.302778768      0.00659538081    52.945592       
 2.84278652       0.00664165839    53.1699424       0.996032887     -0.305804492      0.996032887     -0.305804492      0.00664165839    53.1699424      
 2.87121438       0.0066884835     53.3935633       0.996026028     -0.308860441      0.996026028     -0.308860441      0.0066884835     53.3935633      
 2.89992653       0.00673586171    53.6164421       0.996019131     -0.311946917      0.996019131     -0.311946917      0.00673586171    53.6164421      
 2.92892579       0.00678379862    53.838567        0.996012195     -0.315064225      0.996012195     -0.315064225      0.00678379862    53.838567       
 2.95821505       0.00683229988    54.0599261       0.996005219     -0.318212673      0.996005219     -0.318212673      0.00683229988    54.0599261      
 2.9877972        0.0068813712     54.2805078       0.995998205     -0.321392571      0.995998205     -0.321392571      0.0068813712     54.2805078      
 3.01767517       0.00693101831    54.5003006       0.995991151     -0.324604234      0.995991151     -0.324604234      0.00693101831    54.5003006      
 3.04785192       0.00698124702    54.7192936       0.995984057     -0.327847979      0.995984057     -0.327847979      0.00698124702    54.7192936      
 3.07833044       0.00703206317    54.9374756       0.995976923     -0.331124125      0.995976923     -0.331124125      0.00703206317    54.9374756      
 3.10911375       0.00708347265    55.1548361       0.995969749     -0.334432997      0.995969749     -0.334432997      0.00708347265    55.1548361      
 3.14020489       0.0071354814     55.3713646       0.995962534     -0.337774921      0.995962534     -0.337774921      0.0071354814     55.3713646      
 3.17160693       0.00718809543    55.5870508       0.995955277     -0.341150227      0.995955277     -0.341150227      0.00718809543    55.5870508      
 3.203323         0.00724132077    55.8018848       0.99594798      -0.344559248      0.99594798      -0.344559248      0.00724132077    55.8018848      
 3.23535623       0.00729516353    56.0158568       0.995940641     -0.34800232       0.995940641     -0.34800232       0.00729516353    56.0158568      
 3.2677098        0.00734962986    56.2289572       0.99593326      -0.351479785      0.99593326      -0.351479785      0.00734962986    56.2289572      
 3.30038689       0.00740472595    56.4411768       0.995925836     -0.354991984      0.995925836     -0.354991984      0.00740472595    56.4411768      
 3.33339076       0.00746045807    56.6525065       0.99591837      -0.358539265      0.99591837      -0.358539265      0.00746045807    56.6525065      
 3.36672467       0.00751683253    56.8629375       0.995910861     -0.362121977      0.995910861     -0.362121977      0.00751683253    56.8629375      
 3.40039192       0.00757385568    57.0724611       0.995903309     -0.365740475      0.995903309     -0.365740475      0.00757385568    57.0724611      
 3.43439584       0.00763153397    57.281069        0.995895714     -0.369395116      0.995895714     -0.369395116      0.00763153397    57.281069       
 3.4687398        0.00768987386    57.4887531       0.995888074     -0.37308626       0.995888074     -0.37308626       0.00768987386    57.4887531      
 3.50342719       0.00774888188    57.6955054       0.99588039      -0.376814272      0.99588039      -0.376814272      0.00774888188    57.6955054      
