# MHz           S          MA           R         50
!Freq             MagS11           AngS11           MagS21           AngS21           MagS12           AngS12           MagS22           AngS22
 1                0.0011557355     31.0273782       0.999009803     -0.0341661378     0.999009803     -0.0341661378     0.0011557355     31.0273782      
 1.01             0.00115989067    31.2474887       0.999008551     -0.0345077559     0.999008551     -0.0345077559     0.00115989067    31.2474887      
 1.0201           0.00116409934    31.4683602       0.999007291     -0.0348527896     0.999007291     -0.0348527896     0.00116409934    31.4683602      
 1.030301         0.00116836222    31.6899814       0.999006026     -0.0352012729     0.999006026     -0.0352012729     0.00116836222    31.6899814      
 1.04060401       0.00117268003    31.9123404       0.999004754     -0.0355532405     0.999004754     -0.0355532405     0.00117268003    31.9123404      
 1.05101005       0.00117705348    32.1354254       0.999003475     -0.035908727      0.999003475     -0.035908727      0.00117705348    32.1354254      
 1.06152015       0.00118148329    32.3592242       0.999002191     -0.0362677677     0.999002191     -0.0362677677     0.00118148329    32.3592242      
 1.07213535       0.0011859702     32.5837247       0.999000899     -0.0366303981     0.999000899     -0.0366303981     0.0011859702     32.5837247      
 1.08285671       0.00119051495    32.8089142       0.998999602     -0.036996654      0.998999602     -0.036996654      0.00119051495    32.8089142      
 1.09368527       0.00119511829    33.03478         0.998998297     -0.0373665719     0.998998297     -0.0373665719     0.00119511829    33.03478        
 1.10462213       0.00119978098    33.2613091       0.998996986     -0.0377401881     0.998996986     -0.0377401881     0.00119978098    33.2613091      
 1.11566835       0.00120450377    33.4884885       0.998995669     -0.0381175398     0.998995669     -0.0381175398     0.00120450377    33.4884885      
 1.12682503       0.00120928744    33.7163046       0.998994345     -0.0384986642     0.998994345     -0.0384986642     0.00120928744    33.7163046      
 1.13809328       0.00121413277    33.9447441       0.998993014     -0.0388835992     0.998993014     -0.0388835992     0.00121413277    33.9447441      
 1.14947421       0.00121904055    34.1737932       0.998991677     -0.0392723827     0.998991677     -0.0392723826     0.00121904055    34.1737932      
 1.16096896       0.00122401156    34.4034378       0.998990332     -0.0396650532     0.998990332     -0.0396650532     0.00122401156    34.4034378      
 1.17257864       0.00122904662    34.633664        0.998988981     -0.0400616496     0.998988981     -0.0400616496     0.00122904662    34.633664       
 1.18430443       0.00123414653    34.8644573       0.998987624     -0.0404622112     0.998987624     -0.0404622112     0.00123414653    34.8644573      
 1.19614748       0.00123931211    35.0958034       0.998986259     -0.0408667776     0.998986259     -0.0408667776     0.00123931211    35.0958034      
 1.20810895       0.00124454418    35.3276875       0.998984888     -0.0412753888     0.998984888     -0.0412753888     0.00124454418    35.3276875      
 1.22019004       0.00124984359    35.5600948       0.998983509     -0.0416880852     0.998983509     -0.0416880852     0.00124984359    35.5600948      
 1.23239194       0.00125521116    35.7930102       0.998982124     -0.0421049078     0.998982124     -0.0421049078     0.00125521116    35.7930102      
 1.24471586       0.00126064776    36.0264187       0.998980731     -0.0425258977     0.998980731     -0.0425258977     0.00126064776    36.0264187      
 1.25716302       0.00126615424    36.2603049       0.998979332     -0.0429510966     0.998979332     -0.0429510966     0.00126615424    36.2603049      
 1.26973465       0.00127173146    36.4946533       0.998977926     -0.0433805466     0.998977926     -0.0433805466     0.00127173146    36.4946533      
 1.282432         0.0012773803     36.7294483       0.998976512     -0.0438142902     0.998976512     -0.0438142902     0.0012773803     36.7294483      
 1.29525631       0.00128310164    36.9646741       0.998975092     -0.0442523702     0.998975092     -0.0442523703     0.00128310164    36.9646741      
 1.30820888       0.00128889638    37.2003147       0.998973664     -0.0446948302     0.998973664     -0.0446948302     0.00128889638    37.2003147      
 1.32129097       0.00129476541    37.4363542       0.998972229     -0.0451417138     0.998972229     -0.0451417138     0.00129476541    37.4363542      
 1.33450388       0.00130070963    37.6727762       0.998970786     -0.0455930652     0.998970786     -0.0455930652     0.00130070963    37.6727762      
 1.34784892       0.00130672996    37.9095646       0.998969337     -0.0460489291     0.998969337     -0.0460489291     0.00130672996    37.9095646      
 1.3613274        0.00131282733    38.1467028       0.99896788      -0.0465093507     0.99896788      -0.0465093507     0.00131282733    38.1467028      
 1.37494068       0.00131900267    38.3841743       0.998966416     -0.0469743755     0.998966416     -0.0469743755     0.00131900267    38.3841743      
 1.38869009       0.00132525692    38.6219624       0.998964944     -0.0474440495     0.998964944     -0.0474440495     0.00132525692    38.6219624      
 1.40257699       0.00133159102    38.8600505       0.998963465     -0.0479184192     0.998963465     -0.0479184192     0.00133159102    38.8600505      
 1.41660276       0.00133800593    39.0984215       0.998961978     -0.0483975315     0.998961978     -0.0483975315     0.00133800593    39.0984215      
 1.43076878       0.00134450262    39.3370586       0.998960484     -0.0488814339     0.998960484     -0.0488814339     0.00134450262    39.3370586      
 1.44507647       0.00135108206    39.5759447       0.998958983     -0.0493701741     0.998958983     -0.0493701741     0.00135108206    39.5759446      
 1.45952724       0.00135774523    39.8150626       0.998957474     -0.0498638007     0.998957474     -0.0498638007     0.00135774523    39.8150626      
 1.47412251       0.00136449313    40.0543952       0.998955957     -0.0503623624     0.998955957     -0.0503623624     0.00136449313    40.0543952      
 1.48886373       0.00137132675    40.2939252       0.998954432     -0.0508659086     0.998954432     -0.0508659086     0.00137132675    40.2939252      
 1.50375237       0.0013782471     40.5336353       0.9989529       -0.051374489      0.9989529       -0.051374489      0.0013782471     40.5336353      
 1.51878989       0.00138525521    40.7735081       0.99895136      -0.0518881541     0.99895136      -0.0518881541     0.00138525521    40.7735081      
 1.53397779       0.00139235208    41.0135261       0.998949812     -0.0524069546     0.998949812     -0.0524069546     0.00139235208    41.0135261      
 1.54931757       0.00139953877    41.2536718       0.998948256     -0.0529309419     0.998948256     -0.0529309419     0.00139953877    41.2536718      
 1.56481075       0.00140681631    41.4939278       0.998946693     -0.0534601679     0.998946693     -0.0534601679     0.00140681631    41.4939278      
 1.58045885       0.00141418575    41.7342765       0.998945121     -0.0539946848     0.998945121     -0.0539946848     0.00141418575    41.7342765      
 1.59626344       0.00142164815    41.9747002       0.998943542     -0.0545345456     0.998943542     -0.0545345456     0.00142164815    41.9747002      
 1.61222608       0.0014292046     42.2151814       0.998941955     -0.0550798038     0.998941955     -0.0550798038     0.0014292046     42.2151814      
 1.62834834       0.00143685615    42.4557025       0.998940359     -0.0556305132     0.998940359     -0.0556305132     0.00143685615    42.4557025      
 1.64463182       0.00144460391    42.6962459       0.998938756     -0.0561867283     0.998938756     -0.0561867283     0.00144460391    42.6962459      
 1.66107814       0.00145244897    42.9367939       0.998937144     -0.0567485043     0.998937144     -0.0567485043     0.00145244897    42.9367939      
 1.67768892       0.00146039243    43.1773289       0.998935524     -0.0573158966     0.998935524     -0.0573158966     0.00146039243    43.1773289      
 1.69446581       0.00146843541    43.4178333       0.998933896     -0.0578889615     0.998933896     -0.0578889615     0.00146843541    43.4178333      
 1.71141047       0.00147657904    43.6582896       0.99893226      -0.0584677556     0.99893226      -0.0584677556     0.00147657904    43.6582896      
 1.72852457       0.00148482445    43.8986802       0.998930615     -0.0590523362     0.998930615     -0.0590523362     0.00148482445    43.8986802      
 1.74580982       0.00149317279    44.1389876       0.998928962     -0.0596427611     0.998928962     -0.0596427611     0.00149317279    44.1389876      
 1.76326792       0.00150162519    44.3791942       0.9989273       -0.0602390888     0.9989273       -0.0602390888     0.00150162519    44.3791942      
 1.7809006        0.00151018284    44.6192827       0.998925631     -0.0608413782     0.998925631     -0.0608413782     0.00151018284    44.6192827      
 1.7987096        0.0015188469     44.8592356       0.998923952     -0.0614496891     0.998923952     -0.0614496891     0.0015188469     44.8592356      
 1.8166967        0.00152761855    45.0990357       0.998922265     -0.0620640815     0.998922265     -0.0620640815     0.00152761855    45.0990357      
 1.83486367       0.00153649899    45.3386656       0.99892057      -0.0626846162     0.99892057      -0.0626846162     0.00153649899    45.3386656      
 1.8532123        0.00154548941    45.5781082       0.998918866     -0.0633113547     0.998918866     -0.0633113547     0.00154548941    45.5781082      
 1.87174443       0.00155459103    45.8173463       0.998917153     -0.0639443589     0.998917153     -0.0639443589     0.00155459103    45.8173463      
 1.89046187       0.00156380506    46.0563628       0.998915431     -0.0645836915     0.998915431     -0.0645836915     0.00156380506    46.0563628      
 1.90936649       0.00157313274    46.2951409       0.998913701     -0.0652294158     0.998913701     -0.0652294158     0.00157313274    46.2951409      
 1.92846015       0.00158257531    46.5336637       0.998911962     -0.0658815956     0.998911962     -0.0658815956     0.00158257531    46.5336637      
 1.94774475       0.00159213402    46.7719143       0.998910214     -0.0665402955     0.998910214     -0.0665402955     0.00159213402    46.7719143      
 1.9672222        0.00160181013    47.0098762       0.998908457     -0.0672055807     0.998908457     -0.0672055807     0.00160181013    47.0098762      
 1.98689442       0.00161160491    47.2475327       0.998906691     -0.0678775169     0.998906691     -0.0678775169     0.00161160491    47.2475327      
 2.00676337       0.00162151964    47.4848675       0.998904917     -0.0685561706     0.998904917     -0.0685561706     0.00162151964    47.4848675      
 2.026831         0.00163155562    47.7218642       0.998903133     -0.0692416091     0.998903133     -0.0692416091     0.00163155562    47.7218642      
 2.04709931       0.00164171415    47.9585066       0.99890134      -0.0699339001     0.99890134      -0.0699339001     0.00164171415    47.9585066      
 2.06757031       0.00165199654    48.1947787       0.998899537     -0.0706331121     0.998899537     -0.0706331121     0.00165199654    48.1947787      
 2.08824601       0.00166240412    48.4306645       0.998897726     -0.0713393143     0.998897726     -0.0713393143     0.00166240412    48.4306645      
 2.10912847       0.00167293822    48.6661483       0.998895905     -0.0720525766     0.998895905     -0.0720525766     0.00167293822    48.6661483      
 2.13021975       0.00168360018    48.9012143       0.998894076     -0.0727729695     0.998894076     -0.0727729695     0.00168360018    48.9012143      
 2.15152195       0.00169439137    49.1358472       0.998892236     -0.0735005644     0.998892236     -0.0735005644     0.00169439137    49.1358472      
 2.17303717       0.00170531314    49.3700315       0.998890388     -0.0742354332     0.998890388     -0.0742354332     0.00170531314    49.3700315      
 2.19476754       0.00171636689    49.6037521       0.998888529     -0.0749776486     0.998888529     -0.0749776486     0.00171636689    49.6037521      
 2.21671522       0.001727554      49.836994        0.998886662     -0.075727284      0.998886662     -0.075727284      0.001727554      49.836994       
 2.23888237       0.00173887587    50.0697423       0.998884784     -0.0764844137     0.998884784     -0.0764844137     0.00173887587    50.0697423      
 2.26127119       0.00175033391    50.3019824       0.998882897     -0.0772491125     0.998882897     -0.0772491125     0.00175033391    50.3019824      
 2.2838839        0.00176192955    50.5336996       0.998881001     -0.078021456      0.998881001     -0.078021456      0.00176192955    50.5336996      
 2.30672274       0.00177366423    50.7648799       0.998879095     -0.0788015208     0.998879095     -0.0788015208     0.00177366423    50.7648799      
 2.32978997       0.0017855394     50.9955089       0.998877179     -0.079589384      0.998877179     -0.079589384      0.0017855394     50.9955089      
 2.35308787       0.0017975565     51.2255727       0.998875253     -0.0803851235     0.998875253     -0.0803851235     0.0017975565     51.2255727      
 2.37661875       0.00180971703    51.4550576       0.998873317     -0.0811888181     0.998873317     -0.0811888181     0.00180971703    51.4550576      
 2.40038494       0.00182202245    51.6839499       0.998871371     -0.0820005472     0.998871371     -0.0820005472     0.00182202245    51.6839499      
 2.42438879       0.00183447428    51.9122364       0.998869415     -0.0828203913     0.998869415     -0.0828203913     0.00183447428    51.9122364      
 2.44863267       0.00184707401    52.1399037       0.99886745      -0.0836484313     0.99886745      -0.0836484313     0.00184707401    52.1399037      
 2.473119         0.00185982317    52.3669391       0.998865474     -0.0844847492     0.998865474     -0.0844847492     0.00185982317    52.3669391      
 2.49785019       0.00187272329    52.5933295       0.998863488     -0.0853294279     0.998863488     -0.0853294279     0.00187272329    52.5933295      
 2.52282869       0.00188577593    52.8190626       0.998861491     -0.0861825507     0.998861491     -0.0861825507     0.00188577593    52.8190626      
 2.54805698       0.00189898263    53.0441259       0.998859485     -0.0870442022     0.998859485     -0.0870442022     0.00189898263    53.0441259      
 2.57353755       0.00191234498    53.2685073       0.998857468     -0.0879144675     0.998857468     -0.0879144675     0.00191234498    53.2685073      
 2.59927293       0.00192586456    53.4921949       0.99885544      -0.0887934329     0.99885544      -0.0887934329     0.00192586456    53.4921949      
 2.62526565       0.00193954297    53.7151769       0.998853403     -0.0896811852     0.998853403     -0.0896811852     0.00193954297    53.7151769      
 2.65151831       0.00195338182    53.9374418       0.998851354     -0.0905778122     0.998851354     -0.0905778122     0.00195338182    53.9374418      
 2.67803349       0.00196738274    54.1589783       0.998849295     -0.0914834027     0.998849295     -0.0914834027     0.00196738274    54.1589783      
 2.70481383       0.00198154738    54.3797754       0.998847226     -0.0923980463     0.998847226     -0.0923980463     0.00198154738    54.3797754      
 2.73186197       0.00199587738    54.5998222       0.998845146     -0.0933218334     0.998845146     -0.0933218334     0.00199587738    54.5998222      
 2.75918059       0.00201037442    54.819108        0.998843055     -0.0942548555     0.998843055     -0.0942548555     0.00201037442    54.819108       
 2.78677239       0.00202504018    55.0376226       0.998840953     -0.0951972048     0.998840953     -0.0951972048     0.00202504018    55.0376226      
 2.81464012       0.00203987635    55.2553556       0.99883884      -0.0961489747     0.99883884      -0.0961489747     0.00203987635    55.2553556      
 2.84278652       0.00205488465    55.4722972       0.998836717     -0.0971102591     0.998836717     -0.0971102591     0.00205488465    55.4722972      
 2.87121438       0.00207006681    55.6884376       0.998834582     -0.0980811533     0.998834582     -0.0980811533     0.00207006681    55.6884376      
 2.89992653       0.00208542456    55.9037673       0.998832436     -0.0990617532     0.998832436     -0.0990617532     0.00208542456    55.9037673      
 2.92892579       0.00210095967    56.118277        0.998830279     -0.100052156      0.998830279     -0.100052156      0.00210095967    56.118277       
 2.95821505       0.00211667391    56.3319577       0.998828111     -0.101052459      0.998828111     -0.101052459      0.00211667391    56.3319577      
 2.9877972        0.00213256906    56.5448005       0.998825932     -0.102062763      0.998825932     -0.102062763      0.00213256906    56.5448005      
 3.01767517       0.00214864693    56.7567969       0.998823741     -0.103083166      0.998823741     -0.103083166      0.00214864693    56.7567969      
 3.04785192       0.00216490933    56.9679384       0.998821539     -0.104113769      0.998821539     -0.104113769      0.00216490933    56.9679384      
 3.07833044       0.00218135811    57.178217        0.998819326     -0.105154675      0.998819326     -0.105154675      0.00218135811    57.178217       
 3.10911375       0.00219799511    57.3876246       0.9988171       -0.106205987      0.9988171       -0.106205987      0.00219799511    57.3876246      
 3.14020489       0.0022148222     57.5961536       0.998814864     -0.107267808      0.998814864     -0.107267808      0.0022148222     57.5961536      
 3.17160693       0.00223184126    57.8037965       0.998812615     -0.108340244      0.998812615     -0.108340244      0.00223184126    57.8037965      
 3.203323         0.00224905421    58.0105461       0.998810355     -0.109423401      0.998810355     -0.109423401      0.00224905421    58.0105461      
 3.23535623       0.00226646294    58.2163954       0.998808084     -0.110517385      0.998808084     -0.110517385      0.00226646294    58.2163954      
 3.2677098        0.0022840694     58.4213375       0.9988058       -0.111622305      0.9988058       -0.111622305      0.0022840694     58.4213375      
 3.30038689       0.00230187555    58.6253658       0.998803504     -0.112738271      0.998803504     -0.112738271      0.00230187555    58.6253658      
 3.33339076       0.00231988334    58.828474        0.998801196     -0.113865393      0.998801196     -0.113865393      0.00231988334    58.828474       
 3.36672467       0.00233809477    59.0306559       0.998798877     -0.115003781      0.998798877     -0.115003781      0.00233809477    59.0306559      
 3.40039192       0.00235651184    59.2319056       0.998796545     -0.11615355       0.998796545     -0.11615355       0.00235651184    59.2319056      
 3.43439584       0.00237513658    59.4322175       0.998794201     -0.117314812      0.998794201     -0.117314812      0.00237513658    59.4322175      
 3.4687398        0.00239397102    59.6315859       0.998791844     -0.118487683      0.998791844     -0.118487683      0.00239397102    59.6315859      
 3.50342719       0.00241301723    59.8300056       0.998789475     -0.119672278      0.998789475     -0.119672278      0.00241301723    59.8300056      
