# MHz           S          MA           R         50
!Freq             MagS11           AngS11           MagS21           AngS21           MagS12           AngS12           MagS22           AngS22
 1                0.000689122541   30.6627575       0.99940729      -0.0201480515     0.99940729      -0.0201480515     0.000689122541   30.6627575      
 1.01             0.000691491861   30.8851061       0.999406626     -0.0203495185     0.999406626     -0.0203495185     0.000691491861   30.8851061      
 1.0201           0.000693892547   31.1082736       0.999405959     -0.020553         0.999405959     -0.020553         0.000693892547   31.1082736      
 1.030301         0.000696325016   31.3322486       0.999405288     -0.0207585161     0.999405288     -0.0207585161     0.000696325016   31.3322486      
 1.04060401       0.000698789696   31.5570195       0.999404614     -0.0209660871     0.999404614     -0.0209660871     0.000698789696   31.5570195      
 1.05101005       0.000701287013   31.7825744       0.999403937     -0.0211757337     0.999403937     -0.0211757337     0.000701287013   31.7825744      
 1.06152015       0.000703817402   32.008901        0.999403257     -0.0213874764     0.999403257     -0.0213874764     0.000703817402   32.008901       
 1.07213535       0.0007063813     32.2359871       0.999402573     -0.0216013364     0.999402573     -0.0216013364     0.0007063813     32.2359871      
 1.08285671       0.000708979151   32.46382         0.999401885     -0.0218173348     0.999401885     -0.0218173348     0.000708979151   32.46382        
 1.09368527       0.000711611401   32.6923868       0.999401194     -0.0220354929     0.999401194     -0.0220354929     0.000711611401   32.6923868      
 1.10462213       0.000714278502   32.9216746       0.9994005       -0.0222558324     0.9994005       -0.0222558324     0.000714278502   32.9216745      
 1.11566835       0.00071698091    33.1516699       0.999399802     -0.0224783751     0.999399802     -0.0224783751     0.00071698091    33.1516699      
 1.12682503       0.000719719086   33.3823593       0.999399101     -0.0227031429     0.999399101     -0.0227031429     0.000719719086   33.3823593      
 1.13809328       0.000722493496   33.6137291       0.999398396     -0.0229301582     0.999398396     -0.0229301582     0.000722493496   33.6137291      
 1.14947421       0.00072530461    33.8457652       0.999397687     -0.0231594433     0.999397687     -0.0231594433     0.00072530461    33.8457652      
 1.16096896       0.000728152903   34.0784536       0.999396975     -0.0233910211     0.999396975     -0.0233910211     0.000728152903   34.0784536      
 1.17257864       0.000731038854   34.3117797       0.99939626      -0.0236249144     0.99939626      -0.0236249144     0.000731038854   34.3117797      
 1.18430443       0.000733962947   34.5457291       0.999395541     -0.0238611464     0.999395541     -0.0238611464     0.000733962947   34.5457291      
 1.19614748       0.000736925672   34.780287        0.999394818     -0.0240997405     0.999394818     -0.0240997405     0.000736925672   34.780287       
 1.20810895       0.000739927522   35.0154382       0.999394091     -0.0243407202     0.999394091     -0.0243407202     0.000739927522   35.0154382      
 1.22019004       0.000742968996   35.2511678       0.999393361     -0.0245841095     0.999393361     -0.0245841095     0.000742968996   35.2511678      
 1.23239194       0.000746050596   35.4874602       0.999392628     -0.0248299324     0.999392628     -0.0248299324     0.000746050596   35.4874602      
 1.24471586       0.000749172832   35.7242999       0.99939189      -0.0250782132     0.99939189      -0.0250782132     0.000749172832   35.7242999      
 1.25716302       0.000752336215   35.9616711       0.999391149     -0.0253289766     0.999391149     -0.0253289766     0.000752336215   35.9616711      
 1.26973465       0.000755541264   36.199558        0.999390404     -0.0255822473     0.999390404     -0.0255822473     0.000755541264   36.199558       
 1.282432         0.000758788501   36.4379444       0.999389656     -0.0258380504     0.999389656     -0.0258380504     0.000758788501   36.4379444      
 1.29525631       0.000762078453   36.6768141       0.999388903     -0.0260964113     0.999388903     -0.0260964113     0.000762078453   36.6768141      
 1.30820888       0.000765411652   36.9161506       0.999388147     -0.0263573555     0.999388147     -0.0263573555     0.000765411652   36.9161506      
 1.32129097       0.000768788635   37.1559373       0.999387387     -0.0266209089     0.999387387     -0.0266209089     0.000768788635   37.1559373      
 1.33450388       0.000772209946   37.3961574       0.999386624     -0.0268870974     0.999386624     -0.0268870974     0.000772209946   37.3961574      
 1.34784892       0.000775676129   37.6367941       0.999385856     -0.0271559476     0.999385856     -0.0271559476     0.000775676129   37.6367941      
 1.3613274        0.000779187738   37.8778304       0.999385085     -0.0274274859     0.999385085     -0.0274274859     0.000779187738   37.8778304      
 1.37494068       0.000782745328   38.1192491       0.999384309     -0.0277017393     0.999384309     -0.0277017393     0.000782745328   38.1192491      
 1.38869009       0.000786349463   38.3610328       0.99938353      -0.0279787349     0.99938353      -0.0279787349     0.000786349463   38.3610328      
 1.40257699       0.000790000708   38.6031641       0.999382747     -0.0282585002     0.999382747     -0.0282585001     0.000790000708   38.6031641      
 1.41660276       0.000793699635   38.8456255       0.99938196      -0.0285410627     0.99938196      -0.0285410627     0.000793699635   38.8456255      
 1.43076878       0.000797446822   39.0883993       0.999381169     -0.0288264505     0.999381169     -0.0288264505     0.000797446822   39.0883993      
 1.44507647       0.000801242849   39.3314678       0.999380374     -0.0291146919     0.999380374     -0.0291146919     0.000801242849   39.3314678      
 1.45952724       0.000805088304   39.5748131       0.999379575     -0.0294058154     0.999379575     -0.0294058154     0.000805088304   39.5748131      
 1.47412251       0.000808983779   39.8184172       0.999378772     -0.0296998497     0.999378772     -0.0296998497     0.000808983779   39.8184172      
 1.48886373       0.000812929871   40.062262        0.999377965     -0.029996824      0.999377965     -0.029996824      0.000812929871   40.062262       
 1.50375237       0.000816927182   40.3063295       0.999377154     -0.0302967677     0.999377154     -0.0302967677     0.000816927182   40.3063295      
 1.51878989       0.00082097632    40.5506014       0.999376338     -0.0305997104     0.999376338     -0.0305997104     0.00082097632    40.5506013      
 1.53397779       0.000825077896   40.7950594       0.999375519     -0.0309056822     0.999375519     -0.0309056822     0.000825077896   40.7950594      
 1.54931757       0.00082923253    41.0396852       0.999374696     -0.0312147134     0.999374696     -0.0312147134     0.00082923253    41.0396852      
 1.56481075       0.000833440843   41.2844605       0.999373868     -0.0315268345     0.999373868     -0.0315268345     0.000833440843   41.2844605      
 1.58045885       0.000837703463   41.5293668       0.999373036     -0.0318420763     0.999373036     -0.0318420763     0.000837703463   41.5293668      
 1.59626344       0.000842021025   41.7743856       0.9993722       -0.0321604702     0.9993722       -0.0321604702     0.000842021025   41.7743856      
 1.61222608       0.000846394167   42.0194983       0.99937136      -0.0324820477     0.99937136      -0.0324820477     0.000846394167   42.0194983      
 1.62834834       0.000850823532   42.2646866       0.999370515     -0.0328068405     0.999370515     -0.0328068405     0.000850823532   42.2646866      
 1.64463182       0.00085530977    42.5099317       0.999369667     -0.0331348808     0.999369667     -0.0331348808     0.00085530977    42.5099317      
 1.66107814       0.000859853537   42.7552151       0.999368814     -0.0334662011     0.999368814     -0.0334662011     0.000859853537   42.7552151      
 1.67768892       0.000864455491   43.0005183       0.999367957     -0.0338008342     0.999367957     -0.0338008342     0.000864455491   43.0005183      
 1.69446581       0.000869116299   43.2458227       0.999367095     -0.0341388131     0.999367095     -0.0341388131     0.000869116299   43.2458227      
 1.71141047       0.000873836631   43.4911097       0.999366229     -0.0344801714     0.999366229     -0.0344801714     0.000873836631   43.4911097      
 1.72852457       0.000878617164   43.7363607       0.999365359     -0.0348249429     0.999365359     -0.0348249429     0.000878617164   43.7363607      
 1.74580982       0.000883458579   43.9815573       0.999364484     -0.0351731616     0.999364484     -0.0351731616     0.000883458579   43.9815573      
 1.76326792       0.000888361564   44.2266809       0.999363605     -0.035524862      0.999363605     -0.035524862      0.000888361564   44.2266809      
 1.7809006        0.000893326812   44.471713        0.999362721     -0.035880079      0.999362721     -0.035880079      0.000893326812   44.471713       
 1.7987096        0.000898355022   44.7166353       0.999361833     -0.0362388476     0.999361833     -0.0362388476     0.000898355022   44.7166353      
 1.8166967        0.000903446897   44.9614293       0.999360941     -0.0366012035     0.999360941     -0.0366012035     0.000903446897   44.9614293      
 1.83486367       0.000908603148   45.2060767       0.999360044     -0.0369671824     0.999360044     -0.0369671824     0.000908603148   45.2060767      
 1.8532123        0.000913824491   45.4505594       0.999359142     -0.0373368206     0.999359142     -0.0373368206     0.000913824491   45.4505594      
 1.87174443       0.000919111646   45.694859        0.999358236     -0.0377101547     0.999358236     -0.0377101547     0.000919111646   45.694859       
 1.89046187       0.00092446534    45.9389575       0.999357325     -0.0380872216     0.999357325     -0.0380872216     0.00092446534    45.9389575      
 1.90936649       0.000929886307   46.182837        0.99935641      -0.0384680587     0.99935641      -0.0384680587     0.000929886307   46.182837       
 1.92846015       0.000935375286   46.4264793       0.99935549      -0.0388527036     0.99935549      -0.0388527036     0.000935375286   46.4264793      
 1.94774475       0.00094093302    46.6698667       0.999354565     -0.0392411944     0.999354565     -0.0392411944     0.00094093302    46.6698667      
 1.9672222        0.000946560261   46.9129815       0.999353636     -0.0396335695     0.999353636     -0.0396335695     0.000946560261   46.9129815      
 1.98689442       0.000952257766   47.1558061       0.999352702     -0.0400298679     0.999352702     -0.0400298679     0.000952257766   47.1558061      
 2.00676337       0.000958026296   47.3983228       0.999351763     -0.0404301287     0.999351763     -0.0404301287     0.000958026296   47.3983228      
 2.026831         0.000963866621   47.6405144       0.99935082      -0.0408343915     0.99935082      -0.0408343915     0.000963866621   47.6405144      
 2.04709931       0.000969779515   47.8823635       0.999349871     -0.0412426964     0.999349871     -0.0412426964     0.000969779515   47.8823635      
 2.06757031       0.000975765761   48.123853        0.999348918     -0.0416550838     0.999348918     -0.0416550838     0.000975765761   48.123853       
 2.08824601       0.000981826144   48.364966        0.99934796      -0.0420715944     0.99934796      -0.0420715944     0.000981826144   48.364966       
 2.10912847       0.000987961458   48.6056855       0.999346998     -0.0424922695     0.999346998     -0.0424922695     0.000987961458   48.6056855      
 2.13021975       0.000994172504   48.8459949       0.99934603      -0.0429171507     0.99934603      -0.0429171507     0.000994172504   48.8459949      
 2.15152195       0.00100046009    49.0858776       0.999345058     -0.0433462801     0.999345058     -0.0433462801     0.00100046009    49.0858776      
 2.17303717       0.00100682502    49.3253172       0.99934408      -0.0437797002     0.99934408      -0.0437797002     0.00100682502    49.3253172      
 2.19476754       0.00101326812    49.5642975       0.999343098     -0.0442174539     0.999343098     -0.0442174539     0.00101326812    49.5642975      
 2.21671522       0.00101979022    49.8028024       0.99934211      -0.0446595844     0.99934211      -0.0446595844     0.00101979022    49.8028024      
 2.23888237       0.00102639215    50.0408161       0.999341118     -0.0451061356     0.999341118     -0.0451061356     0.00102639215    50.0408161      
 2.26127119       0.00103307474    50.2783228       0.99934012      -0.0455571516     0.99934012      -0.0455571516     0.00103307474    50.2783228      
 2.2838839        0.00103983885    50.515307        0.999339118     -0.0460126771     0.999339118     -0.0460126771     0.00103983885    50.515307       
 2.30672274       0.00104668532    50.7517534       0.99933811      -0.0464727572     0.99933811      -0.0464727572     0.00104668532    50.7517534      
 2.32978997       0.00105361501    50.9876468       0.999337097     -0.0469374373     0.999337097     -0.0469374373     0.00105361501    50.9876468      
 2.35308787       0.0010606288     51.2229724       0.999336079     -0.0474067635     0.999336079     -0.0474067635     0.0010606288     51.2229724      
 2.37661875       0.00106772755    51.4577152       0.999335056     -0.0478807823     0.999335056     -0.0478807823     0.00106772755    51.4577152      
 2.40038494       0.00107491214    51.6918609       0.999334028     -0.0483595405     0.999334028     -0.0483595405     0.00107491214    51.6918609      
 2.42438879       0.00108218347    51.925395        0.999332995     -0.0488430856     0.999332995     -0.0488430856     0.00108218347    51.925395       
 2.44863267       0.00108954243    52.1583034       0.999331956     -0.0493314653     0.999331956     -0.0493314653     0.00108954243    52.1583034      
 2.473119         0.00109698991    52.3905722       0.999330912     -0.0498247281     0.999330912     -0.0498247281     0.00109698991    52.3905722      
 2.49785019       0.00110452684    52.6221877       0.999329862     -0.0503229227     0.999329862     -0.0503229227     0.00110452684    52.6221877      
 2.52282869       0.00111215412    52.8531364       0.999328808     -0.0508260984     0.999328808     -0.0508260984     0.00111215412    52.8531364      
 2.54805698       0.00111987268    53.0834051       0.999327748     -0.0513343051     0.999327748     -0.0513343051     0.00111987268    53.0834051      
 2.57353755       0.00112768346    53.3129807       0.999326682     -0.0518475931     0.999326682     -0.0518475931     0.00112768346    53.3129807      
 2.59927293       0.00113558739    53.5418504       0.999325611     -0.0523660131     0.999325611     -0.0523660131     0.00113558739    53.5418504      
 2.62526565       0.00114358542    53.7700016       0.999324535     -0.0528896165     0.999324535     -0.0528896165     0.00114358542    53.7700016      
 2.65151831       0.0011516785     53.997422        0.999323453     -0.053418455      0.999323453     -0.053418455      0.0011516785     53.997422       
 2.67803349       0.00115986761    54.2240995       0.999322365     -0.0539525811     0.999322365     -0.0539525811     0.00115986761    54.2240995      
 2.70481383       0.00116815371    54.4500221       0.999321272     -0.0544920475     0.999321272     -0.0544920475     0.00116815371    54.4500221      
 2.73186197       0.00117653777    54.6751783       0.999320174     -0.0550369077     0.999320174     -0.0550369077     0.00117653777    54.6751783      
 2.75918059       0.0011850208     54.8995566       0.99931907      -0.0555872156     0.99931907      -0.0555872156     0.0011850208     54.8995566      
 2.78677239       0.00119360378    55.1231458       0.99931796      -0.0561430256     0.99931796      -0.0561430256     0.00119360378    55.1231458      
 2.81464012       0.00120228772    55.3459351       0.999316844     -0.0567043928     0.999316844     -0.0567043928     0.00120228772    55.3459351      
 2.84278652       0.00121107363    55.5679137       0.999315723     -0.0572713728     0.999315723     -0.0572713728     0.00121107363    55.5679137      
 2.87121438       0.00121996253    55.7890712       0.999314596     -0.0578440215     0.999314596     -0.0578440215     0.00121996253    55.7890712      
 2.89992653       0.00122895546    56.0093974       0.999313463     -0.0584223958     0.999313463     -0.0584223958     0.00122895546    56.0093974      
 2.92892579       0.00123805345    56.2288822       0.999312325     -0.0590065528     0.999312325     -0.0590065528     0.00123805345    56.2288822      
 2.95821505       0.00124725755    56.4475161       0.999311181     -0.0595965504     0.999311181     -0.0595965504     0.00124725755    56.4475161      
 2.9877972        0.00125656882    56.6652896       0.99931003      -0.0601924469     0.99931003      -0.0601924469     0.00125656882    56.6652896      
 3.01767517       0.00126598832    56.8821933       0.999308874     -0.0607943013     0.999308874     -0.0607943013     0.00126598832    56.8821933      
 3.04785192       0.00127551714    57.0982184       0.999307712     -0.0614021732     0.999307712     -0.0614021732     0.00127551714    57.0982183      
 3.07833044       0.00128515634    57.313356        0.999306544     -0.0620161228     0.999306544     -0.0620161228     0.00128515634    57.313356       
 3.10911375       0.00129490704    57.5275977       0.99930537      -0.0626362108     0.99930537      -0.0626362108     0.00129490704    57.5275977      
 3.14020489       0.00130477032    57.7409352       0.99930419      -0.0632624985     0.99930419      -0.0632624985     0.00130477032    57.7409352      
 3.17160693       0.00131474732    57.9533605       0.999303004     -0.063895048      0.999303004     -0.063895048      0.00131474732    57.9533605      
 3.203323         0.00132483913    58.1648659       0.999301812     -0.0645339219     0.999301812     -0.0645339219     0.00132483913    58.1648659      
 3.23535623       0.00133504691    58.3754438       0.999300614     -0.0651791833     0.999300614     -0.0651791833     0.00133504691    58.3754438      
 3.2677098        0.00134537179    58.5850868       0.999299409     -0.0658308962     0.999299409     -0.0658308962     0.00134537179    58.5850868      
 3.30038689       0.00135581493    58.7937881       0.999298198     -0.066489125      0.999298198     -0.066489125      0.00135581493    58.7937881      
 3.33339076       0.00136637748    59.0015407       0.999296981     -0.0671539349     0.999296981     -0.0671539349     0.00136637748    59.0015407      
 3.36672467       0.00137706063    59.208338        0.999295758     -0.0678253916     0.999295758     -0.0678253916     0.00137706063    59.208338       
 3.40039192       0.00138786556    59.4141738       0.999294529     -0.0685035617     0.999294529     -0.0685035617     0.00138786556    59.4141738      
 3.43439584       0.00139879345    59.6190419       0.999293293     -0.0691885122     0.999293293     -0.0691885122     0.00139879345    59.6190419      
 3.4687398        0.00140984553    59.8229365       0.999292051     -0.0698803109     0.999292051     -0.0698803109     0.00140984553    59.8229365      
 3.50342719       0.00142102299    60.0258518       0.999290802     -0.0705790263     0.999290802     -0.0705790263     0.00142102299    60.0258518      
