# MHz           S          MA           R         50
!Freq             MagS11           AngS11           MagS21           AngS21           MagS12           AngS12           MagS22           AngS22
 1                0.000573598005   15.8754792       0.999448292     -0.00899503471    0.999448292     -0.00899503471    0.000573598005   15.8754792      
 1.01             0.000574374423   16.0162162       0.999447933     -0.00908498179    0.999447933     -0.00908498179    0.000574374423   16.0162162      
 1.0201           0.00057516039    16.1580236       0.999447573     -0.00917582829    0.999447573     -0.00917582829    0.00057516039    16.1580236      
 1.030301         0.000575956053   16.3009055       0.99944721      -0.00926758322    0.99944721      -0.00926758322    0.000575956053   16.3009055      
 1.04060401       0.000576761561   16.4448659       0.999446846     -0.00936025564    0.999446846     -0.00936025564    0.000576761561   16.4448659      
 1.05101005       0.000577577065   16.5899087       0.999446479     -0.00945385475    0.999446479     -0.00945385475    0.000577577065   16.5899087      
 1.06152015       0.000578402719   16.7360379       0.999446111     -0.00954838979    0.999446111     -0.00954838979    0.000578402719   16.7360379      
 1.07213535       0.000579238677   16.8832572       0.999445742     -0.0096438701     0.999445742     -0.0096438701     0.000579238677   16.8832572      
 1.08285671       0.000580085099   17.0315703       0.99944537      -0.00974030518    0.99944537      -0.00974030518    0.000580085099   17.0315703      
 1.09368527       0.000580942146   17.1809807       0.999444996     -0.00983770455    0.999444996     -0.00983770455    0.000580942146   17.1809807      
 1.10462213       0.000581809979   17.3314919       0.999444621     -0.00993607787    0.999444621     -0.00993607787    0.000581809979   17.3314919      
 1.11566835       0.000582688765   17.4831073       0.999444244     -0.0100354349     0.999444244     -0.0100354349     0.000582688765   17.4831073      
 1.12682503       0.000583578671   17.63583         0.999443864     -0.0101357854     0.999443864     -0.0101357854     0.000583578671   17.63583        
 1.13809328       0.00058447987    17.7896634       0.999443483     -0.0102371393     0.999443483     -0.0102371393     0.00058447987    17.7896634      
 1.14947421       0.000585392533   17.9446104       0.9994431       -0.0103395067     0.9994431       -0.0103395067     0.000585392533   17.9446104      
 1.16096896       0.000586316837   18.1006739       0.999442715     -0.0104428978     0.999442715     -0.0104428978     0.000586316837   18.1006739      
 1.17257864       0.000587252961   18.2578568       0.999442329     -0.0105473227     0.999442329     -0.0105473227     0.000587252961   18.2578568      
 1.18430443       0.000588201085   18.4161616       0.99944194      -0.0106527918     0.99944194      -0.0106527918     0.000588201085   18.4161616      
 1.19614748       0.000589161393   18.575591        0.999441549     -0.0107593155     0.999441549     -0.0107593155     0.000589161393   18.575591       
 1.20810895       0.000590134072   18.7361474       0.999441156     -0.0108669044     0.999441156     -0.0108669044     0.000590134072   18.7361474      
 1.22019004       0.000591119311   18.897833        0.999440762     -0.0109755691     0.999440762     -0.0109755691     0.000591119311   18.897833       
 1.23239194       0.000592117303   19.06065         0.999440365     -0.0110853204     0.999440365     -0.0110853204     0.000592117303   19.06065        
 1.24471586       0.000593128242   19.2246004       0.999439967     -0.0111961692     0.999439967     -0.0111961692     0.000593128242   19.2246004      
 1.25716302       0.000594152327   19.3896862       0.999439566     -0.0113081263     0.999439566     -0.0113081263     0.000594152327   19.3896862      
 1.26973465       0.000595189758   19.5559089       0.999439163     -0.011421203      0.999439163     -0.011421203      0.000595189758   19.5559089      
 1.282432         0.00059624074    19.7232702       0.999438759     -0.0115354103     0.999438759     -0.0115354103     0.000596240739   19.7232702      
 1.29525631       0.000597305477   19.8917715       0.999438352     -0.0116507597     0.999438352     -0.0116507597     0.000597305477   19.8917715      
 1.30820888       0.000598384182   20.061414        0.999437944     -0.0117672625     0.999437944     -0.0117672625     0.000598384182   20.061414       
 1.32129097       0.000599477064   20.232199        0.999437533     -0.0118849302     0.999437533     -0.0118849302     0.000599477064   20.232199       
 1.33450388       0.000600584343   20.4041271       0.99943712      -0.0120037746     0.99943712      -0.0120037746     0.000600584343   20.4041271      
 1.34784892       0.000601706235   20.5771994       0.999436705     -0.0121238073     0.999436705     -0.0121238073     0.000601706235   20.5771994      
 1.3613274        0.000602842962   20.7514163       0.999436288     -0.0122450403     0.999436288     -0.0122450403     0.000602842962   20.7514163      
 1.37494068       0.00060399475    20.9267783       0.999435869     -0.0123674855     0.999435869     -0.0123674855     0.00060399475    20.9267783      
 1.38869009       0.000605161828   21.1032857       0.999435448     -0.0124911551     0.999435448     -0.0124911551     0.000605161828   21.1032857      
 1.40257699       0.000606344427   21.2809385       0.999435025     -0.0126160613     0.999435025     -0.0126160613     0.000606344427   21.2809385      
 1.41660276       0.000607542781   21.4597366       0.9994346       -0.0127422165     0.9994346       -0.0127422165     0.000607542781   21.4597366      
 1.43076878       0.000608757129   21.6396796       0.999434172     -0.0128696332     0.999434172     -0.0128696332     0.000608757129   21.6396796      
 1.44507647       0.000609987712   21.8207673       0.999433743     -0.0129983239     0.999433743     -0.0129983239     0.000609987711   21.8207673      
 1.45952724       0.000611234774   22.0029987       0.999433311     -0.0131283015     0.999433311     -0.0131283015     0.000611234774   22.0029987      
 1.47412251       0.000612498565   22.1863732       0.999432877     -0.0132595787     0.999432877     -0.0132595787     0.000612498565   22.1863732      
 1.48886373       0.000613779336   22.3708894       0.999432441     -0.0133921687     0.999432441     -0.0133921687     0.000613779336   22.3708894      
 1.50375237       0.00061507734    22.5565463       0.999432003     -0.0135260845     0.999432003     -0.0135260845     0.00061507734    22.5565463      
 1.51878989       0.000616392838   22.7433422       0.999431563     -0.0136613393     0.999431563     -0.0136613393     0.000616392838   22.7433422      
 1.53397779       0.000617726091   22.9312755       0.99943112      -0.0137979466     0.99943112      -0.0137979466     0.000617726091   22.9312755      
 1.54931757       0.000619077364   23.1203444       0.999430675     -0.0139359198     0.999430675     -0.0139359198     0.000619077364   23.1203444      
 1.56481075       0.000620446926   23.3105466       0.999430228     -0.0140752727     0.999430228     -0.0140752727     0.000620446926   23.3105466      
 1.58045885       0.000621835051   23.5018797       0.999429779     -0.0142160191     0.999429779     -0.0142160191     0.000621835051   23.5018797      
 1.59626344       0.000623242015   23.6943413       0.999429327     -0.0143581728     0.999429327     -0.0143581728     0.000623242015   23.6943413      
 1.61222608       0.000624668096   23.8879284       0.999428873     -0.014501748      0.999428873     -0.014501748      0.000624668096   23.8879284      
 1.62834834       0.00062611358    24.0826381       0.999428417     -0.0146467588     0.999428417     -0.0146467588     0.00062611358    24.0826381      
 1.64463182       0.000627578753   24.2784672       0.999427959     -0.0147932196     0.999427959     -0.0147932196     0.000627578753   24.2784672      
 1.66107814       0.000629063907   24.475412        0.999427498     -0.0149411449     0.999427498     -0.0149411449     0.000629063907   24.475412       
 1.67768892       0.000630569337   24.6734689       0.999427035     -0.0150905494     0.999427035     -0.0150905494     0.000630569337   24.6734689      
 1.69446581       0.00063209534    24.8726339       0.99942657      -0.0152414478     0.99942657      -0.0152414478     0.00063209534    24.8726339      
 1.71141047       0.000633642219   25.0729028       0.999426102     -0.0153938551     0.999426102     -0.0153938551     0.000633642219   25.0729028      
 1.72852457       0.000635210282   25.2742712       0.999425632     -0.0155477863     0.999425632     -0.0155477863     0.000635210282   25.2742712      
 1.74580982       0.000636799838   25.4767342       0.99942516      -0.0157032567     0.99942516      -0.0157032567     0.000636799838   25.4767342      
 1.76326792       0.000638411201   25.6802869       0.999424685     -0.0158602818     0.999424685     -0.0158602818     0.000638411201   25.6802869      
 1.7809006        0.00064004469    25.8849242       0.999424208     -0.0160188769     0.999424208     -0.0160188769     0.00064004469    25.8849242      
 1.7987096        0.000641700626   26.0906405       0.999423729     -0.016179058      0.999423729     -0.016179058      0.000641700626   26.0906405      
 1.8166967        0.000643379336   26.2974301       0.999423247     -0.0163408407     0.999423247     -0.0163408407     0.000643379336   26.2974301      
 1.83486367       0.000645081149   26.5052871       0.999422763     -0.0165042411     0.999422763     -0.0165042411     0.000645081149   26.5052871      
 1.8532123        0.000646806401   26.7142051       0.999422276     -0.0166692754     0.999422276     -0.0166692754     0.0006468064     26.7142051      
 1.87174443       0.000648555428   26.9241777       0.999421787     -0.0168359599     0.999421787     -0.0168359599     0.000648555428   26.9241777      
 1.89046187       0.000650328573   27.1351981       0.999421295     -0.0170043112     0.999421295     -0.0170043112     0.000650328573   27.1351981      
 1.90936649       0.000652126184   27.3472592       0.999420801     -0.0171743458     0.999420801     -0.0171743458     0.000652126184   27.3472592      
 1.92846015       0.00065394861    27.5603538       0.999420305     -0.0173460807     0.999420305     -0.0173460807     0.00065394861    27.5603538      
 1.94774475       0.000655796207   27.7744742       0.999419806     -0.0175195327     0.999419806     -0.0175195327     0.000655796207   27.7744742      
 1.9672222        0.000657669332   27.9896126       0.999419304     -0.0176947192     0.999419304     -0.0176947192     0.000657669332   27.9896126      
 1.98689442       0.00065956835    28.2057608       0.9994188       -0.0178716574     0.9994188       -0.0178716574     0.00065956835    28.2057608      
 2.00676337       0.000661493628   28.4229106       0.999418294     -0.0180503648     0.999418294     -0.0180503648     0.000661493628   28.4229105      
 2.026831         0.000663445537   28.6410531       0.999417784     -0.0182308592     0.999417784     -0.0182308592     0.000663445537   28.6410531      
 2.04709931       0.000665424453   28.8601795       0.999417273     -0.0184131584     0.999417273     -0.0184131584     0.000665424453   28.8601795      
 2.06757031       0.000667430758   29.0802805       0.999416759     -0.0185972804     0.999416759     -0.0185972804     0.000667430758   29.0802805      
 2.08824601       0.000669464834   29.3013467       0.999416242     -0.0187832435     0.999416242     -0.0187832435     0.000669464834   29.3013467      
 2.10912847       0.000671527072   29.5233683       0.999415722     -0.0189710661     0.999415722     -0.0189710661     0.000671527072   29.5233683      
 2.13021975       0.000673617865   29.7463352       0.9994152       -0.0191607668     0.9994152       -0.0191607668     0.000673617865   29.7463352      
 2.15152195       0.00067573761    29.9702371       0.999414676     -0.0193523643     0.999414676     -0.0193523643     0.00067573761    29.9702371      
 2.17303717       0.000677886709   30.1950634       0.999414148     -0.0195458777     0.999414148     -0.0195458777     0.000677886709   30.1950634      
 2.19476754       0.00068006557    30.4208033       0.999413618     -0.019741326      0.999413618     -0.019741326      0.00068006557    30.4208033      
 2.21671522       0.000682274603   30.6474456       0.999413086     -0.0199387286     0.999413086     -0.0199387286     0.000682274603   30.6474456      
 2.23888237       0.000684514223   30.8749789       0.999412551     -0.0201381051     0.999412551     -0.0201381051     0.000684514223   30.8749789      
 2.26127119       0.000686784851   31.1033915       0.999412013     -0.0203394753     0.999412013     -0.0203394753     0.000686784851   31.1033915      
 2.2838839        0.000689086911   31.3326714       0.999411472     -0.0205428589     0.999411472     -0.0205428589     0.00068908691    31.3326714      
 2.30672274       0.000691420831   31.5628065       0.999410929     -0.0207482762     0.999410929     -0.0207482762     0.000691420831   31.5628065      
 2.32978997       0.000693787046   31.7937841       0.999410383     -0.0209557476     0.999410383     -0.0209557476     0.000693787046   31.7937841      
 2.35308787       0.000696185994   32.0255917       0.999409834     -0.0211652935     0.999409834     -0.0211652935     0.000696185994   32.0255917      
 2.37661875       0.000698618116   32.258216        0.999409282     -0.0213769346     0.999409282     -0.0213769346     0.000698618116   32.258216       
 2.40038494       0.000701083861   32.4916439       0.999408728     -0.021590692      0.999408728     -0.021590692      0.000701083861   32.4916439      
 2.42438879       0.00070358368    32.7258618       0.999408171     -0.0218065868     0.999408171     -0.0218065868     0.00070358368    32.7258618      
 2.44863267       0.00070611803    32.9608559       0.999407611     -0.0220246403     0.999407611     -0.0220246403     0.00070611803    32.9608559      
 2.473119         0.000708687371   33.1966121       0.999407048     -0.0222448742     0.999407048     -0.0222448743     0.000708687371   33.1966121      
 2.49785019       0.00071129217    33.4331161       0.999406482     -0.0224673103     0.999406482     -0.0224673103     0.00071129217    33.433116       
 2.52282869       0.000713932896   33.6703533       0.999405914     -0.0226919705     0.999405914     -0.0226919705     0.000713932896   33.6703533      
 2.54805698       0.000716610024   33.9083089       0.999405343     -0.0229188771     0.999405343     -0.0229188772     0.000716610024   33.9083089      
 2.57353755       0.000719324035   34.1469679       0.999404769     -0.0231480527     0.999404769     -0.0231480527     0.000719324035   34.1469679      
 2.59927293       0.000722075413   34.386315        0.999404192     -0.0233795197     0.999404192     -0.0233795197     0.000722075413   34.386315       
 2.62526565       0.000724864646   34.6263346       0.999403612     -0.0236133012     0.999403612     -0.0236133012     0.000724864646   34.6263346      
 2.65151831       0.000727692229   34.8670109       0.999403029     -0.0238494204     0.999403029     -0.0238494204     0.000727692229   34.8670109      
 2.67803349       0.00073055866    35.1083281       0.999402443     -0.0240879005     0.999402443     -0.0240879005     0.00073055866    35.1083281      
 2.70481383       0.000733464442   35.3502698       0.999401854     -0.0243287652     0.999401854     -0.0243287652     0.000733464442   35.3502698      
 2.73186197       0.000736410084   35.5928197       0.999401263     -0.0245720383     0.999401263     -0.0245720383     0.000736410084   35.5928197      
 2.75918059       0.000739396098   35.8359611       0.999400668     -0.024817744      0.999400668     -0.024817744      0.000739396098   35.8359611      
 2.78677239       0.000742423001   36.079677        0.99940007      -0.0250659065     0.99940007      -0.0250659065     0.000742423001   36.079677       
 2.81464012       0.000745491317   36.3239506       0.99939947      -0.0253165503     0.99939947      -0.0253165503     0.000745491317   36.3239506      
 2.84278652       0.000748601573   36.5687645       0.999398866     -0.0255697004     0.999398866     -0.0255697004     0.000748601573   36.5687645      
 2.87121438       0.000751754299   36.8141012       0.999398259     -0.0258253818     0.999398259     -0.0258253818     0.000751754299   36.8141012      
 2.89992653       0.000754950034   37.0599432       0.999397649     -0.0260836197     0.999397649     -0.0260836197     0.000754950034   37.0599432      
 2.92892579       0.000758189319   37.3062725       0.999397036     -0.0263444398     0.999397036     -0.0263444398     0.000758189319   37.3062725      
 2.95821505       0.000761472701   37.5530713       0.99939642      -0.0266078679     0.99939642      -0.0266078679     0.000761472701   37.5530713      
 2.9877972        0.00076480073    37.8003213       0.999395801     -0.0268739299     0.999395801     -0.0268739299     0.00076480073    37.8003213      
 3.01767517       0.000768173963   38.0480042       0.999395179     -0.0271426524     0.999395179     -0.0271426524     0.000768173963   38.0480042      
 3.04785192       0.000771592962   38.2961015       0.999394554     -0.0274140618     0.999394554     -0.0274140618     0.000771592962   38.2961015      
 3.07833044       0.000775058292   38.5445945       0.999393925     -0.0276881851     0.999393925     -0.0276881851     0.000775058292   38.5445945      
 3.10911375       0.000778570524   38.7934645       0.999393294     -0.0279650493     0.999393294     -0.0279650493     0.000778570524   38.7934645      
 3.14020489       0.000782130235   39.0426926       0.999392659     -0.0282446819     0.999392659     -0.0282446819     0.000782130235   39.0426926      
 3.17160693       0.000785738005   39.2922597       0.999392021     -0.0285271105     0.999392021     -0.0285271105     0.000785738005   39.2922597      
 3.203323         0.00078939442    39.5421465       0.99939138      -0.0288123632     0.99939138      -0.0288123632     0.00078939442    39.5421465      
 3.23535623       0.00079310007    39.7923339       0.999390735     -0.0291004681     0.999390735     -0.0291004681     0.00079310007    39.7923339      
 3.2677098        0.000796855553   40.0428023       0.999390088     -0.0293914538     0.999390088     -0.0293914538     0.000796855552   40.0428023      
 3.30038689       0.000800661467   40.2935324       0.999389437     -0.0296853491     0.999389437     -0.0296853491     0.000800661467   40.2935324      
 3.33339076       0.00080451842    40.5445044       0.999388782     -0.029982183      0.999388782     -0.029982183      0.00080451842    40.5445044      
 3.36672467       0.000808427021   40.7956987       0.999388125     -0.030281985      0.999388125     -0.030281985      0.000808427021   40.7956987      
 3.40039192       0.000812387888   41.0470955       0.999387464     -0.0305847846     0.999387464     -0.0305847846     0.000812387888   41.0470955      
 3.43439584       0.00081640164    41.2986749       0.9993868       -0.030890612      0.9993868       -0.030890612      0.00081640164    41.2986749      
 3.4687398        0.000820468903   41.5504171       0.999386132     -0.0311994974     0.999386132     -0.0311994974     0.000820468903   41.5504171      
 3.50342719       0.00082459031    41.8023021       0.999385461     -0.0315114713     0.999385461     -0.0315114713     0.00082459031    41.8023021      
