# MHz           S          MA           R         50
!Freq             MagS11           AngS11           MagS21           AngS21           MagS12           AngS12           MagS22           AngS22
 1                0.000542234248   26.8385919       0.999516204     -0.0140332077     0.999516204     -0.0140332077     0.000542234248   26.8385919      
 1.01             0.000543717604   27.0487869       0.999515785     -0.0141735339     0.999515785     -0.0141735339     0.000543717604   27.0487869      
 1.0201           0.000545221326   27.2600201       0.999515364     -0.0143152632     0.999515364     -0.0143152632     0.000545221326   27.2600201      
 1.030301         0.000546745705   27.4722844       0.99951494      -0.0144584097     0.99951494      -0.0144584097     0.000546745705   27.4722844      
 1.04060401       0.000548291034   27.6855723       0.999514515     -0.0146029876     0.999514515     -0.0146029876     0.000548291034   27.6855723      
 1.05101005       0.000549857613   27.8998762       0.999514087     -0.0147490111     0.999514087     -0.0147490111     0.000549857613   27.8998762      
 1.06152015       0.000551445743   28.1151879       0.999513658     -0.0148964948     0.999513658     -0.0148964948     0.000551445743   28.1151879      
 1.07213535       0.000553055731   28.3314992       0.999513226     -0.0150454533     0.999513226     -0.0150454533     0.000553055731   28.3314992      
 1.08285671       0.000554687884   28.5488018       0.999512792     -0.0151959012     0.999512792     -0.0151959012     0.000554687884   28.5488018      
 1.09368527       0.000556342517   28.7670866       0.999512355     -0.0153478536     0.999512355     -0.0153478536     0.000556342517   28.7670866      
 1.10462213       0.000558019943   28.9863448       0.999511917     -0.0155013253     0.999511917     -0.0155013253     0.000558019943   28.9863448      
 1.11566835       0.000559720484   29.2065668       0.999511476     -0.0156563317     0.999511476     -0.0156563317     0.000559720484   29.2065668      
 1.12682503       0.000561444463   29.4277432       0.999511033     -0.015812888      0.999511033     -0.015812888      0.000561444463   29.4277432      
 1.13809328       0.000563192208   29.649864        0.999510588     -0.0159710098     0.999510588     -0.0159710098     0.000563192208   29.649864       
 1.14947421       0.000564964047   29.872919        0.999510141     -0.0161307126     0.999510141     -0.0161307126     0.000564964047   29.8729191      
 1.16096896       0.000566760318   30.0968979       0.999509692     -0.0162920124     0.999509692     -0.0162920124     0.000566760318   30.0968979      
 1.17257864       0.000568581356   30.3217899       0.99950924      -0.0164549252     0.99950924      -0.0164549252     0.000568581356   30.3217899      
 1.18430443       0.000570427504   30.547584        0.999508786     -0.0166194669     0.999508786     -0.0166194669     0.000570427504   30.547584       
 1.19614748       0.000572299107   30.7742691       0.999508329     -0.0167856539     0.999508329     -0.0167856539     0.000572299107   30.7742691      
 1.20810895       0.000574196515   31.0018336       0.999507871     -0.0169535026     0.999507871     -0.0169535026     0.000574196515   31.0018336      
 1.22019004       0.000576120081   31.2302656       0.99950741      -0.0171230298     0.99950741      -0.0171230298     0.000576120081   31.2302656      
 1.23239194       0.000578070162   31.4595532       0.999506947     -0.0172942521     0.999506947     -0.0172942521     0.000578070162   31.4595532      
 1.24471586       0.000580047117   31.6896841       0.999506481     -0.0174671865     0.999506481     -0.0174671865     0.000580047117   31.6896841      
 1.25716302       0.000582051312   31.9206455       0.999506013     -0.0176418501     0.999506013     -0.0176418501     0.000582051312   31.9206455      
 1.26973465       0.000584083115   32.1524248       0.999505543     -0.0178182602     0.999505543     -0.0178182602     0.000584083115   32.1524248      
 1.282432         0.000586142897   32.3850088       0.99950507      -0.0179964343     0.99950507      -0.0179964343     0.000586142897   32.3850088      
 1.29525631       0.000588231034   32.6183842       0.999504595     -0.01817639       0.999504595     -0.01817639       0.000588231034   32.6183842      
 1.30820888       0.000590347906   32.8525371       0.999504118     -0.0183581452     0.999504118     -0.0183581452     0.000590347906   32.8525371      
 1.32129097       0.000592493897   33.087454        0.999503638     -0.0185417178     0.999503638     -0.0185417178     0.000592493897   33.087454       
 1.33450388       0.000594669395   33.3231206       0.999503156     -0.0187271259     0.999503156     -0.0187271259     0.000594669395   33.3231206      
 1.34784892       0.000596874788   33.5595226       0.999502672     -0.018914388      0.999502672     -0.018914388      0.000596874788   33.5595226      
 1.3613274        0.000599110475   33.7966452       0.999502185     -0.0191035226     0.999502185     -0.0191035226     0.000599110475   33.7966453      
 1.37494068       0.000601376854   34.0344737       0.999501695     -0.0192945484     0.999501695     -0.0192945484     0.000601376854   34.0344738      
 1.38869009       0.000603674326   34.272993        0.999501203     -0.0194874843     0.999501203     -0.0194874843     0.000603674326   34.272993       
 1.40257699       0.000606003301   34.5121878       0.999500709     -0.0196823494     0.999500709     -0.0196823494     0.000606003301   34.5121878      
 1.41660276       0.000608364189   34.7520423       0.999500212     -0.019879163      0.999500212     -0.019879163      0.000608364188   34.7520423      
 1.43076878       0.000610757403   34.9925409       0.999499713     -0.0200779446     0.999499713     -0.0200779446     0.000610757403   34.9925409      
 1.44507647       0.000613183363   35.2336677       0.999499211     -0.0202787139     0.999499211     -0.0202787139     0.000613183363   35.2336677      
 1.45952724       0.000615642493   35.4754062       0.999498706     -0.0204814907     0.999498706     -0.0204814907     0.000615642493   35.4754062      
 1.47412251       0.000618135218   35.7177401       0.999498199     -0.0206862952     0.999498199     -0.0206862952     0.000618135218   35.7177401      
 1.48886373       0.00062066197    35.9606527       0.99949769      -0.0208931475     0.99949769      -0.0208931475     0.00062066197    35.9606527      
 1.50375237       0.000623223184   36.2041272       0.999497178     -0.0211020681     0.999497178     -0.0211020681     0.000623223183   36.2041272      
 1.51878989       0.000625819297   36.4481465       0.999496663     -0.0213130779     0.999496663     -0.0213130779     0.000625819297   36.4481465      
 1.53397779       0.000628450754   36.6926933       0.999496146     -0.0215261975     0.999496146     -0.0215261975     0.000628450754   36.6926933      
 1.54931757       0.000631118      36.9377503       0.999495626     -0.0217414482     0.999495626     -0.0217414482     0.000631118      36.9377503      
 1.56481075       0.000633821487   37.1832998       0.999495104     -0.0219588512     0.999495104     -0.0219588512     0.000633821487   37.1832998      
 1.58045885       0.00063656167    37.4293239       0.999494579     -0.0221784281     0.999494579     -0.0221784281     0.00063656167    37.4293239      
 1.59626344       0.000639339008   37.6758048       0.999494051     -0.0224002006     0.999494051     -0.0224002006     0.000639339008   37.6758048      
 1.61222608       0.000642153964   37.9227243       0.999493521     -0.0226241906     0.999493521     -0.0226241906     0.000642153964   37.9227243      
 1.62834834       0.000645007005   38.170064        0.999492988     -0.0228504204     0.999492988     -0.0228504204     0.000645007005   38.170064       
 1.64463182       0.000647898603   38.4178057       0.999492452     -0.0230789122     0.999492452     -0.0230789122     0.000647898603   38.4178057      
 1.66107814       0.000650829233   38.6659305       0.999491914     -0.0233096888     0.999491914     -0.0233096888     0.000650829233   38.6659305      
 1.67768892       0.000653799374   38.9144199       0.999491373     -0.023542773      0.999491373     -0.023542773      0.000653799375   38.9144199      
 1.69446581       0.000656809511   39.163255        0.999490829     -0.0237781878     0.999490829     -0.0237781878     0.000656809511   39.163255       
 1.71141047       0.000659860131   39.4124167       0.999490283     -0.0240159565     0.999490283     -0.0240159565     0.000659860131   39.4124167      
 1.72852457       0.000662951726   39.661886        0.999489733     -0.0242561028     0.999489733     -0.0242561028     0.000662951726   39.661886       
 1.74580982       0.000666084793   39.9116436       0.999489181     -0.0244986503     0.999489181     -0.0244986503     0.000666084793   39.9116436      
 1.76326792       0.000669259831   40.1616703       0.999488626     -0.0247436231     0.999488626     -0.0247436231     0.000669259831   40.1616703      
 1.7809006        0.000672477345   40.4119465       0.999488069     -0.0249910454     0.999488069     -0.0249910454     0.000672477345   40.4119465      
 1.7987096        0.000675737845   40.6624528       0.999487508     -0.0252409417     0.999487508     -0.0252409417     0.000675737845   40.6624528      
 1.8166967        0.000679041843   40.9131696       0.999486945     -0.0254933368     0.999486945     -0.0254933368     0.000679041843   40.9131696      
 1.83486367       0.000682389856   41.1640772       0.999486379     -0.0257482556     0.999486379     -0.0257482556     0.000682389856   41.1640772      
 1.8532123        0.000685782406   41.4151559       0.99948581      -0.0260057234     0.99948581      -0.0260057234     0.000685782406   41.4151559      
 1.87174443       0.000689220019   41.6663859       0.999485238     -0.0262657657     0.999485238     -0.0262657657     0.000689220019   41.6663859      
 1.89046187       0.000692703225   41.9177473       0.999484663     -0.0265284081     0.999484663     -0.0265284081     0.000692703225   41.9177473      
 1.90936649       0.000696232557   42.1692203       0.999484086     -0.0267936767     0.999484086     -0.0267936767     0.000696232557   42.1692203      
 1.92846015       0.000699808556   42.4207849       0.999483505     -0.0270615978     0.999483505     -0.0270615978     0.000699808556   42.4207849      
 1.94774475       0.000703431763   42.6724211       0.999482922     -0.0273321979     0.999482922     -0.0273321979     0.000703431763   42.6724211      
 1.9672222        0.000707102726   42.9241091       0.999482336     -0.0276055037     0.999482336     -0.0276055037     0.000707102726   42.9241091      
 1.98689442       0.000710821998   43.1758287       0.999481746     -0.0278815423     0.999481746     -0.0278815423     0.000710821998   43.1758287      
 2.00676337       0.000714590133   43.42756         0.999481154     -0.0281603411     0.999481154     -0.0281603411     0.000714590133   43.42756        
 2.026831         0.000718407693   43.6792831       0.999480559     -0.0284419276     0.999480559     -0.0284419276     0.000718407693   43.6792831      
 2.04709931       0.000722275243   43.9309779       0.99947996      -0.0287263297     0.99947996      -0.0287263297     0.000722275243   43.9309779      
 2.06757031       0.000726193352   44.1826244       0.999479359     -0.0290135756     0.999479359     -0.0290135756     0.000726193352   44.1826244      
 2.08824601       0.000730162594   44.4342028       0.999478755     -0.0293036937     0.999478755     -0.0293036937     0.000730162594   44.4342028      
 2.10912847       0.000734183548   44.685693        0.999478147     -0.0295967127     0.999478147     -0.0295967127     0.000734183547   44.685693       
 2.13021975       0.000738256796   44.9370754       0.999477537     -0.0298926616     0.999477537     -0.0298926616     0.000738256795   44.9370754      
 2.15152195       0.000742382925   45.1883301       0.999476923     -0.0301915697     0.999476923     -0.0301915697     0.000742382925   45.1883301      
 2.17303717       0.000746562529   45.4394372       0.999476306     -0.0304934666     0.999476306     -0.0304934666     0.000746562529   45.4394372      
 2.19476754       0.000750796204   45.6903772       0.999475687     -0.0307983823     0.999475687     -0.0307983823     0.000750796204   45.6903772      
 2.21671522       0.000755084551   45.9411304       0.999475064     -0.0311063467     0.999475064     -0.0311063467     0.000755084551   45.9411304      
 2.23888237       0.000759428176   46.1916773       0.999474438     -0.0314173906     0.999474438     -0.0314173906     0.000759428176   46.1916773      
 2.26127119       0.00076382769    46.4419985       0.999473808     -0.0317315446     0.999473808     -0.0317315446     0.00076382769    46.4419985      
 2.2838839        0.000768283708   46.6920745       0.999473176     -0.0320488398     0.999473176     -0.0320488398     0.000768283708   46.6920745      
 2.30672274       0.00077279685    46.9418863       0.99947254      -0.0323693077     0.99947254      -0.0323693077     0.00077279685    46.9418863      
 2.32978997       0.000777367742   47.1914145       0.999471901     -0.0326929799     0.999471901     -0.0326929799     0.000777367742   47.1914145      
 2.35308787       0.000781997013   47.4406403       0.999471259     -0.0330198885     0.999471259     -0.0330198885     0.000781997013   47.4406403      
 2.37661875       0.000786685298   47.6895446       0.999470614     -0.033350066      0.999470614     -0.033350066      0.000786685298   47.6895446      
 2.40038494       0.000791433237   47.9381089       0.999469966     -0.0336835448     0.999469966     -0.0336835448     0.000791433237   47.9381089      
 2.42438879       0.000796241473   48.1863143       0.999469314     -0.0340203581     0.999469314     -0.0340203581     0.000796241473   48.1863143      
 2.44863267       0.000801110657   48.4341425       0.999468658     -0.0343605393     0.999468658     -0.0343605393     0.000801110657   48.4341425      
 2.473119         0.000806041443   48.6815751       0.999468        -0.0347041219     0.999468        -0.0347041219     0.000806041443   48.6815751      
 2.49785019       0.00081103449    48.928594        0.999467338     -0.03505114       0.999467338     -0.03505114       0.00081103449    48.928594       
 2.52282869       0.000816090463   49.175181        0.999466673     -0.0354016279     0.999466673     -0.0354016279     0.000816090463   49.1751811      
 2.54805698       0.000821210032   49.4213185       0.999466004     -0.0357556203     0.999466004     -0.0357556203     0.000821210032   49.4213185      
 2.57353755       0.000826393871   49.6669887       0.999465332     -0.0361131523     0.999465332     -0.0361131523     0.000826393871   49.6669887      
 2.59927293       0.000831642662   49.9121741       0.999464657     -0.0364742593     0.999464657     -0.0364742593     0.000831642662   49.9121741      
 2.62526565       0.000836957089   50.1568575       0.999463978     -0.0368389769     0.999463978     -0.0368389769     0.000836957089   50.1568575      
 2.65151831       0.000842337843   50.4010216       0.999463296     -0.0372073414     0.999463296     -0.0372073414     0.000842337843   50.4010216      
 2.67803349       0.000847785621   50.6446497       0.99946261      -0.0375793891     0.99946261      -0.0375793891     0.000847785621   50.6446497      
 2.70481383       0.000853301123   50.887725        0.999461921     -0.0379551569     0.999461921     -0.0379551569     0.000853301123   50.887725       
 2.73186197       0.000858885058   51.130231        0.999461228     -0.038334682      0.999461228     -0.038334682      0.000858885058   51.130231       
 2.75918059       0.000864538137   51.3721513       0.999460532     -0.0387180019     0.999460532     -0.0387180019     0.000864538137   51.3721513      
 2.78677239       0.000870261079   51.6134701       0.999459832     -0.0391051547     0.999459832     -0.0391051547     0.000870261079   51.6134701      
 2.81464012       0.000876054608   51.8541712       0.999459129     -0.0394961785     0.999459129     -0.0394961785     0.000876054608   51.8541712      
 2.84278652       0.000881919453   52.0942393       0.999458422     -0.0398911122     0.999458422     -0.0398911122     0.000881919453   52.0942393      
 2.87121438       0.000887856349   52.3336587       0.999457712     -0.0402899948     0.999457712     -0.0402899948     0.000887856349   52.3336587      
 2.89992653       0.000893866038   52.5724144       0.999456998     -0.0406928658     0.999456998     -0.0406928658     0.000893866038   52.5724144      
 2.92892579       0.000899949267   52.8104915       0.99945628      -0.0410997651     0.99945628      -0.0410997651     0.000899949267   52.8104914      
 2.95821505       0.000906106788   53.0478751       0.999455558     -0.0415107329     0.999455558     -0.0415107329     0.000906106788   53.0478751      
 2.9877972        0.000912339361   53.284551        0.999454833     -0.0419258099     0.999454833     -0.0419258099     0.000912339362   53.284551       
 3.01767517       0.000918647751   53.5205048       0.999454105     -0.0423450373     0.999454105     -0.0423450373     0.000918647751   53.5205048      
 3.04785192       0.000925032728   53.7557226       0.999453372     -0.0427684564     0.999453372     -0.0427684564     0.000925032728   53.7557226      
 3.07833044       0.000931495071   53.9901908       0.999452636     -0.0431961093     0.999452636     -0.0431961093     0.000931495071   53.9901908      
 3.10911375       0.000938035562   54.2238957       0.999451896     -0.0436280382     0.999451896     -0.0436280382     0.000938035562   54.2238957      
 3.14020489       0.000944654993   54.4568243       0.999451152     -0.044064286      0.999451152     -0.044064286      0.000944654993   54.4568243      
 3.17160693       0.000951354158   54.6889636       0.999450405     -0.0445048957     0.999450405     -0.0445048957     0.000951354158   54.6889636      
 3.203323         0.000958133862   54.920301        0.999449653     -0.044949911      0.999449653     -0.044949911      0.000958133862   54.920301       
 3.23535623       0.000964994913   55.1508239       0.999448898     -0.045399376      0.999448898     -0.045399376      0.000964994913   55.1508239      
 3.2677098        0.000971938129   55.3805203       0.999448139     -0.0458533351     0.999448139     -0.0458533351     0.000971938129   55.3805203      
 3.30038689       0.000978964331   55.6093782       0.999447376     -0.0463118332     0.999447376     -0.0463118332     0.000978964331   55.6093782      
 3.33339076       0.000986074349   55.8373861       0.999446609     -0.0467749158     0.999446609     -0.0467749158     0.000986074349   55.8373861      
 3.36672467       0.000993269021   56.0645325       0.999445839     -0.0472426287     0.999445839     -0.0472426287     0.000993269021   56.0645325      
 3.40039192       0.00100054919    56.2908064       0.999445064     -0.0477150182     0.999445064     -0.0477150182     0.00100054919    56.2908064      
 3.43439584       0.0010079157     56.5161969       0.999444285     -0.048192131      0.999444285     -0.048192131      0.0010079157     56.5161969      
 3.4687398        0.00101536942    56.7406935       0.999443503     -0.0486740144     0.999443503     -0.0486740144     0.00101536942    56.7406935      
 3.50342719       0.00102291121    56.964286        0.999442716     -0.0491607161     0.999442716     -0.0491607161     0.00102291121    56.964286       
