# MHz           S          MA           R         50
!Freq             MagS11           AngS11           MagS21           AngS21           MagS12           AngS12           MagS22           AngS22
 1                0.00776950582    26.5258779       0.993054431     -0.200200193      0.993054431     -0.200200193      0.00776950582    26.5258779      
 1.01             0.00779135632    26.7306408       0.993047482     -0.202200789      0.993047482     -0.202200789      0.00779135632    26.7306408      
 1.0201           0.00781349702    26.9363872       0.993040497     -0.204221369      0.993040497     -0.204221369      0.00781349702    26.9363872      
 1.030301         0.007835932      27.14311         0.993033475     -0.206262133      0.993033475     -0.206262133      0.007835932      27.14311        
 1.04060401       0.00785866541    27.3508017       0.993026417     -0.208323283      0.993026417     -0.208323283      0.00785866541    27.3508017      
 1.05101005       0.00788170143    27.5594547       0.993019321     -0.210405022      0.993019321     -0.210405022      0.00788170143    27.5594547      
 1.06152015       0.00790504429    27.7690612       0.993012189     -0.212507556      0.993012189     -0.212507556      0.00790504429    27.7690612      
 1.07213535       0.00792869828    27.9796131       0.993005018     -0.214631092      0.993005018     -0.214631092      0.00792869828    27.9796131      
 1.08285671       0.00795266772    28.191102        0.99299781      -0.216775839      0.99299781      -0.216775839      0.00795266772    28.191102       
 1.09368527       0.00797695701    28.4035193       0.992990564     -0.218942011      0.992990564     -0.218942011      0.00797695701    28.4035193      
 1.10462213       0.00800157057    28.616856        0.99298328      -0.22112982       0.99298328      -0.22112982       0.00800157057    28.616856       
 1.11566835       0.00802651289    28.831103        0.992975957     -0.223339483      0.992975957     -0.223339483      0.00802651289    28.831103       
 1.12682503       0.00805178851    29.0462509       0.992968596     -0.225571217      0.992968596     -0.225571217      0.00805178851    29.0462509      
 1.13809328       0.00807740201    29.2622901       0.992961196     -0.227825244      0.992961196     -0.227825244      0.00807740201    29.2622901      
 1.14947421       0.00810335802    29.4792107       0.992953756     -0.230101785      0.992953756     -0.230101785      0.00810335802    29.4792107      
 1.16096896       0.00812966124    29.6970024       0.992946278     -0.232401065      0.992946278     -0.232401065      0.00812966124    29.6970024      
 1.17257864       0.00815631641    29.9156549       0.992938759     -0.234723312      0.992938759     -0.234723312      0.00815631641    29.9156549      
 1.18430443       0.00818332831    30.1351575       0.992931201     -0.237068754      0.992931201     -0.237068754      0.00818332831    30.1351575      
 1.19614748       0.0082107018     30.3554992       0.992923603     -0.239437624      0.992923603     -0.239437624      0.0082107018     30.3554992      
 1.20810895       0.00823844177    30.5766689       0.992915964     -0.241830154      0.992915964     -0.241830154      0.00823844177    30.5766689      
 1.22019004       0.00826655318    30.7986551       0.992908285     -0.244246582      0.992908285     -0.244246582      0.00826655318    30.7986551      
 1.23239194       0.00829504101    31.0214461       0.992900565     -0.246687145      0.992900565     -0.246687145      0.00829504101    31.0214461      
 1.24471586       0.00832391035    31.24503         0.992892803     -0.249152085      0.992892803     -0.249152085      0.00832391035    31.24503        
 1.25716302       0.00835316628    31.4693946       0.992885001     -0.251641645      0.992885001     -0.251641645      0.00835316628    31.4693946      
 1.26973465       0.00838281398    31.6945274       0.992877156     -0.25415607       0.992877156     -0.25415607       0.00838281398    31.6945274      
 1.282432         0.00841285866    31.9204158       0.99286927      -0.256695609      0.99286927      -0.256695609      0.00841285866    31.9204158      
 1.29525631       0.0084433056     32.1470468       0.992861342     -0.259260513      0.992861342     -0.259260513      0.0084433056     32.1470468      
 1.30820888       0.00847416012    32.3744073       0.992853371     -0.261851035      0.992853371     -0.261851035      0.00847416012    32.3744073      
 1.32129097       0.0085054276     32.6024839       0.992845357     -0.264467429      0.992845357     -0.264467429      0.0085054276     32.6024839      
 1.33450388       0.00853711348    32.8312629       0.992837301     -0.267109956      0.992837301     -0.267109956      0.00853711348    32.8312629      
 1.34784892       0.00856922324    33.0607304       0.992829201     -0.269778875      0.992829201     -0.269778875      0.00856922324    33.0607304      
 1.3613274        0.00860176244    33.2908724       0.992821058     -0.27247445       0.992821058     -0.27247445       0.00860176244    33.2908724      
 1.37494068       0.00863473667    33.5216744       0.992812871     -0.275196946      0.992812871     -0.275196946      0.00863473667    33.5216744      
 1.38869009       0.00866815158    33.753122        0.99280464      -0.277946634      0.99280464      -0.277946634      0.00866815158    33.753122       
 1.40257699       0.0087020129     33.9852004       0.992796364     -0.280723783      0.992796364     -0.280723783      0.0087020129     33.9852004      
 1.41660276       0.00873632638    34.2178945       0.992788044     -0.283528668      0.992788044     -0.283528668      0.00873632638    34.2178945      
 1.43076878       0.00877109786    34.4511891       0.992779678     -0.286361566      0.992779678     -0.286361566      0.00877109786    34.4511891      
 1.44507647       0.0088063332     34.6850688       0.992771268     -0.289222756      0.992771268     -0.289222756      0.0088063332     34.6850688      
 1.45952724       0.00884203835    34.919518        0.992762812     -0.292112522      0.992762812     -0.292112522      0.00884203835    34.919518       
 1.47412251       0.0088782193     35.1545209       0.99275431      -0.295031147      0.99275431      -0.295031147      0.0088782193     35.1545209      
 1.48886373       0.0089148821     35.3900613       0.992745762     -0.29797892       0.992745762     -0.29797892       0.0089148821     35.3900613      
 1.50375237       0.00895203285    35.6261231       0.992737167     -0.300956132      0.992737167     -0.300956132      0.00895203285    35.6261231      
 1.51878989       0.00898967772    35.8626899       0.992728526     -0.303963076      0.992728526     -0.303963076      0.00898967772    35.8626899      
 1.53397779       0.00902782293    36.0997451       0.992719837     -0.30700005       0.992719837     -0.30700005       0.00902782293    36.0997451      
 1.54931757       0.00906647475    36.3372718       0.992711101     -0.310067352      0.992711101     -0.310067352      0.00906647475    36.3372718      
 1.56481075       0.00910563953    36.5752532       0.992702318     -0.313165287      0.992702318     -0.313165287      0.00910563953    36.5752532      
 1.58045885       0.00914532365    36.813672        0.992693486     -0.316294158      0.992693486     -0.316294158      0.00914532365    36.813672       
 1.59626344       0.00918553357    37.0525111       0.992684606     -0.319454276      0.992684606     -0.319454276      0.00918553357    37.0525111      
 1.61222608       0.00922627579    37.2917529       0.992675677     -0.322645951      0.992675677     -0.322645951      0.00922627579    37.2917529      
 1.62834834       0.00926755689    37.5313799       0.992666699     -0.325869499      0.992666699     -0.325869499      0.00926755689    37.5313799      
 1.64463182       0.00930938348    37.7713744       0.992657672     -0.329125238      0.992657672     -0.329125238      0.00930938348    37.7713744      
 1.66107814       0.00935176227    38.0117183       0.992648595     -0.332413489      0.992648595     -0.332413489      0.00935176227    38.0117183      
 1.67768892       0.00939469998    38.2523938       0.992639468     -0.335734576      0.992639468     -0.335734576      0.00939469998    38.2523938      
 1.69446581       0.00943820343    38.4933827       0.99263029      -0.339088827      0.99263029      -0.339088827      0.00943820343    38.4933827      
 1.71141047       0.00948227947    38.7346666       0.992621062     -0.342476573      0.992621062     -0.342476573      0.00948227947    38.7346666      
 1.72852457       0.00952693503    38.9762273       0.992611782     -0.345898147      0.992611782     -0.345898147      0.00952693503    38.9762273      
 1.74580982       0.00957217709    39.2180461       0.992602451     -0.349353889      0.992602451     -0.349353889      0.00957217709    39.2180461      
 1.76326792       0.00961801269    39.4601045       0.992593069     -0.352844138      0.992593069     -0.352844138      0.00961801269    39.4601045      
 1.7809006        0.00966444893    39.7023839       0.992583634     -0.356369239      0.992583634     -0.356369239      0.00966444893    39.7023839      
 1.7987096        0.00971149297    39.9448653       0.992574146     -0.359929539      0.992574146     -0.359929539      0.00971149297    39.9448653      
 1.8166967        0.00975915204    40.18753         0.992564606     -0.36352539       0.992564606     -0.36352539       0.00975915204    40.18753        
 1.83486367       0.00980743342    40.4303589       0.992555012     -0.367157146      0.992555012     -0.367157146      0.00980743342    40.4303589      
 1.8532123        0.00985634446    40.6733332       0.992545364     -0.370825166      0.992545364     -0.370825166      0.00985634446    40.6733332      
 1.87174443       0.00990589255    40.9164336       0.992535662     -0.374529811      0.992535662     -0.374529811      0.00990589255    40.9164336      
 1.89046187       0.00995608517    41.159641        0.992525906     -0.378271446      0.992525906     -0.378271446      0.00995608517    41.159641       
 1.90936649       0.0100069298     41.4029363       0.992516095     -0.382050442      0.992516095     -0.382050442      0.0100069298     41.4029363      
 1.92846015       0.0100584342     41.6463002       0.992506229     -0.38586717       0.992506229     -0.38586717       0.0100584342     41.6463002      
 1.94774475       0.0101106058     41.8897134       0.992496307     -0.389722007      0.992496307     -0.389722007      0.0101106058     41.8897134      
 1.9672222        0.0101634524     42.1331568       0.992486328     -0.393615332      0.992486328     -0.393615332      0.0101634524     42.1331568      
 1.98689442       0.0102169818     42.3766108       0.992476294     -0.397547531      0.992476294     -0.397547531      0.0102169818     42.3766108      
 2.00676337       0.0102712019     42.6200564       0.992466202     -0.401518991      0.992466202     -0.401518991      0.0102712019     42.6200564      
 2.026831         0.0103261205     42.863474        0.992456053     -0.405530102      0.992456053     -0.405530102      0.0103261205     42.863474       
 2.04709931       0.0103817456     43.1068444       0.992445846     -0.409581262      0.992445846     -0.409581262      0.0103817456     43.1068444      
 2.06757031       0.0104380853     43.3501482       0.992435581     -0.413672869      0.992435581     -0.413672869      0.0104380853     43.3501482      
 2.08824601       0.0104951475     43.5933662       0.992425257     -0.417805327      0.992425257     -0.417805327      0.0104951475     43.5933662      
 2.10912847       0.0105529406     43.836479        0.992414874     -0.421979043      0.992414874     -0.421979043      0.0105529406     43.836479       
 2.13021975       0.0106114727     44.0794675       0.992404432     -0.426194429      0.992404432     -0.426194429      0.0106114727     44.0794675      
 2.15152195       0.0106707522     44.3223124       0.992393929     -0.4304519        0.992393929     -0.4304519        0.0106707522     44.3223124      
 2.17303717       0.0107307873     44.5649945       0.992383366     -0.434751877      0.992383366     -0.434751877      0.0107307873     44.5649945      
 2.19476754       0.0107915865     44.8074948       0.992372742     -0.439094782      0.992372742     -0.439094782      0.0107915865     44.8074948      
 2.21671522       0.0108531583     45.0497941       0.992362057     -0.443481045      0.992362057     -0.443481045      0.0108531583     45.0497941      
 2.23888237       0.0109155112     45.2918734       0.99235131      -0.447911098      0.99235131      -0.447911098      0.0109155112     45.2918734      
 2.26127119       0.010978654      45.533714        0.9923405       -0.452385376      0.9923405       -0.452385376      0.010978654      45.533714       
 2.2838839        0.0110425952     45.7752968       0.992329628     -0.456904323      0.992329628     -0.456904323      0.0110425952     45.7752968      
 2.30672274       0.0111073436     46.0166031       0.992318692     -0.461468382      0.992318692     -0.461468382      0.0111073436     46.0166031      
 2.32978997       0.0111729081     46.2576144       0.992307692     -0.466078004      0.992307692     -0.466078004      0.0111729081     46.2576144      
 2.35308787       0.0112392976     46.4983119       0.992296628     -0.470733643      0.992296628     -0.470733643      0.0112392976     46.4983119      
 2.37661875       0.011306521      46.7386773       0.992285499     -0.475435758      0.992285499     -0.475435758      0.011306521      46.7386773      
 2.40038494       0.0113745874     46.9786922       0.992274304     -0.480184813      0.992274304     -0.480184813      0.0113745874     46.9786922      
 2.42438879       0.0114435059     47.2183384       0.992263044     -0.484981276      0.992263044     -0.484981276      0.0114435059     47.2183384      
 2.44863267       0.0115132856     47.4575977       0.992251717     -0.489825618      0.992251717     -0.489825618      0.0115132856     47.4575977      
 2.473119         0.0115839359     47.6964522       0.992240323     -0.494718319      0.992240323     -0.494718319      0.0115839359     47.6964522      
 2.49785019       0.011655466      47.934884        0.992228862     -0.499659859      0.992228862     -0.499659859      0.011655466      47.934884       
 2.52282869       0.0117278854     48.1728755       0.992217332     -0.504650727      0.992217332     -0.504650727      0.0117278854     48.1728755      
 2.54805698       0.0118012035     48.410409        0.992205734     -0.509691413      0.992205734     -0.509691413      0.0118012035     48.410409       
 2.57353755       0.0118754299     48.6474672       0.992194066     -0.514782415      0.992194066     -0.514782415      0.0118754299     48.6474672      
 2.59927293       0.0119505742     48.8840329       0.992182329     -0.519924234      0.992182329     -0.519924234      0.0119505742     48.8840329      
 2.62526565       0.0120266461     49.1200889       0.992170521     -0.525117376      0.992170521     -0.525117376      0.0120266461     49.1200889      
 2.65151831       0.0121036554     49.3556183       0.992158643     -0.530362355      0.992158643     -0.530362355      0.0121036554     49.3556183      
 2.67803349       0.0121816119     49.5906044       0.992146692     -0.535659685      0.992146692     -0.535659685      0.0121816119     49.5906044      
 2.70481383       0.0122605255     49.8250306       0.99213467      -0.54100989       0.99213467      -0.54100989       0.0122605255     49.8250306      
 2.73186197       0.0123404064     50.0588805       0.992122575     -0.546413496      0.992122575     -0.546413496      0.0123404064     50.0588805      
 2.75918059       0.0124212645     50.2921381       0.992110406     -0.551871036      0.992110406     -0.551871036      0.0124212645     50.2921381      
 2.78677239       0.01250311       50.5247871       0.992098163     -0.557383047      0.992098163     -0.557383047      0.01250311       50.5247871      
 2.81464012       0.0125859532     50.7568119       0.992085845     -0.562950072      0.992085845     -0.562950072      0.0125859532     50.7568119      
 2.84278652       0.0126698044     50.9881968       0.992073452     -0.568572661      0.992073452     -0.568572661      0.0126698044     50.9881968      
 2.87121438       0.012754674      51.2189264       0.992060983     -0.574251365      0.992060983     -0.574251365      0.012754674      51.2189264      
 2.89992653       0.0128405726     51.4489855       0.992048438     -0.579986746      0.992048438     -0.579986746      0.0128405726     51.4489855      
 2.92892579       0.0129275106     51.6783592       0.992035815     -0.585779368      0.992035815     -0.585779368      0.0129275106     51.6783592      
 2.95821505       0.0130154988     51.9070326       0.992023114     -0.591629801      0.992023114     -0.591629801      0.0130154988     51.9070326      
 2.9877972        0.0131045479     52.1349911       0.992010334     -0.597538622      0.992010334     -0.597538622      0.0131045479     52.1349911      
 3.01767517       0.0131946688     52.3622206       0.991997475     -0.603506412      0.991997475     -0.603506412      0.0131946688     52.3622206      
 3.04785192       0.0132858723     52.5887067       0.991984535     -0.609533759      0.991984535     -0.609533759      0.0132858723     52.5887067      
 3.07833044       0.0133781695     52.8144357       0.991971515     -0.615621258      0.991971515     -0.615621258      0.0133781695     52.8144357      
 3.10911375       0.0134715715     53.0393938       0.991958413     -0.621769507      0.991958413     -0.621769507      0.0134715715     53.0393938      
 3.14020489       0.0135660895     53.2635677       0.991945229     -0.627979111      0.991945229     -0.627979111      0.0135660895     53.2635677      
 3.17160693       0.0136617347     53.4869441       0.991931961     -0.634250683      0.991931961     -0.634250683      0.0136617347     53.4869441      
 3.203323         0.0137585186     53.70951         0.99191861      -0.640584839      0.99191861      -0.640584839      0.0137585186     53.70951        
 3.23535623       0.0138564526     53.9312528       0.991905174     -0.646982204      0.991905174     -0.646982204      0.0138564526     53.9312528      
 3.2677098        0.0139555482     54.1521599       0.991891653     -0.653443407      0.991891653     -0.653443407      0.0139555482     54.1521599      
 3.30038689       0.0140558172     54.372219        0.991878045     -0.659969084      0.991878045     -0.659969084      0.0140558172     54.372219       
 3.33339076       0.0141572713     54.5914182       0.991864351     -0.666559878      0.991864351     -0.666559878      0.0141572713     54.5914182      
 3.36672467       0.0142599223     54.8097456       0.991850568     -0.673216437      0.991850568     -0.673216437      0.0142599223     54.8097456      
 3.40039192       0.0143637822     55.0271897       0.991836697     -0.679939418      0.991836697     -0.679939418      0.0143637822     55.0271897      
 3.43439584       0.014468863      55.2437393       0.991822736     -0.68672948       0.991822736     -0.68672948       0.014468863      55.2437393      
 3.4687398        0.0145751769     55.4593832       0.991808685     -0.693587294      0.991808685     -0.693587294      0.0145751769     55.4593832      
 3.50342719       0.0146827362     55.6741107       0.991794542     -0.700513534      0.991794542     -0.700513534      0.0146827362     55.6741107      
